!Agilent Technologies,N5230C,SG49000117,A.08.50.07
!Agilent N5230C: A.08.50.07
!Date: Sunday, March 17, 2024 09:21:41
!Correction: S11(Off) 
!S21(Off) 
!S12(Off) 
!S22(Full 1 Port(2)) 
!S2P File: Measurements: S11, S21, S12, S22:
# Hz S  RI   R 50
300000000 -2.158876e-005 3.184318e-005 -6.025689e-001 -6.761885e-001 1.254523e-005 2.129533e-005 1.022182e+000 -8.844060e-002
300285000 2.305938e-005 4.176826e-005 -6.186414e-001 -6.534539e-001 2.749514e-006 2.189913e-005 1.022278e+000 -8.878701e-002
300570000 -4.884522e-005 2.367750e-006 -6.345377e-001 -6.302457e-001 4.419500e-005 -9.637508e-005 1.024392e+000 -8.881523e-002
300855000 -2.886757e-005 4.285189e-005 -6.487531e-001 -6.068488e-001 4.190931e-005 3.493694e-005 1.024472e+000 -8.760867e-002
301140000 2.365709e-005 1.546165e-006 -6.626527e-001 -5.834420e-001 8.843304e-005 1.471273e-005 1.023965e+000 -8.895430e-002
301425000 -5.266656e-005 -4.715348e-005 -6.758035e-001 -5.598611e-001 3.882073e-005 -6.672572e-005 1.024465e+000 -8.868370e-002
301710000 -4.085396e-005 4.418170e-006 -6.878932e-001 -5.366168e-001 5.865058e-005 1.069096e-004 1.023931e+000 -8.997937e-002
301995000 3.808735e-005 4.198110e-005 -6.986205e-001 -5.130507e-001 -3.185236e-005 1.324737e-005 1.022176e+000 -8.980044e-002
302280000 -8.780487e-005 -1.649412e-005 -7.097325e-001 -4.897171e-001 -4.417599e-005 1.411251e-004 1.023927e+000 -8.842255e-002
302565000 -9.289902e-005 1.243186e-004 -7.190149e-001 -4.664169e-001 -4.830121e-005 -3.557031e-005 1.023840e+000 -8.880125e-002
302850000 -9.268406e-007 -2.802162e-005 -7.276007e-001 -4.429688e-001 3.488215e-006 8.856765e-005 1.023206e+000 -8.886268e-002
303135000 -3.777331e-005 2.307974e-006 -7.366683e-001 -4.194943e-001 -7.180744e-005 -2.252800e-005 1.024247e+000 -8.860088e-002
303420000 1.412946e-005 3.979859e-005 -7.435957e-001 -3.961595e-001 -1.098405e-004 -4.443727e-005 1.022848e+000 -9.013532e-002
303705000 1.416682e-005 -1.109435e-004 -7.512080e-001 -3.732053e-001 2.258817e-005 -1.341433e-004 1.024797e+000 -9.001629e-002
303990000 5.602906e-005 -6.439108e-005 -7.571648e-001 -3.500761e-001 -9.595338e-006 4.213861e-005 1.022517e+000 -8.870227e-002
304275000 -2.754784e-005 -8.457855e-005 -7.631102e-001 -3.274982e-001 -1.404543e-005 7.939927e-005 1.022861e+000 -8.925238e-002
304560000 -7.592684e-005 -2.100112e-005 -7.678106e-001 -3.051361e-001 -2.297326e-006 -8.016852e-005 1.023436e+000 -8.917915e-002
304845000 -4.838813e-005 -5.673935e-005 -7.724168e-001 -2.822098e-001 7.071374e-005 -6.547914e-005 1.023045e+000 -8.905739e-002
305130000 1.439398e-004 -8.126257e-005 -7.763684e-001 -2.600568e-001 1.703596e-005 -2.807869e-005 1.022506e+000 -8.899347e-002
305415000 1.697263e-004 -2.221209e-005 -7.796237e-001 -2.378213e-001 4.848876e-005 -1.137101e-004 1.023661e+000 -8.991097e-002
305700000 5.623656e-005 8.152256e-005 -7.822545e-001 -2.156421e-001 -1.417193e-006 2.334833e-006 1.023569e+000 -8.842953e-002
305985000 5.033276e-005 7.520077e-005 -7.847961e-001 -1.930856e-001 2.047066e-005 -4.693404e-005 1.022873e+000 -8.848242e-002
306270000 4.068103e-005 1.537023e-004 -7.866356e-001 -1.722506e-001 9.042762e-005 3.996486e-005 1.024066e+000 -8.877804e-002
306555000 4.956288e-005 2.534298e-005 -7.880386e-001 -1.498219e-001 1.901334e-004 -6.138027e-005 1.023891e+000 -9.136775e-002
306840000 7.582350e-005 7.538800e-005 -7.892414e-001 -1.286138e-001 -2.267184e-008 1.510283e-004 1.023087e+000 -8.861874e-002
307125000 -2.974726e-005 1.370584e-004 -7.893938e-001 -1.067009e-001 -4.858981e-006 4.073534e-005 1.023391e+000 -9.008493e-002
307410000 2.203209e-005 1.937233e-005 -7.898879e-001 -8.556139e-002 -3.454979e-005 6.216912e-005 1.024638e+000 -8.939669e-002
307695000 6.421586e-006 5.234965e-005 -7.892542e-001 -6.461766e-002 -1.530463e-004 4.550202e-005 1.025128e+000 -9.165380e-002
307980000 -3.266174e-005 5.854861e-005 -7.882829e-001 -4.391788e-002 -1.316869e-004 6.611053e-006 1.023743e+000 -9.065282e-002
308265000 -4.253180e-005 -1.190086e-005 -7.869372e-001 -2.258441e-002 -8.614968e-006 5.854403e-005 1.022090e+000 -9.036540e-002
308550000 2.903476e-005 4.530118e-005 -7.855918e-001 -2.051311e-003 -3.302936e-005 6.175951e-005 1.024038e+000 -9.134949e-002
308835000 -8.528333e-006 5.565540e-005 -7.833135e-001 1.761033e-002 -1.264900e-004 8.087878e-005 1.024093e+000 -9.073728e-002
309120000 -4.623834e-005 -1.255728e-004 -7.814552e-001 3.828488e-002 5.924981e-005 1.578509e-006 1.024249e+000 -9.189714e-002
309405000 -7.106756e-006 -9.894725e-005 -7.785927e-001 5.895913e-002 -2.927490e-005 7.040843e-005 1.025703e+000 -9.075040e-002
309690000 4.466643e-005 -1.153282e-004 -7.757066e-001 7.949934e-002 7.124064e-005 -1.379294e-004 1.025242e+000 -9.124787e-002
309975000 5.274192e-005 -9.334429e-005 -7.724921e-001 9.874218e-002 4.870482e-005 -3.505776e-006 1.022551e+000 -9.141762e-002
310260000 -6.994339e-005 -7.289211e-005 -7.685558e-001 1.189335e-001 1.280357e-006 -8.147300e-005 1.025052e+000 -9.137393e-002
310545000 -3.553273e-005 -6.717875e-005 -7.647600e-001 1.383935e-001 3.177412e-005 -9.417026e-005 1.024680e+000 -9.290105e-002
310830000 -6.841165e-006 3.560899e-005 -7.592469e-001 1.584075e-001 -8.228239e-007 5.932522e-005 1.026732e+000 -9.164290e-002
311115000 -7.375078e-006 -1.035574e-004 -7.546868e-001 1.778629e-001 1.828979e-005 -6.200038e-005 1.022986e+000 -9.246817e-002
311400000 5.503551e-005 1.301096e-005 -7.496531e-001 1.972926e-001 1.032437e-004 9.194705e-005 1.023699e+000 -9.207517e-002
311685000 6.879919e-005 -4.904384e-005 -7.440856e-001 2.166855e-001 -1.211052e-005 2.743825e-005 1.024076e+000 -9.178422e-002
311970000 5.645724e-005 -1.516844e-004 -7.383311e-001 2.355100e-001 -2.073425e-005 -1.925483e-005 1.023009e+000 -9.217604e-002
312255000 2.747015e-005 -1.445777e-004 -7.315830e-001 2.553895e-001 -6.588241e-005 -4.238609e-005 1.022664e+000 -9.142213e-002
312540000 3.626503e-005 2.908742e-006 -7.252116e-001 2.740052e-001 -4.034651e-005 -8.243938e-006 1.022773e+000 -9.193418e-002
312825000 -4.898291e-005 2.742060e-005 -7.181982e-001 2.933291e-001 -6.347145e-005 4.126746e-005 1.023118e+000 -9.152479e-002
313110000 -6.633178e-005 7.538971e-005 -7.105287e-001 3.120117e-001 -1.510868e-004 6.872704e-006 1.024434e+000 -9.232616e-002
313395000 -4.515923e-005 2.163911e-005 -7.033244e-001 3.314443e-001 -1.634358e-004 5.439388e-005 1.024915e+000 -9.328700e-002
313680000 4.841677e-005 -2.081911e-005 -6.950011e-001 3.498000e-001 -3.772471e-005 -5.273235e-005 1.025240e+000 -9.275887e-002
313965000 -3.317240e-005 5.304326e-005 -6.865921e-001 3.686075e-001 -1.492845e-005 -8.372009e-005 1.025200e+000 -9.113245e-002
314250000 -6.670360e-005 8.775745e-005 -6.777095e-001 3.866932e-001 -9.473684e-005 -5.449714e-005 1.023739e+000 -9.152753e-002
314535000 -1.514187e-005 1.276255e-004 -6.685743e-001 4.051437e-001 5.156662e-005 2.168528e-005 1.023687e+000 -9.271475e-002
314820000 -6.724006e-005 4.096381e-005 -6.588987e-001 4.235619e-001 -1.141281e-005 -1.915187e-005 1.025626e+000 -9.532922e-002
315105000 -2.881642e-005 1.030424e-004 -6.485036e-001 4.423013e-001 -1.999427e-005 -1.997696e-005 1.021817e+000 -9.646406e-002
315390000 -1.800294e-005 3.303762e-005 -6.380726e-001 4.604820e-001 -4.738896e-005 6.328816e-005 1.024806e+000 -9.194424e-002
315675000 1.930205e-005 4.475025e-005 -6.273605e-001 4.788958e-001 -2.483476e-005 -4.688485e-005 1.023194e+000 -9.427648e-002
315960000 1.713903e-005 -1.157664e-004 -6.153386e-001 4.968231e-001 3.097958e-005 -2.371666e-005 1.023905e+000 -9.494296e-002
316245000 -6.737373e-005 6.169666e-005 -6.037486e-001 5.148403e-001 1.996702e-004 1.083860e-005 1.022626e+000 -9.249794e-002
316530000 1.749018e-005 1.846164e-005 -5.910016e-001 5.330352e-001 7.501731e-005 -7.232955e-005 1.024150e+000 -9.355953e-002
316815000 -4.135598e-005 -5.019865e-005 -5.786904e-001 5.508767e-001 1.203829e-005 -2.963439e-005 1.025159e+000 -9.165284e-002
317100000 -2.384600e-005 -9.344370e-005 -5.654010e-001 5.680125e-001 1.775468e-006 -2.145415e-005 1.023088e+000 -9.228096e-002
317385000 -1.146763e-005 -9.666431e-005 -5.512914e-001 5.859273e-001 1.443392e-004 2.192999e-005 1.024852e+000 -9.251795e-002
317670000 1.336267e-005 -1.679587e-005 -5.369102e-001 6.035631e-001 2.330200e-006 2.243454e-005 1.024612e+000 -9.487995e-002
317955000 6.890053e-005 -1.845383e-005 -5.224404e-001 6.203132e-001 2.742433e-006 -8.260977e-006 1.025561e+000 -9.198532e-002
318240000 8.943245e-005 2.570199e-005 -5.063456e-001 6.372702e-001 3.859080e-005 -4.768937e-006 1.024478e+000 -9.383574e-002
318525000 6.940402e-005 -3.333876e-005 -4.903065e-001 6.544458e-001 -6.210620e-005 6.451621e-005 1.024888e+000 -9.399894e-002
318810000 -8.795471e-005 -3.444433e-005 -4.735553e-001 6.714500e-001 -5.262103e-006 -6.507530e-006 1.024583e+000 -9.452075e-002
319095000 2.197348e-005 6.109251e-005 -4.562894e-001 6.879628e-001 1.283742e-005 6.749055e-005 1.023203e+000 -9.308715e-002
319380000 -4.544622e-005 4.689856e-005 -4.388965e-001 7.041128e-001 -4.028687e-005 -3.632304e-005 1.024637e+000 -9.477866e-002
319665000 -8.021915e-006 1.033806e-004 -4.204086e-001 7.202861e-001 -2.614952e-005 2.574485e-005 1.025948e+000 -9.328187e-002
319950000 -1.224577e-004 -1.407442e-005 -4.011716e-001 7.364838e-001 4.262135e-005 -5.504679e-005 1.024668e+000 -9.464179e-002
320235000 4.320361e-005 -4.427586e-005 -3.805668e-001 7.515264e-001 1.879050e-005 -5.980968e-005 1.025817e+000 -9.588776e-002
320520000 -1.559461e-004 -4.106140e-005 -3.610820e-001 7.666487e-001 -3.846292e-005 -1.105167e-004 1.024583e+000 -9.416426e-002
320805000 -7.444352e-005 -4.308667e-005 -3.397447e-001 7.817200e-001 6.488361e-005 -1.411577e-005 1.024327e+000 -9.472805e-002
321090000 4.224062e-005 -7.450250e-005 -3.180139e-001 7.958831e-001 9.745047e-005 8.887903e-006 1.022658e+000 -9.437378e-002
321375000 1.330323e-005 2.994565e-005 -2.947245e-001 8.097391e-001 1.262652e-004 -1.372038e-004 1.023726e+000 -9.423261e-002
321660000 5.020473e-005 5.981240e-005 -2.720118e-001 8.229629e-001 2.380348e-005 -9.374441e-005 1.025131e+000 -9.502418e-002
321945000 -1.555652e-005 -2.917513e-005 -2.476106e-001 8.370466e-001 8.831417e-005 2.028432e-005 1.024529e+000 -9.482583e-002
322230000 1.108970e-004 -2.372551e-005 -2.227703e-001 8.492624e-001 1.508259e-005 -5.228079e-005 1.025430e+000 -9.553815e-002
322515000 5.550204e-005 3.830127e-005 -1.971586e-001 8.607172e-001 5.224612e-006 3.447729e-005 1.023331e+000 -9.691013e-002
322800000 5.394324e-005 3.011671e-005 -1.707666e-001 8.724662e-001 -6.622481e-005 2.261695e-005 1.025998e+000 -9.437875e-002
323085000 2.552393e-005 -4.959345e-005 -1.434992e-001 8.830135e-001 -8.356578e-005 -9.192031e-006 1.024675e+000 -9.499571e-002
323370000 6.645142e-006 6.732054e-005 -1.164766e-001 8.927546e-001 -2.555755e-005 5.002757e-005 1.026245e+000 -9.643174e-002
323655000 -8.479061e-006 6.587985e-005 -8.712222e-002 9.023544e-001 -1.350495e-004 4.426148e-005 1.024062e+000 -9.675225e-002
323940000 6.237873e-005 1.120884e-004 -5.783566e-002 9.106970e-001 -1.302975e-006 -4.928870e-005 1.024237e+000 -9.663681e-002
324225000 1.252480e-005 -3.401863e-005 -2.771623e-002 9.175014e-001 -9.095629e-005 3.451565e-005 1.023385e+000 -9.662411e-002
324510000 2.583112e-005 1.333320e-004 2.970638e-003 9.238722e-001 3.793079e-006 1.241157e-005 1.025225e+000 -9.746955e-002
324795000 2.431587e-005 6.723514e-005 3.453897e-002 9.295950e-001 7.466800e-005 -4.416230e-005 1.024213e+000 -9.588226e-002
325080000 -6.377557e-005 1.061104e-004 6.686264e-002 9.333680e-001 1.017595e-004 -1.426817e-004 1.024384e+000 -9.622235e-002
325365000 1.436625e-005 -4.637816e-005 9.988938e-002 9.365619e-001 -4.439989e-005 -1.224458e-004 1.025345e+000 -9.641947e-002
325650000 -3.311871e-005 9.137242e-006 1.333205e-001 9.383086e-001 -3.435909e-005 -4.130787e-005 1.024992e+000 -9.544221e-002
325935000 -2.584531e-005 1.256419e-005 1.670088e-001 9.387308e-001 2.882944e-005 1.009177e-004 1.023362e+000 -9.700663e-002
326220000 8.555736e-005 -2.594616e-005 2.006328e-001 9.379638e-001 7.135432e-006 -2.308318e-005 1.025433e+000 -9.678047e-002
326505000 -4.632095e-005 -4.471636e-005 2.358339e-001 9.357464e-001 1.790171e-005 2.289451e-005 1.024048e+000 -9.718201e-002
326790000 -5.386445e-005 -1.786282e-006 2.708065e-001 9.322034e-001 4.638468e-005 -4.074350e-006 1.023398e+000 -9.619957e-002
327075000 3.385674e-005 -5.193424e-005 3.066689e-001 9.274453e-001 2.908033e-005 2.654735e-005 1.024627e+000 -9.639238e-002
327360000 7.099094e-005 1.243374e-004 3.425048e-001 9.200422e-001 2.144775e-005 1.262111e-004 1.025923e+000 -9.658144e-002
327645000 -2.272128e-005 -3.491547e-005 3.784219e-001 9.113724e-001 -3.236468e-005 -7.421438e-005 1.025185e+000 -9.689075e-002
327930000 1.954394e-005 -1.075483e-004 4.139917e-001 9.019265e-001 -7.618813e-005 6.444180e-005 1.023574e+000 -9.700374e-002
328215000 3.599990e-005 1.813488e-005 4.491469e-001 8.897160e-001 -3.459969e-005 -1.605621e-004 1.025792e+000 -9.681062e-002
328500000 7.030559e-005 4.159239e-005 4.850706e-001 8.765615e-001 -1.965059e-005 1.318924e-005 1.024178e+000 -9.835612e-002
328785000 1.033794e-006 8.994367e-005 5.200495e-001 8.611175e-001 7.872203e-005 -1.108512e-004 1.024055e+000 -9.697025e-002
329070000 -5.952832e-005 3.331500e-005 5.550145e-001 8.438758e-001 2.658651e-005 -1.247783e-004 1.025068e+000 -9.769288e-002
329355000 -1.558910e-004 5.080568e-005 5.892055e-001 8.253117e-001 5.691910e-005 -3.697324e-005 1.025752e+000 -9.781299e-002
329640000 -5.101595e-005 5.246194e-005 6.236274e-001 8.050291e-001 1.111698e-005 9.099366e-005 1.025872e+000 -9.789785e-002
329925000 4.776822e-005 5.482830e-005 6.558805e-001 7.823181e-001 -4.362411e-005 -3.817260e-006 1.024274e+000 -9.841067e-002
330210000 -1.074854e-004 -3.737396e-005 6.880728e-001 7.590160e-001 -2.442678e-005 -1.703366e-005 1.024848e+000 -9.761956e-002
330495000 -9.135850e-005 1.296808e-004 7.185128e-001 7.332719e-001 8.727366e-006 9.400747e-005 1.023893e+000 -9.785018e-002
330780000 -1.154082e-004 -1.222944e-005 7.487190e-001 7.055503e-001 -5.501863e-005 -9.473917e-005 1.025491e+000 -9.870797e-002
331065000 -2.040862e-006 -8.581559e-005 7.771026e-001 6.765772e-001 -1.042350e-004 5.703709e-005 1.023415e+000 -9.715802e-002
331350000 -7.519913e-006 -5.478896e-005 8.046179e-001 6.460866e-001 -1.004481e-005 -3.528202e-005 1.024690e+000 -9.804688e-002
331635000 4.653435e-005 1.618729e-005 8.312664e-001 6.151192e-001 -1.607015e-005 -9.002347e-005 1.025617e+000 -9.888525e-002
331920000 -6.058377e-005 3.456057e-005 8.552424e-001 5.813727e-001 -9.536665e-005 -1.074944e-004 1.025095e+000 -9.834139e-002
332205000 2.661407e-005 2.507787e-006 8.775591e-001 5.472940e-001 -2.238686e-005 -7.422033e-005 1.023748e+000 -9.806453e-002
332490000 1.150800e-004 -4.532433e-005 8.989519e-001 5.121586e-001 3.245967e-005 -1.210487e-004 1.025673e+000 -9.859758e-002
332775000 3.325414e-005 1.066722e-005 9.174532e-001 4.762540e-001 1.399338e-005 2.712839e-005 1.024763e+000 -9.927008e-002
333060000 3.491869e-005 9.441785e-005 9.358207e-001 4.388988e-001 3.376347e-005 -3.806762e-005 1.023966e+000 -9.940326e-002
333345000 -2.130361e-005 -1.890213e-005 9.508348e-001 4.016555e-001 5.572562e-005 1.730863e-005 1.026156e+000 -9.826141e-002
333630000 -6.477755e-005 -1.367380e-004 9.643597e-001 3.631870e-001 -7.055032e-007 9.325618e-005 1.024493e+000 -1.011701e-001
333915000 5.506904e-005 2.138774e-005 9.758063e-001 3.242796e-001 6.192753e-005 -1.504180e-005 1.024437e+000 -9.891055e-002
334200000 8.244548e-005 -4.729535e-005 9.858890e-001 2.855645e-001 2.982346e-005 -8.656401e-005 1.025159e+000 -9.970612e-002
334485000 9.181775e-005 2.741995e-005 9.940660e-001 2.462321e-001 -3.952744e-005 -8.485154e-005 1.023851e+000 -9.895464e-002
334770000 9.924145e-005 7.168981e-005 9.988931e-001 2.066921e-001 -3.096032e-005 -3.266160e-005 1.024948e+000 -9.972811e-002
335055000 6.086704e-005 4.512400e-007 1.003806e+000 1.676048e-001 -4.339059e-005 -1.206479e-004 1.025519e+000 -9.879271e-002
335340000 7.101781e-005 1.477261e-004 1.005804e+000 1.284010e-001 2.544711e-005 7.094084e-006 1.025238e+000 -9.948988e-002
335625000 -5.892626e-005 1.274672e-004 1.005513e+000 8.927998e-002 1.668474e-004 1.405346e-005 1.024621e+000 -9.980659e-002
335910000 1.800422e-004 -1.180113e-004 1.004028e+000 5.106789e-002 4.304099e-005 -4.015143e-005 1.024564e+000 -9.939203e-002
336195000 -8.452873e-005 1.708250e-005 1.001491e+000 1.381395e-002 1.288885e-004 -3.612796e-005 1.024236e+000 -9.983401e-002
336480000 -3.722453e-005 9.833464e-005 9.961452e-001 -2.365801e-002 -4.344213e-005 -2.700128e-005 1.024906e+000 -9.983761e-002
336765000 -1.074663e-004 -6.049540e-005 9.901000e-001 -5.939493e-002 -2.685470e-005 5.266519e-007 1.024886e+000 -1.003739e-001
337050000 4.910279e-005 1.146112e-004 9.818805e-001 -9.580409e-002 3.142644e-005 2.135462e-005 1.025431e+000 -1.002398e-001
337335000 5.362966e-006 3.443598e-005 9.729530e-001 -1.306873e-001 -7.172652e-005 8.654013e-006 1.025294e+000 -1.014921e-001
337620000 8.629536e-005 -3.772523e-005 9.619706e-001 -1.652470e-001 -7.061850e-005 -2.387735e-005 1.025541e+000 -1.021586e-001
337905000 8.808926e-006 2.713155e-005 9.501446e-001 -1.985587e-001 -6.570014e-005 5.796991e-005 1.024062e+000 -9.958957e-002
338190000 5.025876e-006 -1.383166e-005 9.376892e-001 -2.305901e-001 -4.211427e-005 9.628228e-005 1.024538e+000 -1.011764e-001
338475000 -7.514106e-005 2.450559e-005 9.231769e-001 -2.619360e-001 -5.392113e-005 9.529295e-005 1.025119e+000 -9.959162e-002
338760000 -8.285086e-005 4.007249e-005 9.076895e-001 -2.920560e-001 -6.025606e-005 8.546662e-006 1.024883e+000 -1.014386e-001
339045000 -7.438313e-005 8.005322e-005 8.915640e-001 -3.214081e-001 -6.935073e-006 -1.544718e-005 1.025532e+000 -1.008912e-001
339330000 7.862652e-006 -3.951748e-005 8.749040e-001 -3.495740e-001 -2.242592e-005 -7.326221e-005 1.026075e+000 -9.984069e-002
339615000 9.341989e-006 -5.441132e-005 8.575253e-001 -3.766902e-001 1.106571e-004 -2.539203e-005 1.026011e+000 -1.014416e-001
339900000 1.203956e-004 -1.427454e-005 8.388847e-001 -4.031802e-001 5.797513e-005 -1.713648e-005 1.024678e+000 -1.020875e-001
340185000 7.346574e-005 6.075709e-005 8.194749e-001 -4.278260e-001 -9.937028e-005 -2.739840e-005 1.025235e+000 -1.014808e-001
340470000 2.341735e-005 -3.986071e-005 7.996520e-001 -4.518104e-001 2.934274e-005 4.844846e-006 1.024257e+000 -1.008671e-001
340755000 1.733202e-005 -6.200466e-005 7.801700e-001 -4.746957e-001 5.104890e-005 -1.963749e-005 1.025528e+000 -1.024148e-001
341040000 -1.053918e-005 -9.933097e-006 7.595878e-001 -4.965512e-001 1.236263e-004 1.953610e-005 1.025001e+000 -1.026819e-001
341325000 1.068577e-004 -1.529827e-004 7.391146e-001 -5.174178e-001 -5.123101e-005 -5.210287e-005 1.026016e+000 -1.001043e-001
341610000 5.260166e-005 1.060083e-005 7.169259e-001 -5.372705e-001 3.444391e-005 -1.278892e-005 1.026803e+000 -1.012655e-001
341895000 -4.265847e-005 -1.404423e-005 6.956438e-001 -5.559586e-001 3.846817e-006 -6.600525e-006 1.025382e+000 -1.017759e-001
342180000 -1.503384e-005 -1.077464e-004 6.737514e-001 -5.735940e-001 5.941651e-005 -1.821018e-006 1.025931e+000 -1.024005e-001
342465000 -5.054499e-005 -3.859890e-005 6.520344e-001 -5.905039e-001 1.021979e-005 6.590167e-005 1.025781e+000 -1.020651e-001
342750000 9.158636e-005 -1.206781e-005 6.297689e-001 -6.071620e-001 1.585311e-005 -6.474479e-006 1.025204e+000 -1.006709e-001
343035000 7.861560e-005 3.393145e-005 6.076416e-001 -6.219326e-001 -6.191398e-005 -3.574550e-005 1.025118e+000 -1.035923e-001
343320000 2.887830e-005 2.821501e-005 5.853989e-001 -6.365567e-001 6.044115e-005 -4.824092e-005 1.025667e+000 -1.013686e-001
343605000 -5.055518e-005 2.487348e-005 5.625628e-001 -6.496445e-001 -5.249177e-005 -2.092401e-005 1.024574e+000 -1.019454e-001
343890000 4.512478e-005 -7.420075e-005 5.402483e-001 -6.625314e-001 -4.553180e-005 -4.920622e-005 1.025433e+000 -1.030174e-001
