!Agilent Technologies,N5230C,SG49000117,A.08.50.07
!Agilent N5230C: A.08.50.07
!Date: Sunday, March 17, 2024 07:16:49
!Correction: S11(Off) 
!S21(Off) 
!S12(Off) 
!S22(Off) 
!S2P File: Measurements: S11, S21, S12, S22:
# Hz S  RI   R 50
300000000 -8.726212e-006 4.782042e-006 -6.023911e-001 -6.763833e-001 -1.381179e-005 3.998683e-006 -6.046670e-001 -6.789208e-001
300285000 -1.552248e-006 -6.970780e-006 -6.187896e-001 -6.534272e-001 1.047197e-005 1.051577e-005 -6.210797e-001 -6.559123e-001
300570000 6.626326e-006 -8.260505e-006 -6.343559e-001 -6.303700e-001 -1.351205e-005 -1.610362e-005 -6.366720e-001 -6.326023e-001
300855000 2.406436e-006 -1.389850e-005 -6.489521e-001 -6.070241e-001 -5.533086e-006 8.304140e-006 -6.513533e-001 -6.092954e-001
301140000 -3.631995e-008 -1.174694e-005 -6.627511e-001 -5.835530e-001 -1.214123e-005 5.472328e-006 -6.652417e-001 -5.857058e-001
301425000 4.089202e-006 1.171499e-005 -6.756631e-001 -5.601200e-001 -1.172831e-005 -1.362305e-005 -6.781907e-001 -5.621417e-001
301710000 1.134561e-005 -3.239544e-006 -6.877216e-001 -5.365757e-001 -3.165318e-006 -1.177723e-005 -6.903406e-001 -5.385403e-001
301995000 -5.836067e-006 -2.193131e-006 -6.990294e-001 -5.131118e-001 1.096798e-005 -2.252891e-006 -7.016227e-001 -5.150341e-001
302280000 2.312133e-006 3.147186e-007 -7.094851e-001 -4.895660e-001 8.196284e-006 -1.499188e-006 -7.121789e-001 -4.914162e-001
302565000 -6.629420e-006 9.148372e-006 -7.192523e-001 -4.661983e-001 -9.542217e-006 -1.422325e-005 -7.218599e-001 -4.679493e-001
302850000 -1.205361e-005 8.960445e-006 -7.281120e-001 -4.428083e-001 1.140498e-005 3.140328e-006 -7.308666e-001 -4.445474e-001
303135000 1.154675e-006 3.875282e-006 -7.363709e-001 -4.195136e-001 7.982368e-006 4.005350e-007 -7.391931e-001 -4.211485e-001
303420000 -1.157028e-005 -1.603889e-006 -7.438920e-001 -3.963419e-001 9.758093e-006 9.421242e-006 -7.467873e-001 -3.979058e-001
303705000 4.985860e-006 1.087786e-005 -7.508153e-001 -3.733157e-001 2.323551e-005 -1.738262e-005 -7.536276e-001 -3.747819e-001
303990000 -4.796537e-006 6.491353e-006 -7.571263e-001 -3.503397e-001 1.311383e-005 4.120464e-006 -7.600377e-001 -3.517165e-001
304275000 4.484913e-006 -6.870704e-006 -7.627949e-001 -3.276154e-001 1.852460e-005 -6.117483e-006 -7.656493e-001 -3.288492e-001
304560000 -8.937596e-006 -1.185091e-005 -7.678452e-001 -3.048708e-001 -8.925295e-007 1.085151e-005 -7.707856e-001 -3.059487e-001
304845000 2.459336e-006 4.322374e-006 -7.723808e-001 -2.823136e-001 1.184589e-005 1.266819e-005 -7.753347e-001 -2.833715e-001
305130000 -1.572842e-005 -7.305716e-006 -7.762785e-001 -2.599101e-001 4.627347e-006 7.299755e-006 -7.792513e-001 -2.609171e-001
305415000 5.606883e-006 -1.432641e-005 -7.797267e-001 -2.375690e-001 1.245667e-005 -2.725974e-006 -7.826026e-001 -2.385628e-001
305700000 1.296612e-005 -1.567124e-006 -7.825773e-001 -2.155087e-001 2.022514e-006 1.356372e-006 -7.854905e-001 -2.163440e-001
305985000 1.097562e-005 -8.074221e-006 -7.848649e-001 -1.935474e-001 -1.221777e-005 -2.260434e-006 -7.879255e-001 -1.941783e-001
306270000 8.037649e-007 5.436986e-006 -7.867122e-001 -1.716319e-001 3.761556e-006 -2.244066e-006 -7.898093e-001 -1.723113e-001
306555000 1.954385e-005 7.764907e-006 -7.880221e-001 -1.499877e-001 2.015545e-006 1.111352e-005 -7.911302e-001 -1.505953e-001
306840000 6.756109e-006 -1.049607e-006 -7.890282e-001 -1.284746e-001 -3.111116e-006 4.764133e-006 -7.920133e-001 -1.289334e-001
307125000 5.805646e-006 9.445692e-006 -7.894436e-001 -1.070119e-001 5.330941e-007 -8.783642e-006 -7.926063e-001 -1.074939e-001
307410000 -3.423015e-006 5.615702e-006 -7.895685e-001 -8.581378e-002 1.929261e-006 -1.493367e-005 -7.926506e-001 -8.612105e-002
307695000 -7.473527e-006 9.613587e-006 -7.891579e-001 -6.471508e-002 1.028634e-005 1.051650e-005 -7.922148e-001 -6.492133e-002
307980000 -1.095523e-005 7.768172e-006 -7.883817e-001 -4.377979e-002 5.806406e-007 -4.419583e-006 -7.914664e-001 -4.398818e-002
308265000 1.143419e-006 4.065737e-006 -7.871846e-001 -2.302503e-002 1.742296e-005 -1.446425e-005 -7.902434e-001 -2.307217e-002
308550000 4.245714e-006 -3.130773e-007 -7.856513e-001 -2.304709e-003 -2.469101e-006 1.287221e-006 -7.886500e-001 -2.322324e-003
308835000 6.716896e-006 -3.537852e-006 -7.836888e-001 1.820663e-002 5.413952e-006 -1.851195e-005 -7.867504e-001 1.823299e-002
309120000 2.609422e-006 1.404835e-006 -7.814209e-001 3.860195e-002 -6.803545e-007 -1.220554e-005 -7.844266e-001 3.875372e-002
309405000 -9.352258e-007 -1.461948e-005 -7.786198e-001 5.882641e-002 2.127516e-006 5.702253e-006 -7.816854e-001 5.904715e-002
309690000 -1.123461e-005 -1.365116e-005 -7.755544e-001 7.902674e-002 -7.849099e-006 -1.097384e-005 -7.785682e-001 7.927251e-002
309975000 -9.613766e-006 -7.747659e-006 -7.720474e-001 9.893575e-002 7.206155e-007 -6.325236e-006 -7.751551e-001 9.934402e-002
310260000 -9.743161e-006 -1.285425e-005 -7.682903e-001 1.188363e-001 8.615210e-006 4.384796e-006 -7.713403e-001 1.193406e-001
310545000 9.075459e-006 -1.517395e-005 -7.641832e-001 1.386803e-001 3.130750e-008 1.291378e-005 -7.671628e-001 1.392055e-001
310830000 6.102829e-006 1.030486e-007 -7.596270e-001 1.583543e-001 5.664702e-007 2.154039e-006 -7.626742e-001 1.589550e-001
311115000 1.203912e-005 6.735403e-006 -7.547574e-001 1.778734e-001 -1.056068e-005 -1.335395e-005 -7.577570e-001 1.786004e-001
311400000 -8.941298e-006 4.830754e-006 -7.496094e-001 1.973267e-001 -1.452377e-005 -1.660056e-005 -7.525865e-001 1.980706e-001
311685000 1.493393e-005 2.077654e-006 -7.440100e-001 2.167255e-001 9.653232e-006 -1.168422e-005 -7.469692e-001 2.175504e-001
311970000 6.928032e-006 8.766284e-006 -7.381545e-001 2.359202e-001 -6.013886e-006 4.993522e-007 -7.410508e-001 2.368990e-001
312255000 -1.309639e-005 1.317550e-005 -7.318375e-001 2.551181e-001 6.863076e-006 1.468231e-006 -7.347170e-001 2.560973e-001
312540000 2.372537e-006 1.631364e-005 -7.251878e-001 2.742414e-001 8.866262e-009 2.412450e-006 -7.280403e-001 2.752640e-001
312825000 1.059552e-005 8.132731e-007 -7.182533e-001 2.932210e-001 1.321237e-005 -9.433663e-006 -7.210633e-001 2.944106e-001
313110000 8.948686e-006 -9.404496e-006 -7.108177e-001 3.121739e-001 -4.894092e-006 9.001805e-007 -7.136701e-001 3.134139e-001
313395000 -1.916364e-005 1.023278e-005 -7.030777e-001 3.309867e-001 -5.923913e-006 5.771951e-007 -7.059056e-001 3.322528e-001
313680000 -1.358812e-005 8.353257e-006 -6.949731e-001 3.497343e-001 3.859320e-006 -1.910799e-005 -6.977459e-001 3.510914e-001
313965000 -1.590323e-005 -3.323152e-006 -6.864985e-001 3.683932e-001 1.084188e-005 7.938227e-006 -6.892830e-001 3.698402e-001
314250000 -1.199364e-005 -4.108024e-006 -6.776115e-001 3.869157e-001 3.199683e-006 -3.505781e-006 -6.803218e-001 3.885241e-001
314535000 -1.495807e-005 -1.421556e-005 -6.683386e-001 4.055212e-001 7.174899e-006 -8.772899e-006 -6.709963e-001 4.070828e-001
314820000 -1.135052e-005 -4.019896e-006 -6.585935e-001 4.239037e-001 2.783284e-006 1.690473e-005 -6.612298e-001 4.256429e-001
315105000 -5.375557e-006 -1.706090e-006 -6.484925e-001 4.422786e-001 -2.183608e-005 -2.386865e-006 -6.511654e-001 4.440709e-001
315390000 -5.267859e-006 -1.456253e-005 -6.380084e-001 4.605348e-001 9.036246e-006 2.392140e-005 -6.405807e-001 4.623656e-001
315675000 -1.817754e-005 8.056406e-006 -6.270140e-001 4.787253e-001 -9.347898e-006 2.492020e-006 -6.295493e-001 4.806949e-001
315960000 -1.251406e-006 -2.416073e-005 -6.155646e-001 4.968899e-001 -6.419732e-006 -6.014206e-006 -6.180372e-001 4.988060e-001
316245000 -5.668578e-006 7.456872e-007 -6.037097e-001 5.148147e-001 3.132194e-006 -1.474418e-005 -6.061460e-001 5.169399e-001
316530000 1.331481e-005 -1.225017e-005 -5.914026e-001 5.327217e-001 -9.387302e-006 9.005608e-006 -5.937738e-001 5.349157e-001
316815000 8.543881e-006 -1.052471e-005 -5.785479e-001 5.505070e-001 -4.928725e-006 -4.445461e-006 -5.809276e-001 5.527505e-001
317100000 -9.554513e-006 -4.061092e-006 -5.651928e-001 5.681969e-001 -5.511890e-006 -1.527395e-005 -5.675532e-001 5.704932e-001
317385000 6.793970e-006 -2.371826e-006 -5.512918e-001 5.858141e-001 1.055167e-006 -5.778187e-006 -5.535049e-001 5.881698e-001
317670000 -1.003954e-005 -3.948865e-006 -5.369404e-001 6.031782e-001 -2.934246e-006 1.291740e-006 -5.391346e-001 6.056246e-001
317955000 1.060026e-005 9.628819e-006 -5.220953e-001 6.204737e-001 8.700052e-006 -2.820908e-007 -5.241703e-001 6.229181e-001
318240000 -3.013993e-006 -4.289548e-007 -5.065743e-001 6.375943e-001 -1.175387e-005 6.409000e-006 -5.086329e-001 6.401917e-001
318525000 -4.112015e-006 -4.639092e-006 -4.904883e-001 6.545100e-001 -8.101046e-007 -8.435528e-006 -4.924684e-001 6.572046e-001
318810000 4.359119e-006 3.409050e-006 -4.739003e-001 6.713193e-001 3.787941e-006 -1.561987e-005 -4.757654e-001 6.740489e-001
319095000 -1.136763e-005 1.265895e-005 -4.566830e-001 6.878700e-001 -5.012431e-006 6.129111e-006 -4.585267e-001 6.906750e-001
319380000 -1.282740e-005 1.831810e-006 -4.387968e-001 7.041989e-001 3.574870e-007 1.809115e-007 -4.405404e-001 7.070222e-001
319665000 -8.516414e-006 -5.482272e-006 -4.202526e-001 7.202548e-001 9.295240e-006 4.088367e-007 -4.219941e-001 7.231857e-001
319950000 -1.271793e-005 4.071243e-007 -4.011123e-001 7.360747e-001 1.323078e-006 1.070384e-005 -4.026816e-001 7.391056e-001
320235000 -8.431759e-006 -9.569081e-006 -3.813089e-001 7.516137e-001 -3.813501e-006 -5.754788e-006 -3.828048e-001 7.546474e-001
320520000 1.127188e-006 -2.743181e-006 -3.608058e-001 7.667776e-001 -1.697271e-006 1.506447e-006 -3.622493e-001 7.698680e-001
320805000 5.557851e-006 -1.137978e-005 -3.395755e-001 7.815613e-001 -1.079437e-005 -1.133212e-005 -3.409939e-001 7.848403e-001
321090000 1.671516e-005 3.523191e-006 -3.177080e-001 7.960300e-001 -5.793034e-006 -1.405648e-005 -3.190103e-001 7.993193e-001
321375000 4.931664e-007 2.450806e-006 -2.950416e-001 8.101037e-001 -3.467265e-006 -7.542965e-006 -2.962875e-001 8.133749e-001
321660000 8.753085e-006 2.486443e-006 -2.717132e-001 8.236461e-001 9.704652e-006 -6.894552e-006 -2.729365e-001 8.270113e-001
321945000 5.512862e-006 3.366709e-006 -2.475618e-001 8.366968e-001 9.205541e-006 -4.988735e-007 -2.486234e-001 8.401535e-001
322230000 -1.060349e-005 1.900128e-005 -2.227352e-001 8.491865e-001 -1.408995e-006 -5.366578e-006 -2.237380e-001 8.527246e-001
322515000 -1.224138e-005 2.759353e-006 -1.971924e-001 8.611621e-001 9.325705e-007 5.342585e-006 -1.979632e-001 8.647453e-001
322800000 -2.625821e-006 1.558393e-006 -1.707784e-001 8.724261e-001 5.609477e-006 1.057261e-005 -1.715333e-001 8.761656e-001
323085000 1.992172e-005 1.232745e-005 -1.437313e-001 8.831035e-001 -8.855727e-006 7.493659e-008 -1.442456e-001 8.867927e-001
323370000 -6.577928e-007 2.930292e-006 -1.157673e-001 8.929534e-001 -1.376892e-005 9.434742e-006 -1.162298e-001 8.966604e-001
323655000 -1.857681e-005 9.075306e-006 -8.715647e-002 9.021042e-001 -2.039466e-005 8.013541e-006 -8.758272e-002 9.058611e-001
323940000 2.696744e-006 3.568373e-006 -5.774164e-002 9.102250e-001 4.623135e-006 8.705342e-006 -5.807215e-002 9.141040e-001
324225000 -1.381394e-005 8.334405e-006 -2.769847e-002 9.176168e-001 -9.112788e-006 8.531713e-006 -2.776783e-002 9.214379e-001
324510000 -9.148268e-006 5.408796e-006 3.115659e-003 9.239997e-001 -9.175846e-006 -9.361432e-006 3.150677e-003 9.278520e-001
324795000 -1.613909e-005 -1.062968e-005 3.461801e-002 9.292372e-001 -1.610289e-005 -6.776245e-006 3.478052e-002 9.331961e-001
325080000 -1.759895e-005 1.728806e-006 6.672616e-002 9.335075e-001 -1.759287e-005 -6.335722e-006 6.702533e-002 9.374664e-001
325365000 -5.984868e-006 1.242634e-006 9.956826e-002 9.365819e-001 -1.205044e-005 -1.318520e-005 1.000478e-001 9.404455e-001
325650000 -1.706325e-005 -8.786737e-006 1.328620e-001 9.384043e-001 -1.512330e-006 -6.127978e-006 1.334631e-001 9.423933e-001
325935000 -1.123458e-006 -5.289142e-006 1.668001e-001 9.389489e-001 7.591611e-006 -1.626226e-005 1.674764e-001 9.428496e-001
326220000 -8.538103e-007 -8.530948e-006 2.011863e-001 9.380928e-001 8.840393e-006 -1.459559e-005 2.020795e-001 9.421036e-001
326505000 5.396893e-006 -8.461678e-006 2.360513e-001 9.359390e-001 -5.619751e-006 -9.049921e-006 2.369819e-001 9.399456e-001
326790000 1.123924e-006 -1.269189e-005 2.711100e-001 9.322758e-001 -5.283755e-006 -3.781128e-006 2.722572e-001 9.361867e-001
327075000 1.041357e-005 5.962873e-006 3.066012e-001 9.270487e-001 -6.937268e-006 -1.336007e-005 3.078603e-001 9.309114e-001
327360000 9.622924e-006 -1.218646e-005 3.421806e-001 9.202603e-001 2.025451e-007 9.852607e-006 3.437055e-001 9.241014e-001
327645000 6.284994e-006 -2.823361e-006 3.779925e-001 9.118504e-001 1.835432e-006 1.074722e-005 3.795209e-001 9.156705e-001
327930000 -4.013817e-006 -9.306159e-006 4.137718e-001 9.016775e-001 -8.485249e-006 2.114429e-005 4.154772e-001 9.054832e-001
328215000 -8.117541e-006 6.970256e-006 4.495447e-001 8.898563e-001 -1.334235e-005 -4.902832e-006 4.513438e-001 8.936605e-001
328500000 -6.940554e-006 5.109433e-007 4.849823e-001 8.763253e-001 -7.529796e-006 -3.152335e-006 4.870178e-001 8.801022e-001
328785000 -3.048469e-006 -2.801717e-006 5.202053e-001 8.610525e-001 -1.048078e-005 -1.288225e-005 5.224467e-001 8.647936e-001
329070000 -1.527949e-005 -5.771507e-006 5.550498e-001 8.440216e-001 -1.954697e-006 -1.372620e-005 5.573606e-001 8.476343e-001
329355000 -6.197166e-006 -1.327743e-006 5.894408e-001 8.251653e-001 -5.346838e-006 -5.298229e-006 5.919153e-001 8.287262e-001
329640000 1.194511e-005 -6.187883e-006 6.229745e-001 8.046483e-001 1.380648e-006 -3.748769e-006 6.257426e-001 8.081029e-001
329925000 5.710908e-006 3.476132e-006 6.559362e-001 7.823440e-001 -2.495989e-006 -4.522834e-006 6.587977e-001 7.856879e-001
330210000 8.948356e-006 9.954993e-006 6.878820e-001 7.584044e-001 -1.774034e-005 -6.993003e-006 6.907994e-001 7.616876e-001
330495000 1.229277e-006 9.566978e-006 7.190050e-001 7.327527e-001 2.513621e-006 -3.332018e-006 7.220883e-001 7.358241e-001
330780000 -1.737165e-006 1.001696e-005 7.487893e-001 7.054453e-001 6.415440e-007 6.548807e-007 7.520035e-001 7.084537e-001
331065000 -1.984017e-006 2.508891e-007 7.774258e-001 6.766250e-001 3.440886e-007 -9.650297e-006 7.808281e-001 6.795658e-001
331350000 -9.413173e-006 5.288307e-006 8.047888e-001 6.463345e-001 1.560073e-006 1.225508e-005 8.082564e-001 6.491433e-001
331635000 -8.748368e-006 -8.028753e-006 8.305995e-001 6.146755e-001 7.335639e-006 -1.264603e-006 8.342249e-001 6.172712e-001
331920000 -6.430141e-006 2.391052e-006 8.550600e-001 5.817521e-001 9.478179e-008 -6.001747e-007 8.587077e-001 5.842559e-001
332205000 -2.004088e-005 -4.969348e-006 8.776332e-001 5.476164e-001 -2.545614e-006 -1.329988e-005 8.814194e-001 5.499701e-001
332490000 -5.372463e-006 -5.986498e-006 8.987449e-001 5.124227e-001 2.294441e-007 -2.100080e-006 9.025240e-001 5.145700e-001
332775000 3.081029e-006 6.640599e-007 9.177371e-001 4.761632e-001 4.432487e-006 6.855397e-006 9.218451e-001 4.782362e-001
333060000 7.141352e-007 -7.576018e-007 9.352378e-001 4.391784e-001 -7.188726e-006 -8.930851e-006 9.392827e-001 4.411402e-001
333345000 1.696250e-005 6.797936e-006 9.508057e-001 4.015048e-001 2.248568e-006 4.696496e-006 9.548581e-001 4.031190e-001
333630000 3.282781e-007 9.131251e-006 9.642709e-001 3.632302e-001 8.499004e-006 -3.057925e-006 9.684916e-001 3.647815e-001
333915000 4.369489e-007 -3.322558e-006 9.760084e-001 3.244180e-001 3.278651e-006 1.907800e-005 9.802713e-001 3.259092e-001
334200000 1.904823e-006 -1.685139e-005 9.857755e-001 2.854146e-001 -1.213373e-006 5.089573e-006 9.900454e-001 2.866054e-001
334485000 -9.086631e-006 -6.739097e-006 9.935761e-001 2.461157e-001 -1.409857e-005 5.808908e-006 9.979108e-001 2.472124e-001
334770000 -1.076160e-005 6.693193e-006 9.994792e-001 2.068677e-001 1.794233e-006 6.101573e-007 1.003837e+000 2.077409e-001
335055000 -1.560815e-005 1.271530e-005 1.003419e+000 1.676616e-001 -2.025299e-006 -2.075114e-006 1.007787e+000 1.683446e-001
335340000 -9.369744e-006 -1.447037e-005 1.005513e+000 1.285709e-001 -4.708401e-006 -7.159350e-007 1.009967e+000 1.290796e-001
335625000 -1.297169e-005 -4.537209e-006 1.005785e+000 8.991327e-002 1.015970e-005 -2.981047e-006 1.010222e+000 9.032394e-002
335910000 -1.019034e-005 1.104782e-005 1.004329e+000 5.150189e-002 -2.405528e-006 -2.073056e-007 1.008677e+000 5.181457e-002
336195000 -7.525587e-006 7.795516e-006 1.001185e+000 1.373994e-002 3.517122e-007 -6.571249e-006 1.005543e+000 1.377804e-002
336480000 -9.356419e-006 -8.722035e-006 9.962367e-001 -2.355376e-002 -5.555869e-007 -1.290359e-006 1.000678e+000 -2.365308e-002
336765000 8.419956e-006 5.141555e-006 9.899985e-001 -6.009222e-002 -3.426685e-006 2.572390e-006 9.942616e-001 -6.031808e-002
337050000 1.538582e-006 1.595229e-005 9.820219e-001 -9.591626e-002 -5.714835e-006 6.675501e-006 9.862892e-001 -9.621424e-002
337335000 -7.353671e-006 -6.292787e-006 9.727827e-001 -1.309346e-001 -7.436186e-006 6.366478e-006 9.769500e-001 -1.314912e-001
337620000 6.271500e-006 4.521967e-006 9.621317e-001 -1.651613e-001 1.103823e-006 -8.090176e-006 9.662935e-001 -1.658454e-001
337905000 1.061307e-005 9.872584e-006 9.502636e-001 -1.983605e-001 -3.742880e-006 4.968505e-007 9.543359e-001 -1.992441e-001
338190000 1.474140e-007 -4.891247e-006 9.371760e-001 -2.305610e-001 1.315819e-005 8.268389e-009 9.412556e-001 -2.315445e-001
338475000 -5.668888e-007 5.056873e-006 9.230829e-001 -2.618771e-001 1.315433e-005 -4.724776e-006 9.271378e-001 -2.630509e-001
338760000 -7.412206e-006 -2.231458e-006 9.079510e-001 -2.921797e-001 5.113828e-006 5.398002e-006 9.118327e-001 -2.933590e-001
339045000 1.237806e-005 6.364952e-006 8.918397e-001 -3.214175e-001 1.986823e-006 8.864847e-007 8.956792e-001 -3.227249e-001
339330000 -4.556683e-006 2.389929e-006 8.749397e-001 -3.495366e-001 -1.005548e-005 2.472138e-006 8.786770e-001 -3.511281e-001
339615000 3.803519e-006 1.085060e-006 8.571951e-001 -3.767931e-001 8.973559e-006 -1.591374e-007 8.609235e-001 -3.783478e-001
339900000 -2.889217e-006 4.813682e-006 8.388456e-001 -4.027824e-001 1.383032e-005 -5.793521e-006 8.424115e-001 -4.044785e-001
340185000 1.118220e-007 -5.125049e-006 8.198020e-001 -4.277163e-001 2.236547e-006 1.092036e-005 8.232709e-001 -4.296058e-001
340470000 1.839161e-005 -8.811992e-006 8.001931e-001 -4.516369e-001 5.223102e-006 -8.007853e-006 8.036605e-001 -4.536610e-001
340755000 -1.220188e-005 -2.252891e-006 7.800823e-001 -4.746077e-001 -7.965215e-007 -2.460222e-007 7.834014e-001 -4.765825e-001
341040000 1.918534e-006 1.027599e-005 7.594879e-001 -4.964392e-001 1.883979e-008 1.647024e-006 7.627301e-001 -4.985043e-001
341325000 -1.178644e-005 6.913117e-006 7.386103e-001 -5.173145e-001 -1.566974e-007 1.031613e-005 7.417631e-001 -5.194986e-001
341610000 -7.898047e-006 4.720883e-006 7.172771e-001 -5.371345e-001 -6.357951e-006 4.227803e-006 7.203751e-001 -5.393611e-001
341895000 8.404083e-006 -3.123859e-006 6.957089e-001 -5.559460e-001 -6.514661e-006 3.703926e-006 6.987084e-001 -5.583402e-001
342180000 1.144857e-005 -5.360265e-006 6.739447e-001 -5.738558e-001 -1.201174e-005 -8.935946e-007 6.767601e-001 -5.763728e-001
342465000 -1.208916e-007 1.930794e-006 6.519119e-001 -5.908366e-001 7.056492e-006 -9.149125e-006 6.546684e-001 -5.933124e-001
342750000 1.282331e-005 2.222886e-007 6.297454e-001 -6.068663e-001 -2.167577e-006 -2.632610e-006 6.323914e-001 -6.094839e-001
343035000 -9.498317e-007 1.631513e-006 6.074374e-001 -6.220912e-001 1.638019e-006 -1.225359e-005 6.100010e-001 -6.246631e-001
343320000 1.979944e-006 8.116591e-006 5.849909e-001 -6.364285e-001 -6.667686e-006 -1.526553e-006 5.874808e-001 -6.390297e-001
343605000 -1.030802e-006 -2.697346e-006 5.625343e-001 -6.498664e-001 9.062102e-006 -3.878765e-006 5.649174e-001 -6.525725e-001
343890000 -8.383451e-006 7.719901e-007 5.401015e-001 -6.625818e-001 9.256403e-006 9.514719e-006 5.423441e-001 -6.653504e-001
