!Agilent Technologies,N5230C,SG49000117,A.08.50.07
!Agilent N5230C: A.08.50.07
!Date: Sunday, March 17, 2024 09:20:56
!Correction: S11(Off) 
!S21(Off) 
!S12(Off) 
!S22(Full 1 Port(2)) 
!S2P File: Measurements: S11, S21, S12, S22:
# Hz S  RI   R 50
300000000 1.276779e-005 -1.912531e-005 -6.086277e-001 -6.685299e-001 1.061352e-005 8.010541e-005 1.019446e+000 -1.127709e-001
300285000 -5.377740e-006 -1.377446e-006 -6.247025e-001 -6.450994e-001 -3.604268e-005 -6.472819e-005 1.019805e+000 -1.122124e-001
300570000 2.881065e-006 1.603888e-004 -6.402612e-001 -6.223014e-001 -2.536594e-005 3.405631e-005 1.021765e+000 -1.107742e-001
300855000 6.549287e-005 5.896151e-005 -6.544002e-001 -5.987949e-001 -1.877615e-005 3.246693e-005 1.020922e+000 -1.119648e-001
301140000 1.534306e-005 5.830871e-005 -6.670328e-001 -5.749900e-001 -1.498610e-005 3.933240e-005 1.019910e+000 -1.119383e-001
301425000 -6.046032e-005 -1.335722e-004 -6.808003e-001 -5.518420e-001 -6.708164e-005 6.321131e-005 1.022087e+000 -1.128510e-001
301710000 -4.347583e-005 -4.633656e-005 -6.924927e-001 -5.278865e-001 1.093299e-007 2.729110e-005 1.021186e+000 -1.141141e-001
301995000 2.253144e-005 -5.376050e-005 -7.035313e-001 -5.045283e-001 -4.054527e-005 -3.391262e-005 1.020536e+000 -1.133070e-001
302280000 -5.068950e-005 4.421547e-005 -7.133328e-001 -4.814739e-001 -1.842693e-006 -1.393875e-005 1.021775e+000 -1.128816e-001
302565000 1.852857e-005 3.595298e-005 -7.231899e-001 -4.580384e-001 4.859141e-005 9.431408e-005 1.022191e+000 -1.141255e-001
302850000 -9.801502e-005 -1.060416e-004 -7.315749e-001 -4.345543e-001 -3.137148e-005 2.012963e-006 1.019903e+000 -1.127470e-001
303135000 -1.740996e-004 -7.689151e-006 -7.396049e-001 -4.110619e-001 -5.076414e-005 1.030905e-004 1.019874e+000 -1.130687e-001
303420000 -1.025256e-004 -9.121006e-006 -7.467358e-001 -3.879811e-001 6.539823e-005 -9.346289e-005 1.020339e+000 -1.147377e-001
303705000 -7.918182e-005 2.363395e-005 -7.536223e-001 -3.648348e-001 -4.743987e-005 -5.502625e-005 1.021359e+000 -1.143267e-001
303990000 3.829855e-005 -5.950018e-005 -7.593642e-001 -3.418165e-001 4.978899e-005 -1.237534e-004 1.020607e+000 -1.142242e-001
304275000 -5.489039e-005 -9.722313e-005 -7.647529e-001 -3.192160e-001 5.493240e-005 -6.818515e-006 1.019933e+000 -1.143831e-001
304560000 2.340666e-005 -1.144517e-004 -7.699870e-001 -2.964260e-001 -3.053551e-005 -1.021853e-004 1.020754e+000 -1.143504e-001
304845000 9.724950e-005 -6.740072e-005 -7.739108e-001 -2.738914e-001 1.398543e-004 -1.381026e-004 1.022046e+000 -1.145221e-001
305130000 1.495842e-005 -1.135837e-004 -7.778435e-001 -2.517026e-001 3.202341e-005 -3.281167e-005 1.019241e+000 -1.138582e-001
305415000 5.810402e-005 -3.289153e-005 -7.812375e-001 -2.293391e-001 -1.041903e-004 -3.742553e-005 1.021071e+000 -1.139473e-001
305700000 -9.966723e-006 -1.858773e-005 -7.834924e-001 -2.073552e-001 1.213074e-004 6.436015e-005 1.021747e+000 -1.142529e-001
305985000 -1.711247e-005 -5.358048e-005 -7.860626e-001 -1.851977e-001 -3.120326e-005 -3.690464e-005 1.021763e+000 -1.154659e-001
306270000 2.811147e-005 -1.430771e-004 -7.875569e-001 -1.635403e-001 8.201590e-006 9.165448e-005 1.021912e+000 -1.138714e-001
306555000 1.029812e-004 -2.786164e-005 -7.888830e-001 -1.414384e-001 1.198508e-005 -1.347402e-004 1.021962e+000 -1.146635e-001
306840000 1.133228e-004 -8.788341e-005 -7.894387e-001 -1.203855e-001 3.743505e-005 8.324953e-005 1.019936e+000 -1.126176e-001
307125000 5.072942e-005 -1.173510e-004 -7.895016e-001 -9.912137e-002 1.186871e-004 -7.961036e-006 1.020483e+000 -1.141827e-001
307410000 1.237402e-004 -2.521763e-005 -7.899170e-001 -7.783817e-002 -1.796027e-005 -3.752529e-005 1.020494e+000 -1.143725e-001
307695000 7.530219e-005 1.208110e-005 -7.891777e-001 -5.692136e-002 8.620120e-006 -2.132254e-005 1.021150e+000 -1.145697e-001
307980000 -5.154402e-005 -2.331424e-005 -7.885911e-001 -3.537089e-002 3.047193e-005 4.637580e-005 1.020034e+000 -1.151373e-001
308265000 5.300732e-005 -1.171967e-005 -7.872612e-001 -1.519608e-002 -3.651517e-006 -3.471961e-005 1.020206e+000 -1.151250e-001
308550000 -8.551378e-005 -6.288777e-005 -7.848590e-001 5.560314e-003 5.205090e-005 3.477229e-005 1.020684e+000 -1.152256e-001
308835000 -1.127381e-004 -2.821245e-006 -7.828639e-001 2.607246e-002 -6.973900e-005 -8.115891e-006 1.019587e+000 -1.155354e-001
309120000 5.548410e-005 -1.820249e-005 -7.803069e-001 4.650817e-002 7.609421e-005 6.690344e-005 1.021981e+000 -1.188636e-001
309405000 -1.745627e-005 9.552442e-005 -7.777510e-001 6.664728e-002 -1.060241e-004 6.206462e-005 1.024163e+000 -1.157649e-001
309690000 6.803047e-005 6.916064e-005 -7.744202e-001 8.687276e-002 3.737759e-005 -2.268863e-007 1.022095e+000 -1.145327e-001
309975000 2.876064e-005 -2.179676e-005 -7.708807e-001 1.069831e-001 1.554906e-004 1.349011e-005 1.020561e+000 -1.169795e-001
310260000 -4.586581e-006 -1.807337e-005 -7.668471e-001 1.264301e-001 -1.106296e-004 -6.350660e-005 1.023139e+000 -1.161596e-001
310545000 -1.206734e-004 7.376499e-005 -7.624732e-001 1.465967e-001 -3.168551e-005 -6.250748e-005 1.021113e+000 -1.177940e-001
310830000 -7.532101e-006 -3.821371e-005 -7.582427e-001 1.659349e-001 -1.904687e-005 -1.374928e-004 1.022086e+000 -1.163241e-001
311115000 -7.069851e-005 -3.286323e-005 -7.522790e-001 1.852531e-001 5.997770e-005 -4.076947e-006 1.020442e+000 -1.171179e-001
311400000 -8.460943e-005 3.672593e-005 -7.472305e-001 2.048212e-001 2.514404e-005 -7.960785e-005 1.020289e+000 -1.165778e-001
311685000 -2.549797e-005 -1.398860e-005 -7.417768e-001 2.246637e-001 1.017628e-004 8.441004e-006 1.022244e+000 -1.160477e-001
311970000 -1.567978e-005 -3.990448e-005 -7.357249e-001 2.435037e-001 2.126227e-005 4.692724e-005 1.020404e+000 -1.159239e-001
312255000 -7.885801e-005 -6.695964e-005 -7.291627e-001 2.625677e-001 2.070911e-005 1.197461e-004 1.020462e+000 -1.170415e-001
312540000 -1.748853e-004 9.234941e-006 -7.223758e-001 2.815180e-001 8.097802e-005 8.318227e-005 1.020844e+000 -1.168970e-001
312825000 1.420469e-006 -1.257224e-004 -7.150966e-001 3.007601e-001 5.475005e-005 -7.894298e-005 1.020394e+000 -1.172836e-001
313110000 3.009402e-005 9.038125e-006 -7.075083e-001 3.194955e-001 -2.140749e-005 3.416965e-005 1.021556e+000 -1.191391e-001
313395000 -2.087335e-005 2.551322e-005 -6.998461e-001 3.385687e-001 3.769610e-005 4.589205e-005 1.021658e+000 -1.170753e-001
313680000 -1.205801e-005 1.647324e-005 -6.913720e-001 3.567940e-001 -4.252985e-005 1.744942e-004 1.022531e+000 -1.177316e-001
313965000 5.838625e-006 -3.629094e-005 -6.828626e-001 3.754672e-001 -1.105983e-005 1.228841e-004 1.022389e+000 -1.164352e-001
314250000 9.533059e-005 -4.468400e-005 -6.738302e-001 3.945910e-001 -6.965346e-005 2.633774e-005 1.020779e+000 -1.177128e-001
314535000 2.721662e-005 9.162373e-006 -6.648331e-001 4.124795e-001 2.984269e-005 3.113507e-005 1.020772e+000 -1.171900e-001
314820000 1.489257e-005 7.004254e-006 -6.541275e-001 4.310276e-001 -2.014987e-005 -1.302002e-005 1.021244e+000 -1.188814e-001
315105000 1.303818e-005 -1.975744e-004 -6.437755e-001 4.501090e-001 -6.114443e-005 -1.148886e-004 1.018493e+000 -1.184131e-001
315390000 9.787783e-006 -1.633258e-004 -6.333286e-001 4.676072e-001 -1.025369e-004 -6.613216e-005 1.021671e+000 -1.182615e-001
315675000 1.144118e-005 8.118977e-005 -6.226085e-001 4.855518e-001 -9.548390e-005 -3.072535e-005 1.020091e+000 -1.188627e-001
315960000 -1.544770e-005 3.322458e-005 -6.110997e-001 5.036186e-001 -8.705866e-005 -1.222051e-004 1.021284e+000 -1.183440e-001
316245000 4.096965e-005 1.298455e-005 -5.988014e-001 5.216975e-001 -6.533785e-005 -1.976717e-005 1.020448e+000 -1.169989e-001
316530000 1.411909e-004 -4.555145e-005 -5.864141e-001 5.397645e-001 3.450496e-005 -2.976714e-005 1.021410e+000 -1.192083e-001
316815000 -4.843236e-005 6.650049e-005 -5.731078e-001 5.573772e-001 1.145947e-005 3.502126e-005 1.021462e+000 -1.170956e-001
317100000 1.776624e-005 3.849512e-005 -5.595351e-001 5.745308e-001 5.102345e-005 -6.915404e-005 1.021607e+000 -1.175999e-001
317385000 6.252219e-005 1.525035e-005 -5.452933e-001 5.927970e-001 4.786205e-005 -7.982809e-005 1.021323e+000 -1.165606e-001
317670000 5.535137e-005 1.133830e-004 -5.309699e-001 6.097004e-001 7.476652e-005 7.632514e-005 1.022963e+000 -1.196809e-001
317955000 -5.798891e-006 -3.673782e-005 -5.159307e-001 6.267191e-001 1.212099e-004 2.334622e-005 1.022975e+000 -1.175191e-001
318240000 -8.119775e-005 5.663375e-006 -4.998770e-001 6.439964e-001 -1.432027e-005 -6.529833e-006 1.020520e+000 -1.191074e-001
318525000 3.417884e-005 4.516410e-005 -4.839943e-001 6.605515e-001 5.516121e-005 -6.186595e-005 1.020497e+000 -1.186523e-001
318810000 -3.067972e-005 7.735137e-005 -4.671388e-001 6.776193e-001 5.351616e-005 -9.894075e-005 1.019633e+000 -1.187568e-001
319095000 -5.574736e-005 7.886065e-005 -4.494791e-001 6.938077e-001 7.897570e-005 -1.917786e-005 1.019135e+000 -1.182767e-001
319380000 -1.185557e-005 2.856069e-005 -4.313809e-001 7.103416e-001 -3.811429e-005 -1.172702e-005 1.021555e+000 -1.184350e-001
319665000 -7.909563e-005 -1.035162e-005 -4.123823e-001 7.263944e-001 1.280821e-004 -1.877806e-005 1.022057e+000 -1.189846e-001
319950000 2.196910e-005 -3.359379e-006 -3.928306e-001 7.413858e-001 6.840030e-005 2.663120e-005 1.021340e+000 -1.196614e-001
320235000 -2.611836e-005 4.933908e-005 -3.734266e-001 7.568252e-001 1.857184e-005 9.553204e-005 1.021758e+000 -1.219049e-001
320520000 7.237016e-006 1.115537e-005 -3.516994e-001 7.716250e-001 -5.304864e-005 1.207194e-004 1.021139e+000 -1.209612e-001
320805000 9.328467e-005 -5.835721e-005 -3.304816e-001 7.864449e-001 -1.037563e-004 -6.181046e-005 1.019744e+000 -1.193790e-001
321090000 1.716834e-004 -1.059425e-004 -3.086317e-001 8.010411e-001 -1.002330e-004 5.743195e-005 1.019711e+000 -1.195809e-001
321375000 -1.002070e-004 -6.955525e-006 -2.857172e-001 8.145381e-001 6.743837e-005 1.385295e-004 1.021184e+000 -1.200326e-001
321660000 2.933477e-007 -1.104569e-005 -2.622635e-001 8.282855e-001 -4.346037e-005 6.008082e-005 1.022048e+000 -1.200100e-001
321945000 5.533403e-005 2.297785e-005 -2.382258e-001 8.407366e-001 -1.931297e-005 -7.190601e-005 1.021281e+000 -1.214209e-001
322230000 3.601335e-005 1.144708e-004 -2.127073e-001 8.530206e-001 -2.918821e-005 -7.598859e-007 1.020288e+000 -1.208923e-001
322515000 -1.133123e-005 4.032081e-005 -1.864422e-001 8.650325e-001 -2.607756e-005 -4.963616e-005 1.019850e+000 -1.215117e-001
322800000 8.610643e-005 -3.219355e-005 -1.602784e-001 8.758159e-001 8.262202e-005 -3.197134e-005 1.022021e+000 -1.209261e-001
323085000 -1.393301e-005 7.777769e-005 -1.324686e-001 8.863798e-001 7.073791e-005 -1.018000e-004 1.021016e+000 -1.220612e-001
323370000 -5.995743e-005 -5.056540e-005 -1.048679e-001 8.958247e-001 -4.697403e-005 2.239530e-005 1.021963e+000 -1.218359e-001
323655000 -9.602065e-005 -5.274312e-006 -7.548392e-002 9.040654e-001 -3.386853e-005 2.656025e-006 1.021549e+000 -1.225204e-001
323940000 -9.865485e-005 7.447170e-006 -4.571007e-002 9.123187e-001 4.677794e-005 -2.652195e-005 1.021072e+000 -1.229242e-001
324225000 -4.420682e-005 3.248793e-005 -1.576838e-002 9.196343e-001 3.556639e-005 -1.097208e-004 1.020103e+000 -1.213621e-001
324510000 1.392034e-005 4.158264e-005 1.516788e-002 9.247916e-001 1.149432e-004 -5.009345e-005 1.022702e+000 -1.228191e-001
324795000 5.517422e-005 -1.296032e-004 4.729240e-002 9.302783e-001 1.271467e-004 2.713113e-005 1.021296e+000 -1.216257e-001
325080000 -3.637188e-005 -1.049555e-004 7.979367e-002 9.343252e-001 -8.132164e-005 1.235974e-006 1.020713e+000 -1.215473e-001
325365000 -1.766894e-005 -8.760171e-005 1.121481e-001 9.363993e-001 1.285457e-004 1.158237e-004 1.022402e+000 -1.213745e-001
325650000 6.200071e-006 2.230291e-005 1.457682e-001 9.382637e-001 4.007274e-005 1.101811e-005 1.022395e+000 -1.211161e-001
325935000 -1.892835e-005 -5.333151e-005 1.800993e-001 9.378381e-001 -3.151245e-005 -1.732455e-006 1.021859e+000 -1.225197e-001
326220000 3.249124e-005 -5.860842e-005 2.140374e-001 9.364106e-001 1.013624e-004 1.674718e-005 1.023073e+000 -1.220430e-001
326505000 9.659702e-005 1.822897e-005 2.492542e-001 9.342976e-001 3.863596e-005 3.556247e-005 1.021016e+000 -1.235105e-001
326790000 2.769602e-005 -3.958741e-006 2.848703e-001 9.300571e-001 -4.809081e-007 2.531817e-005 1.019713e+000 -1.224682e-001
327075000 9.542812e-006 -7.230037e-005 3.199969e-001 9.242200e-001 -2.504316e-005 3.933282e-006 1.021149e+000 -1.237938e-001
327360000 -4.652329e-005 -3.971656e-005 3.555244e-001 9.162478e-001 -5.919058e-005 -1.114251e-005 1.023395e+000 -1.237012e-001
327645000 1.506654e-005 2.367351e-005 3.916577e-001 9.071734e-001 2.707722e-006 4.258530e-005 1.021593e+000 -1.228960e-001
327930000 3.236471e-005 6.293999e-005 4.276563e-001 8.970239e-001 -1.151545e-004 -2.232700e-006 1.021483e+000 -1.222258e-001
328215000 -7.461389e-005 3.334984e-005 4.630820e-001 8.839065e-001 3.717648e-005 -1.257057e-005 1.021200e+000 -1.241314e-001
328500000 2.302706e-005 5.247216e-005 4.982781e-001 8.702717e-001 -1.616810e-005 6.460487e-006 1.021251e+000 -1.239525e-001
328785000 -1.464194e-004 6.139024e-005 5.332595e-001 8.550544e-001 3.765069e-005 -7.156073e-006 1.021257e+000 -1.222268e-001
329070000 1.548445e-005 -4.281735e-005 5.676993e-001 8.367648e-001 9.085715e-005 3.717229e-005 1.020571e+000 -1.237123e-001
329355000 1.125731e-004 -1.080164e-004 6.016679e-001 8.168107e-001 1.071570e-004 6.201476e-006 1.021098e+000 -1.236059e-001
329640000 -9.910755e-005 -4.506063e-005 6.354689e-001 7.956372e-001 1.975886e-005 6.039907e-005 1.021633e+000 -1.248219e-001
329925000 -2.048907e-005 -7.105464e-005 6.677130e-001 7.729325e-001 -1.292128e-005 3.112992e-005 1.020635e+000 -1.236879e-001
330210000 1.948735e-005 5.121367e-005 6.992993e-001 7.484903e-001 5.261906e-005 -3.628963e-005 1.020059e+000 -1.244809e-001
330495000 2.271753e-005 -4.139244e-005 7.307287e-001 7.219307e-001 2.295849e-005 1.234776e-005 1.021232e+000 -1.243765e-001
330780000 2.338376e-006 2.153489e-005 7.593417e-001 6.941087e-001 5.660153e-005 -1.054336e-004 1.021763e+000 -1.250039e-001
331065000 7.704399e-005 3.755261e-005 7.877371e-001 6.649707e-001 3.105817e-005 -6.064862e-005 1.020019e+000 -1.234271e-001
331350000 1.170275e-005 -1.745705e-004 8.144127e-001 6.341697e-001 4.954038e-005 5.681052e-005 1.020380e+000 -1.247227e-001
331635000 8.069410e-005 3.868779e-005 8.396868e-001 6.010096e-001 3.072226e-005 4.377942e-005 1.022192e+000 -1.251909e-001
331920000 -5.138375e-005 1.917403e-005 8.635228e-001 5.687388e-001 -2.311214e-005 4.949230e-005 1.021061e+000 -1.252456e-001
332205000 5.258764e-005 7.808937e-006 8.855623e-001 5.341123e-001 -7.042248e-005 -6.077401e-005 1.020551e+000 -1.244095e-001
332490000 -6.857461e-005 1.146142e-004 9.059269e-001 4.989198e-001 -7.931052e-005 3.739234e-005 1.021648e+000 -1.246615e-001
332775000 8.218487e-005 1.313219e-004 9.249260e-001 4.622157e-001 -2.844798e-005 -4.948949e-005 1.021658e+000 -1.258526e-001
333060000 -2.047170e-005 8.883236e-005 9.411207e-001 4.246727e-001 -7.269742e-005 -5.985405e-006 1.021145e+000 -1.254901e-001
333345000 -4.092719e-005 8.384677e-007 9.558443e-001 3.862599e-001 -3.885442e-005 7.161623e-005 1.021683e+000 -1.256623e-001
333630000 -5.268993e-005 6.970219e-005 9.691437e-001 3.482445e-001 -5.688942e-005 -6.231640e-005 1.021451e+000 -1.265867e-001
333915000 6.650040e-006 1.018440e-004 9.801257e-001 3.093322e-001 -9.850614e-005 5.923428e-005 1.020581e+000 -1.258323e-001
334200000 -2.487437e-005 6.391198e-005 9.885893e-001 2.701243e-001 -6.551806e-005 9.371470e-006 1.022032e+000 -1.270977e-001
334485000 3.946901e-005 9.096262e-005 9.957606e-001 2.311311e-001 -2.878931e-005 -3.672829e-006 1.021986e+000 -1.255297e-001
334770000 2.721920e-005 -2.331294e-005 1.001229e+000 1.916461e-001 -9.037802e-005 -1.834247e-005 1.021727e+000 -1.259891e-001
335055000 -6.065427e-006 -5.280104e-005 1.004727e+000 1.520840e-001 -6.746780e-005 9.347512e-006 1.021309e+000 -1.254372e-001
335340000 -5.178536e-005 -1.256900e-005 1.005424e+000 1.132049e-001 -8.919634e-005 -2.934967e-005 1.022434e+000 -1.275489e-001
335625000 7.400303e-005 -1.012161e-005 1.005332e+000 7.517862e-002 -8.999014e-005 2.786021e-005 1.020758e+000 -1.267035e-001
335910000 -5.236333e-005 -2.357317e-005 1.003372e+000 3.677276e-002 -8.745634e-005 6.234282e-005 1.021943e+000 -1.254579e-001
336195000 1.295429e-006 5.091070e-005 9.994930e-001 -7.418040e-004 -9.578115e-006 -1.342277e-005 1.020046e+000 -1.265705e-001
336480000 4.759838e-006 2.682542e-005 9.943020e-001 -3.800699e-002 -4.589359e-005 -7.826642e-005 1.021534e+000 -1.263613e-001
336765000 -2.218341e-005 3.426970e-005 9.872546e-001 -7.436379e-002 -1.411682e-005 2.786800e-005 1.020859e+000 -1.264728e-001
337050000 -2.578464e-006 -1.368862e-004 9.783944e-001 -1.096656e-001 -3.597048e-006 -7.709828e-006 1.021793e+000 -1.281999e-001
337335000 -1.726497e-005 -6.249701e-005 9.691179e-001 -1.446353e-001 1.139462e-004 -1.237042e-005 1.020681e+000 -1.292595e-001
337620000 -3.252324e-005 9.199539e-005 9.579646e-001 -1.786848e-001 -2.790792e-005 -7.397414e-005 1.021057e+000 -1.285391e-001
337905000 6.749927e-005 -8.911377e-005 9.454843e-001 -2.113813e-001 -4.199448e-005 -6.292009e-005 1.019072e+000 -1.278033e-001
338190000 -1.468701e-004 2.772598e-005 9.324587e-001 -2.436865e-001 2.353637e-005 3.144219e-005 1.021623e+000 -1.283303e-001
338475000 2.218080e-005 1.346281e-004 9.170388e-001 -2.744298e-001 5.632660e-005 6.935043e-005 1.020904e+000 -1.263334e-001
338760000 -3.416291e-005 1.124564e-005 9.017216e-001 -3.043163e-001 2.770412e-005 -5.047648e-005 1.020393e+000 -1.282638e-001
339045000 -9.986682e-005 2.913119e-005 8.852784e-001 -3.330205e-001 6.868334e-005 9.030673e-005 1.021489e+000 -1.287526e-001
339330000 -2.116566e-005 -7.147998e-005 8.676220e-001 -3.605651e-001 -2.160819e-005 1.207056e-004 1.022941e+000 -1.272441e-001
339615000 -2.591074e-005 1.336459e-004 8.504218e-001 -3.877890e-001 8.851775e-005 6.235360e-005 1.022344e+000 -1.286467e-001
339900000 -6.131214e-005 8.533468e-007 8.311350e-001 -4.130437e-001 9.553443e-005 7.247883e-005 1.020515e+000 -1.292008e-001
340185000 -2.929825e-005 -1.627370e-005 8.122060e-001 -4.378034e-001 1.812711e-005 2.576448e-004 1.020846e+000 -1.279247e-001
340470000 2.066986e-005 -1.720233e-005 7.920621e-001 -4.613982e-001 -5.170715e-005 7.924220e-005 1.021790e+000 -1.272809e-001
340755000 1.715371e-005 4.241238e-005 7.718101e-001 -4.835407e-001 -1.900728e-005 6.781625e-005 1.022071e+000 -1.288152e-001
341040000 -3.125912e-005 -7.816918e-005 7.511002e-001 -5.056379e-001 -1.357292e-004 3.407526e-006 1.021401e+000 -1.286227e-001
341325000 -6.542385e-005 -7.193020e-005 7.299967e-001 -5.259501e-001 -3.532860e-006 -2.968950e-005 1.022497e+000 -1.274452e-001
341610000 7.520041e-005 7.750681e-005 7.089428e-001 -5.452624e-001 4.421886e-005 -1.279826e-004 1.023378e+000 -1.280127e-001
341895000 -2.048824e-005 5.461391e-005 6.872600e-001 -5.636930e-001 6.470437e-006 -6.605277e-005 1.021606e+000 -1.299525e-001
342180000 1.094551e-004 5.762816e-005 6.650466e-001 -5.811591e-001 -3.072881e-005 -4.568622e-005 1.022027e+000 -1.297540e-001
342465000 -5.654468e-005 1.784596e-005 6.427258e-001 -5.975727e-001 3.762517e-005 -6.351854e-005 1.021948e+000 -1.298835e-001
342750000 7.656011e-005 5.889105e-005 6.205631e-001 -6.137940e-001 -5.470332e-006 6.270725e-005 1.023016e+000 -1.288215e-001
343035000 1.481800e-005 6.344039e-005 5.982206e-001 -6.283045e-001 -5.423282e-005 1.104350e-004 1.020325e+000 -1.309741e-001
343320000 -4.390546e-005 5.022046e-005 5.757073e-001 -6.421844e-001 -4.619921e-005 1.400071e-005 1.019676e+000 -1.301762e-001
343605000 1.263897e-004 -1.796184e-005 5.533660e-001 -6.556129e-001 -3.008431e-005 5.560312e-006 1.020184e+000 -1.306403e-001
343890000 -1.593946e-004 7.939855e-005 5.308591e-001 -6.678596e-001 5.168944e-005 1.400661e-004 1.021726e+000 -1.304601e-001
