!Agilent Technologies,N5230C,SG49000117,A.08.50.07
!Agilent N5230C: A.08.50.07
!Date: Sunday, March 17, 2024 07:19:06
!Correction: S11(Off) 
!S21(Off) 
!S12(Off) 
!S22(Off) 
!S2P File: Measurements: S11, S21, S12, S22:
# Hz S  RI   R 50
300000000 1.275860e-005 7.818188e-006 -6.087098e-001 -6.686147e-001 -4.031988e-006 8.983936e-006 -6.109703e-001 -6.710318e-001
300285000 7.935650e-006 -1.236464e-006 -6.248309e-001 -6.456140e-001 6.290194e-006 -5.328550e-006 -6.271814e-001 -6.479359e-001
300570000 4.609405e-006 -2.797487e-007 -6.401606e-001 -6.223623e-001 -2.196779e-006 -1.348274e-005 -6.423647e-001 -6.246905e-001
300855000 2.529251e-006 -2.766777e-006 -6.544695e-001 -5.990567e-001 -4.655584e-007 -7.684701e-006 -6.567527e-001 -6.012556e-001
301140000 7.863997e-006 -1.618292e-005 -6.679963e-001 -5.753879e-001 -1.598917e-006 -8.202339e-006 -6.704700e-001 -5.776004e-001
301425000 -1.769220e-006 -2.638033e-006 -6.805592e-001 -5.519237e-001 1.269173e-005 -1.672694e-005 -6.830774e-001 -5.539927e-001
301710000 -6.789169e-006 -2.119531e-005 -6.923150e-001 -5.284039e-001 6.455186e-006 7.160769e-008 -6.949003e-001 -5.303879e-001
301995000 -6.819715e-006 1.706739e-005 -7.032760e-001 -5.049036e-001 2.140274e-005 2.784939e-006 -7.058531e-001 -5.067331e-001
302280000 -2.832651e-006 1.435168e-005 -7.135373e-001 -4.814017e-001 -6.643982e-006 -5.496266e-006 -7.162054e-001 -4.832025e-001
302565000 -4.540627e-006 8.636878e-006 -7.229493e-001 -4.579438e-001 1.789638e-006 1.237569e-005 -7.255963e-001 -4.596383e-001
302850000 -6.347343e-006 1.943441e-006 -7.317257e-001 -4.346590e-001 9.029022e-006 -1.030985e-006 -7.344589e-001 -4.362305e-001
303135000 -6.182592e-006 5.999392e-006 -7.396672e-001 -4.112985e-001 -8.020444e-006 1.569052e-005 -7.424744e-001 -4.129207e-001
303420000 -5.131076e-006 -1.363796e-005 -7.469634e-001 -3.880618e-001 -3.970124e-006 1.557209e-005 -7.498542e-001 -3.896370e-001
303705000 -1.160100e-007 -5.884070e-006 -7.537321e-001 -3.650290e-001 -6.024704e-006 4.222856e-006 -7.565016e-001 -3.664204e-001
303990000 -5.548271e-007 -7.758303e-006 -7.597691e-001 -3.421085e-001 7.339338e-006 -3.227617e-006 -7.626144e-001 -3.434381e-001
304275000 9.602893e-006 3.063714e-006 -7.651460e-001 -3.192930e-001 -1.357295e-005 -1.216560e-005 -7.680464e-001 -3.205965e-001
304560000 -2.617807e-006 -4.383626e-006 -7.700282e-001 -2.966441e-001 6.699262e-006 6.929165e-006 -7.729199e-001 -2.977598e-001
304845000 6.431354e-006 -5.680632e-006 -7.742668e-001 -2.741148e-001 5.960717e-006 -1.189364e-005 -7.772164e-001 -2.751538e-001
305130000 7.199907e-006 -2.798156e-006 -7.779885e-001 -2.516532e-001 3.229816e-006 2.038235e-006 -7.810109e-001 -2.526404e-001
305415000 6.718458e-006 -1.274783e-005 -7.812179e-001 -2.295075e-001 8.573753e-006 2.188920e-006 -7.841697e-001 -2.304727e-001
305700000 -1.571797e-005 -1.447672e-005 -7.838183e-001 -2.073332e-001 1.180262e-005 -6.629455e-006 -7.868611e-001 -2.082225e-001
305985000 -6.488450e-007 -1.903398e-006 -7.859703e-001 -1.854078e-001 9.647837e-006 1.594200e-005 -7.890201e-001 -1.860316e-001
306270000 1.729863e-005 -6.741825e-006 -7.876911e-001 -1.636180e-001 -1.718767e-006 -2.509749e-006 -7.907217e-001 -1.642258e-001
306555000 1.307113e-005 -1.456942e-006 -7.888616e-001 -1.418825e-001 -6.182355e-006 8.302935e-006 -7.919027e-001 -1.424703e-001
306840000 -7.039563e-007 -1.046277e-005 -7.896072e-001 -1.203966e-001 1.101411e-005 -4.411654e-006 -7.925967e-001 -1.208344e-001
307125000 3.606500e-006 -5.197387e-006 -7.899194e-001 -9.897912e-002 -1.660061e-005 -1.569014e-006 -7.928969e-001 -9.940611e-002
307410000 5.436789e-007 -1.401554e-005 -7.897482e-001 -7.792297e-002 8.505971e-006 -2.490951e-006 -7.928668e-001 -7.813384e-002
307695000 9.081381e-006 -5.637349e-006 -7.892656e-001 -5.682062e-002 4.004240e-006 -5.434479e-006 -7.922821e-001 -5.702645e-002
307980000 -4.043344e-006 7.750373e-006 -7.882578e-001 -3.579188e-002 7.223432e-006 -6.377303e-006 -7.913099e-001 -3.603518e-002
308265000 5.784371e-006 2.424096e-005 -7.869439e-001 -1.511282e-002 1.821023e-006 2.249908e-006 -7.899663e-001 -1.514935e-002
308550000 5.666803e-006 7.556962e-006 -7.852420e-001 5.484610e-003 1.019193e-005 9.340314e-007 -7.882583e-001 5.598375e-003
308835000 -2.304268e-006 4.548557e-006 -7.830361e-001 2.597322e-002 -1.618468e-006 -9.717089e-006 -7.860487e-001 2.605643e-002
309120000 -5.712742e-006 1.582428e-005 -7.806105e-001 4.637030e-002 4.062741e-006 -7.146047e-006 -7.835529e-001 4.657084e-002
309405000 -7.147648e-006 5.284640e-006 -7.777094e-001 6.665006e-002 -1.111456e-005 -1.468932e-007 -7.807404e-001 6.688629e-002
309690000 -7.783979e-006 8.252822e-006 -7.744440e-001 8.675344e-002 -5.569752e-006 8.042299e-006 -7.774737e-001 8.697385e-002
309975000 1.591555e-006 2.575884e-006 -7.708566e-001 1.066388e-001 4.691105e-006 7.056371e-006 -7.738534e-001 1.070535e-001
310260000 -7.787633e-006 -6.656660e-006 -7.669272e-001 1.265320e-001 1.590993e-005 3.063059e-006 -7.699201e-001 1.269941e-001
310545000 -1.057243e-005 3.289112e-006 -7.625827e-001 1.462878e-001 -6.143645e-006 -1.195476e-005 -7.655706e-001 1.467988e-001
310830000 -1.454801e-005 -7.597494e-006 -7.579431e-001 1.658915e-001 1.556316e-005 1.181876e-006 -7.609699e-001 1.665486e-001
311115000 -2.170061e-005 -1.874405e-005 -7.529250e-001 1.854742e-001 -8.201294e-006 2.931804e-006 -7.558633e-001 1.861182e-001
311400000 -1.061410e-005 8.949931e-006 -7.475948e-001 2.048281e-001 1.123051e-005 7.432848e-006 -7.505108e-001 2.056578e-001
311685000 -1.053670e-005 -9.089864e-006 -7.417997e-001 2.241768e-001 -9.469637e-006 1.701396e-006 -7.447649e-001 2.250919e-001
311970000 -1.190154e-005 -4.862863e-006 -7.357275e-001 2.434181e-001 -3.547339e-006 9.803669e-006 -7.386344e-001 2.444128e-001
312255000 -1.255854e-006 -1.457964e-005 -7.293175e-001 2.625519e-001 -1.506045e-006 -4.654154e-006 -7.321913e-001 2.635788e-001
312540000 -3.040714e-006 3.764284e-008 -7.225148e-001 2.816173e-001 -1.357578e-005 -1.211981e-006 -7.253699e-001 2.827173e-001
312825000 -4.100218e-006 5.572562e-006 -7.153816e-001 3.006264e-001 -3.087332e-006 -7.955603e-006 -7.182320e-001 3.017601e-001
313110000 1.400636e-005 2.601628e-006 -7.078325e-001 3.194767e-001 -9.918705e-006 6.641973e-007 -7.106637e-001 3.207608e-001
313395000 -1.223121e-005 -7.183289e-006 -6.999883e-001 3.383297e-001 -1.366688e-005 -3.344588e-006 -7.027597e-001 3.395858e-001
313680000 5.384329e-006 1.289236e-005 -6.916057e-001 3.569926e-001 -7.509162e-006 -1.196410e-006 -6.944388e-001 3.583691e-001
313965000 -7.594011e-006 2.462503e-006 -6.830226e-001 3.756077e-001 9.086169e-006 -6.212992e-006 -6.857818e-001 3.771162e-001
314250000 -1.335323e-006 1.183458e-006 -6.739646e-001 3.941862e-001 8.882989e-006 -1.944770e-005 -6.767036e-001 3.957229e-001
314535000 -6.414646e-006 5.195155e-007 -6.645101e-001 4.126918e-001 9.337513e-006 1.006924e-005 -6.671708e-001 4.143479e-001
314820000 8.458272e-007 -1.133822e-005 -6.546411e-001 4.310874e-001 1.008430e-005 -1.290030e-005 -6.572589e-001 4.327669e-001
315105000 -9.586113e-006 4.898486e-006 -6.443430e-001 4.493645e-001 1.731141e-005 2.370688e-006 -6.469395e-001 4.512022e-001
315390000 4.715936e-006 5.040809e-006 -6.335716e-001 4.676076e-001 5.351891e-006 1.461645e-006 -6.361910e-001 4.695296e-001
315675000 9.063720e-006 -6.597923e-006 -6.224460e-001 4.857352e-001 -3.858615e-007 6.413869e-006 -6.249442e-001 4.877075e-001
315960000 3.567059e-006 3.017489e-006 -6.108283e-001 5.037386e-001 -1.481454e-005 1.590957e-006 -6.132506e-001 5.057654e-001
316245000 5.544196e-006 -1.098641e-005 -5.987766e-001 5.216475e-001 1.079809e-005 -1.396948e-006 -6.012673e-001 5.237530e-001
316530000 6.115884e-006 -3.862248e-006 -5.862461e-001 5.395597e-001 -1.173323e-005 -4.114106e-006 -5.886305e-001 5.417323e-001
316815000 6.775897e-006 2.623117e-007 -5.732528e-001 5.572904e-001 -3.747926e-006 -3.178178e-006 -5.755127e-001 5.594903e-001
317100000 5.232848e-006 1.822331e-006 -5.596715e-001 5.748428e-001 -3.120207e-007 -6.793445e-006 -5.619681e-001 5.772122e-001
317385000 9.921663e-006 6.434436e-006 -5.455927e-001 5.923809e-001 7.340789e-007 6.535020e-006 -5.478044e-001 5.947945e-001
317670000 9.411815e-006 -1.100387e-005 -5.309965e-001 6.097373e-001 -5.213031e-006 -1.264029e-006 -5.331526e-001 6.121268e-001
317955000 -4.352673e-006 -9.815773e-006 -5.158913e-001 6.270158e-001 -8.022715e-006 -1.040011e-005 -5.179815e-001 6.294647e-001
318240000 1.020190e-005 1.262700e-005 -5.002321e-001 6.439347e-001 -9.601670e-006 -1.588204e-005 -5.022597e-001 6.465511e-001
318525000 8.812160e-006 5.427219e-006 -4.839435e-001 6.608024e-001 -6.379287e-007 -6.952733e-006 -4.858556e-001 6.635120e-001
318810000 -9.111802e-006 -2.788434e-006 -4.670110e-001 6.775301e-001 -1.946681e-005 -9.289451e-007 -4.689519e-001 6.802354e-001
319095000 1.181781e-006 -8.100307e-006 -4.495369e-001 6.938881e-001 3.138524e-007 1.347186e-005 -4.513793e-001 6.967389e-001
319380000 -1.029619e-005 -6.153394e-006 -4.314588e-001 7.101376e-001 7.790431e-006 -1.910501e-006 -4.331885e-001 7.130374e-001
319665000 -5.188545e-006 -8.745633e-006 -4.126998e-001 7.260982e-001 -3.154707e-006 -9.718580e-006 -4.144278e-001 7.290891e-001
319950000 -1.740496e-006 -6.931234e-006 -3.932687e-001 7.417780e-001 8.864471e-007 -4.552063e-007 -3.949142e-001 7.448716e-001
320235000 -7.798716e-006 -1.586998e-006 -3.733331e-001 7.570645e-001 -6.388273e-006 2.445712e-006 -3.747780e-001 7.602376e-001
320520000 -7.263026e-006 8.746889e-006 -3.524509e-001 7.721583e-001 -1.128454e-006 -3.194169e-006 -3.539228e-001 7.753093e-001
320805000 4.289343e-006 -2.192219e-005 -3.310576e-001 7.868730e-001 2.023754e-006 1.639131e-006 -3.324643e-001 7.900773e-001
321090000 -2.640464e-006 -2.540232e-006 -3.088793e-001 8.011015e-001 5.172661e-007 1.970495e-006 -3.101822e-001 8.044525e-001
321375000 -7.355956e-006 -5.807894e-006 -2.859505e-001 8.149030e-001 -5.370683e-006 3.262958e-006 -2.871093e-001 8.182798e-001
321660000 1.230199e-005 -4.816367e-007 -2.623464e-001 8.282886e-001 -1.882826e-005 -1.117809e-006 -2.634260e-001 8.317497e-001
321945000 3.968159e-006 -7.480125e-006 -2.379527e-001 8.411039e-001 -1.068479e-005 -1.146883e-005 -2.389970e-001 8.446581e-001
322230000 8.682676e-006 -1.697935e-005 -2.128507e-001 8.534168e-001 9.579817e-007 -1.305206e-005 -2.137684e-001 8.569016e-001
322515000 1.809776e-006 1.577824e-006 -1.869746e-001 8.651308e-001 2.824644e-006 -2.605805e-005 -1.876902e-001 8.686172e-001
322800000 -7.566745e-006 1.310885e-005 -1.603350e-001 8.762181e-001 -3.795309e-006 -2.509089e-005 -1.609857e-001 8.797768e-001
323085000 -1.971228e-006 -3.531199e-006 -1.329741e-001 8.864636e-001 7.161057e-006 -1.796827e-005 -1.335493e-001 8.901624e-001
323370000 -9.021210e-007 2.027363e-006 -1.047598e-001 8.960747e-001 5.941463e-006 -1.381563e-005 -1.052503e-001 8.997812e-001
323655000 -3.176177e-006 -7.485367e-006 -7.589048e-002 9.048466e-001 1.536380e-005 -1.211389e-006 -7.628536e-002 9.085590e-001
323940000 -6.126461e-006 6.265620e-006 -4.632655e-002 9.127129e-001 -9.963649e-007 2.058002e-007 -4.643948e-002 9.166148e-001
324225000 -1.190248e-005 -8.634866e-006 -1.594502e-002 9.196264e-001 2.763840e-006 6.239125e-006 -1.602963e-002 9.235002e-001
324510000 -5.378360e-006 -1.439971e-006 1.500630e-002 9.255797e-001 -8.767057e-007 1.163607e-006 1.522209e-002 9.294857e-001
324795000 -2.627798e-006 -2.891230e-006 4.686567e-002 9.305059e-001 5.471200e-006 3.990465e-006 4.695310e-002 9.344510e-001
325080000 -1.199451e-005 3.223659e-006 7.910860e-002 9.342870e-001 -9.885449e-006 -2.563719e-006 7.950199e-002 9.382007e-001
325365000 -1.619961e-005 -1.086872e-005 1.122003e-001 9.369074e-001 -1.212618e-005 5.527986e-006 1.126740e-001 9.408548e-001
325650000 -7.789655e-006 -1.583727e-005 1.457315e-001 9.382645e-001 -1.892382e-005 -1.123430e-005 1.462933e-001 9.422397e-001
325935000 -1.039436e-005 -1.003585e-005 1.797190e-001 9.383237e-001 1.453661e-006 1.016140e-005 1.804741e-001 9.422571e-001
326220000 1.161018e-005 -5.865648e-006 2.142765e-001 9.370714e-001 -7.365636e-006 -6.743539e-006 2.151584e-001 9.409300e-001
326505000 -1.148831e-005 -2.359248e-005 2.492192e-001 9.341748e-001 -1.362762e-005 -1.588841e-005 2.501879e-001 9.381800e-001
326790000 1.591347e-006 -1.863871e-005 2.844621e-001 9.300245e-001 -7.331048e-006 -1.337474e-005 2.856378e-001 9.339600e-001
327075000 -2.325556e-006 -2.014206e-005 3.199449e-001 9.242005e-001 -1.205264e-005 -1.598938e-005 3.212321e-001 9.281189e-001
327360000 -1.527020e-006 -1.936389e-005 3.555631e-001 9.168710e-001 1.207869e-005 -1.176877e-006 3.571334e-001 9.207323e-001
327645000 1.958938e-006 -2.532081e-005 3.913739e-001 9.078584e-001 -2.469092e-006 -3.419127e-006 3.929895e-001 9.116676e-001
327930000 -5.956689e-006 -8.882765e-006 4.271816e-001 8.970653e-001 6.047611e-006 2.580626e-006 4.288762e-001 9.008389e-001
328215000 1.365991e-005 -1.118578e-005 4.627515e-001 8.846148e-001 -5.281536e-007 -2.490098e-005 4.646544e-001 8.884620e-001
328500000 1.778061e-005 -3.062597e-006 4.982057e-001 8.704101e-001 -1.155462e-005 -6.987242e-006 5.002702e-001 8.741894e-001
328785000 -9.451578e-006 1.600903e-005 5.331845e-001 8.545650e-001 -6.386093e-006 -1.195345e-005 5.355483e-001 8.582356e-001
329070000 1.210105e-005 -1.420769e-005 5.678380e-001 8.368838e-001 -8.367349e-006 -2.463827e-007 5.702258e-001 8.404375e-001
329355000 8.345789e-006 -3.248641e-006 6.020743e-001 8.173495e-001 -7.772121e-006 7.519652e-006 6.044890e-001 8.209209e-001
329640000 2.322820e-006 8.506848e-006 6.353546e-001 7.961802e-001 -3.677199e-006 -1.256745e-005 6.381174e-001 7.996213e-001
329925000 -3.570183e-006 -5.988186e-006 6.679019e-001 7.732558e-001 -9.219509e-006 -7.891921e-006 6.708215e-001 7.766467e-001
330210000 -1.599876e-006 -2.219621e-005 6.995999e-001 7.486494e-001 9.283756e-007 -1.410416e-006 7.027007e-001 7.518526e-001
330495000 -2.499247e-006 -1.626536e-005 7.302507e-001 7.224107e-001 -9.709248e-006 -1.190509e-005 7.333482e-001 7.255844e-001
330780000 1.039126e-005 -2.266698e-005 7.596602e-001 6.946171e-001 3.283443e-006 -2.669784e-006 7.628980e-001 6.975738e-001
331065000 -2.046689e-006 4.301867e-006 7.878615e-001 6.652687e-001 -1.002584e-005 -9.436300e-006 7.912058e-001 6.681786e-001
331350000 8.048680e-006 1.482882e-005 8.146662e-001 6.344988e-001 -6.189353e-006 -1.315337e-005 8.181329e-001 6.371841e-001
331635000 -2.857905e-006 1.351510e-005 8.398845e-001 6.022745e-001 -1.036873e-005 -1.450170e-005 8.435535e-001 6.049827e-001
331920000 -1.373123e-006 9.981585e-006 8.636889e-001 5.688918e-001 -5.987458e-006 -5.099400e-006 8.674207e-001 5.714356e-001
332205000 2.140240e-006 1.148556e-005 8.857901e-001 5.343441e-001 -1.532218e-005 6.704296e-006 8.895890e-001 5.366520e-001
332490000 -1.972842e-006 9.764972e-006 9.061012e-001 4.987880e-001 -2.217705e-005 -5.795914e-006 9.100716e-001 5.009446e-001
332775000 -9.650631e-007 7.840943e-006 9.246351e-001 4.622082e-001 -1.014766e-006 -3.029630e-006 9.286894e-001 4.642331e-001
333060000 3.182115e-006 6.305752e-006 9.413764e-001 4.249364e-001 -1.342147e-005 6.410130e-006 9.454795e-001 4.267907e-001
333345000 4.291265e-006 1.119133e-005 9.561689e-001 3.870209e-001 -1.160431e-005 2.412593e-006 9.604369e-001 3.885871e-001
333630000 7.611936e-007 4.962283e-006 9.691908e-001 3.485846e-001 -1.098131e-005 1.232108e-005 9.733436e-001 3.500438e-001
333915000 -4.298178e-006 5.722294e-006 9.800834e-001 3.095820e-001 -9.148989e-006 -1.275555e-005 9.843891e-001 3.110239e-001
334200000 -1.653116e-006 5.795169e-006 9.890719e-001 2.704828e-001 -1.045038e-005 1.500710e-006 9.933681e-001 2.716140e-001
334485000 5.655555e-006 -1.014507e-005 9.962262e-001 2.311502e-001 -1.236375e-005 4.264557e-006 1.000568e+000 2.321469e-001
334770000 2.267670e-006 -6.552077e-006 1.001475e+000 1.917740e-001 -5.409430e-006 6.308592e-006 1.005756e+000 1.926585e-001
335055000 3.535724e-006 -3.065113e-006 1.004684e+000 1.525768e-001 5.653183e-006 2.226745e-006 1.009154e+000 1.532473e-001
335340000 1.409154e-005 -9.677246e-007 1.006130e+000 1.136033e-001 -4.649617e-007 3.228993e-006 1.010571e+000 1.140750e-001
335625000 1.034250e-006 -2.934193e-007 1.005764e+000 7.492390e-002 -9.809122e-006 -1.102724e-005 1.010100e+000 7.532404e-002
335910000 9.388821e-006 6.479481e-006 1.003602e+000 3.685032e-002 -3.896662e-006 3.493941e-006 1.007953e+000 3.697486e-002
336195000 1.082939e-005 1.788650e-005 9.998922e-001 -8.534085e-004 -1.198639e-007 -5.669990e-006 1.004133e+000 -7.992923e-004
336480000 -5.103452e-006 -2.137747e-006 9.943173e-001 -3.792208e-002 -6.226490e-008 -6.826994e-007 9.986300e-001 -3.804255e-002
336765000 -1.015622e-005 1.699456e-005 9.873809e-001 -7.423792e-002 -5.659831e-006 -3.849638e-006 9.916629e-001 -7.452868e-002
337050000 -7.237504e-006 8.286285e-006 9.789440e-001 -1.097958e-001 -3.500134e-007 -2.759505e-006 9.832181e-001 -1.102173e-001
337335000 1.114549e-006 4.268987e-006 9.691310e-001 -1.445256e-001 1.686587e-006 -8.517771e-006 9.734307e-001 -1.451988e-001
337620000 4.860774e-006 1.638548e-005 9.579898e-001 -1.783647e-001 1.144847e-005 -1.618773e-005 9.621464e-001 -1.792223e-001
337905000 -9.294205e-006 -1.302608e-006 9.455999e-001 -2.113184e-001 2.044196e-006 1.228707e-005 9.497690e-001 -2.122408e-001
338190000 -4.885047e-006 -2.389775e-006 9.321482e-001 -2.432267e-001 -1.352402e-005 4.308692e-006 9.361656e-001 -2.442758e-001
338475000 1.623930e-005 -9.652378e-006 9.176527e-001 -2.742083e-001 -8.542203e-006 5.517988e-006 9.215121e-001 -2.754019e-001
338760000 -5.632510e-006 -3.483280e-007 9.020969e-001 -3.041408e-001 9.384817e-006 6.585683e-006 9.059438e-001 -3.054494e-001
339045000 2.278122e-006 2.674018e-006 8.856884e-001 -3.329801e-001 -3.777982e-006 7.356974e-006 8.894489e-001 -3.343708e-001
339330000 -3.398454e-006 -4.673978e-007 8.684428e-001 -3.607386e-001 -6.641590e-006 -6.649665e-006 8.720960e-001 -3.622346e-001
339615000 -1.069924e-005 1.142610e-005 8.503554e-001 -3.874873e-001 8.548118e-006 6.944108e-006 8.540247e-001 -3.891613e-001
339900000 -4.271503e-006 3.367539e-006 8.315887e-001 -4.132007e-001 1.030177e-005 6.782200e-006 8.351408e-001 -4.149552e-001
340185000 -6.110926e-006 2.169902e-006 8.123881e-001 -4.378572e-001 -3.497875e-006 7.624287e-006 8.157678e-001 -4.396453e-001
340470000 -5.481285e-006 -4.042492e-006 7.925190e-001 -4.613579e-001 -1.050625e-005 8.995222e-006 7.958868e-001 -4.632883e-001
340755000 -2.053991e-006 9.615258e-006 7.721825e-001 -4.838389e-001 -5.860788e-006 1.250431e-005 7.754839e-001 -4.859199e-001
341040000 -4.469552e-006 4.301065e-006 7.514579e-001 -5.052671e-001 -2.889672e-007 2.229357e-006 7.546520e-001 -5.074612e-001
341325000 -7.666252e-006 3.905692e-006 7.303299e-001 -5.258784e-001 1.790195e-006 1.585267e-006 7.334523e-001 -5.279988e-001
341610000 -2.883649e-006 4.545697e-006 7.088482e-001 -5.452273e-001 3.921017e-006 1.399606e-006 7.119095e-001 -5.475338e-001
341895000 -6.041129e-007 -6.247886e-006 6.872287e-001 -5.637425e-001 2.052776e-006 -2.096623e-005 6.901141e-001 -5.661287e-001
342180000 4.134899e-006 1.544481e-005 6.652440e-001 -5.812853e-001 -2.059313e-006 -2.101057e-006 6.680327e-001 -5.837237e-001
342465000 6.708744e-006 2.992957e-006 6.430891e-001 -5.978741e-001 9.785605e-007 -8.209953e-006 6.458306e-001 -6.004639e-001
342750000 -1.305444e-005 -3.583853e-006 6.208190e-001 -6.135898e-001 -8.351411e-007 -1.793034e-006 6.234808e-001 -6.160946e-001
343035000 -9.342870e-007 1.489295e-005 5.984664e-001 -6.284438e-001 -8.088504e-006 -9.107677e-007 6.009938e-001 -6.310593e-001
343320000 2.183362e-006 1.392514e-005 5.759848e-001 -6.424798e-001 9.116696e-006 1.141419e-005 5.783595e-001 -6.451179e-001
343605000 3.415332e-006 -3.851798e-006 5.534409e-001 -6.555036e-001 3.587148e-006 1.281333e-005 5.557421e-001 -6.583219e-001
343890000 1.280078e-005 1.304151e-005 5.308470e-001 -6.679626e-001 -5.731452e-006 6.687965e-006 5.331150e-001 -6.708100e-001
