!Agilent Technologies,N5230C,SG49000117,A.08.50.07
!Agilent N5230C: A.08.50.07
!Date: Sunday, March 17, 2024 09:20:07
!Correction: S11(Off) 
!S21(Off) 
!S12(Off) 
!S22(Full 1 Port(2)) 
!S2P File: Measurements: S11, S21, S12, S22:
# Hz S  RI   R 50
300000000 1.552363e-005 2.695341e-005 -6.148666e-001 -6.606335e-001 3.654826e-005 8.311995e-005 1.015827e+000 -1.350017e-001
300285000 -1.168965e-004 4.171489e-005 -6.304716e-001 -6.373888e-001 -4.447949e-005 7.122810e-005 1.015161e+000 -1.364785e-001
300570000 5.082113e-005 -2.206706e-005 -6.456901e-001 -6.138064e-001 -3.928087e-005 -4.004709e-005 1.017610e+000 -1.365237e-001
300855000 -4.890008e-005 -1.886940e-005 -6.597552e-001 -5.907353e-001 -3.004444e-005 3.595936e-005 1.018245e+000 -1.359267e-001
301140000 2.809654e-005 -2.892952e-005 -6.725725e-001 -5.665612e-001 -7.261052e-005 -4.999912e-005 1.016555e+000 -1.373035e-001
301425000 4.467367e-005 1.001849e-004 -6.851515e-001 -5.431409e-001 5.368609e-005 -3.623748e-005 1.017447e+000 -1.369596e-001
301710000 -2.145476e-005 6.584982e-005 -6.962769e-001 -5.200014e-001 2.086650e-005 6.867995e-006 1.017812e+000 -1.380974e-001
301995000 9.447180e-005 -5.563559e-006 -7.070095e-001 -4.960778e-001 -3.223988e-005 -1.291874e-004 1.016366e+000 -1.367940e-001
302280000 1.037387e-005 6.055070e-005 -7.172069e-001 -4.725045e-001 -3.268344e-005 3.308353e-005 1.016846e+000 -1.366948e-001
302565000 -1.496549e-005 -3.327833e-006 -7.266520e-001 -4.487393e-001 -1.396254e-005 8.955927e-005 1.018567e+000 -1.364402e-001
302850000 -1.100470e-005 2.595540e-005 -7.350314e-001 -4.256963e-001 5.117845e-005 5.541687e-005 1.017993e+000 -1.355962e-001
303135000 -8.981025e-005 1.058969e-004 -7.429529e-001 -4.023466e-001 -6.800801e-005 1.970970e-005 1.017404e+000 -1.374589e-001
303420000 -2.048539e-005 -1.251581e-004 -7.498268e-001 -3.793859e-001 9.778892e-005 -3.905217e-006 1.017546e+000 -1.382662e-001
303705000 -4.081637e-005 2.299102e-005 -7.558138e-001 -3.563163e-001 -4.041033e-005 7.676973e-005 1.017353e+000 -1.376741e-001
303990000 -1.000422e-004 1.677222e-005 -7.619823e-001 -3.339128e-001 1.836642e-005 1.150121e-004 1.016843e+000 -1.382054e-001
304275000 2.807362e-005 -6.660342e-006 -7.667985e-001 -3.107159e-001 -6.690929e-005 6.911610e-005 1.017894e+000 -1.372292e-001
304560000 -5.332475e-005 6.047760e-006 -7.720453e-001 -2.881441e-001 -9.138318e-005 -2.162745e-005 1.017659e+000 -1.377177e-001
304845000 1.576312e-005 3.473823e-005 -7.757025e-001 -2.657724e-001 -2.239983e-005 -1.275785e-005 1.016053e+000 -1.376794e-001
305130000 5.275189e-005 -1.468343e-004 -7.790905e-001 -2.432366e-001 3.894863e-005 5.759676e-005 1.016442e+000 -1.378336e-001
305415000 -9.892467e-006 -1.461396e-006 -7.825810e-001 -2.211384e-001 -1.156741e-004 -5.125813e-005 1.017676e+000 -1.385321e-001
305700000 1.250848e-006 3.146013e-005 -7.847916e-001 -1.991764e-001 -6.843679e-005 -4.600795e-005 1.018158e+000 -1.382423e-001
305985000 -5.701543e-005 4.896014e-005 -7.870834e-001 -1.775121e-001 1.804780e-005 2.476999e-006 1.016721e+000 -1.385431e-001
306270000 2.874146e-005 2.478882e-005 -7.883267e-001 -1.553787e-001 1.741601e-006 -1.781369e-005 1.019324e+000 -1.375519e-001
306555000 6.190059e-006 5.310010e-005 -7.895995e-001 -1.333046e-001 8.897856e-005 6.496519e-006 1.017649e+000 -1.406718e-001
306840000 3.186741e-005 5.404030e-005 -7.898523e-001 -1.119130e-001 6.765965e-005 2.505362e-005 1.016871e+000 -1.389695e-001
307125000 8.039857e-005 6.905631e-005 -7.899263e-001 -9.052408e-002 7.701772e-005 -3.422852e-005 1.016367e+000 -1.379973e-001
307410000 -4.450316e-005 3.722646e-005 -7.895218e-001 -6.986587e-002 1.020465e-004 4.992435e-005 1.017385e+000 -1.394232e-001
307695000 -3.610703e-006 1.622233e-004 -7.886932e-001 -4.828238e-002 1.364027e-004 2.377010e-005 1.017470e+000 -1.402752e-001
307980000 -2.844634e-005 -2.489961e-005 -7.881333e-001 -2.762142e-002 2.824870e-005 4.061937e-005 1.015803e+000 -1.397557e-001
308265000 -1.799459e-004 -2.073484e-005 -7.866716e-001 -6.677572e-003 -2.266604e-005 7.388455e-005 1.015707e+000 -1.405203e-001
308550000 -3.753575e-005 1.133850e-004 -7.842352e-001 1.354673e-002 5.465302e-005 2.459113e-005 1.015569e+000 -1.391012e-001
308835000 -8.600142e-006 1.831306e-005 -7.820615e-001 3.366577e-002 -1.930496e-006 9.453970e-005 1.016086e+000 -1.410938e-001
309120000 -1.532296e-005 7.435262e-005 -7.795824e-001 5.456311e-002 3.257260e-005 3.002105e-005 1.018589e+000 -1.409481e-001
309405000 1.539772e-005 6.622673e-005 -7.762508e-001 7.445420e-002 -6.533523e-006 2.496792e-005 1.019477e+000 -1.397580e-001
309690000 -7.302122e-006 8.935684e-006 -7.728998e-001 9.458470e-002 -7.431507e-005 -3.334004e-005 1.018035e+000 -1.415741e-001
309975000 5.039224e-007 2.769610e-006 -7.692953e-001 1.146524e-001 -1.417632e-004 2.703557e-005 1.015804e+000 -1.416053e-001
310260000 -7.846948e-008 -4.413464e-006 -7.651433e-001 1.343927e-001 -1.157054e-004 4.770701e-005 1.020193e+000 -1.416022e-001
310545000 2.196474e-005 -1.170575e-004 -7.604415e-001 1.540156e-001 1.113254e-005 1.050522e-004 1.017283e+000 -1.414649e-001
310830000 -3.057921e-005 1.904730e-005 -7.559693e-001 1.734329e-001 -1.520656e-004 -2.277037e-006 1.019793e+000 -1.414501e-001
311115000 7.577150e-005 -1.313065e-004 -7.504926e-001 1.929212e-001 -9.451687e-005 -2.089883e-005 1.017097e+000 -1.412052e-001
311400000 -1.482028e-006 -2.442555e-005 -7.449687e-001 2.127329e-001 -1.249304e-004 4.202099e-006 1.016981e+000 -1.424176e-001
311685000 -3.930347e-006 3.741886e-005 -7.392750e-001 2.317690e-001 -1.386366e-005 -1.385916e-004 1.017158e+000 -1.418831e-001
311970000 8.750187e-005 -1.645391e-005 -7.332292e-001 2.509226e-001 -7.950680e-006 -3.718421e-005 1.016900e+000 -1.416166e-001
312255000 4.174609e-005 -3.740153e-005 -7.265348e-001 2.700832e-001 -3.824321e-005 -5.816293e-005 1.019024e+000 -1.415323e-001
312540000 5.332532e-005 7.167136e-005 -7.191721e-001 2.892559e-001 -1.291857e-004 -3.369280e-005 1.017762e+000 -1.422583e-001
312825000 1.247382e-004 5.952002e-005 -7.122734e-001 3.079307e-001 -1.128525e-004 -9.179805e-005 1.017130e+000 -1.423481e-001
313110000 3.276964e-005 2.328799e-005 -7.043774e-001 3.270668e-001 1.040811e-004 -1.757888e-004 1.016739e+000 -1.429859e-001
313395000 2.747007e-005 4.987712e-006 -6.965500e-001 3.455651e-001 2.948710e-006 -5.566274e-005 1.016821e+000 -1.424005e-001
313680000 -3.333376e-005 -6.974431e-007 -6.876671e-001 3.641607e-001 8.480982e-005 -1.008722e-004 1.019119e+000 -1.433451e-001
313965000 2.157396e-005 -1.695699e-005 -6.791818e-001 3.830329e-001 -1.037785e-005 -1.141842e-004 1.018278e+000 -1.419325e-001
314250000 -1.022376e-004 -5.701551e-005 -6.700547e-001 4.014612e-001 -4.262718e-005 -6.942033e-005 1.017318e+000 -1.418078e-001
314535000 -1.820474e-005 6.156941e-006 -6.598312e-001 4.198614e-001 9.667936e-005 1.344004e-004 1.017623e+000 -1.418841e-001
314820000 -4.608804e-005 2.214232e-005 -6.498774e-001 4.385396e-001 2.327024e-005 -3.233024e-005 1.016848e+000 -1.449862e-001
315105000 -4.375532e-005 7.157785e-005 -6.393356e-001 4.563306e-001 -1.038785e-004 1.775452e-005 1.014447e+000 -1.435350e-001
315390000 -3.424368e-005 -7.741117e-005 -6.284620e-001 4.747155e-001 6.456864e-005 2.206974e-005 1.016976e+000 -1.431024e-001
315675000 -7.824542e-007 -1.510616e-004 -6.174909e-001 4.926403e-001 5.162584e-005 -5.421097e-005 1.015791e+000 -1.426901e-001
315960000 4.758009e-005 -1.293465e-004 -6.055182e-001 5.109801e-001 4.532796e-005 -4.400930e-005 1.016356e+000 -1.431005e-001
316245000 1.129018e-004 -1.626248e-004 -5.934383e-001 5.284584e-001 -4.378980e-006 -4.517008e-005 1.016265e+000 -1.427137e-001
316530000 3.480600e-005 -5.463266e-005 -5.805950e-001 5.462264e-001 -5.700939e-005 1.094959e-004 1.016737e+000 -1.440289e-001
316815000 6.246044e-005 8.315226e-005 -5.669314e-001 5.639927e-001 -1.951529e-005 8.620584e-005 1.016157e+000 -1.419386e-001
317100000 -4.447022e-005 -2.887721e-005 -5.535894e-001 5.815399e-001 -7.578606e-005 1.440818e-005 1.015741e+000 -1.424578e-001
317385000 7.948400e-005 2.203297e-005 -5.392992e-001 5.987220e-001 -1.000335e-004 7.361266e-006 1.017131e+000 -1.426994e-001
317670000 -2.208799e-005 7.279216e-005 -5.251632e-001 6.165098e-001 -7.498930e-005 -4.937856e-005 1.018039e+000 -1.444122e-001
317955000 -2.267171e-005 2.541321e-005 -5.090449e-001 6.333262e-001 -4.798256e-005 4.940202e-006 1.019334e+000 -1.431194e-001
318240000 -1.528508e-005 5.233350e-005 -4.934010e-001 6.503239e-001 -2.437121e-005 -1.578594e-005 1.017072e+000 -1.431566e-001
318525000 3.218973e-005 7.001931e-005 -4.767074e-001 6.669856e-001 -4.579720e-005 1.987584e-005 1.017065e+000 -1.442779e-001
318810000 -2.320144e-005 1.569155e-004 -4.596768e-001 6.840564e-001 -6.950086e-005 -5.709074e-005 1.017168e+000 -1.442722e-001
319095000 -6.176162e-005 7.712025e-005 -4.415589e-001 6.999473e-001 -8.568033e-005 1.189130e-005 1.016628e+000 -1.446643e-001
319380000 -1.407796e-005 -4.930442e-005 -4.236619e-001 7.164576e-001 -8.270772e-005 -7.665684e-006 1.016603e+000 -1.452812e-001
319665000 -7.842797e-005 4.401282e-005 -4.044854e-001 7.316980e-001 -5.066227e-005 -8.317419e-005 1.018848e+000 -1.446237e-001
319950000 -3.367226e-005 8.016955e-005 -3.853096e-001 7.473197e-001 -4.918417e-005 -2.069088e-005 1.019058e+000 -1.467636e-001
320235000 3.071084e-005 -1.285217e-005 -3.645350e-001 7.627099e-001 -2.426655e-005 3.286794e-006 1.018392e+000 -1.467364e-001
320520000 -2.083176e-005 -3.119710e-006 -3.435308e-001 7.774263e-001 4.952313e-005 -3.254027e-005 1.017351e+000 -1.459512e-001
320805000 4.842198e-005 -3.140637e-005 -3.218533e-001 7.914360e-001 1.425706e-004 6.435165e-006 1.015806e+000 -1.465946e-001
321090000 1.504362e-005 1.670648e-005 -2.994056e-001 8.053881e-001 7.708323e-005 -2.424583e-005 1.016206e+000 -1.449464e-001
321375000 2.052664e-005 2.580983e-005 -2.765033e-001 8.192815e-001 1.649177e-005 4.497415e-005 1.017930e+000 -1.448645e-001
321660000 2.327470e-005 5.041357e-006 -2.525189e-001 8.321807e-001 1.466168e-005 -1.104607e-005 1.016461e+000 -1.463403e-001
321945000 1.311113e-004 -8.622796e-005 -2.279305e-001 8.451916e-001 -2.418603e-005 6.614192e-005 1.017547e+000 -1.463109e-001
322230000 1.117466e-004 2.315966e-005 -2.026605e-001 8.575979e-001 2.439494e-005 -1.111598e-004 1.016623e+000 -1.468196e-001
322515000 4.269858e-005 7.116171e-005 -1.760627e-001 8.687763e-001 1.173810e-004 -2.821028e-005 1.016635e+000 -1.468957e-001
322800000 2.507281e-005 -2.745099e-005 -1.495395e-001 8.797309e-001 4.191847e-006 -8.823866e-005 1.019530e+000 -1.463872e-001
323085000 1.176781e-005 -1.472271e-005 -1.219597e-001 8.895834e-001 3.123506e-005 -9.645483e-005 1.017048e+000 -1.476933e-001
323370000 -1.195056e-004 4.746045e-005 -9.308083e-002 8.987256e-001 -9.194768e-006 -1.143098e-005 1.017303e+000 -1.459642e-001
323655000 -9.653199e-005 2.569008e-005 -6.407295e-002 9.069979e-001 -5.027576e-005 1.644886e-005 1.017253e+000 -1.488340e-001
323940000 -8.032951e-005 1.442681e-005 -3.413748e-002 9.142524e-001 -4.723241e-005 8.353994e-006 1.018270e+000 -1.478505e-001
324225000 -5.262551e-005 4.066254e-005 -4.102307e-003 9.208432e-001 7.069380e-006 1.161997e-005 1.016273e+000 -1.478422e-001
324510000 2.239796e-005 2.840709e-005 2.734859e-002 9.266309e-001 3.562003e-005 4.293032e-005 1.017666e+000 -1.485020e-001
324795000 -3.648078e-005 7.006395e-005 5.961595e-002 9.313569e-001 3.593782e-005 8.715058e-005 1.017353e+000 -1.481652e-001
325080000 -4.313822e-005 -1.348294e-005 9.186939e-002 9.346489e-001 8.837053e-005 4.411940e-005 1.017157e+000 -1.479541e-001
325365000 -5.687391e-005 -7.661501e-005 1.249747e-001 9.371383e-001 -3.859478e-005 5.214270e-005 1.018119e+000 -1.481747e-001
325650000 -5.368306e-005 -7.999856e-006 1.589222e-001 9.375570e-001 -1.577105e-004 3.243664e-005 1.017558e+000 -1.469264e-001
325935000 1.030820e-005 2.105263e-005 1.935585e-001 9.367769e-001 -1.137090e-004 -5.188950e-007 1.017714e+000 -1.481660e-001
326220000 -1.411141e-005 -1.613760e-005 2.267308e-001 9.355220e-001 -7.490148e-005 4.068076e-005 1.017648e+000 -1.493631e-001
326505000 1.594396e-005 -4.210781e-005 2.626925e-001 9.319269e-001 -7.306208e-005 8.680025e-005 1.017431e+000 -1.498816e-001
326790000 -1.338382e-004 -6.166140e-005 2.980425e-001 9.272486e-001 -7.769569e-005 -7.750603e-005 1.016171e+000 -1.477200e-001
327075000 1.007857e-004 -1.632884e-005 3.333924e-001 9.205527e-001 3.499330e-005 -4.154899e-005 1.016163e+000 -1.494870e-001
327360000 4.546067e-005 4.819343e-005 3.688863e-001 9.129527e-001 -3.095764e-005 -7.369310e-005 1.018457e+000 -1.488436e-001
327645000 1.926768e-005 3.369876e-005 4.042659e-001 9.028834e-001 -3.786788e-007 3.605493e-005 1.017736e+000 -1.498825e-001
327930000 1.633622e-004 -3.770859e-005 4.407181e-001 8.919840e-001 7.320048e-005 -7.845865e-005 1.016828e+000 -1.495358e-001
328215000 1.138086e-004 1.013653e-004 4.760604e-001 8.788323e-001 2.717569e-005 -6.199977e-006 1.017005e+000 -1.495824e-001
328500000 -3.057694e-005 -4.525511e-006 5.114377e-001 8.630399e-001 -5.165236e-005 -1.933920e-005 1.016317e+000 -1.504872e-001
328785000 -7.851192e-005 1.363784e-004 5.464379e-001 8.473050e-001 -1.558919e-005 1.648141e-005 1.016856e+000 -1.483572e-001
329070000 -1.685537e-005 -5.087649e-005 5.805405e-001 8.288918e-001 5.549747e-005 2.942852e-006 1.017202e+000 -1.485219e-001
329355000 -5.485653e-005 -1.159220e-005 6.142385e-001 8.087438e-001 9.986131e-006 -1.623714e-005 1.016141e+000 -1.503769e-001
329640000 2.503222e-004 -1.560567e-005 6.477517e-001 7.866365e-001 -3.797277e-005 -8.091592e-006 1.017206e+000 -1.512233e-001
329925000 -5.752759e-005 6.467842e-005 6.799642e-001 7.636281e-001 -1.436242e-005 1.342101e-005 1.017075e+000 -1.512162e-001
330210000 6.004479e-006 6.062502e-005 7.109851e-001 7.380921e-001 -4.648827e-005 1.780827e-005 1.015952e+000 -1.505325e-001
330495000 9.310328e-006 -2.484454e-005 7.419639e-001 7.114034e-001 -1.132461e-004 4.423117e-005 1.017420e+000 -1.507872e-001
330780000 4.052463e-005 -1.692447e-005 7.705485e-001 6.827439e-001 -1.905677e-005 -8.795218e-006 1.017797e+000 -1.523079e-001
331065000 1.169151e-004 1.532806e-005 7.979232e-001 6.533249e-001 2.735154e-006 4.947003e-005 1.016313e+000 -1.507408e-001
331350000 9.835881e-005 1.514234e-005 8.237839e-001 6.217707e-001 -2.848647e-005 1.897459e-005 1.016162e+000 -1.517138e-001
331635000 -7.281256e-006 3.182075e-005 8.488786e-001 5.893422e-001 -6.425501e-005 -1.094731e-004 1.018063e+000 -1.509120e-001
331920000 4.946907e-005 7.793983e-005 8.717898e-001 5.557868e-001 -1.002738e-004 -6.927249e-005 1.017619e+000 -1.513242e-001
332205000 -3.228473e-005 2.074097e-005 8.932704e-001 5.201235e-001 -7.890818e-005 -4.976563e-005 1.016899e+000 -1.522737e-001
332490000 4.665852e-005 -7.607520e-006 9.132474e-001 4.841691e-001 2.663165e-005 -6.763868e-005 1.017038e+000 -1.512460e-001
332775000 2.751193e-005 -1.099439e-004 9.310257e-001 4.478310e-001 -2.153376e-005 -2.047388e-005 1.017274e+000 -1.515178e-001
333060000 4.560022e-005 6.107009e-005 9.463605e-001 4.096766e-001 7.243974e-005 -9.832648e-005 1.017229e+000 -1.528822e-001
333345000 -3.931620e-005 -6.857680e-005 9.610749e-001 3.714305e-001 3.319992e-005 4.914071e-007 1.018151e+000 -1.513287e-001
333630000 1.030034e-005 -4.060156e-005 9.729742e-001 3.329214e-001 -8.021781e-005 -1.609538e-004 1.016983e+000 -1.527587e-001
333915000 -3.786359e-005 8.203636e-005 9.832722e-001 2.948600e-001 1.197878e-005 1.169608e-004 1.016667e+000 -1.521749e-001
334200000 -3.882576e-005 5.906552e-005 9.916787e-001 2.551213e-001 -6.886580e-005 -1.524027e-005 1.017632e+000 -1.528714e-001
334485000 5.005628e-005 -2.331242e-005 9.981461e-001 2.152902e-001 -3.362761e-005 3.102938e-005 1.017570e+000 -1.527763e-001
334770000 -1.552881e-005 -2.122151e-005 1.002532e+000 1.764009e-001 8.066189e-006 -1.506728e-005 1.018290e+000 -1.530504e-001
335055000 -1.810919e-004 1.174139e-004 1.005875e+000 1.374823e-001 -6.720635e-005 -8.738801e-006 1.017805e+000 -1.524738e-001
335340000 -1.172783e-005 1.407188e-005 1.006274e+000 9.809053e-002 1.416787e-005 2.889254e-005 1.017762e+000 -1.540208e-001
335625000 -5.785626e-005 1.206951e-004 1.005089e+000 5.972829e-002 -1.027957e-005 -5.984972e-005 1.018108e+000 -1.541639e-001
335910000 -9.081315e-005 8.793243e-005 1.002178e+000 2.173904e-002 3.953499e-005 -2.419256e-005 1.017433e+000 -1.531605e-001
336195000 7.693713e-005 -3.259835e-005 9.975972e-001 -1.558462e-002 -1.047578e-004 4.233619e-005 1.015555e+000 -1.537938e-001
336480000 -7.959448e-005 -1.251753e-005 9.918013e-001 -5.190761e-002 -5.856370e-005 -8.451592e-005 1.017105e+000 -1.529536e-001
336765000 5.416708e-005 -3.100622e-005 9.843324e-001 -8.863816e-002 6.552737e-005 -1.426163e-005 1.017831e+000 -1.539965e-001
337050000 -8.578561e-006 -6.340817e-005 9.752073e-001 -1.239994e-001 3.222236e-005 2.035703e-006 1.018075e+000 -1.533425e-001
337335000 3.325725e-005 -1.889848e-005 9.642779e-001 -1.582318e-001 2.784068e-005 -4.551733e-005 1.017198e+000 -1.558512e-001
337620000 -3.927716e-005 -1.104172e-004 9.530967e-001 -1.914839e-001 2.204108e-005 -8.627965e-006 1.016573e+000 -1.550447e-001
337905000 -1.009304e-004 -3.973097e-005 9.404836e-001 -2.247481e-001 9.278865e-005 2.081512e-005 1.015149e+000 -1.524656e-001
338190000 -6.388519e-005 -2.268218e-005 9.261668e-001 -2.556942e-001 -8.421468e-005 -4.244353e-005 1.016975e+000 -1.543939e-001
338475000 2.444686e-006 -1.241962e-004 9.109120e-001 -2.865779e-001 5.573774e-005 1.682042e-005 1.016875e+000 -1.540055e-001
338760000 7.509417e-007 5.159705e-006 8.954790e-001 -3.152069e-001 3.662866e-005 1.124894e-006 1.017352e+000 -1.547805e-001
339045000 8.457435e-005 6.794255e-005 8.783886e-001 -3.442787e-001 -7.870608e-006 -1.214295e-004 1.017124e+000 -1.545650e-001
339330000 6.027535e-005 -9.726516e-005 8.611687e-001 -3.714786e-001 1.207120e-005 8.259094e-005 1.018246e+000 -1.538358e-001
339615000 1.259960e-005 -5.651324e-005 8.426121e-001 -3.978654e-001 4.249821e-005 -4.876403e-005 1.017773e+000 -1.547196e-001
339900000 5.228595e-005 -6.242719e-005 8.232599e-001 -4.233041e-001 -1.524692e-005 -1.174099e-004 1.016164e+000 -1.554342e-001
340185000 7.663843e-005 2.629025e-005 8.042894e-001 -4.473713e-001 -2.317277e-005 -1.342195e-004 1.015913e+000 -1.554799e-001
340470000 -3.177790e-005 -5.165516e-005 7.837765e-001 -4.703160e-001 2.995836e-005 -1.254479e-004 1.017344e+000 -1.552947e-001
340755000 5.253136e-005 5.188821e-005 7.634721e-001 -4.933436e-001 3.278104e-005 -5.352365e-005 1.016835e+000 -1.567979e-001
341040000 3.908015e-005 4.310661e-005 7.422273e-001 -5.141211e-001 -1.839973e-006 -4.642263e-005 1.016939e+000 -1.574864e-001
341325000 -8.498178e-006 -5.459058e-006 7.211461e-001 -5.341100e-001 9.670586e-005 -7.390110e-005 1.018701e+000 -1.556168e-001
341610000 2.432166e-005 -5.119021e-005 7.000992e-001 -5.530425e-001 -4.812950e-005 -3.894679e-005 1.017989e+000 -1.537123e-001
341895000 1.141363e-005 -2.015913e-005 6.783698e-001 -5.714107e-001 1.800865e-006 6.900365e-005 1.016287e+000 -1.566175e-001
342180000 -9.825008e-005 2.438108e-005 6.558664e-001 -5.884368e-001 2.462730e-005 7.221214e-005 1.018520e+000 -1.565769e-001
342465000 -3.725578e-005 1.071209e-005 6.338681e-001 -6.050211e-001 -7.145926e-005 8.117261e-005 1.016798e+000 -1.579148e-001
342750000 -1.389394e-005 -9.806598e-005 6.115761e-001 -6.194856e-001 -7.913763e-005 4.696410e-005 1.018844e+000 -1.556608e-001
343035000 -3.263415e-006 -4.043212e-005 5.888154e-001 -6.342859e-001 -6.552398e-005 7.207916e-005 1.015873e+000 -1.582309e-001
343320000 2.755014e-005 -5.295090e-005 5.662947e-001 -6.477654e-001 -4.598180e-005 -3.576919e-005 1.016071e+000 -1.559412e-001
343605000 5.800738e-005 -8.473235e-005 5.435488e-001 -6.608938e-001 -3.136543e-005 1.912006e-005 1.016348e+000 -1.573255e-001
343890000 -2.499494e-005 -8.061688e-005 5.210768e-001 -6.730294e-001 -2.476439e-005 6.227383e-005 1.016422e+000 -1.574070e-001
