!Agilent Technologies,N5230C,SG49000117,A.08.50.07
!Agilent N5230C: A.08.50.07
!Date: Sunday, March 17, 2024 07:21:11
!Correction: S11(Off) 
!S21(Off) 
!S12(Off) 
!S22(Off) 
!S2P File: Measurements: S11, S21, S12, S22:
# Hz S  RI   R 50
300000000 -4.390522e-006 -1.571918e-005 -6.149899e-001 -6.605456e-001 1.080239e-005 -1.084332e-005 -6.171671e-001 -6.629192e-001
300285000 -1.055074e-005 1.067039e-005 -6.307259e-001 -6.374175e-001 1.384836e-005 1.605588e-005 -6.329636e-001 -6.397861e-001
300570000 -1.353322e-005 -1.907170e-005 -6.457362e-001 -6.141666e-001 8.656490e-006 2.050537e-005 -6.479874e-001 -6.163902e-001
300855000 3.047145e-006 4.811662e-006 -6.596801e-001 -5.906060e-001 -1.834615e-005 1.534045e-005 -6.622028e-001 -5.929081e-001
301140000 9.159331e-006 -7.689647e-006 -6.728718e-001 -5.670913e-001 -2.031650e-005 1.387938e-005 -6.752653e-001 -5.691339e-001
301425000 -5.511628e-006 -1.467583e-005 -6.851993e-001 -5.435033e-001 -1.903271e-007 -2.128957e-007 -6.877620e-001 -5.456316e-001
301710000 7.257026e-007 -1.439782e-005 -6.966812e-001 -5.199714e-001 9.767678e-008 -2.975390e-006 -6.993361e-001 -5.218655e-001
301995000 8.280322e-006 -6.299315e-006 -7.074228e-001 -4.963937e-001 -1.207873e-005 5.832690e-006 -7.099934e-001 -4.982132e-001
302280000 -4.208604e-007 -5.971232e-006 -7.173579e-001 -4.727950e-001 -2.444754e-005 -2.681721e-006 -7.200448e-001 -4.746701e-001
302565000 1.957457e-005 -4.377605e-006 -7.265233e-001 -4.494382e-001 -1.507827e-006 -8.409769e-006 -7.292989e-001 -4.510849e-001
302850000 9.105567e-006 -1.571242e-005 -7.349788e-001 -4.260548e-001 -7.028731e-006 -7.219749e-006 -7.377728e-001 -4.276443e-001
303135000 5.276484e-006 -5.704089e-006 -7.427278e-001 -4.027236e-001 -6.189331e-007 -1.303394e-005 -7.455923e-001 -4.042602e-001
303420000 1.151022e-005 4.134088e-006 -7.497690e-001 -3.796166e-001 -1.802256e-005 -4.455271e-006 -7.526144e-001 -3.810003e-001
303705000 -4.698322e-006 3.082262e-006 -7.562103e-001 -3.565734e-001 8.432463e-006 -6.046961e-006 -7.591515e-001 -3.578916e-001
303990000 6.748120e-006 -1.250866e-005 -7.620628e-001 -3.336920e-001 -5.734012e-006 -1.222282e-005 -7.649255e-001 -3.349235e-001
304275000 1.443085e-005 9.128941e-007 -7.672570e-001 -3.107894e-001 1.635282e-005 1.351720e-005 -7.701385e-001 -3.120383e-001
304560000 -8.626983e-006 5.733166e-006 -7.719023e-001 -2.882057e-001 -8.980957e-007 4.992483e-006 -7.748703e-001 -2.892752e-001
304845000 5.742344e-006 -6.770495e-007 -7.759714e-001 -2.657152e-001 4.318961e-006 8.544905e-007 -7.789551e-001 -2.667320e-001
305130000 -1.321535e-006 -5.064578e-007 -7.795146e-001 -2.433311e-001 1.685564e-005 -1.062683e-005 -7.824549e-001 -2.442412e-001
305415000 -5.887291e-006 1.011833e-005 -7.824673e-001 -2.211110e-001 4.162586e-006 -5.882162e-006 -7.854040e-001 -2.219344e-001
305700000 -1.516947e-005 -8.016127e-006 -7.849337e-001 -1.990301e-001 1.205409e-006 -1.055504e-005 -7.879773e-001 -1.997848e-001
305985000 -1.295529e-005 8.154953e-006 -7.868665e-001 -1.770673e-001 -8.747012e-006 -7.515175e-006 -7.898635e-001 -1.778191e-001
306270000 -3.885145e-006 -2.018965e-006 -7.883522e-001 -1.552420e-001 7.673526e-007 1.321042e-006 -7.914178e-001 -1.558622e-001
306555000 4.323076e-006 1.867186e-005 -7.893940e-001 -1.336368e-001 1.118154e-005 6.597972e-006 -7.923638e-001 -1.341855e-001
306840000 -2.626462e-005 -2.233617e-005 -7.899498e-001 -1.122416e-001 -6.755373e-006 2.091361e-005 -7.930343e-001 -1.126009e-001
307125000 6.288928e-006 -5.039978e-006 -7.900291e-001 -9.087982e-002 6.086330e-006 -3.781778e-006 -7.931209e-001 -9.114657e-002
307410000 -5.047640e-007 1.321631e-005 -7.897400e-001 -6.968702e-002 1.258906e-005 -3.539945e-006 -7.928190e-001 -7.001154e-002
307695000 9.074633e-006 -1.369213e-005 -7.891076e-001 -4.872245e-002 8.787208e-006 3.606423e-006 -7.921281e-001 -4.885940e-002
307980000 5.534150e-006 -9.789597e-006 -7.878588e-001 -2.779087e-002 5.466682e-006 -1.424173e-006 -7.909034e-001 -2.792723e-002
308265000 -2.988033e-006 -1.767726e-005 -7.863951e-001 -7.160203e-003 1.784107e-006 4.610602e-006 -7.894655e-001 -7.100334e-003
308550000 1.291977e-005 -2.361304e-005 -7.845176e-001 1.349599e-002 8.659309e-006 1.418113e-006 -7.874967e-001 1.358550e-002
308835000 -9.148028e-006 8.717615e-006 -7.822101e-001 3.391418e-002 -1.053650e-005 -2.244819e-006 -7.852746e-001 3.409384e-002
309120000 7.260785e-006 -2.214750e-005 -7.794791e-001 5.432730e-002 -1.841482e-005 -1.177109e-005 -7.825764e-001 5.447525e-002
309405000 6.160606e-007 4.620072e-006 -7.765388e-001 7.444350e-002 1.070930e-005 1.164640e-005 -7.795856e-001 7.471786e-002
309690000 -3.414197e-006 1.822387e-005 -7.731727e-001 9.449451e-002 3.522149e-006 -5.469737e-006 -7.761570e-001 9.490056e-002
309975000 1.131451e-005 1.842301e-006 -7.693312e-001 1.144843e-001 6.408659e-006 -6.911968e-006 -7.723294e-001 1.149245e-001
310260000 -9.655316e-006 5.948201e-006 -7.653002e-001 1.343028e-001 -1.748798e-005 3.354003e-006 -7.682778e-001 1.348385e-001
310545000 -6.707733e-006 4.685131e-007 -7.607964e-001 1.540101e-001 8.856221e-006 6.998584e-006 -7.638050e-001 1.546375e-001
310830000 -4.485862e-006 -4.024105e-007 -7.560391e-001 1.736111e-001 -1.016748e-005 1.251051e-006 -7.590441e-001 1.743069e-001
311115000 -5.229327e-006 -6.921581e-006 -7.507901e-001 1.930699e-001 1.101662e-005 5.343556e-006 -7.537662e-001 1.938500e-001
311400000 1.517831e-006 -9.808932e-007 -7.452697e-001 2.124499e-001 -1.500496e-005 -1.444625e-005 -7.482069e-001 2.132527e-001
311685000 9.458716e-006 1.230651e-006 -7.394186e-001 2.317677e-001 -1.272734e-005 -8.071500e-006 -7.423373e-001 2.327296e-001
311970000 -7.032515e-006 -2.437364e-005 -7.331419e-001 2.510431e-001 -4.378575e-006 3.858136e-006 -7.360684e-001 2.519519e-001
312255000 -5.269783e-006 -1.064664e-005 -7.265770e-001 2.699868e-001 -8.400843e-006 -4.875627e-007 -7.294663e-001 2.711464e-001
312540000 1.293678e-006 4.724264e-006 -7.195692e-001 2.890384e-001 -1.222521e-005 -2.001942e-005 -7.224835e-001 2.902399e-001
312825000 -6.198421e-006 1.913959e-006 -7.123486e-001 3.079340e-001 -1.431269e-005 -1.831688e-005 -7.150819e-001 3.092195e-001
313110000 -1.857798e-006 -1.478468e-005 -7.045681e-001 3.268187e-001 1.486723e-005 -4.428807e-006 -7.073985e-001 3.280980e-001
313395000 5.692932e-006 -5.990593e-006 -6.965636e-001 3.456086e-001 -5.420920e-006 -1.735944e-005 -6.993560e-001 3.469079e-001
313680000 -6.154093e-006 -1.625449e-005 -6.881307e-001 3.642926e-001 -5.825932e-006 -1.083302e-005 -6.908221e-001 3.656833e-001
313965000 -2.200482e-006 3.477031e-006 -6.791934e-001 3.828783e-001 1.189432e-005 -6.621009e-006 -6.820669e-001 3.844020e-001
314250000 2.694994e-006 -7.905698e-006 -6.700703e-001 4.014338e-001 6.360976e-006 8.092446e-008 -6.726682e-001 4.030220e-001
314535000 -1.273298e-005 1.396414e-005 -6.604455e-001 4.198058e-001 -4.892929e-006 -1.309614e-006 -6.630268e-001 4.214966e-001
314820000 -8.258673e-006 -3.091943e-006 -6.503118e-001 4.381480e-001 1.059579e-005 3.379608e-006 -6.529815e-001 4.398731e-001
315105000 -8.074058e-006 -1.347039e-005 -6.399134e-001 4.564718e-001 -1.038379e-006 -5.816200e-006 -6.423796e-001 4.582314e-001
315390000 -9.743223e-006 5.456486e-006 -6.289141e-001 4.745746e-001 -2.287853e-006 4.140321e-007 -6.316100e-001 4.764597e-001
315675000 -1.062576e-005 -7.261540e-006 -6.176950e-001 4.926223e-001 4.626197e-006 -4.433380e-007 -6.201141e-001 4.946308e-001
315960000 -4.397752e-006 -1.851403e-005 -6.057938e-001 5.107081e-001 -1.427118e-005 -8.364275e-007 -6.082579e-001 5.127282e-001
316245000 1.390951e-005 -2.175146e-005 -5.935386e-001 5.285081e-001 2.666470e-006 2.133597e-006 -5.959693e-001 5.307145e-001
316530000 1.214027e-005 -1.469634e-005 -5.808809e-001 5.463167e-001 -6.665186e-006 7.364238e-006 -5.831931e-001 5.485170e-001
316815000 -1.389912e-005 -2.521883e-005 -5.675838e-001 5.640131e-001 -1.128454e-005 -2.263535e-006 -5.698679e-001 5.662780e-001
317100000 -2.735927e-006 -4.987941e-006 -5.538397e-001 5.815436e-001 -1.032680e-005 2.981320e-006 -5.560697e-001 5.838728e-001
317385000 -5.069674e-006 5.017228e-006 -5.396080e-001 5.989839e-001 1.434903e-006 4.098817e-006 -5.416492e-001 6.013553e-001
317670000 -1.493173e-005 -1.504409e-005 -5.247356e-001 6.162283e-001 1.249647e-006 -9.965247e-006 -5.269244e-001 6.186941e-001
317955000 -2.253110e-006 1.560649e-005 -5.094539e-001 6.332816e-001 -3.670169e-006 -2.761297e-005 -5.114329e-001 6.358945e-001
318240000 7.951565e-006 -5.766538e-006 -4.934843e-001 6.502401e-001 5.738872e-007 -1.806721e-005 -4.954450e-001 6.529304e-001
318525000 -1.081254e-005 -8.800073e-006 -4.769999e-001 6.669842e-001 -2.310676e-006 -1.398353e-005 -4.789249e-001 6.697595e-001
318810000 6.147966e-007 5.113951e-006 -4.597945e-001 6.835538e-001 -1.392261e-006 -1.213385e-005 -4.617606e-001 6.863829e-001
319095000 1.001130e-005 5.201859e-006 -4.421405e-001 6.998692e-001 7.358769e-006 6.835597e-006 -4.439348e-001 7.027486e-001
319380000 -3.292299e-006 -6.077760e-007 -4.238375e-001 7.160577e-001 9.670031e-006 -7.673894e-006 -4.255388e-001 7.189349e-001
319665000 -1.794260e-006 -2.066619e-006 -4.048359e-001 7.317901e-001 3.418558e-007 1.369141e-005 -4.064261e-001 7.348366e-001
319950000 -4.587117e-006 9.657975e-007 -3.851389e-001 7.474271e-001 -7.969559e-006 3.314810e-006 -3.867446e-001 7.504506e-001
320235000 7.070613e-006 -1.909979e-006 -3.648599e-001 7.625633e-001 -4.366410e-006 -4.846238e-006 -3.663507e-001 7.656209e-001
320520000 1.114872e-005 8.650361e-006 -3.437853e-001 7.774408e-001 1.245365e-005 -1.017805e-005 -3.452322e-001 7.806289e-001
320805000 7.825719e-006 7.245034e-007 -3.220884e-001 7.919490e-001 -8.691702e-007 2.840822e-005 -3.233896e-001 7.951286e-001
321090000 8.614868e-006 -2.607931e-006 -2.996739e-001 8.060190e-001 -4.173236e-006 4.762490e-006 -3.009809e-001 8.092618e-001
321375000 -1.021289e-005 1.630160e-005 -2.764945e-001 8.196304e-001 -9.278544e-006 -4.179340e-006 -2.776541e-001 8.230577e-001
321660000 -3.438187e-006 1.107302e-005 -2.526160e-001 8.326947e-001 -5.028358e-006 2.319293e-005 -2.536090e-001 8.362067e-001
321945000 -2.795165e-006 1.049856e-005 -2.279579e-001 8.453549e-001 -3.228827e-006 -1.033240e-005 -2.289339e-001 8.488876e-001
322230000 5.877161e-006 4.545602e-006 -2.025933e-001 8.573477e-001 1.001239e-006 5.218209e-006 -2.034237e-001 8.610063e-001
322515000 8.755050e-006 -2.888638e-006 -1.764327e-001 8.688141e-001 -6.473712e-007 -2.987904e-006 -1.772487e-001 8.724654e-001
322800000 -2.372071e-005 2.886980e-006 -1.496575e-001 8.795285e-001 -2.005396e-005 1.490468e-005 -1.501268e-001 8.832155e-001
323085000 -1.139415e-005 -1.209423e-005 -1.219433e-001 8.895350e-001 -1.036895e-005 -1.275872e-005 -1.224467e-001 8.932342e-001
323370000 -2.232826e-005 7.443919e-006 -9.350589e-002 8.988397e-001 -1.002194e-005 -8.047415e-006 -9.387204e-002 9.025699e-001
323655000 -4.163551e-007 -8.522309e-006 -6.434812e-002 9.072104e-001 2.594986e-006 3.912909e-007 -6.462727e-002 9.110487e-001
323940000 -1.090999e-006 -1.387553e-005 -3.444260e-002 9.146943e-001 6.094709e-006 -8.452238e-006 -3.462898e-002 9.185806e-001
324225000 -4.419879e-006 -2.124454e-005 -3.965127e-003 9.213150e-001 2.392080e-005 -1.633512e-005 -3.932715e-003 9.252089e-001
324510000 -1.891180e-005 -6.330589e-007 2.739612e-002 9.268546e-001 -3.670690e-007 -1.020579e-006 2.741856e-002 9.307486e-001
324795000 -4.377885e-006 -5.878836e-007 5.932731e-002 9.313570e-001 -6.886534e-006 -5.806169e-006 5.956222e-002 9.352823e-001
325080000 -8.604611e-006 4.869456e-007 9.183937e-002 9.347171e-001 1.452704e-005 7.322432e-006 9.216360e-002 9.386151e-001
325365000 -4.951901e-006 -4.460864e-007 1.251038e-001 9.369003e-001 -2.094678e-005 -3.583238e-006 1.255572e-001 9.407214e-001
325650000 4.339860e-006 6.980271e-006 1.586777e-001 9.377156e-001 -1.457980e-005 7.338088e-006 1.593763e-001 9.416642e-001
325935000 3.680669e-007 1.084813e-005 1.929221e-001 9.372610e-001 -3.990871e-006 1.558018e-005 1.937244e-001 9.412153e-001
326220000 -7.463522e-006 1.617527e-005 2.276192e-001 9.353989e-001 -2.124352e-005 -7.119759e-006 2.285164e-001 9.393170e-001
326505000 -2.429417e-006 6.528225e-006 2.625844e-001 9.320632e-001 -2.258191e-005 6.984836e-007 2.636553e-001 9.360069e-001
326790000 -1.743496e-005 -2.942782e-006 2.979784e-001 9.271786e-001 -1.953115e-005 -9.476865e-006 2.990987e-001 9.310506e-001
327075000 -1.133775e-005 8.185729e-006 3.334645e-001 9.208145e-001 -1.117911e-005 7.573963e-006 3.348400e-001 9.247156e-001
327360000 1.376323e-005 1.119867e-005 3.690888e-001 9.128335e-001 9.291869e-007 -2.384301e-007 3.707355e-001 9.167553e-001
327645000 -3.259887e-007 -7.728084e-007 4.048674e-001 9.032705e-001 -5.593307e-006 -1.188776e-005 4.066728e-001 9.071076e-001
327930000 -9.736844e-006 -5.687920e-006 4.405297e-001 8.919103e-001 1.749786e-006 6.478904e-006 4.423109e-001 8.956404e-001
328215000 4.459716e-006 -4.174802e-006 4.761005e-001 8.787827e-001 7.997764e-006 -6.831761e-006 4.780156e-001 8.824958e-001
328500000 -7.648156e-006 -1.388971e-005 5.113544e-001 8.639547e-001 1.844105e-006 1.216508e-006 5.135678e-001 8.676932e-001
328785000 -4.957436e-006 1.737315e-005 5.462184e-001 8.473989e-001 -1.642505e-005 -1.172054e-005 5.486408e-001 8.510547e-001
329070000 -6.861720e-007 1.246490e-005 5.806770e-001 8.290664e-001 -7.492516e-006 3.113180e-006 5.831594e-001 8.327264e-001
329355000 -1.199642e-005 4.507507e-006 6.145051e-001 8.089821e-001 -8.197538e-006 -1.001691e-005 6.172545e-001 8.124099e-001
329640000 4.162324e-006 -3.771138e-007 6.476517e-001 7.872172e-001 -1.601649e-005 -1.050441e-005 6.504073e-001 7.905053e-001
329925000 1.207912e-005 6.609804e-006 6.797408e-001 7.635989e-001 -1.070679e-005 1.985639e-006 6.827617e-001 7.669631e-001
330210000 3.254235e-006 1.490149e-005 7.110828e-001 7.384260e-001 -2.296624e-005 -1.259235e-005 7.141688e-001 7.416252e-001
330495000 -1.357564e-005 -2.014639e-006 7.413002e-001 7.115910e-001 2.920388e-006 -8.587554e-006 7.445632e-001 7.146238e-001
330780000 -9.647211e-006 2.375624e-005 7.703195e-001 6.830941e-001 -3.697958e-006 8.234060e-006 7.735698e-001 6.861490e-001
331065000 7.352629e-006 -9.733536e-006 7.979603e-001 6.532311e-001 -1.044230e-006 -6.666437e-006 8.014467e-001 6.561201e-001
331350000 -2.728724e-006 6.813301e-006 8.241667e-001 6.219943e-001 3.573667e-006 -2.148019e-008 8.277335e-001 6.246472e-001
331635000 3.606917e-006 -1.018572e-006 8.488976e-001 5.894060e-001 4.363031e-006 1.829474e-006 8.525556e-001 5.919248e-001
331920000 2.839481e-006 -2.423355e-005 8.720538e-001 5.555832e-001 1.607658e-006 5.292758e-006 8.758876e-001 5.579381e-001
332205000 1.193514e-005 -1.240196e-005 8.934394e-001 5.206536e-001 -2.851214e-006 7.425907e-006 8.973357e-001 5.228697e-001
332490000 -6.311953e-006 -1.513591e-005 9.132053e-001 4.845915e-001 -1.430232e-005 -1.774352e-006 9.170574e-001 4.867009e-001
332775000 -1.316044e-005 -2.199758e-007 9.311196e-001 4.478278e-001 -7.612406e-006 -5.594386e-006 9.350949e-001 4.497121e-001
333060000 2.648242e-005 7.790934e-006 9.470901e-001 4.103156e-001 -1.795557e-006 5.523955e-007 9.512401e-001 4.120847e-001
333345000 -2.945143e-007 9.929882e-006 9.612008e-001 3.720056e-001 -1.606393e-005 2.506698e-005 9.654007e-001 3.737138e-001
333630000 3.815386e-006 -1.230140e-005 9.734364e-001 3.334064e-001 -1.209938e-005 1.742216e-006 9.776505e-001 3.348228e-001
333915000 -3.058153e-006 -1.093915e-005 9.836127e-001 2.943936e-001 5.542871e-006 1.700060e-006 9.879254e-001 2.956513e-001
334200000 2.098797e-005 -5.251733e-006 9.919188e-001 2.551656e-001 -1.987613e-005 1.152950e-005 9.963276e-001 2.563407e-001
334485000 1.246476e-005 -1.390503e-005 9.984310e-001 2.158407e-001 7.062101e-006 7.114877e-006 1.002761e+000 2.167060e-001
334770000 7.679230e-006 -1.720359e-006 1.002833e+000 1.764995e-001 -1.906960e-006 9.107483e-006 1.007254e+000 1.772270e-001
335055000 -5.557084e-006 -2.419202e-006 1.005472e+000 1.372348e-001 6.167738e-006 -1.848227e-006 1.009860e+000 1.379335e-001
335340000 -3.063787e-006 -2.607283e-006 1.006250e+000 9.845350e-002 -8.663737e-006 -3.176449e-006 1.010642e+000 9.882490e-002
335625000 -3.976403e-006 -5.718638e-006 1.005057e+000 5.991692e-002 6.511885e-007 5.047032e-006 1.009531e+000 6.018923e-002
335910000 1.064798e-005 -4.584334e-006 1.002331e+000 2.190211e-002 2.652033e-006 7.399438e-006 1.006825e+000 2.204709e-002
336195000 2.037927e-005 4.881784e-006 9.979416e-001 -1.546847e-002 4.899961e-006 1.032115e-005 1.002208e+000 -1.558436e-002
336480000 -1.648076e-005 1.463628e-006 9.918100e-001 -5.232439e-002 -2.191466e-005 1.686965e-007 9.961833e-001 -5.259845e-002
336765000 1.315710e-005 5.892140e-006 9.843318e-001 -8.843718e-002 5.576790e-006 -5.415882e-006 9.886333e-001 -8.880723e-002
337050000 -4.099554e-006 -1.340638e-005 9.753056e-001 -1.236738e-001 -1.432626e-005 4.290120e-006 9.795908e-001 -1.241550e-001
337335000 -4.197940e-006 -3.475884e-007 9.649150e-001 -1.581712e-001 -6.428701e-006 4.020919e-006 9.692253e-001 -1.588504e-001
337620000 2.949141e-006 8.507058e-006 9.534463e-001 -1.916117e-001 4.120807e-007 -3.923395e-006 9.575852e-001 -1.923718e-001
337905000 1.479731e-006 1.812757e-005 9.405147e-001 -2.242353e-001 -1.688004e-006 -1.010226e-005 9.445830e-001 -2.252803e-001
338190000 -4.876777e-006 6.397676e-006 9.266034e-001 -2.557861e-001 1.957044e-006 -1.168364e-005 9.306893e-001 -2.569140e-001
338475000 6.710755e-006 2.499186e-006 9.116886e-001 -2.863968e-001 -1.103263e-005 8.558127e-007 9.155526e-001 -2.876629e-001
338760000 4.359167e-006 1.692996e-005 8.957080e-001 -3.159829e-001 -7.401211e-006 -6.474939e-006 8.995202e-001 -3.173104e-001
339045000 -1.484525e-005 -7.426276e-006 8.788625e-001 -3.444104e-001 -9.453182e-006 9.211525e-007 8.827406e-001 -3.459073e-001
339330000 -7.813584e-006 7.688160e-006 8.614006e-001 -3.718180e-001 -5.886693e-006 1.487264e-006 8.649967e-001 -3.734682e-001
339615000 -5.029705e-006 2.060261e-006 8.430875e-001 -3.983020e-001 1.470779e-005 -6.657207e-006 8.466787e-001 -3.998297e-001
339900000 1.990505e-006 -6.378171e-006 8.241075e-001 -4.234834e-001 5.665320e-006 3.002233e-006 8.275512e-001 -4.252765e-001
340185000 -1.041975e-005 -1.455248e-005 8.045326e-001 -4.476209e-001 -6.113085e-006 -8.482033e-006 8.079566e-001 -4.495924e-001
340470000 -1.390929e-005 -1.484053e-005 7.844722e-001 -4.708127e-001 -5.461654e-006 -1.108532e-005 7.878071e-001 -4.727853e-001
340755000 5.124083e-007 -2.828785e-006 7.638083e-001 -4.929355e-001 -4.042515e-006 9.124280e-006 7.671343e-001 -4.950500e-001
341040000 2.894854e-006 -3.128015e-007 7.430110e-001 -5.140114e-001 1.781187e-005 2.162256e-005 7.461634e-001 -5.161466e-001
341325000 2.606614e-006 6.253697e-006 7.216036e-001 -5.341021e-001 -5.943533e-006 -3.907289e-006 7.247192e-001 -5.364004e-001
341610000 -7.646399e-006 -9.732515e-006 7.001230e-001 -5.531836e-001 -9.587346e-006 1.513773e-006 7.030533e-001 -5.555815e-001
341895000 -1.283579e-006 1.147413e-005 6.782391e-001 -5.712919e-001 -7.591560e-006 -7.532881e-006 6.810586e-001 -5.737687e-001
342180000 8.795513e-006 1.310310e-005 6.561982e-001 -5.884513e-001 -8.558144e-006 4.032075e-006 6.590124e-001 -5.908846e-001
342465000 -3.284764e-006 2.297494e-005 6.339702e-001 -6.047612e-001 -1.842279e-006 -1.534303e-005 6.365930e-001 -6.072530e-001
342750000 -1.208786e-005 1.966282e-005 6.115870e-001 -6.201297e-001 5.462084e-007 -4.218050e-006 6.141523e-001 -6.227846e-001
343035000 -1.200228e-005 1.222827e-005 5.891193e-001 -6.345500e-001 1.060071e-005 -1.608304e-005 5.916091e-001 -6.373103e-001
343320000 -1.161263e-006 1.459774e-007 5.665402e-001 -6.482969e-001 2.482515e-006 -3.663439e-006 5.689242e-001 -6.510319e-001
343605000 -4.755387e-006 -1.442208e-006 5.439917e-001 -6.611320e-001 -1.122972e-005 -6.176200e-006 5.463004e-001 -6.638328e-001
343890000 -1.279513e-005 2.495452e-007 5.214163e-001 -6.731111e-001 2.146503e-005 4.451545e-007 5.235944e-001 -6.759088e-001
