!Agilent Technologies,N5230C,SG49000117,A.08.50.07
!Agilent N5230C: A.08.50.07
!Date: Sunday, March 17, 2024 09:19:34
!Correction: S11(Off) 
!S21(Off) 
!S12(Off) 
!S22(Full 1 Port(2)) 
!S2P File: Measurements: S11, S21, S12, S22:
# Hz S  RI   R 50
300000000 -3.345818e-005 -3.602521e-006 -6.207203e-001 -6.528070e-001 3.737679e-005 -9.142800e-005 1.012682e+000 -1.597661e-001
300285000 3.802536e-005 2.455631e-005 -6.360250e-001 -6.293598e-001 1.571836e-004 -1.885709e-004 1.013301e+000 -1.596950e-001
300570000 1.310287e-004 -2.088365e-005 -6.510538e-001 -6.059783e-001 6.868241e-005 -4.462832e-005 1.013236e+000 -1.591634e-001
300855000 4.560489e-005 4.699066e-005 -6.643265e-001 -5.826036e-001 7.963812e-005 -5.859798e-006 1.013518e+000 -1.583750e-001
301140000 6.514507e-005 1.211432e-006 -6.776369e-001 -5.587838e-001 -7.085006e-006 3.558492e-005 1.013699e+000 -1.599445e-001
301425000 7.285944e-005 -4.144348e-005 -6.894922e-001 -5.354795e-001 9.005708e-006 5.003522e-006 1.012651e+000 -1.585988e-001
301710000 6.650538e-005 2.780165e-005 -7.004418e-001 -5.118278e-001 9.559489e-005 -7.970930e-005 1.013922e+000 -1.615387e-001
301995000 2.905576e-005 -6.956342e-006 -7.115641e-001 -4.878183e-001 2.670143e-005 3.278405e-005 1.012977e+000 -1.601654e-001
302280000 -1.302320e-006 -8.983286e-006 -7.209418e-001 -4.646425e-001 -1.027226e-004 1.168589e-004 1.012433e+000 -1.609101e-001
302565000 -4.064080e-005 3.950056e-005 -7.296140e-001 -4.408473e-001 -5.365043e-005 3.166602e-005 1.014188e+000 -1.616907e-001
302850000 1.293713e-005 -1.757019e-005 -7.377743e-001 -4.176526e-001 8.265357e-006 -9.535419e-005 1.013177e+000 -1.601463e-001
303135000 1.389822e-005 7.623217e-005 -7.449625e-001 -3.942836e-001 6.384784e-005 3.086309e-005 1.014660e+000 -1.621390e-001
303420000 7.428329e-005 9.283367e-006 -7.527395e-001 -3.711099e-001 -3.878880e-005 8.457212e-006 1.014626e+000 -1.630456e-001
303705000 5.442222e-005 5.615265e-005 -7.588086e-001 -3.481621e-001 -3.725867e-005 -1.384184e-006 1.014091e+000 -1.609343e-001
303990000 1.628443e-004 1.030233e-004 -7.640822e-001 -3.252991e-001 3.057818e-005 1.812821e-005 1.012751e+000 -1.608756e-001
304275000 6.605436e-005 5.463215e-006 -7.690254e-001 -3.024249e-001 6.012366e-006 3.164615e-005 1.013224e+000 -1.619040e-001
304560000 3.298071e-005 5.376055e-005 -7.733586e-001 -2.799096e-001 1.896956e-005 1.796903e-005 1.012022e+000 -1.623779e-001
304845000 -1.639092e-004 9.673470e-005 -7.776186e-001 -2.572328e-001 6.160305e-005 2.210848e-005 1.013288e+000 -1.615067e-001
305130000 6.200184e-005 1.384775e-005 -7.807172e-001 -2.345322e-001 1.398219e-004 -9.545284e-005 1.011373e+000 -1.606789e-001
305415000 3.904721e-005 5.767888e-005 -7.834768e-001 -2.133221e-001 -4.171886e-005 -3.877251e-005 1.013621e+000 -1.603608e-001
305700000 -1.301665e-004 3.709736e-005 -7.861459e-001 -1.913667e-001 4.959874e-006 -4.687053e-005 1.013250e+000 -1.625015e-001
305985000 1.893776e-005 7.421615e-005 -7.874019e-001 -1.689385e-001 1.918654e-005 -6.294455e-005 1.015108e+000 -1.632589e-001
306270000 -2.581831e-005 7.776976e-005 -7.890873e-001 -1.472161e-001 4.876673e-005 -3.959054e-005 1.015310e+000 -1.613364e-001
306555000 -7.974961e-005 2.396486e-005 -7.897174e-001 -1.257388e-001 1.835766e-005 1.137135e-004 1.015521e+000 -1.634560e-001
306840000 -6.687291e-005 -1.622960e-004 -7.899582e-001 -1.041777e-001 7.152665e-005 -8.531229e-006 1.013667e+000 -1.610739e-001
307125000 -5.767940e-005 -1.403670e-004 -7.898679e-001 -8.341810e-002 -6.374909e-005 3.290023e-005 1.013052e+000 -1.634778e-001
307410000 -2.083289e-005 -1.697948e-004 -7.892625e-001 -6.220342e-002 6.689735e-005 7.671264e-005 1.012611e+000 -1.639884e-001
307695000 -4.674524e-005 5.044766e-005 -7.885064e-001 -4.078948e-002 1.043248e-004 8.902066e-005 1.014535e+000 -1.632772e-001
307980000 1.466180e-005 -5.025913e-005 -7.871319e-001 -1.999182e-002 4.422166e-005 1.126622e-004 1.012611e+000 -1.641864e-001
308265000 -1.234112e-004 3.543906e-006 -7.856605e-001 6.108080e-004 2.891673e-006 4.127201e-005 1.012515e+000 -1.630595e-001
308550000 -4.645401e-005 2.236881e-005 -7.837200e-001 2.096912e-002 -3.311413e-005 1.230195e-004 1.012378e+000 -1.626694e-001
308835000 1.028783e-005 -3.556323e-006 -7.812432e-001 4.183887e-002 -1.079287e-004 4.548766e-005 1.012228e+000 -1.637871e-001
309120000 9.395372e-005 4.140937e-005 -7.786820e-001 6.234523e-002 -6.101790e-005 4.305228e-005 1.014969e+000 -1.644218e-001
309405000 1.012617e-004 5.365815e-005 -7.751012e-001 8.222034e-002 -1.091527e-004 -5.944162e-005 1.015115e+000 -1.653200e-001
309690000 7.872158e-005 -3.246629e-006 -7.714093e-001 1.018386e-001 -4.204301e-005 -1.357768e-005 1.014995e+000 -1.639736e-001
309975000 2.966911e-005 9.928014e-005 -7.676092e-001 1.225947e-001 -2.715008e-005 -3.765236e-005 1.013414e+000 -1.644406e-001
310260000 5.814891e-006 2.215125e-005 -7.631935e-001 1.422504e-001 -2.427368e-005 -8.815839e-005 1.015360e+000 -1.650243e-001
310545000 1.441143e-005 2.022801e-005 -7.590368e-001 1.612926e-001 1.210432e-004 -5.509505e-005 1.014148e+000 -1.645434e-001
310830000 -4.922647e-005 1.076945e-004 -7.535647e-001 1.808408e-001 -5.867524e-005 -3.242891e-005 1.015651e+000 -1.651872e-001
311115000 1.640353e-005 5.115549e-005 -7.481762e-001 2.004382e-001 9.163763e-006 -1.397748e-004 1.013308e+000 -1.657924e-001
311400000 -8.139707e-006 -3.568523e-005 -7.427777e-001 2.195786e-001 1.623365e-005 -3.649664e-005 1.012632e+000 -1.648585e-001
311685000 -4.334745e-005 2.959718e-005 -7.369252e-001 2.389726e-001 7.295083e-005 -5.840151e-005 1.013032e+000 -1.644328e-001
311970000 -2.147122e-005 9.583927e-007 -7.304765e-001 2.581052e-001 6.453526e-005 5.833085e-005 1.012956e+000 -1.660439e-001
312255000 -4.890214e-005 -8.077807e-005 -7.239082e-001 2.773618e-001 -3.291005e-005 7.024474e-005 1.013401e+000 -1.646717e-001
312540000 -1.148949e-005 1.260656e-005 -7.170125e-001 2.966089e-001 4.433962e-005 3.902297e-005 1.013554e+000 -1.649830e-001
312825000 -4.193708e-005 5.941513e-005 -7.094659e-001 3.152272e-001 1.384891e-004 -5.841562e-005 1.014325e+000 -1.660809e-001
313110000 4.280060e-005 5.188159e-005 -7.012828e-001 3.337261e-001 -5.169132e-005 5.084874e-005 1.014045e+000 -1.661243e-001
313395000 -1.617063e-004 1.068958e-004 -6.927895e-001 3.529667e-001 5.136620e-005 1.437113e-005 1.013147e+000 -1.668601e-001
313680000 -4.004751e-005 1.206787e-005 -6.842548e-001 3.714711e-001 -5.921460e-005 -8.037375e-005 1.015152e+000 -1.651703e-001
313965000 3.687447e-005 -5.599990e-006 -6.759567e-001 3.898061e-001 -5.539247e-005 -3.170096e-005 1.013499e+000 -1.650804e-001
314250000 -1.407858e-004 -3.741267e-005 -6.659991e-001 4.081007e-001 -2.038359e-005 1.947101e-005 1.011470e+000 -1.676983e-001
314535000 1.123887e-004 -9.159766e-005 -6.564167e-001 4.271503e-001 -2.145179e-005 9.377013e-006 1.013590e+000 -1.646143e-001
314820000 -9.064696e-005 -1.294976e-004 -6.459731e-001 4.454903e-001 -1.335837e-004 -6.724351e-005 1.013943e+000 -1.669255e-001
315105000 8.800648e-005 -2.804618e-005 -6.355975e-001 4.635810e-001 1.454312e-004 -1.340530e-004 1.011456e+000 -1.668991e-001
315390000 -2.111464e-005 -7.595549e-005 -6.243804e-001 4.816886e-001 -6.496786e-005 -6.881528e-005 1.013343e+000 -1.690941e-001
315675000 5.428676e-005 -7.975630e-005 -6.124218e-001 4.999329e-001 1.302465e-004 2.018966e-005 1.013094e+000 -1.671654e-001
315960000 4.447571e-005 3.558174e-005 -6.000940e-001 5.172968e-001 1.938582e-005 6.345397e-006 1.012615e+000 -1.675372e-001
316245000 2.800564e-005 -8.953160e-006 -5.885994e-001 5.351080e-001 1.824257e-005 -5.284541e-005 1.011389e+000 -1.671790e-001
316530000 2.341925e-005 2.707739e-005 -5.757951e-001 5.528473e-001 1.173097e-004 -9.078901e-006 1.013475e+000 -1.683441e-001
316815000 1.234843e-004 4.687627e-005 -5.621213e-001 5.701241e-001 1.007503e-006 7.320567e-006 1.014198e+000 -1.666257e-001
317100000 1.158432e-004 8.230813e-006 -5.480613e-001 5.878907e-001 -9.971308e-005 -1.797331e-005 1.011417e+000 -1.692367e-001
317385000 8.594913e-005 -2.477607e-005 -5.336930e-001 6.049242e-001 -2.562224e-005 2.598320e-005 1.014162e+000 -1.677755e-001
317670000 3.203939e-005 1.230611e-005 -5.184162e-001 6.225381e-001 3.211966e-005 -2.299706e-005 1.014292e+000 -1.676428e-001
317955000 -4.867287e-005 1.187726e-004 -5.027128e-001 6.396294e-001 -4.415428e-005 -1.305109e-004 1.014632e+000 -1.683515e-001
318240000 5.834187e-005 8.205092e-005 -4.865186e-001 6.560163e-001 2.082773e-005 -7.528211e-005 1.013172e+000 -1.680747e-001
318525000 -1.099449e-004 1.281474e-005 -4.702736e-001 6.728907e-001 8.869855e-005 -3.953744e-006 1.013294e+000 -1.680190e-001
318810000 8.761996e-005 -3.009268e-005 -4.528368e-001 6.895289e-001 4.158658e-005 -2.527210e-005 1.012827e+000 -1.689857e-001
319095000 -8.339821e-005 1.828475e-005 -4.346089e-001 7.056322e-001 3.695421e-005 -8.951599e-006 1.013015e+000 -1.684439e-001
319380000 -9.308881e-005 -4.891564e-006 -4.159394e-001 7.213209e-001 9.804098e-005 -2.805282e-005 1.012977e+000 -1.696596e-001
319665000 -1.743908e-005 5.959991e-005 -3.971982e-001 7.378412e-001 9.099433e-005 8.663711e-006 1.014038e+000 -1.684073e-001
319950000 -5.222335e-005 -1.674277e-004 -3.768843e-001 7.528590e-001 7.209230e-005 5.773885e-005 1.012066e+000 -1.701533e-001
320235000 1.574050e-005 6.849902e-005 -3.565198e-001 7.677627e-001 4.532517e-005 6.361474e-005 1.013564e+000 -1.701500e-001
320520000 -8.500314e-005 -6.754743e-006 -3.350728e-001 7.828461e-001 7.100221e-005 -2.056741e-005 1.013334e+000 -1.711549e-001
320805000 7.940651e-005 -1.083804e-004 -3.129354e-001 7.964165e-001 -7.848324e-006 1.498837e-004 1.012395e+000 -1.692402e-001
321090000 -2.084261e-005 -5.369231e-005 -2.909048e-001 8.105903e-001 -1.148694e-004 4.691529e-005 1.013052e+000 -1.693669e-001
321375000 -2.544418e-005 -6.193874e-005 -2.669852e-001 8.239021e-001 -1.262578e-004 6.676652e-005 1.013140e+000 -1.696628e-001
321660000 1.586697e-005 -5.315146e-005 -2.431271e-001 8.373194e-001 -1.620374e-004 -7.228365e-005 1.015524e+000 -1.694549e-001
321945000 9.389725e-005 -2.010583e-005 -2.178251e-001 8.494948e-001 1.484364e-005 2.481669e-005 1.012817e+000 -1.710747e-001
322230000 1.724612e-004 8.460857e-005 -1.927196e-001 8.606390e-001 -1.104862e-005 -3.242890e-005 1.013529e+000 -1.709076e-001
322515000 7.505189e-005 -1.164906e-004 -1.659975e-001 8.721071e-001 -2.833618e-005 -4.980017e-005 1.012539e+000 -1.725486e-001
322800000 1.349645e-004 4.455610e-005 -1.396040e-001 8.822661e-001 1.755995e-005 -8.613147e-005 1.015155e+000 -1.718859e-001
323085000 6.854837e-005 8.386171e-005 -1.114562e-001 8.919282e-001 -5.281512e-006 -3.928798e-005 1.013000e+000 -1.718057e-001
323370000 -4.164901e-005 7.731967e-005 -8.240254e-002 9.011609e-001 2.141449e-005 -2.556601e-005 1.012591e+000 -1.724581e-001
323655000 1.527858e-005 6.691434e-005 -5.274080e-002 9.090706e-001 3.867954e-005 6.446530e-005 1.013027e+000 -1.729149e-001
323940000 1.680069e-005 6.371453e-005 -2.282555e-002 9.172069e-001 -4.802604e-005 3.577190e-005 1.011413e+000 -1.725685e-001
324225000 -4.174305e-005 9.290086e-005 7.221814e-003 9.224909e-001 1.246729e-004 5.058274e-005 1.011285e+000 -1.727786e-001
324510000 -4.838769e-005 4.669552e-006 3.913321e-002 9.283054e-001 1.297394e-004 2.942327e-005 1.014519e+000 -1.741435e-001
324795000 -9.520602e-005 8.606919e-005 7.204729e-002 9.318666e-001 6.302605e-005 -2.310678e-006 1.012859e+000 -1.719099e-001
325080000 -1.951027e-005 -1.072419e-004 1.039105e-001 9.350089e-001 8.548074e-006 6.452220e-005 1.012425e+000 -1.729109e-001
325365000 -5.915861e-005 3.608290e-006 1.377424e-001 9.358998e-001 5.562491e-005 6.594159e-005 1.014151e+000 -1.722142e-001
325650000 -6.576663e-005 -1.079314e-004 1.715552e-001 9.371162e-001 8.526680e-005 5.559002e-005 1.012701e+000 -1.730133e-001
325935000 -2.168109e-005 -3.576814e-005 2.059508e-001 9.359303e-001 -5.180389e-005 1.572501e-005 1.012823e+000 -1.746440e-001
326220000 3.578789e-005 4.531677e-005 2.402711e-001 9.334098e-001 4.709121e-005 2.519487e-005 1.013735e+000 -1.743478e-001
326505000 6.347089e-005 -1.268754e-005 2.757927e-001 9.300672e-001 -4.434529e-005 -6.099834e-005 1.012151e+000 -1.744715e-001
326790000 4.325040e-005 -6.300692e-005 3.109211e-001 9.248083e-001 -5.588536e-005 1.341655e-005 1.011800e+000 -1.724910e-001
327075000 6.134111e-007 -8.144334e-005 3.466787e-001 9.170462e-001 -4.962705e-005 -8.929387e-005 1.012988e+000 -1.747047e-001
327360000 1.568851e-004 -1.200401e-004 3.824233e-001 9.086649e-001 2.929269e-005 -3.004210e-005 1.013892e+000 -1.738438e-001
327645000 -4.457215e-005 3.478133e-005 4.173835e-001 8.986683e-001 -1.236860e-004 -4.926766e-006 1.013218e+000 -1.739143e-001
327930000 -4.284268e-006 8.732653e-005 4.531144e-001 8.862403e-001 -5.587065e-005 -7.742738e-006 1.013238e+000 -1.739207e-001
328215000 1.036917e-004 -2.079458e-006 4.887844e-001 8.725518e-001 4.014359e-005 -1.573374e-004 1.012768e+000 -1.745071e-001
328500000 -2.937852e-005 1.311503e-004 5.238351e-001 8.574114e-001 -3.493929e-005 1.415043e-004 1.012632e+000 -1.752354e-001
328785000 -1.986053e-004 -3.652905e-005 5.587137e-001 8.399904e-001 -3.353286e-005 3.748989e-005 1.011486e+000 -1.753556e-001
329070000 -2.809561e-007 -7.034204e-005 5.920483e-001 8.210879e-001 -2.739475e-005 1.271867e-005 1.012094e+000 -1.752470e-001
329355000 2.616584e-006 -2.710260e-005 6.260951e-001 8.005624e-001 -4.449888e-005 1.156053e-004 1.012625e+000 -1.760804e-001
329640000 -1.101266e-004 -1.657651e-006 6.594399e-001 7.779906e-001 -5.854583e-005 5.676283e-005 1.012115e+000 -1.758574e-001
329925000 -9.726024e-005 -1.025675e-005 6.913539e-001 7.539160e-001 -7.613390e-005 9.183915e-006 1.012362e+000 -1.759455e-001
330210000 1.402246e-005 7.514530e-005 7.218320e-001 7.286017e-001 -8.629755e-005 -1.602166e-005 1.012403e+000 -1.754684e-001
330495000 -3.295253e-005 1.343913e-004 7.518566e-001 7.004112e-001 -5.846724e-006 -6.465054e-005 1.012151e+000 -1.755982e-001
330780000 -6.815571e-005 -6.961599e-005 7.802316e-001 6.720580e-001 -6.580835e-005 -1.108999e-004 1.012432e+000 -1.771168e-001
331065000 -5.012237e-005 9.364556e-006 8.078481e-001 6.416154e-001 -5.687953e-007 -2.684705e-005 1.010998e+000 -1.750457e-001
331350000 -1.841235e-005 1.160115e-005 8.329656e-001 6.100596e-001 3.289718e-006 3.493685e-005 1.012469e+000 -1.758045e-001
331635000 3.437736e-005 -1.149761e-004 8.574278e-001 5.766751e-001 -3.330677e-006 -9.093737e-005 1.012558e+000 -1.767882e-001
331920000 2.329203e-005 -8.750219e-006 8.791913e-001 5.421218e-001 -4.583429e-005 -2.792008e-005 1.012738e+000 -1.766779e-001
332205000 1.675136e-004 2.840507e-005 8.999914e-001 5.066082e-001 3.114877e-005 -1.137358e-004 1.011803e+000 -1.773990e-001
332490000 3.998410e-005 8.337349e-005 9.196508e-001 4.709959e-001 -4.966954e-005 -3.447513e-005 1.013367e+000 -1.758605e-001
332775000 6.024609e-005 9.286553e-005 9.364566e-001 4.333926e-001 1.283206e-004 5.345863e-005 1.011695e+000 -1.774798e-001
333060000 -3.061111e-005 1.427541e-004 9.525732e-001 3.956509e-001 3.839932e-006 -5.455296e-006 1.013251e+000 -1.774067e-001
333345000 -3.504874e-005 -8.727744e-005 9.657311e-001 3.576514e-001 1.932678e-005 -5.604709e-005 1.012738e+000 -1.763595e-001
333630000 -4.566306e-005 2.472604e-006 9.769646e-001 3.189887e-001 -8.718444e-006 -6.708119e-005 1.012622e+000 -1.789716e-001
333915000 -1.371986e-004 -4.768143e-008 9.869316e-001 2.794504e-001 -7.423247e-005 -8.244243e-005 1.011985e+000 -1.781242e-001
334200000 5.625486e-005 -8.384626e-005 9.940351e-001 2.400627e-001 -4.100124e-005 6.362396e-007 1.012927e+000 -1.790725e-001
334485000 -7.108616e-005 -3.226242e-005 1.000213e+000 2.009105e-001 1.912414e-006 3.900758e-006 1.012273e+000 -1.777292e-001
334770000 -6.598057e-005 -7.095566e-005 1.004362e+000 1.615125e-001 -7.163289e-005 6.183155e-005 1.012252e+000 -1.788700e-001
335055000 1.134652e-004 3.028689e-005 1.005625e+000 1.228338e-001 -9.490844e-005 1.167731e-004 1.013607e+000 -1.794979e-001
335340000 -2.628338e-005 -3.703436e-006 1.005758e+000 8.389455e-002 -5.029767e-005 1.593643e-004 1.012643e+000 -1.796861e-001
335625000 -1.614853e-004 2.685760e-005 1.003617e+000 4.501668e-002 -6.009243e-005 -4.191721e-005 1.012978e+000 -1.788391e-001
335910000 -4.947259e-005 -1.029767e-004 1.001119e+000 7.452234e-003 -1.033985e-004 -3.948014e-005 1.011922e+000 -1.788016e-001
336195000 -4.308887e-005 -4.897936e-005 9.952791e-001 -2.962517e-002 4.809115e-005 3.134066e-005 1.011081e+000 -1.793992e-001
336480000 -2.393987e-005 -1.916132e-005 9.894230e-001 -6.596569e-002 -8.092260e-005 -2.112936e-005 1.012726e+000 -1.791714e-001
336765000 -1.316986e-005 -4.884863e-005 9.807352e-001 -1.022454e-001 5.501085e-006 -7.685437e-005 1.012629e+000 -1.783307e-001
337050000 1.530662e-005 -2.021050e-005 9.720233e-001 -1.371631e-001 -4.794015e-005 -1.058954e-006 1.012104e+000 -1.797125e-001
337335000 7.924342e-005 -4.601138e-005 9.604852e-001 -1.707733e-001 -2.143321e-005 -8.717767e-005 1.012667e+000 -1.812630e-001
337620000 3.046267e-005 6.554800e-005 9.488920e-001 -2.044468e-001 -1.849827e-005 -1.346238e-004 1.012590e+000 -1.798116e-001
337905000 -8.986714e-006 1.196362e-005 9.348263e-001 -2.365399e-001 -6.544757e-005 -5.090831e-006 1.011215e+000 -1.789822e-001
338190000 4.618107e-005 -4.868423e-006 9.210871e-001 -2.678593e-001 -3.856982e-005 -2.236751e-005 1.012187e+000 -1.817264e-001
338475000 -9.864003e-005 4.312039e-005 9.055515e-001 -2.981225e-001 -3.853017e-005 -2.967315e-005 1.012578e+000 -1.797623e-001
338760000 4.397512e-005 2.183982e-005 8.896458e-001 -3.269140e-001 -7.171219e-005 -1.128205e-004 1.013172e+000 -1.800789e-001
339045000 -5.871119e-005 -6.688697e-005 8.723078e-001 -3.550103e-001 8.361267e-005 -9.100459e-005 1.012474e+000 -1.803241e-001
339330000 2.122536e-007 3.422442e-005 8.543172e-001 -3.821870e-001 6.840432e-005 -1.508116e-004 1.013278e+000 -1.794386e-001
339615000 -1.471087e-004 -1.365178e-004 8.358323e-001 -4.077160e-001 1.017284e-004 -7.889232e-005 1.012473e+000 -1.809159e-001
339900000 -8.526674e-005 -1.303964e-004 8.167535e-001 -4.333124e-001 1.119836e-004 -7.197534e-005 1.011946e+000 -1.811013e-001
340185000 2.667056e-005 -8.600650e-006 7.963280e-001 -4.570338e-001 3.767487e-005 -8.696239e-006 1.012247e+000 -1.812203e-001
340470000 -9.165729e-005 1.091729e-007 7.758540e-001 -4.800377e-001 1.185653e-004 5.953089e-005 1.012746e+000 -1.811948e-001
340755000 -6.848240e-006 -2.480043e-005 7.556340e-001 -5.014862e-001 7.945699e-006 -5.266381e-005 1.012773e+000 -1.819780e-001
341040000 5.397949e-006 2.798829e-005 7.350003e-001 -5.224759e-001 5.542800e-005 -1.476774e-005 1.011627e+000 -1.835915e-001
341325000 8.369993e-005 -5.727679e-005 7.129778e-001 -5.419130e-001 8.532404e-005 3.248138e-005 1.012307e+000 -1.807078e-001
341610000 2.238068e-005 1.130646e-004 6.915178e-001 -5.607557e-001 -1.958699e-005 -8.523288e-005 1.013848e+000 -1.831404e-001
341895000 4.510300e-005 -1.606618e-005 6.697282e-001 -5.786392e-001 -1.166137e-004 1.304994e-004 1.011705e+000 -1.828083e-001
342180000 2.705033e-005 1.501625e-004 6.472338e-001 -5.952470e-001 -6.577437e-005 5.788757e-005 1.012671e+000 -1.835422e-001
342465000 7.228515e-005 -6.140466e-006 6.245860e-001 -6.113352e-001 -1.252693e-004 -1.166908e-005 1.013318e+000 -1.827106e-001
342750000 2.608965e-006 7.714937e-005 6.027017e-001 -6.264296e-001 -1.250148e-005 -5.136351e-006 1.013570e+000 -1.814929e-001
343035000 -6.257227e-005 6.362090e-005 5.798161e-001 -6.401475e-001 -7.090222e-005 2.920007e-005 1.012214e+000 -1.833641e-001
343320000 3.564114e-005 4.521232e-005 5.575752e-001 -6.534145e-001 -5.031835e-005 -1.294856e-004 1.012120e+000 -1.842754e-001
343605000 -4.563333e-005 -6.357872e-006 5.345324e-001 -6.664326e-001 -6.909288e-005 -7.079008e-005 1.011278e+000 -1.827872e-001
343890000 -1.173234e-004 7.462653e-005 5.121686e-001 -6.779627e-001 -5.900740e-006 -8.534769e-005 1.012538e+000 -1.845925e-001
