!Agilent Technologies,N5230C,SG49000117,A.08.50.07
!Agilent N5230C: A.08.50.07
!Date: Sunday, March 17, 2024 07:23:11
!Correction: S11(Off) 
!S21(Off) 
!S12(Off) 
!S22(Off) 
!S2P File: Measurements: S11, S21, S12, S22:
# Hz S  RI   R 50
300000000 1.912323e-005 2.589435e-006 -6.208490e-001 -6.528045e-001 4.756330e-006 -3.370464e-006 -6.230808e-001 -6.551543e-001
300285000 2.189492e-005 4.123819e-006 -6.362699e-001 -6.295285e-001 1.092933e-005 9.383297e-006 -6.386056e-001 -6.318557e-001
300570000 5.370414e-006 2.468175e-005 -6.508852e-001 -6.062126e-001 5.486338e-006 -1.836040e-005 -6.533089e-001 -6.083725e-001
300855000 1.014342e-006 8.234873e-006 -6.646512e-001 -5.826635e-001 2.496530e-007 1.680690e-006 -6.671043e-001 -5.848939e-001
301140000 7.138315e-006 2.339763e-005 -6.775368e-001 -5.590558e-001 -9.049762e-008 4.313807e-007 -6.800541e-001 -5.611427e-001
301425000 1.162683e-005 1.777886e-005 -6.896371e-001 -5.353709e-001 2.198723e-006 7.094785e-006 -6.922085e-001 -5.373947e-001
301710000 -2.818652e-006 -2.624354e-006 -7.008021e-001 -5.118824e-001 5.500517e-006 -5.352353e-006 -7.034618e-001 -5.137352e-001
301995000 -2.410836e-006 -1.454149e-006 -7.112590e-001 -4.883256e-001 -4.640249e-006 -9.060139e-006 -7.139887e-001 -4.900678e-001
302280000 -1.826350e-005 -6.900029e-007 -7.209323e-001 -4.647651e-001 -7.640827e-006 -6.837707e-007 -7.236250e-001 -4.665177e-001
302565000 -2.405024e-005 -1.202105e-006 -7.298929e-001 -4.412883e-001 1.099504e-005 -1.310342e-005 -7.326237e-001 -4.429215e-001
302850000 -6.384470e-006 -9.504100e-006 -7.380767e-001 -4.179220e-001 6.398157e-006 -3.835044e-006 -7.409412e-001 -4.195445e-001
303135000 -5.937371e-006 -9.071184e-006 -7.456030e-001 -3.946874e-001 5.654299e-006 -1.241935e-006 -7.484710e-001 -3.961437e-001
303420000 4.779845e-006 -1.746319e-005 -7.524418e-001 -3.714178e-001 -2.055634e-007 6.641888e-006 -7.552773e-001 -3.729088e-001
303705000 -8.251749e-006 -2.385171e-005 -7.586586e-001 -3.483905e-001 3.050841e-006 -6.448880e-006 -7.616066e-001 -3.497455e-001
303990000 7.203277e-006 -2.993006e-006 -7.643487e-001 -3.255680e-001 -1.193587e-006 -7.311940e-006 -7.672527e-001 -3.267588e-001
304275000 1.817259e-005 -4.761554e-006 -7.692615e-001 -3.027913e-001 8.569908e-006 7.217380e-006 -7.721617e-001 -3.038901e-001
304560000 1.829527e-005 -1.172531e-005 -7.736782e-001 -2.801420e-001 1.776428e-005 -5.183171e-006 -7.765648e-001 -2.812491e-001
304845000 9.044379e-006 1.767754e-005 -7.775257e-001 -2.576852e-001 1.749483e-005 1.577191e-005 -7.805355e-001 -2.586672e-001
305130000 5.174820e-006 1.940823e-005 -7.808411e-001 -2.353364e-001 -1.453198e-006 9.432784e-006 -7.838768e-001 -2.361728e-001
305415000 5.791790e-006 1.426539e-005 -7.836332e-001 -2.131087e-001 4.295751e-006 1.356500e-005 -7.866823e-001 -2.138980e-001
305700000 7.771151e-006 2.298273e-005 -7.859198e-001 -1.911225e-001 -7.583442e-008 8.751770e-006 -7.889285e-001 -1.918328e-001
305985000 5.995121e-006 -7.358698e-006 -7.876928e-001 -1.691656e-001 -2.572132e-006 5.840534e-006 -7.907173e-001 -1.698189e-001
306270000 2.277961e-006 -5.196824e-006 -7.889488e-001 -1.474384e-001 4.157314e-006 4.828393e-006 -7.920362e-001 -1.480222e-001
306555000 -1.871278e-005 1.153567e-005 -7.898693e-001 -1.258537e-001 -4.718945e-006 -2.137412e-005 -7.928931e-001 -1.262877e-001
306840000 -2.519503e-006 -1.029929e-007 -7.901811e-001 -1.043664e-001 3.971753e-006 1.252413e-006 -7.932873e-001 -1.047297e-001
307125000 -1.212293e-005 1.322385e-005 -7.901306e-001 -8.303627e-002 -1.637324e-005 -7.090493e-006 -7.932053e-001 -8.339480e-002
307410000 -1.446770e-005 -6.521278e-008 -7.897167e-001 -6.191162e-002 1.534437e-006 -1.055918e-005 -7.927844e-001 -6.216667e-002
307695000 -1.008557e-005 1.011587e-005 -7.888036e-001 -4.087804e-002 2.343281e-006 -1.751874e-006 -7.918474e-001 -4.108887e-002
307980000 -5.844800e-006 -1.339917e-005 -7.875405e-001 -2.005982e-002 -3.040501e-006 -3.060552e-006 -7.906015e-001 -2.022388e-002
308265000 -1.499933e-005 -1.153953e-005 -7.858317e-001 6.048639e-004 -3.015814e-007 2.918352e-006 -7.889079e-001 5.634213e-004
308550000 -9.897488e-006 -6.197320e-006 -7.838113e-001 2.112027e-002 1.740754e-006 -6.815751e-006 -7.868431e-001 2.124320e-002
308835000 -6.725304e-006 -1.076164e-005 -7.813818e-001 4.149967e-002 -1.429495e-005 7.903794e-006 -7.843853e-001 4.164189e-002
309120000 -5.340361e-006 -2.032171e-005 -7.785112e-001 6.185153e-002 -7.294730e-007 -3.405863e-006 -7.815775e-001 6.207500e-002
309405000 1.185805e-005 -9.238843e-006 -7.753296e-001 8.200299e-002 -1.360640e-005 -7.729593e-006 -7.783986e-001 8.226375e-002
309690000 4.837323e-006 -7.089819e-006 -7.718335e-001 1.019254e-001 -1.300954e-006 9.390779e-006 -7.748547e-001 1.024202e-001
309975000 6.349681e-006 -1.719435e-005 -7.678837e-001 1.219146e-001 -3.964943e-006 -1.420874e-005 -7.709087e-001 1.223693e-001
310260000 7.176915e-006 1.063253e-005 -7.636275e-001 1.416798e-001 5.289783e-006 9.532916e-006 -7.665684e-001 1.422157e-001
310545000 -1.381702e-008 -7.857378e-006 -7.590013e-001 1.613713e-001 2.751739e-005 -4.859950e-006 -7.620289e-001 1.620213e-001
310830000 2.214675e-006 1.353427e-005 -7.540626e-001 1.808859e-001 1.281172e-005 -3.973382e-006 -7.570251e-001 1.816500e-001
311115000 4.191980e-006 1.674157e-006 -7.487241e-001 2.004090e-001 -1.467339e-005 -2.072615e-006 -7.516953e-001 2.011911e-001
311400000 -4.209692e-007 6.901897e-006 -7.430668e-001 2.196851e-001 -7.107475e-006 8.490711e-006 -7.459844e-001 2.206044e-001
311685000 -1.496422e-005 8.440493e-006 -7.369409e-001 2.390126e-001 9.476889e-006 1.747238e-005 -7.399758e-001 2.399077e-001
311970000 2.496265e-007 8.256748e-006 -7.306240e-001 2.582177e-001 -3.748923e-006 5.120823e-006 -7.335253e-001 2.592705e-001
312255000 -1.502653e-005 -6.008245e-006 -7.238740e-001 2.772341e-001 -1.179850e-006 -1.767434e-006 -7.267395e-001 2.783008e-001
312540000 -1.368631e-005 -9.704725e-006 -7.167396e-001 2.962426e-001 -4.373341e-006 2.824441e-006 -7.195630e-001 2.973582e-001
312825000 -1.015501e-005 -1.781586e-005 -7.093034e-001 3.151025e-001 -1.117231e-005 2.792473e-006 -7.121305e-001 3.163209e-001
313110000 -1.168278e-005 -2.941356e-005 -7.015211e-001 3.338946e-001 4.335062e-006 5.114484e-007 -7.042569e-001 3.352370e-001
313395000 -7.972219e-006 -1.891077e-005 -6.932248e-001 3.525875e-001 5.114316e-006 -7.484315e-006 -6.959963e-001 3.540207e-001
313680000 6.814058e-006 -1.033723e-005 -6.846002e-001 3.713123e-001 -4.904005e-006 -1.812727e-005 -6.873278e-001 3.727605e-001
313965000 -1.722021e-005 -3.686521e-006 -6.756627e-001 3.898073e-001 -6.162727e-006 -8.811191e-006 -6.783119e-001 3.913406e-001
314250000 5.757616e-006 -1.857541e-005 -6.662005e-001 4.082775e-001 -7.419987e-009 1.392475e-006 -6.689252e-001 4.099532e-001
314535000 3.194242e-005 -1.300813e-005 -6.564657e-001 4.266647e-001 -1.055317e-005 8.431277e-006 -6.589804e-001 4.283718e-001
314820000 1.754045e-005 4.565610e-006 -6.462370e-001 4.449358e-001 1.030532e-005 1.491481e-005 -6.488121e-001 4.467165e-001
315105000 2.501603e-006 -1.255924e-005 -6.354889e-001 4.631818e-001 5.366777e-006 -8.165433e-006 -6.380405e-001 4.650581e-001
315390000 1.037917e-005 -1.868010e-005 -6.244732e-001 4.813885e-001 -1.597783e-005 2.098826e-005 -6.269710e-001 4.832753e-001
315675000 1.863164e-005 -1.370301e-007 -6.129271e-001 4.993231e-001 -1.826376e-005 1.431906e-005 -6.154282e-001 5.013658e-001
315960000 6.639102e-006 6.621280e-006 -6.009140e-001 5.173233e-001 -4.580865e-006 -1.550866e-005 -6.033511e-001 5.193471e-001
316245000 2.018811e-006 5.328534e-006 -5.884910e-001 5.351148e-001 -5.470288e-007 -2.806919e-006 -5.908557e-001 5.372429e-001
316530000 -6.268300e-006 7.494896e-006 -5.755872e-001 5.528148e-001 -8.880207e-006 1.825520e-007 -5.779105e-001 5.550637e-001
316815000 -2.368199e-005 -8.617549e-006 -5.621235e-001 5.704477e-001 -2.176583e-005 -2.471926e-006 -5.644301e-001 5.727127e-001
317100000 8.666724e-006 1.763522e-005 -5.480636e-001 5.878730e-001 -1.875353e-005 -1.235682e-005 -5.503676e-001 5.902379e-001
317385000 -1.600801e-005 3.032735e-006 -5.337095e-001 6.052892e-001 -1.139496e-005 -8.576687e-006 -5.358248e-001 6.077101e-001
317670000 -2.670712e-005 1.011623e-007 -5.186639e-001 6.224018e-001 5.125958e-006 -1.670069e-005 -5.208246e-001 6.249956e-001
317955000 -8.352673e-006 -1.401697e-005 -5.031375e-001 6.394420e-001 1.433536e-005 -1.519470e-005 -5.051459e-001 6.420488e-001
318240000 5.312785e-006 -1.366510e-005 -4.869789e-001 6.562446e-001 1.086686e-005 -1.470424e-005 -4.889694e-001 6.589960e-001
318525000 1.039829e-005 -6.669908e-006 -4.702590e-001 6.729658e-001 2.321402e-006 -1.375361e-005 -4.721653e-001 6.757001e-001
318810000 -1.911496e-005 -9.173199e-006 -4.528958e-001 6.895010e-001 -1.099335e-005 -3.862884e-006 -4.547398e-001 6.922223e-001
319095000 -6.373708e-006 -7.768969e-006 -4.349949e-001 7.055702e-001 -1.192191e-006 -8.964516e-006 -4.367453e-001 7.084489e-001
319380000 1.126967e-005 3.168717e-006 -4.163809e-001 7.215745e-001 -5.766827e-006 -2.221339e-005 -4.180979e-001 7.245617e-001
319665000 3.337995e-006 -2.587568e-006 -3.972091e-001 7.372363e-001 -1.306938e-006 -1.602180e-005 -3.988170e-001 7.402830e-001
319950000 2.923862e-006 -1.345631e-005 -3.772712e-001 7.526587e-001 3.948737e-006 -9.041531e-006 -3.788695e-001 7.556588e-001
320235000 -7.173410e-006 -5.268824e-006 -3.567043e-001 7.677305e-001 -2.148235e-006 -9.662346e-006 -3.582209e-001 7.708390e-001
320520000 4.203511e-006 -1.123002e-006 -3.354686e-001 7.824536e-001 5.613111e-006 7.546399e-007 -3.368774e-001 7.857679e-001
320805000 -5.866411e-006 -3.824046e-006 -3.135346e-001 7.966921e-001 -1.055550e-005 4.893036e-006 -3.147398e-001 7.999068e-001
321090000 1.575137e-005 7.731594e-007 -2.908818e-001 8.106455e-001 1.069290e-005 -5.321733e-006 -2.920335e-001 8.139009e-001
321375000 2.475491e-005 -8.099307e-006 -2.673277e-001 8.240228e-001 -5.977597e-006 7.140505e-006 -2.684486e-001 8.275127e-001
321660000 1.554014e-005 -7.509758e-006 -2.432275e-001 8.369221e-001 5.188531e-006 6.542004e-006 -2.442541e-001 8.404219e-001
321945000 -4.436945e-006 2.173758e-005 -2.182751e-001 8.493601e-001 -1.131676e-005 -7.983434e-006 -2.192671e-001 8.528364e-001
322230000 5.544658e-006 3.360771e-006 -1.927323e-001 8.610803e-001 -1.441572e-005 2.931516e-006 -1.935672e-001 8.646880e-001
322515000 -3.051546e-007 1.201808e-005 -1.663648e-001 8.723280e-001 -1.637181e-005 -3.448637e-006 -1.670648e-001 8.759192e-001
322800000 -7.163796e-006 4.550405e-006 -1.391502e-001 8.827497e-001 -2.156875e-006 -1.155683e-005 -1.397314e-001 8.864197e-001
323085000 -9.945102e-006 8.828580e-006 -1.112789e-001 8.926119e-001 1.426422e-006 -1.559774e-005 -1.117632e-001 8.961216e-001
323370000 -7.287611e-006 -1.938702e-007 -8.251403e-002 9.013324e-001 -1.206225e-005 6.226496e-006 -8.289894e-002 9.051265e-001
323655000 -1.386546e-005 -2.946573e-006 -5.326921e-002 9.094448e-001 -1.393013e-005 -6.647197e-006 -5.347006e-002 9.132081e-001
323940000 5.509642e-007 -8.778025e-006 -2.315727e-002 9.166869e-001 -2.872112e-006 9.742006e-006 -2.329855e-002 9.203816e-001
324225000 2.775884e-006 -4.404691e-006 7.610638e-003 9.228417e-001 -1.040637e-005 5.820050e-006 7.667437e-003 9.266925e-001
324510000 -1.314130e-006 2.351318e-006 3.914183e-002 9.279482e-001 -7.516062e-006 -1.635250e-005 3.931887e-002 9.318934e-001
324795000 -7.936907e-006 -4.299320e-006 7.131450e-002 9.319925e-001 -5.800717e-006 -2.881396e-006 7.153130e-002 9.359871e-001
325080000 4.274945e-007 -5.132163e-006 1.040336e-001 9.348747e-001 3.059172e-006 2.285395e-005 1.044298e-001 9.388610e-001
325365000 -9.573146e-006 -2.047093e-006 1.373592e-001 9.366617e-001 1.256507e-006 2.813780e-006 1.379989e-001 9.404926e-001
325650000 -6.467492e-006 -1.107034e-005 1.712560e-001 9.370132e-001 2.185983e-006 -9.354787e-006 1.719128e-001 9.409199e-001
325935000 -7.553428e-007 2.095091e-006 2.055510e-001 9.360704e-001 -4.428744e-006 7.117235e-007 2.064907e-001 9.399396e-001
326220000 1.320558e-006 1.422298e-005 2.402881e-001 9.336476e-001 9.282465e-006 -8.618023e-006 2.412572e-001 9.375857e-001
326505000 1.313253e-005 -5.505344e-006 2.753641e-001 9.298311e-001 9.161183e-006 9.981816e-006 2.765926e-001 9.337463e-001
326790000 -8.972165e-006 -1.592708e-005 3.107515e-001 9.244226e-001 7.998789e-006 -1.325604e-005 3.121614e-001 9.283335e-001
327075000 -4.364777e-006 9.350912e-006 3.463517e-001 9.174174e-001 3.306730e-006 1.006147e-005 3.478190e-001 9.213369e-001
327360000 -8.410977e-006 2.769777e-006 3.820684e-001 9.089225e-001 -8.378662e-006 7.543686e-006 3.837518e-001 9.127141e-001
327645000 6.300949e-006 1.076895e-005 4.177974e-001 8.986158e-001 -1.522227e-006 4.149389e-006 4.195406e-001 9.024220e-001
327930000 -1.039061e-005 -3.690124e-006 4.533851e-001 8.866912e-001 -7.120221e-006 -1.945443e-005 4.553111e-001 8.903733e-001
328215000 1.360163e-005 1.188564e-005 4.888469e-001 8.730171e-001 4.090749e-006 -1.779227e-006 4.908350e-001 8.766162e-001
328500000 -2.074295e-005 1.599583e-005 5.239836e-001 8.575262e-001 4.505186e-006 -6.082997e-006 5.261990e-001 8.612606e-001
328785000 -2.183295e-005 -7.559415e-006 5.586613e-001 8.403625e-001 1.568246e-006 2.897940e-006 5.611041e-001 8.440071e-001
329070000 -1.253683e-005 -1.061538e-005 5.927461e-001 8.214219e-001 -8.769402e-006 -1.249578e-006 5.954069e-001 8.250345e-001
329355000 -1.023132e-005 -5.731315e-006 6.264145e-001 8.007720e-001 -1.025554e-005 -4.311162e-006 6.291961e-001 8.042123e-001
329640000 -2.289782e-005 6.095815e-006 6.592038e-001 7.782564e-001 -2.139384e-005 3.582415e-006 6.620890e-001 7.816556e-001
329925000 5.315206e-007 -1.898748e-006 6.911222e-001 7.541500e-001 -2.163242e-006 5.624399e-006 6.941635e-001 7.574208e-001
330210000 7.886773e-006 5.839225e-006 7.220035e-001 7.284101e-001 1.819396e-005 1.068522e-005 7.251009e-001 7.315868e-001
330495000 -8.105573e-006 -4.293908e-006 7.518067e-001 7.010390e-001 5.929747e-006 -7.902755e-006 7.550210e-001 7.040983e-001
330780000 -1.122498e-005 5.755519e-006 7.802409e-001 6.721132e-001 -1.337329e-005 9.396393e-006 7.836920e-001 6.750000e-001
331065000 -1.673121e-006 -2.297249e-006 8.075433e-001 6.417841e-001 5.680933e-006 1.263520e-005 8.109010e-001 6.445538e-001
331350000 4.270885e-006 -4.759155e-006 8.332798e-001 6.099182e-001 -8.582899e-006 -2.900094e-006 8.367876e-001 6.125322e-001
331635000 -4.451317e-007 9.047472e-006 8.573654e-001 5.768111e-001 -3.192366e-006 2.190227e-006 8.611135e-001 5.793504e-001
331920000 -2.546441e-006 7.658921e-006 8.798572e-001 5.426714e-001 -3.987525e-006 3.556169e-006 8.837424e-001 5.450522e-001
332205000 -8.319528e-006 3.554310e-006 9.007376e-001 5.073138e-001 -5.324317e-006 1.495393e-005 9.046104e-001 5.095540e-001
332490000 -1.177757e-006 1.529866e-005 9.197678e-001 4.710361e-001 6.656084e-006 -1.846267e-006 9.238023e-001 4.730923e-001
332775000 4.276107e-007 -5.483235e-006 9.370707e-001 4.340028e-001 -1.335493e-005 -3.159647e-006 9.409935e-001 4.358951e-001
333060000 1.429270e-005 1.701292e-006 9.524001e-001 3.962041e-001 1.039263e-005 3.782015e-006 9.564667e-001 3.979166e-001
333345000 3.499335e-006 1.092111e-005 9.657902e-001 3.577961e-001 1.900487e-005 2.604404e-006 9.700677e-001 3.592797e-001
333630000 -9.860875e-006 1.444245e-005 9.773495e-001 3.189377e-001 7.309322e-006 -1.943870e-006 9.815859e-001 3.203554e-001
333915000 8.874203e-006 1.937164e-005 9.868783e-001 2.797631e-001 1.093807e-005 -7.475142e-006 9.911435e-001 2.811587e-001
334200000 -1.352578e-005 9.503481e-006 9.944967e-001 2.404419e-001 -1.805275e-007 -3.034438e-006 9.988306e-001 2.414438e-001
334485000 -9.122550e-007 -5.564835e-007 1.000134e+000 2.011602e-001 3.434096e-006 -5.192375e-006 1.004561e+000 2.019310e-001
334770000 -6.490303e-006 1.045038e-005 1.003984e+000 1.618640e-001 -1.006572e-005 -5.830791e-006 1.008470e+000 1.625054e-001
335055000 1.132080e-005 -1.354702e-006 1.005893e+000 1.227813e-001 1.583240e-005 -1.181526e-005 1.010437e+000 1.233099e-001
335340000 1.254835e-005 3.472323e-006 1.006115e+000 8.389796e-002 3.526455e-006 -1.237453e-005 1.010522e+000 8.435838e-002
335625000 -1.297709e-005 -5.844698e-006 1.004312e+000 4.565482e-002 2.859135e-005 -2.877762e-007 1.008744e+000 4.580120e-002
335910000 -5.964368e-006 8.695157e-006 1.000950e+000 7.753878e-003 1.470935e-005 -5.704705e-006 1.005328e+000 7.775728e-003
336195000 -7.555776e-006 1.151009e-005 9.959068e-001 -2.952511e-002 1.241871e-005 -9.986817e-006 1.000273e+000 -2.961321e-002
336480000 1.574018e-006 4.507585e-006 9.892355e-001 -6.606727e-002 1.714631e-005 1.843433e-005 9.935936e-001 -6.640993e-002
336765000 9.819098e-006 -5.242963e-006 9.811823e-001 -1.018737e-001 1.356267e-005 1.074244e-005 9.855713e-001 -1.023546e-001
337050000 2.162917e-006 4.114001e-006 9.717026e-001 -1.368897e-001 7.619902e-006 5.693724e-006 9.759117e-001 -1.375492e-001
337335000 -5.579040e-006 -4.249400e-006 9.608384e-001 -1.711331e-001 -9.875175e-006 -3.092801e-007 9.650146e-001 -1.718330e-001
337620000 -6.090347e-006 1.291793e-005 9.487753e-001 -2.043613e-001 2.370254e-006 1.426881e-005 9.529340e-001 -2.051233e-001
337905000 -2.911966e-006 5.958883e-006 9.354988e-001 -2.365020e-001 8.343350e-006 1.207318e-005 9.395838e-001 -2.376429e-001
338190000 -1.013964e-006 -1.569884e-005 9.211922e-001 -2.677480e-001 -7.462973e-006 2.312094e-005 9.251486e-001 -2.688947e-001
338475000 3.009968e-007 -4.744216e-006 9.058346e-001 -2.979870e-001 5.989478e-006 6.887398e-006 9.096642e-001 -2.993195e-001
338760000 -3.829077e-006 -9.555341e-006 8.896136e-001 -3.271707e-001 -1.330428e-005 -3.709290e-006 8.933936e-001 -3.286292e-001
339045000 2.890352e-006 1.595883e-005 8.724730e-001 -3.551993e-001 -1.548382e-005 -4.202197e-006 8.761775e-001 -3.567916e-001
339330000 -4.945987e-006 4.763482e-006 8.545601e-001 -3.824099e-001 -4.896491e-006 3.796087e-006 8.582498e-001 -3.840445e-001
339615000 -2.045835e-006 1.292859e-005 8.359156e-001 -4.082873e-001 -2.216072e-006 -1.335002e-005 8.395345e-001 -4.100329e-001
339900000 9.991518e-007 6.156144e-006 8.166823e-001 -4.332090e-001 -1.086958e-005 -1.039653e-005 8.201897e-001 -4.350223e-001
340185000 -1.333587e-005 4.491861e-006 7.969207e-001 -4.570169e-001 -9.579502e-006 -1.034780e-005 8.003174e-001 -4.589070e-001
340470000 -3.459384e-007 3.662190e-006 7.766395e-001 -4.797852e-001 -8.078290e-006 -5.942690e-006 7.800095e-001 -4.818275e-001
340755000 2.339316e-005 -1.285900e-005 7.559093e-001 -5.015823e-001 1.960133e-006 1.247753e-005 7.590969e-001 -5.037113e-001
341040000 7.126542e-006 -8.649514e-006 7.348089e-001 -5.221840e-001 3.827656e-006 4.288010e-006 7.379355e-001 -5.244574e-001
341325000 -2.403407e-006 4.759122e-006 7.133094e-001 -5.420505e-001 -8.620731e-006 -1.400640e-005 7.163695e-001 -5.442724e-001
341610000 8.310858e-006 3.491770e-006 6.915929e-001 -5.607145e-001 -2.545906e-006 -1.072953e-006 6.946298e-001 -5.630836e-001
341895000 -1.206211e-005 -5.344697e-006 6.696692e-001 -5.783664e-001 1.731988e-005 4.238704e-007 6.724339e-001 -5.809197e-001
342180000 -1.129624e-006 1.629660e-005 6.475428e-001 -5.952786e-001 -4.189878e-006 1.452468e-006 6.502436e-001 -5.977806e-001
342465000 -2.777514e-006 -1.087424e-005 6.251194e-001 -6.112779e-001 3.525294e-007 3.515024e-006 6.278177e-001 -6.137713e-001
342750000 -1.267782e-005 2.872761e-006 6.026579e-001 -6.263036e-001 -1.374563e-005 6.455015e-006 6.052400e-001 -6.288688e-001
343035000 5.636020e-006 1.288791e-005 5.802065e-001 -6.403790e-001 -1.046261e-006 1.163129e-005 5.826331e-001 -6.430907e-001
343320000 -7.750130e-006 2.611763e-006 5.575227e-001 -6.537235e-001 -5.233897e-006 9.405035e-006 5.598918e-001 -6.564223e-001
343605000 -6.541935e-006 -1.142722e-005 5.348996e-001 -6.663069e-001 -1.757750e-005 1.264502e-005 5.371948e-001 -6.690767e-001
343890000 4.566939e-006 -2.486779e-006 5.123025e-001 -6.779717e-001 -1.141536e-005 3.810239e-006 5.144991e-001 -6.808383e-001
