!Agilent Technologies,N5230C,SG49000117,A.08.50.07
!Agilent N5230C: A.08.50.07
!Date: Sunday, March 17, 2024 09:18:41
!Correction: S11(Off) 
!S21(Off) 
!S12(Off) 
!S22(Full 1 Port(2)) 
!S2P File: Measurements: S11, S21, S12, S22:
# Hz S  RI   R 50
300000000 7.404228e-005 1.346967e-004 -6.274607e-001 -6.440793e-001 -6.207661e-005 2.574077e-005 1.008250e+000 -1.842240e-001
300285000 3.145949e-005 1.536801e-005 -6.421029e-001 -6.208969e-001 8.614540e-005 1.248349e-005 1.007951e+000 -1.845555e-001
300570000 5.051225e-005 -1.126956e-005 -6.566520e-001 -5.975962e-001 -1.396365e-004 5.110773e-005 1.010011e+000 -1.826856e-001
300855000 -1.019283e-004 -2.788472e-005 -6.698422e-001 -5.737382e-001 -2.107343e-005 -2.585542e-005 1.009019e+000 -1.829942e-001
301140000 -4.357109e-005 -5.662830e-006 -6.822252e-001 -5.499092e-001 8.337751e-005 9.233963e-005 1.008709e+000 -1.842019e-001
301425000 -9.060906e-005 -4.632299e-005 -6.939970e-001 -5.266839e-001 -2.700311e-005 -3.100180e-005 1.008717e+000 -1.845505e-001
301710000 7.444432e-006 -7.817017e-005 -7.048643e-001 -5.026216e-001 7.613862e-005 -3.017326e-005 1.010261e+000 -1.864761e-001
301995000 -7.617473e-005 3.621578e-006 -7.151148e-001 -4.794033e-001 4.376483e-005 -1.197317e-004 1.007555e+000 -1.841661e-001
302280000 -3.389811e-005 -6.964884e-005 -7.246721e-001 -4.557109e-001 7.110240e-005 -2.666222e-005 1.009588e+000 -1.843481e-001
302565000 -3.646592e-006 -1.228032e-004 -7.336366e-001 -4.318382e-001 3.177375e-005 1.925268e-005 1.009699e+000 -1.856363e-001
302850000 7.179894e-005 -1.166045e-004 -7.409829e-001 -4.089990e-001 1.043208e-006 1.668704e-005 1.008335e+000 -1.850310e-001
303135000 3.896215e-005 -1.032821e-004 -7.487217e-001 -3.848560e-001 -2.071652e-005 -3.780060e-005 1.007156e+000 -1.857804e-001
303420000 6.415963e-005 -2.708489e-005 -7.552244e-001 -3.628711e-001 3.514877e-005 -6.431308e-006 1.008202e+000 -1.868743e-001
303705000 5.465093e-005 -1.090081e-004 -7.610484e-001 -3.395142e-001 2.612358e-005 7.236493e-005 1.008499e+000 -1.871037e-001
303990000 1.347319e-004 6.121229e-006 -7.666453e-001 -3.162772e-001 6.250798e-005 7.051338e-005 1.007768e+000 -1.850286e-001
304275000 -2.305652e-005 1.405781e-005 -7.712954e-001 -2.936362e-001 -2.809721e-005 3.564949e-005 1.007368e+000 -1.861984e-001
304560000 1.972420e-005 6.008259e-005 -7.753870e-001 -2.710653e-001 -2.025709e-005 5.549708e-005 1.009106e+000 -1.860881e-001
304845000 4.798463e-005 -6.259353e-005 -7.789581e-001 -2.488586e-001 -9.805393e-005 1.023939e-004 1.007230e+000 -1.858836e-001
305130000 -1.394638e-005 3.711379e-005 -7.818592e-001 -2.269645e-001 9.273797e-006 -3.223801e-005 1.006246e+000 -1.859364e-001
305415000 4.053456e-005 -5.744602e-005 -7.844706e-001 -2.042564e-001 6.253763e-005 1.597770e-005 1.008193e+000 -1.873876e-001
305700000 -8.805981e-006 2.529024e-005 -7.869816e-001 -1.823154e-001 5.449382e-005 5.643555e-005 1.008743e+000 -1.866867e-001
305985000 1.012403e-004 7.424415e-005 -7.878948e-001 -1.606401e-001 -2.958583e-005 1.021806e-004 1.009156e+000 -1.884470e-001
306270000 6.091915e-005 -5.840114e-005 -7.892510e-001 -1.387838e-001 -1.277905e-004 -3.660785e-005 1.009609e+000 -1.864023e-001
306555000 9.586923e-007 1.472525e-004 -7.903325e-001 -1.170676e-001 6.085436e-005 -3.232274e-005 1.009759e+000 -1.899847e-001
306840000 -2.573885e-005 -6.552586e-005 -7.903990e-001 -9.545564e-002 2.007720e-005 -4.016782e-005 1.008578e+000 -1.870208e-001
307125000 -3.360977e-005 -4.770292e-005 -7.898303e-001 -7.408265e-002 -5.440193e-005 -5.417676e-005 1.007989e+000 -1.889468e-001
307410000 3.796438e-005 8.409037e-005 -7.893184e-001 -5.293416e-002 1.182156e-004 -6.478126e-005 1.008676e+000 -1.886038e-001
307695000 -5.278961e-006 -6.540980e-005 -7.883387e-001 -3.238641e-002 1.385474e-005 1.271424e-005 1.008780e+000 -1.896432e-001
307980000 3.115645e-005 6.804473e-005 -7.867570e-001 -1.193244e-002 8.755740e-005 -8.640670e-005 1.009131e+000 -1.877232e-001
308265000 1.698741e-005 -1.303225e-004 -7.846273e-001 9.196362e-003 4.052258e-005 -1.149495e-004 1.008956e+000 -1.881262e-001
308550000 -2.275876e-005 -1.048465e-004 -7.826453e-001 2.921129e-002 -2.334537e-005 2.412776e-005 1.007982e+000 -1.883524e-001
308835000 -1.194622e-004 4.616957e-008 -7.805451e-001 5.001896e-002 1.620626e-004 -1.234595e-005 1.007279e+000 -1.882247e-001
309120000 -2.969016e-005 -2.195524e-005 -7.772559e-001 6.997491e-002 1.297157e-005 -7.621097e-005 1.008645e+000 -1.891157e-001
309405000 2.825357e-005 -4.768645e-005 -7.739546e-001 9.051836e-002 -2.538649e-006 5.079092e-005 1.010745e+000 -1.875612e-001
309690000 5.077372e-005 -7.779550e-005 -7.699655e-001 1.101726e-001 1.611508e-005 7.170449e-005 1.008785e+000 -1.883340e-001
309975000 5.963667e-006 -3.656417e-005 -7.660764e-001 1.295848e-001 -3.545051e-005 1.249828e-004 1.007176e+000 -1.891535e-001
310260000 1.749093e-005 -1.304047e-004 -7.619137e-001 1.501386e-001 2.301527e-005 -6.717633e-005 1.010049e+000 -1.895038e-001
310545000 -8.787289e-006 -7.313505e-005 -7.567776e-001 1.693331e-001 -4.738157e-005 -2.446316e-005 1.007495e+000 -1.900004e-001
310830000 2.658721e-005 2.956300e-005 -7.516169e-001 1.890150e-001 4.636196e-006 7.555519e-007 1.010405e+000 -1.917629e-001
311115000 1.044587e-004 3.091304e-005 -7.456471e-001 2.080511e-001 -2.931667e-005 6.046034e-005 1.007614e+000 -1.900393e-001
311400000 6.322896e-005 6.824049e-005 -7.400625e-001 2.276288e-001 7.237162e-005 3.646442e-005 1.008277e+000 -1.905043e-001
311685000 -7.983614e-005 5.126362e-005 -7.337942e-001 2.465495e-001 -2.405923e-005 7.239280e-005 1.009897e+000 -1.910667e-001
311970000 7.635797e-005 2.824510e-005 -7.277251e-001 2.662608e-001 6.154117e-006 1.232394e-004 1.008369e+000 -1.906265e-001
312255000 -1.535379e-005 5.850686e-005 -7.203574e-001 2.852418e-001 1.437704e-005 3.522576e-005 1.008748e+000 -1.904851e-001
312540000 -3.403381e-005 -1.339377e-005 -7.132854e-001 3.042417e-001 -7.287770e-005 -2.821753e-005 1.007422e+000 -1.913860e-001
312825000 -7.821262e-005 9.017162e-005 -7.056528e-001 3.228012e-001 -1.193791e-004 -1.029639e-004 1.006963e+000 -1.919305e-001
313110000 6.807226e-005 -2.282372e-007 -6.977060e-001 3.416794e-001 -4.530386e-005 -7.193531e-006 1.008699e+000 -1.935693e-001
313395000 -2.042538e-005 1.753414e-005 -6.893915e-001 3.604115e-001 -3.045870e-005 -8.710648e-005 1.007751e+000 -1.914856e-001
313680000 -6.914383e-005 1.283416e-005 -6.803038e-001 3.788817e-001 -5.685697e-005 -8.366260e-007 1.010054e+000 -1.907264e-001
313965000 -7.961841e-005 -6.686250e-007 -6.714393e-001 3.978080e-001 -3.214663e-005 -4.299557e-005 1.008833e+000 -1.919119e-001
314250000 -8.174487e-005 5.141713e-005 -6.618378e-001 4.160913e-001 5.384119e-005 -8.365326e-005 1.007514e+000 -1.929218e-001
314535000 -8.898154e-005 -1.361318e-004 -6.515858e-001 4.341265e-001 4.257333e-005 -9.822652e-005 1.008281e+000 -1.928653e-001
314820000 -2.267883e-005 -1.163822e-004 -6.412170e-001 4.522921e-001 3.308283e-005 -3.207301e-005 1.008473e+000 -1.939161e-001
315105000 9.792968e-006 1.917043e-005 -6.303676e-001 4.704745e-001 4.770534e-005 -7.563643e-005 1.005897e+000 -1.938654e-001
315390000 4.933108e-005 -1.840038e-004 -6.194648e-001 4.882371e-001 5.213222e-005 9.296982e-006 1.008846e+000 -1.949037e-001
315675000 2.952042e-005 -4.539167e-006 -6.076968e-001 5.065790e-001 1.043434e-004 3.242883e-005 1.006710e+000 -1.922443e-001
315960000 -4.686603e-005 -4.615696e-005 -5.950819e-001 5.241498e-001 -1.924708e-005 3.761063e-005 1.007725e+000 -1.939651e-001
316245000 1.229232e-004 -5.887182e-005 -5.823961e-001 5.420358e-001 -2.175130e-005 -1.052828e-006 1.006238e+000 -1.932471e-001
316530000 -5.166666e-005 -3.942274e-006 -5.697014e-001 5.596029e-001 2.764087e-005 -1.226344e-005 1.008414e+000 -1.943891e-001
316815000 1.786332e-005 -2.169796e-005 -5.556179e-001 5.774191e-001 7.381746e-005 -9.104203e-007 1.007702e+000 -1.945429e-001
317100000 7.762089e-005 -3.371192e-005 -5.416881e-001 5.944562e-001 1.120918e-004 7.228601e-005 1.005833e+000 -1.936979e-001
317385000 1.224637e-005 5.063053e-005 -5.267204e-001 6.119965e-001 3.593418e-005 -4.065761e-005 1.008964e+000 -1.946411e-001
317670000 -7.567168e-005 6.313432e-006 -5.119469e-001 6.296085e-001 -7.757269e-005 -2.505389e-005 1.007328e+000 -1.954124e-001
317955000 -3.353855e-006 9.163902e-005 -4.960418e-001 6.460730e-001 -3.353770e-005 9.059333e-005 1.009501e+000 -1.953673e-001
318240000 1.055152e-004 -5.767418e-005 -4.793515e-001 6.629317e-001 -7.578443e-006 -5.786958e-005 1.008452e+000 -1.948609e-001
318525000 6.742828e-005 2.694254e-005 -4.623118e-001 6.792006e-001 -5.931630e-005 2.125557e-005 1.007774e+000 -1.956158e-001
318810000 3.573456e-005 -2.381352e-005 -4.449002e-001 6.954162e-001 -6.336613e-005 2.381416e-006 1.006836e+000 -1.958659e-001
319095000 8.392857e-005 5.157878e-005 -4.270675e-001 7.116118e-001 -2.907964e-005 -7.919237e-005 1.007117e+000 -1.952971e-001
319380000 -5.710658e-005 -1.998147e-005 -4.078730e-001 7.277593e-001 2.918090e-005 -1.517963e-005 1.007977e+000 -1.949384e-001
319665000 -7.564217e-007 5.915354e-005 -3.880129e-001 7.434369e-001 7.366257e-005 -5.719388e-005 1.006841e+000 -1.951645e-001
319950000 -6.361322e-005 -3.537180e-005 -3.681692e-001 7.581196e-001 3.226713e-005 4.066485e-005 1.007808e+000 -1.962169e-001
320235000 -1.162745e-004 -1.014446e-006 -3.472327e-001 7.732970e-001 3.005446e-005 -3.055863e-005 1.008255e+000 -1.968357e-001
320520000 -3.620889e-005 3.849885e-005 -3.257399e-001 7.875534e-001 1.362991e-004 1.237017e-005 1.008162e+000 -1.975590e-001
320805000 -3.419398e-005 -4.633862e-005 -3.040988e-001 8.016030e-001 4.361447e-005 -3.233523e-005 1.007013e+000 -1.958080e-001
321090000 4.325514e-005 -9.029292e-005 -2.803935e-001 8.155103e-001 -7.040909e-005 1.560690e-004 1.006583e+000 -1.971311e-001
321375000 2.928040e-005 -2.688127e-005 -2.571317e-001 8.290917e-001 -5.014718e-005 -7.202051e-005 1.008833e+000 -1.957970e-001
321660000 -3.384658e-006 -2.596120e-005 -2.324796e-001 8.414239e-001 5.853940e-005 1.301448e-004 1.007392e+000 -1.967881e-001
321945000 -6.770626e-005 -2.865709e-005 -2.073100e-001 8.535551e-001 6.828367e-007 8.248473e-005 1.006930e+000 -1.982295e-001
322230000 5.666083e-005 -1.271006e-004 -1.815962e-001 8.647362e-001 -3.087362e-007 7.867248e-006 1.007454e+000 -1.977937e-001
322515000 1.068064e-004 6.780433e-005 -1.548405e-001 8.758967e-001 -1.322311e-005 6.744083e-005 1.005861e+000 -1.994763e-001
322800000 -4.621630e-005 -5.014330e-005 -1.271224e-001 8.862271e-001 5.515122e-006 -9.771461e-005 1.008226e+000 -1.981487e-001
323085000 5.114048e-005 7.172427e-005 -9.941773e-002 8.953165e-001 -1.409067e-004 3.715388e-005 1.007153e+000 -1.984764e-001
323370000 -5.054264e-006 -7.518668e-005 -7.072170e-002 9.038603e-001 -7.101282e-005 -6.066464e-005 1.007647e+000 -1.985996e-001
323655000 7.031664e-005 1.114278e-004 -4.032555e-002 9.115603e-001 -3.997524e-006 7.311891e-005 1.008239e+000 -1.989561e-001
323940000 -1.242946e-004 6.221085e-006 -1.065212e-002 9.181008e-001 2.162119e-006 5.416776e-005 1.006670e+000 -2.012170e-001
324225000 2.128094e-005 3.455545e-005 2.045682e-002 9.239929e-001 -2.740096e-005 7.311619e-005 1.006127e+000 -1.990654e-001
324510000 -9.978239e-005 -4.372387e-005 5.252130e-002 9.289681e-001 -4.338321e-005 5.198315e-006 1.008873e+000 -2.010443e-001
324795000 2.192982e-005 -4.113448e-005 8.459345e-002 9.322193e-001 1.401725e-005 1.189280e-005 1.007642e+000 -1.990058e-001
325080000 1.944679e-005 8.580879e-005 1.174962e-001 9.344413e-001 -4.014629e-006 4.998353e-005 1.006121e+000 -1.995417e-001
325365000 2.506183e-005 2.249424e-005 1.510823e-001 9.357352e-001 -5.770669e-006 -1.108166e-004 1.007880e+000 -1.987436e-001
325650000 -4.773484e-005 2.112767e-005 1.852829e-001 9.354982e-001 8.310433e-005 -1.203235e-005 1.007757e+000 -1.997559e-001
325935000 -3.691672e-005 2.936043e-005 2.193325e-001 9.342978e-001 9.799443e-006 -1.573930e-004 1.007565e+000 -2.009887e-001
326220000 6.227565e-006 5.077483e-005 2.543876e-001 9.315227e-001 9.523724e-005 -4.251867e-005 1.007024e+000 -2.005823e-001
326505000 1.751936e-005 7.667435e-006 2.896381e-001 9.272496e-001 -1.231020e-004 6.331735e-005 1.007498e+000 -1.998548e-001
326790000 -4.224674e-005 8.596433e-005 3.249305e-001 9.207860e-001 3.311137e-005 1.064672e-005 1.006291e+000 -2.003463e-001
327075000 -3.118086e-005 -9.472377e-006 3.604396e-001 9.133113e-001 -4.433411e-005 -1.294924e-005 1.007120e+000 -2.012518e-001
327360000 -7.997233e-005 -4.399451e-005 3.967484e-001 9.034736e-001 1.530178e-004 4.188099e-005 1.007786e+000 -2.009703e-001
327645000 -7.901835e-005 5.706440e-005 4.317565e-001 8.930570e-001 1.059686e-004 1.013722e-004 1.007119e+000 -2.001503e-001
327930000 -1.691976e-004 -1.378170e-005 4.673603e-001 8.802685e-001 2.056517e-005 1.588199e-005 1.006615e+000 -2.000153e-001
328215000 -5.662314e-005 4.857553e-006 5.030174e-001 8.662333e-001 -3.258436e-005 -1.360947e-004 1.007143e+000 -2.015740e-001
328500000 4.119017e-005 4.687866e-005 5.379492e-001 8.498069e-001 -9.768689e-005 -1.794749e-005 1.006941e+000 -2.017642e-001
328785000 5.410842e-005 2.075406e-005 5.720274e-001 8.322987e-001 2.910377e-005 9.040161e-005 1.007275e+000 -2.018239e-001
329070000 4.721894e-006 -3.942793e-005 6.062381e-001 8.126811e-001 1.013594e-004 2.589507e-005 1.006969e+000 -2.019298e-001
329355000 -5.368885e-005 -5.397557e-005 6.393136e-001 7.909674e-001 4.202105e-005 -2.140258e-005 1.007754e+000 -2.019524e-001
329640000 2.248922e-005 -5.231605e-005 6.717376e-001 7.684162e-001 7.438732e-005 1.591263e-005 1.005983e+000 -2.025214e-001
329925000 3.127482e-005 -4.902588e-006 7.034402e-001 7.430699e-001 5.687602e-005 -1.842366e-005 1.006872e+000 -2.025010e-001
330210000 9.236639e-006 2.839263e-005 7.336928e-001 7.166387e-001 4.531273e-006 -8.007413e-006 1.006025e+000 -2.023309e-001
330495000 -3.044588e-005 -1.695537e-005 7.627997e-001 6.890674e-001 1.046395e-004 -8.738032e-005 1.006288e+000 -2.033609e-001
330780000 2.236770e-005 8.742055e-005 7.908007e-001 6.591899e-001 2.416804e-005 1.080995e-004 1.007407e+000 -2.042216e-001
331065000 -9.140880e-005 -5.041303e-005 8.172666e-001 6.283533e-001 8.179498e-005 -5.382427e-005 1.004850e+000 -2.027278e-001
331350000 2.208208e-005 -1.878720e-005 8.425568e-001 5.960578e-001 -6.642976e-005 3.835070e-005 1.006455e+000 -2.026812e-001
331635000 2.843486e-006 5.949988e-006 8.659683e-001 5.629096e-001 -1.551113e-005 3.923790e-005 1.007792e+000 -2.036665e-001
331920000 7.380238e-008 6.672645e-005 8.881574e-001 5.279397e-001 -3.470899e-005 -2.621717e-005 1.007089e+000 -2.037213e-001
332205000 7.960427e-005 -7.395657e-005 9.080273e-001 4.921284e-001 -8.446148e-005 -3.090086e-005 1.006000e+000 -2.048889e-001
332490000 1.349292e-004 -8.865975e-005 9.265027e-001 4.555687e-001 -9.367397e-005 -1.105456e-005 1.007109e+000 -2.039874e-001
332775000 7.973012e-005 2.412750e-005 9.433698e-001 4.180805e-001 -1.033216e-005 5.078541e-005 1.006606e+000 -2.051056e-001
333060000 1.628582e-005 -2.994366e-005 9.575937e-001 3.801267e-001 7.595871e-005 -5.963204e-005 1.006925e+000 -2.053364e-001
333345000 -6.629101e-005 2.077099e-005 9.697918e-001 3.411435e-001 -6.090336e-005 -8.870089e-005 1.006828e+000 -2.045919e-001
333630000 -5.125439e-005 1.144977e-005 9.811019e-001 3.028070e-001 1.846423e-005 -4.566107e-005 1.006423e+000 -2.066071e-001
333915000 5.724978e-005 4.768443e-005 9.901207e-001 2.638212e-001 -1.336584e-005 2.341773e-005 1.006227e+000 -2.050762e-001
334200000 2.787057e-006 1.214830e-004 9.966170e-001 2.245012e-001 -8.247794e-005 -6.998479e-005 1.006639e+000 -2.063138e-001
334485000 5.796458e-006 4.704941e-005 1.001839e+000 1.846886e-001 1.077019e-005 4.767798e-005 1.006558e+000 -2.055222e-001
334770000 1.699483e-005 -9.146105e-008 1.005019e+000 1.458516e-001 7.570639e-006 2.075348e-006 1.006587e+000 -2.059289e-001
335055000 -9.326113e-006 3.058109e-005 1.006008e+000 1.068266e-001 -2.083157e-005 5.270597e-005 1.008223e+000 -2.057970e-001
335340000 -6.110128e-005 1.104964e-004 1.005134e+000 6.770504e-002 6.564675e-005 6.190424e-005 1.007082e+000 -2.076197e-001
335625000 8.565498e-005 1.286813e-004 1.002684e+000 3.010886e-002 -2.629165e-005 -7.898411e-006 1.006931e+000 -2.062226e-001
335910000 9.028610e-005 -1.204134e-005 9.989315e-001 -7.979112e-003 -3.202033e-005 2.392362e-005 1.006607e+000 -2.059233e-001
336195000 -4.379228e-005 1.213451e-004 9.923360e-001 -4.434958e-002 -4.669622e-005 -5.121289e-005 1.005335e+000 -2.061168e-001
336480000 -1.263550e-005 1.013248e-004 9.853519e-001 -8.095908e-002 -4.857180e-005 -2.021509e-004 1.007705e+000 -2.068385e-001
336765000 4.258788e-005 -1.884993e-005 9.768792e-001 -1.162583e-001 -1.611586e-005 5.384284e-007 1.007000e+000 -2.062273e-001
337050000 -1.003256e-005 2.445907e-005 9.673079e-001 -1.518084e-001 -2.875635e-005 -1.314683e-004 1.007287e+000 -2.072576e-001
337335000 -6.751880e-005 -6.452467e-006 9.558721e-001 -1.854895e-001 -1.016837e-004 -5.130791e-005 1.005904e+000 -2.086166e-001
337620000 -1.347509e-004 8.954821e-007 9.432625e-001 -2.177498e-001 -6.699023e-005 -3.052923e-006 1.008011e+000 -2.089137e-001
337905000 -6.549620e-005 -6.631044e-005 9.296290e-001 -2.502538e-001 4.037014e-005 1.230620e-005 1.006108e+000 -2.056582e-001
338190000 -5.265378e-005 8.663653e-006 9.142669e-001 -2.805031e-001 -6.798957e-006 6.128020e-005 1.006074e+000 -2.087606e-001
338475000 3.603832e-005 -8.309328e-005 8.990626e-001 -3.102456e-001 -3.072861e-005 2.878538e-005 1.007778e+000 -2.074666e-001
338760000 1.631670e-005 -7.819867e-005 8.821397e-001 -3.392729e-001 -3.687756e-006 -4.238756e-005 1.006115e+000 -2.084562e-001
339045000 4.731415e-005 -5.993056e-005 8.648856e-001 -3.669436e-001 1.677510e-005 -6.547995e-005 1.005771e+000 -2.085627e-001
339330000 -1.024268e-005 -8.256266e-005 8.466199e-001 -3.938958e-001 5.713394e-005 3.949513e-005 1.007152e+000 -2.080700e-001
339615000 9.183730e-005 -2.947254e-005 8.276795e-001 -4.192201e-001 -4.445365e-005 -1.221903e-005 1.005815e+000 -2.095620e-001
339900000 -4.834630e-005 4.193605e-005 8.081223e-001 -4.436535e-001 -1.448845e-005 -6.364700e-005 1.005787e+000 -2.096216e-001
340185000 8.634670e-005 2.680569e-005 7.879823e-001 -4.671558e-001 3.691653e-005 3.692854e-005 1.005810e+000 -2.092704e-001
340470000 2.260574e-005 -1.763446e-005 7.679760e-001 -4.895847e-001 5.632203e-006 -2.579532e-005 1.006415e+000 -2.085160e-001
340755000 -5.146582e-005 6.907595e-006 7.465686e-001 -5.105336e-001 6.851157e-005 -7.601006e-005 1.006084e+000 -2.099206e-001
341040000 -1.015527e-004 6.831071e-005 7.253168e-001 -5.310510e-001 8.816634e-005 4.723351e-005 1.005507e+000 -2.089612e-001
341325000 -4.840361e-005 8.194374e-005 7.042143e-001 -5.503684e-001 -4.006188e-005 2.521137e-005 1.007489e+000 -2.082625e-001
341610000 -6.695753e-005 -6.169068e-005 6.815184e-001 -5.686088e-001 8.120124e-006 -4.661912e-006 1.007836e+000 -2.093539e-001
341895000 3.900564e-005 1.301692e-004 6.600532e-001 -5.857705e-001 -8.295442e-005 1.907324e-005 1.005032e+000 -2.109255e-001
342180000 -1.547044e-004 -2.762714e-005 6.379240e-001 -6.024417e-001 2.808918e-005 -4.567632e-007 1.006114e+000 -2.118675e-001
342465000 -2.742891e-005 9.592113e-005 6.149744e-001 -6.176698e-001 -4.402645e-005 7.702753e-006 1.005630e+000 -2.107826e-001
342750000 -2.561510e-005 -4.107661e-005 5.929329e-001 -6.326927e-001 2.549994e-005 -2.527325e-006 1.008233e+000 -2.095900e-001
343035000 -5.517521e-005 -3.569117e-006 5.701634e-001 -6.461558e-001 -7.226055e-005 -5.095187e-005 1.005689e+000 -2.122233e-001
343320000 -5.675520e-007 -8.097494e-005 5.474044e-001 -6.598845e-001 3.755648e-005 -3.963730e-005 1.005669e+000 -2.109928e-001
343605000 3.633284e-005 -1.756984e-004 5.245337e-001 -6.719122e-001 -3.455738e-005 2.502034e-005 1.006344e+000 -2.114246e-001
343890000 -3.485109e-005 -3.133981e-005 5.020930e-001 -6.832222e-001 -2.888029e-005 -1.068595e-004 1.005983e+000 -2.117015e-001
