!Agilent Technologies,N5230C,SG49000117,A.08.50.07
!Agilent N5230C: A.08.50.07
!Date: Sunday, March 17, 2024 07:25:21
!Correction: S11(Off) 
!S21(Off) 
!S12(Off) 
!S22(Off) 
!S2P File: Measurements: S11, S21, S12, S22:
# Hz S  RI   R 50
300000000 1.082311e-005 -5.940383e-006 -6.270655e-001 -6.444734e-001 -7.389592e-007 -1.028008e-005 -6.294422e-001 -6.468011e-001
300285000 -4.989272e-007 -8.968375e-006 -6.422107e-001 -6.211334e-001 8.705963e-006 -2.314908e-006 -6.444806e-001 -6.234949e-001
300570000 -7.736348e-006 3.841416e-006 -6.565369e-001 -5.977743e-001 5.832584e-007 8.701331e-006 -6.589100e-001 -5.998578e-001
300855000 -1.260299e-006 -2.897766e-006 -6.699914e-001 -5.741369e-001 -4.289030e-006 -4.386181e-006 -6.724795e-001 -5.762697e-001
301140000 -7.250090e-006 -1.330620e-006 -6.825252e-001 -5.505106e-001 -4.581968e-006 -1.050788e-005 -6.851332e-001 -5.524639e-001
301425000 4.435701e-006 -8.496974e-006 -6.943188e-001 -5.268487e-001 5.872316e-007 5.649315e-006 -6.968660e-001 -5.288473e-001
301710000 1.175302e-005 9.193198e-006 -7.053147e-001 -5.031976e-001 5.424547e-006 1.015787e-005 -7.079159e-001 -5.050683e-001
301995000 -7.364119e-007 1.006766e-006 -7.154849e-001 -4.794787e-001 1.052093e-005 -1.643918e-005 -7.181293e-001 -4.814092e-001
302280000 4.328170e-006 -1.125552e-006 -7.248884e-001 -4.560624e-001 -6.226361e-006 4.625538e-006 -7.275477e-001 -4.577846e-001
302565000 -7.296381e-007 -1.106732e-006 -7.335319e-001 -4.325534e-001 1.854682e-005 -1.261665e-005 -7.362513e-001 -4.342084e-001
302850000 -6.417877e-006 1.315236e-005 -7.414416e-001 -4.092007e-001 7.665701e-006 4.011076e-006 -7.442112e-001 -4.107539e-001
303135000 1.526415e-006 -5.020177e-006 -7.487474e-001 -3.858767e-001 -8.183449e-006 4.711933e-006 -7.515835e-001 -3.873287e-001
303420000 2.584385e-006 2.141226e-006 -7.553515e-001 -3.628223e-001 -7.556654e-006 2.704882e-006 -7.581386e-001 -3.642307e-001
303705000 -7.681159e-006 -2.196769e-006 -7.612564e-001 -3.397894e-001 1.299603e-005 -1.083693e-006 -7.641061e-001 -3.410605e-001
303990000 8.479313e-006 1.031182e-005 -7.666168e-001 -3.168150e-001 9.737284e-006 -6.443070e-006 -7.694964e-001 -3.180475e-001
304275000 -1.888370e-005 -1.049609e-005 -7.714326e-001 -2.941420e-001 4.001059e-006 -8.563526e-006 -7.742868e-001 -2.952763e-001
304560000 2.102306e-005 -8.947650e-006 -7.755953e-001 -2.714709e-001 6.204407e-006 9.327398e-006 -7.785520e-001 -2.725989e-001
304845000 -6.583316e-006 4.570081e-006 -7.792120e-001 -2.490146e-001 4.855922e-006 -1.146222e-005 -7.821630e-001 -2.500281e-001
305130000 -3.145020e-006 6.727916e-006 -7.822982e-001 -2.267049e-001 4.857640e-006 4.079925e-006 -7.852780e-001 -2.275465e-001
305415000 -1.186519e-005 -4.619374e-006 -7.850022e-001 -2.045752e-001 5.852859e-006 1.890081e-006 -7.879409e-001 -2.053533e-001
305700000 -1.102789e-005 1.548171e-005 -7.869653e-001 -1.825068e-001 -2.643987e-005 2.481360e-006 -7.900394e-001 -1.833128e-001
305985000 -5.506515e-008 -1.439429e-006 -7.885542e-001 -1.606453e-001 1.286972e-005 -7.460607e-006 -7.915775e-001 -1.612166e-001
306270000 5.898889e-006 7.553654e-006 -7.896622e-001 -1.390080e-001 -4.346681e-006 -1.184529e-005 -7.927126e-001 -1.395391e-001
306555000 -3.062404e-006 3.767182e-006 -7.903528e-001 -1.174046e-001 -7.132153e-006 -3.352747e-006 -7.932548e-001 -1.178562e-001
306840000 -3.809502e-007 5.446249e-007 -7.905394e-001 -9.601375e-002 5.056112e-007 2.884381e-006 -7.935598e-001 -9.638928e-002
307125000 1.269392e-005 -9.219784e-006 -7.902233e-001 -7.472944e-002 2.747699e-006 -1.367490e-005 -7.932999e-001 -7.506879e-002
307410000 -1.023678e-005 3.744672e-007 -7.896639e-001 -5.365709e-002 4.531065e-006 -1.094786e-005 -7.927075e-001 -5.378677e-002
307695000 5.534521e-006 -1.713498e-005 -7.885833e-001 -3.267392e-002 1.723625e-005 5.923282e-006 -7.916071e-001 -3.279762e-002
307980000 1.840023e-005 -2.098773e-005 -7.871103e-001 -1.189149e-002 5.943387e-006 -4.384670e-006 -7.901447e-001 -1.194023e-002
308265000 -1.380858e-005 -1.691304e-005 -7.853025e-001 8.759968e-003 8.311425e-007 -1.422999e-005 -7.883519e-001 8.830913e-003
308550000 7.278987e-007 -3.783352e-006 -7.830731e-001 2.926062e-002 5.680170e-006 -1.456548e-006 -7.860363e-001 2.936811e-002
308835000 -5.089012e-006 -2.258015e-005 -7.804067e-001 4.966475e-002 -5.580341e-006 -8.302170e-006 -7.834975e-001 4.989700e-002
309120000 5.203787e-006 1.450085e-007 -7.774867e-001 6.987944e-002 4.921433e-006 -3.588704e-006 -7.804387e-001 7.019469e-002
309405000 8.635068e-007 2.229507e-006 -7.741077e-001 9.005988e-002 -9.875360e-006 6.414510e-006 -7.771519e-001 9.037311e-002
309690000 2.266104e-005 -1.576127e-006 -7.704030e-001 1.099870e-001 -4.038621e-006 -1.160512e-006 -7.734572e-001 1.104266e-001
309975000 1.062394e-006 1.587501e-006 -7.662786e-001 1.298398e-001 -6.399757e-006 -1.375725e-006 -7.693595e-001 1.303841e-001
310260000 -5.011047e-006 -9.564819e-006 -7.618752e-001 1.496616e-001 -1.034205e-005 -1.014835e-005 -7.649174e-001 1.501561e-001
310545000 -2.757085e-007 -1.118552e-005 -7.571075e-001 1.693212e-001 -2.295815e-005 -8.762414e-006 -7.600853e-001 1.698953e-001
310830000 -1.329098e-005 -1.013696e-005 -7.519737e-001 1.888569e-001 -7.746950e-006 -2.281385e-005 -7.549947e-001 1.895765e-001
311115000 3.317302e-006 -1.486906e-005 -7.464900e-001 2.082437e-001 3.110375e-006 -7.974792e-006 -7.494507e-001 2.090591e-001
311400000 -4.528484e-006 1.092782e-005 -7.406502e-001 2.275788e-001 -5.416667e-006 -1.982812e-005 -7.436171e-001 2.285053e-001
311685000 9.326932e-006 -3.131303e-006 -7.344730e-001 2.467754e-001 -4.210086e-006 -1.149679e-005 -7.373219e-001 2.477681e-001
311970000 -4.878996e-006 -9.131187e-006 -7.278900e-001 2.658702e-001 3.144031e-006 -2.447646e-005 -7.307562e-001 2.669688e-001
312255000 -3.875806e-006 5.604022e-006 -7.209774e-001 2.849324e-001 1.451935e-005 1.909583e-006 -7.238602e-001 2.860873e-001
312540000 -1.766544e-006 1.489963e-006 -7.137120e-001 3.038404e-001 4.476910e-006 -2.803557e-006 -7.165859e-001 3.050223e-001
312825000 1.266139e-006 1.973367e-005 -7.060962e-001 3.227046e-001 -2.870064e-006 2.879850e-006 -7.088698e-001 3.240167e-001
313110000 -1.044589e-005 -9.320710e-006 -6.981163e-001 3.415078e-001 1.392430e-005 2.568094e-006 -7.008229e-001 3.428508e-001
313395000 6.384105e-006 6.846305e-006 -6.896559e-001 3.602143e-001 1.128715e-005 2.411311e-006 -6.923924e-001 3.616056e-001
313680000 2.419737e-006 -9.331995e-006 -6.808686e-001 3.787271e-001 -5.569451e-006 5.029186e-006 -6.835589e-001 3.802102e-001
313965000 7.612197e-006 -7.847747e-006 -6.717431e-001 3.972428e-001 1.052768e-005 1.795908e-005 -6.744059e-001 3.988521e-001
314250000 -3.435573e-006 -1.615341e-005 -6.621177e-001 4.156573e-001 3.559149e-006 1.098903e-007 -6.647218e-001 4.173438e-001
314535000 4.662304e-006 7.979425e-006 -6.521279e-001 4.339852e-001 1.401639e-005 1.126471e-005 -6.547349e-001 4.357669e-001
314820000 4.437960e-006 1.446821e-006 -6.417824e-001 4.523015e-001 -4.943663e-007 9.616359e-006 -6.443512e-001 4.540541e-001
315105000 2.662414e-006 -5.768290e-006 -6.309642e-001 4.705026e-001 -1.846633e-006 2.450251e-006 -6.334294e-001 4.723672e-001
315390000 1.251951e-005 -3.014284e-006 -6.196526e-001 4.884959e-001 -8.452658e-006 1.029196e-005 -6.221246e-001 4.904837e-001
315675000 2.617452e-005 1.266239e-005 -6.079170e-001 5.065073e-001 -1.471331e-005 -7.584410e-006 -6.103110e-001 5.084748e-001
315960000 1.286467e-005 1.356135e-005 -5.957300e-001 5.243595e-001 -2.159142e-005 -1.476567e-006 -5.981245e-001 5.264666e-001
316245000 1.024035e-005 8.837201e-006 -5.830555e-001 5.420656e-001 -9.220662e-006 -1.898912e-005 -5.853896e-001 5.443178e-001
316530000 -5.720982e-006 1.396732e-005 -5.699355e-001 5.597743e-001 -5.000960e-006 -1.380962e-005 -5.722810e-001 5.619715e-001
316815000 -9.125721e-008 2.200240e-005 -5.563005e-001 5.773001e-001 4.971168e-006 -2.027679e-005 -5.585197e-001 5.796100e-001
317100000 -1.309370e-005 8.899553e-006 -5.421349e-001 5.946683e-001 1.844401e-006 -2.117589e-005 -5.443398e-001 5.970936e-001
317385000 -5.631814e-006 7.131397e-006 -5.274132e-001 6.119329e-001 -7.919141e-006 -1.392545e-005 -5.295171e-001 6.144567e-001
317670000 -2.081066e-005 1.261261e-005 -5.122344e-001 6.290164e-001 1.246831e-005 -1.267978e-005 -5.142069e-001 6.315929e-001
317955000 -2.010238e-005 1.052922e-005 -4.963658e-001 6.459940e-001 1.284859e-005 -1.431848e-006 -4.983366e-001 6.486300e-001
318240000 7.234551e-007 6.943628e-007 -4.799690e-001 6.626983e-001 -2.298758e-006 -5.125482e-006 -4.819345e-001 6.654030e-001
318525000 -8.556924e-006 -1.909312e-005 -4.630321e-001 6.793128e-001 -8.801347e-006 1.038790e-005 -4.649402e-001 6.820655e-001
318810000 -1.601258e-005 -1.539164e-005 -4.453878e-001 6.955997e-001 -2.098382e-006 1.285341e-005 -4.472888e-001 6.984351e-001
319095000 2.336596e-006 -1.744808e-005 -4.272855e-001 7.117102e-001 8.220643e-006 5.658485e-007 -4.290521e-001 7.145705e-001
319380000 -7.725331e-006 -1.152667e-005 -4.084155e-001 7.275570e-001 9.361490e-007 2.025422e-005 -4.100859e-001 7.304686e-001
319665000 -1.852328e-005 -6.336174e-006 -3.889284e-001 7.430595e-001 1.354272e-006 1.320116e-005 -3.905707e-001 7.460841e-001
319950000 1.234647e-005 -1.609037e-005 -3.687973e-001 7.582970e-001 -9.550440e-007 7.765380e-007 -3.703114e-001 7.614275e-001
320235000 -5.857265e-006 -2.714850e-006 -3.479719e-001 7.732190e-001 -1.697197e-005 3.480849e-006 -3.494118e-001 7.763690e-001
320520000 -2.450029e-006 -2.594561e-005 -3.264131e-001 7.877643e-001 -2.077248e-006 1.352936e-005 -3.278196e-001 7.909833e-001
320805000 3.340325e-006 -3.386932e-006 -3.041869e-001 8.018606e-001 6.759971e-006 -6.371039e-006 -3.054157e-001 8.051916e-001
321090000 -6.143186e-006 -3.056369e-006 -2.811977e-001 8.155130e-001 -5.755082e-006 -7.505716e-006 -2.824130e-001 8.189185e-001
321375000 -7.124785e-006 -5.104519e-006 -2.576352e-001 8.288279e-001 1.669790e-006 -9.382838e-006 -2.586055e-001 8.322155e-001
321660000 1.133251e-005 -2.828896e-006 -2.331630e-001 8.414249e-001 9.214539e-006 1.318165e-006 -2.340727e-001 8.449519e-001
321945000 2.568457e-006 1.752393e-005 -2.079744e-001 8.535632e-001 1.070209e-005 2.414413e-006 -2.088940e-001 8.571028e-001
322230000 -1.701760e-005 -1.687996e-006 -1.820332e-001 8.650939e-001 1.089815e-005 8.415648e-006 -1.828049e-001 8.686482e-001
322515000 -7.157640e-007 -2.741805e-006 -1.554047e-001 8.759598e-001 2.607492e-006 -1.139874e-005 -1.560043e-001 8.795632e-001
322800000 3.117180e-006 -1.388530e-006 -1.280307e-001 8.861830e-001 6.362458e-006 1.285784e-005 -1.285172e-001 8.897780e-001
323085000 1.783525e-005 -1.767583e-005 -9.979270e-002 8.954939e-001 6.085845e-006 3.059071e-005 -1.003015e-001 8.992664e-001
323370000 -3.597319e-006 -6.682004e-006 -7.090595e-002 9.040874e-001 -5.543486e-006 9.707982e-006 -7.121050e-002 9.078394e-001
323655000 -8.365163e-006 1.971827e-005 -4.129347e-002 9.117891e-001 -1.461237e-005 -1.184480e-006 -4.146451e-002 9.156651e-001
323940000 -2.037991e-005 -8.610227e-006 -1.093373e-002 9.185996e-001 -1.701197e-005 -3.044468e-006 -1.091091e-002 9.223684e-001
324225000 -8.492399e-007 1.819222e-005 2.012417e-002 9.243202e-001 -1.708183e-005 -2.047365e-006 2.027573e-002 9.282240e-001
324510000 -5.193717e-007 -8.696319e-006 5.181805e-002 9.290627e-001 -1.313798e-005 -1.030410e-005 5.211176e-002 9.329390e-001
324795000 1.945107e-005 -1.237413e-005 8.414835e-002 9.327527e-001 -1.106562e-005 -3.866965e-006 8.444986e-002 9.365931e-001
325080000 1.658732e-006 1.171854e-005 1.171313e-001 9.350954e-001 -6.814159e-007 7.096393e-006 1.175739e-001 9.390905e-001
325365000 1.013027e-005 -2.691011e-005 1.506866e-001 9.363415e-001 1.302214e-005 -1.466161e-005 1.512616e-001 9.402297e-001
325650000 5.979957e-006 -1.979549e-005 1.846681e-001 9.361542e-001 1.076603e-005 -8.274825e-006 1.854290e-001 9.401723e-001
325935000 1.691227e-006 -1.584706e-005 2.191742e-001 9.346727e-001 6.429222e-006 -1.255847e-005 2.200245e-001 9.386175e-001
326220000 -5.917449e-006 -7.079783e-006 2.540634e-001 9.317366e-001 8.831787e-006 -1.405774e-005 2.549684e-001 9.356679e-001
326505000 2.795269e-007 -9.630249e-006 2.892342e-001 9.272715e-001 1.498355e-005 1.062632e-005 2.904590e-001 9.312334e-001
326790000 -7.195528e-006 -6.309811e-006 3.246714e-001 9.213645e-001 1.381620e-005 3.831529e-006 3.259380e-001 9.252350e-001
327075000 -1.620793e-005 -5.738082e-006 3.602193e-001 9.136878e-001 2.450301e-005 1.058341e-005 3.617256e-001 9.176503e-001
327360000 -1.701446e-005 1.054404e-005 3.959679e-001 9.045145e-001 1.058295e-005 -6.263108e-006 3.976196e-001 9.083318e-001
327645000 -9.786965e-006 5.084418e-006 4.315875e-001 8.936249e-001 -1.674119e-005 2.171289e-005 4.334476e-001 8.974165e-001
327930000 -4.802052e-006 -1.057907e-005 4.670494e-001 8.809617e-001 -1.969740e-005 2.345007e-006 4.690548e-001 8.847629e-001
328215000 2.720892e-006 -4.607572e-006 5.024129e-001 8.667123e-001 8.270899e-006 1.263234e-005 5.045775e-001 8.703765e-001
328500000 -9.673990e-007 5.750536e-006 5.374727e-001 8.506421e-001 -9.979863e-006 -1.254957e-005 5.396578e-001 8.541785e-001
328785000 -1.633792e-005 -5.329850e-006 5.719327e-001 8.326927e-001 -2.857581e-006 -8.702677e-006 5.743745e-001 8.363338e-001
329070000 1.393384e-006 -2.436643e-006 6.058471e-001 8.131968e-001 -3.996319e-006 2.415150e-006 6.084402e-001 8.166515e-001
329355000 2.622123e-006 2.076835e-005 6.392388e-001 7.917676e-001 8.019809e-006 -5.958304e-006 6.420209e-001 7.951427e-001
329640000 -6.087320e-007 1.452526e-005 6.716217e-001 7.687526e-001 -6.549719e-006 -1.554863e-005 6.745361e-001 7.719839e-001
329925000 -1.576439e-005 4.944100e-006 7.030460e-001 7.439790e-001 1.266484e-006 5.300898e-006 7.061169e-001 7.471797e-001
330210000 -2.509816e-005 -9.671602e-006 7.335683e-001 7.176406e-001 -1.154336e-005 4.357729e-006 7.367935e-001 7.206905e-001
330495000 -8.565334e-006 3.376796e-006 7.629035e-001 6.896233e-001 -5.669470e-006 -1.515062e-006 7.661194e-001 6.924981e-001
330780000 -1.022644e-005 1.206050e-006 7.909300e-001 6.600819e-001 1.230170e-007 -4.124687e-006 7.942825e-001 6.630082e-001
331065000 -7.296386e-006 4.310603e-006 8.175244e-001 6.292398e-001 -8.589968e-006 -6.202880e-006 8.210095e-001 6.318440e-001
331350000 -1.279765e-005 6.498170e-006 8.427496e-001 5.968779e-001 -1.235020e-005 2.563489e-005 8.463950e-001 5.994825e-001
331635000 -6.975208e-006 -3.679125e-006 8.661530e-001 5.633876e-001 -1.927001e-005 -8.402779e-006 8.700321e-001 5.658094e-001
331920000 -1.153371e-005 2.583017e-006 8.881836e-001 5.287657e-001 -1.494972e-005 1.802868e-005 8.920954e-001 5.309987e-001
332205000 2.842255e-006 -1.305494e-005 9.083881e-001 4.929933e-001 -1.075873e-005 -9.547863e-006 9.122956e-001 4.951760e-001
332490000 6.438975e-006 6.540267e-006 9.266924e-001 4.564583e-001 1.663248e-005 -4.679247e-006 9.307417e-001 4.584369e-001
332775000 -3.731130e-006 4.267521e-006 9.433005e-001 4.191244e-001 -7.872713e-007 -2.461401e-006 9.473516e-001 4.208476e-001
333060000 2.259906e-007 1.049200e-005 9.578987e-001 3.810453e-001 -9.674717e-006 -6.872482e-006 9.621063e-001 3.826500e-001
333345000 5.462193e-006 5.588855e-006 9.705530e-001 3.422859e-001 -1.090353e-005 -2.306460e-006 9.747771e-001 3.438717e-001
333630000 2.434418e-005 -1.217346e-006 9.812691e-001 3.034635e-001 -7.480820e-006 1.589075e-006 9.856607e-001 3.048511e-001
333915000 -9.933390e-007 -3.649165e-006 9.901483e-001 2.641860e-001 -2.121954e-006 -3.866007e-006 9.944554e-001 2.653893e-001
334200000 1.082146e-005 -7.669721e-006 9.970561e-001 2.248853e-001 8.985702e-006 -6.524584e-006 1.001425e+000 2.258384e-001
334485000 -1.011385e-005 -1.308529e-005 1.002052e+000 1.855082e-001 -9.711513e-006 -1.048607e-005 1.006524e+000 1.861296e-001
334770000 1.189961e-005 6.958267e-006 1.005198e+000 1.460761e-001 -2.864143e-006 6.696373e-006 1.009546e+000 1.467953e-001
335055000 4.266447e-006 -5.394519e-006 1.006319e+000 1.070788e-001 -1.822593e-005 1.426002e-007 1.010841e+000 1.076040e-001
335340000 1.634500e-006 -1.577787e-005 1.005751e+000 6.843456e-002 7.347334e-006 -1.326763e-005 1.010136e+000 6.875920e-002
335625000 -2.277628e-006 -5.935160e-006 1.003375e+000 3.027233e-002 -6.969660e-006 2.809918e-006 1.007758e+000 3.037966e-002
335910000 3.563535e-006 -3.113068e-006 9.993703e-001 -7.375456e-003 1.424847e-005 -4.118532e-006 1.003716e+000 -7.338539e-003
336195000 -1.192302e-005 -1.019227e-006 9.936165e-001 -4.437888e-002 1.091585e-006 -2.527653e-006 9.979482e-001 -4.457232e-002
336480000 2.478790e-005 9.342472e-006 9.864814e-001 -8.068653e-002 -2.134893e-005 -6.357000e-006 9.908148e-001 -8.111293e-002
336765000 1.593962e-005 3.988842e-006 9.777833e-001 -1.163298e-001 1.246794e-005 6.435833e-006 9.820707e-001 -1.168609e-001
337050000 -7.949166e-007 1.283280e-005 9.676681e-001 -1.509695e-001 -6.263255e-006 1.031891e-005 9.719344e-001 -1.516314e-001
337335000 -1.811689e-005 1.523974e-005 9.564182e-001 -1.848719e-001 -3.457370e-006 8.674153e-007 9.604886e-001 -1.855901e-001
337620000 1.241806e-006 1.247642e-005 9.438396e-001 -2.177722e-001 -2.162821e-007 1.066486e-005 9.478830e-001 -2.185750e-001
337905000 -8.613637e-006 8.925098e-006 9.300947e-001 -2.496199e-001 -4.690172e-006 2.086462e-005 9.340769e-001 -2.506670e-001
338190000 -4.362726e-006 -1.173668e-005 9.153291e-001 -2.804864e-001 -1.431476e-006 4.058373e-007 9.192910e-001 -2.817003e-001
338475000 -5.558164e-006 9.378463e-006 8.995299e-001 -3.104055e-001 -1.234199e-005 -1.037484e-005 9.034438e-001 -3.116477e-001
338760000 3.722462e-006 1.797370e-005 8.828982e-001 -3.391854e-001 -1.504746e-006 3.764420e-006 8.867538e-001 -3.405780e-001
339045000 7.030932e-007 3.947325e-006 8.654774e-001 -3.668473e-001 -3.094475e-007 6.838959e-006 8.690387e-001 -3.683615e-001
339330000 1.647131e-006 1.804492e-005 8.471596e-001 -3.934376e-001 -4.015245e-006 -1.887133e-005 8.508476e-001 -3.951354e-001
339615000 -1.195327e-005 2.412656e-006 8.282619e-001 -4.190710e-001 4.052916e-006 8.223355e-006 8.318846e-001 -4.209465e-001
339900000 -5.688695e-006 -6.108195e-006 8.087937e-001 -4.435478e-001 -2.019418e-006 4.985858e-006 8.121876e-001 -4.454111e-001
340185000 5.030783e-006 -2.902871e-006 7.888108e-001 -4.669127e-001 -5.477707e-006 7.604778e-006 7.921997e-001 -4.689946e-001
340470000 -5.096014e-006 -5.643478e-006 7.682029e-001 -4.893660e-001 1.679461e-005 -6.281686e-006 7.715286e-001 -4.914808e-001
340755000 8.870895e-006 -4.612611e-006 7.472757e-001 -5.107329e-001 -1.120706e-005 -1.915435e-005 7.505440e-001 -5.127993e-001
341040000 1.405248e-006 2.170146e-005 7.260740e-001 -5.310059e-001 1.503083e-007 1.188611e-005 7.291856e-001 -5.332189e-001
341325000 1.918923e-006 1.363905e-005 7.044807e-001 -5.503585e-001 4.310864e-006 5.932955e-006 7.073401e-001 -5.526711e-001
341610000 -2.874054e-006 7.222383e-006 6.824566e-001 -5.686343e-001 3.113947e-005 1.037987e-005 6.854702e-001 -5.710495e-001
341895000 -3.214187e-007 -5.116649e-006 6.604029e-001 -5.860912e-001 -1.311994e-005 1.154246e-005 6.631849e-001 -5.885453e-001
342180000 4.454378e-006 4.785387e-006 6.381189e-001 -6.025528e-001 -3.820426e-006 2.723038e-006 6.408685e-001 -6.051156e-001
342465000 -1.384410e-005 6.982318e-006 6.157004e-001 -6.180319e-001 -9.329538e-006 -8.197514e-006 6.183045e-001 -6.207218e-001
342750000 4.483248e-007 8.197815e-007 5.931872e-001 -6.327649e-001 -2.458239e-006 -1.084322e-005 5.957052e-001 -6.354196e-001
343035000 6.242481e-006 -1.836496e-006 5.705978e-001 -6.465715e-001 3.000671e-006 -2.169666e-005 5.730211e-001 -6.492168e-001
343320000 4.817946e-006 -2.846546e-006 5.480015e-001 -6.594964e-001 8.100343e-006 -4.680169e-006 5.501783e-001 -6.623150e-001
343605000 -4.342314e-006 4.299303e-006 5.252888e-001 -6.717540e-001 -4.399381e-006 4.632509e-006 5.274550e-001 -6.745471e-001
343890000 -5.108921e-007 7.689398e-006 5.024744e-001 -6.830948e-001 1.655808e-006 -4.218622e-006 5.046498e-001 -6.859893e-001
