!Agilent Technologies,N5230C,SG49000117,A.08.50.07
!Agilent N5230C: A.08.50.07
!Date: Sunday, March 17, 2024 07:27:50
!Correction: S11(Off) 
!S21(Off) 
!S12(Off) 
!S22(Off) 
!S2P File: Measurements: S11, S21, S12, S22:
# Hz S  RI   R 50
300000000 1.660189e-005 1.245569e-005 -6.388515e-001 -6.280517e-001 -8.117490e-006 -1.143263e-005 -6.411730e-001 -6.303424e-001
300285000 1.309217e-005 7.638536e-006 -6.533601e-001 -6.045815e-001 1.524154e-007 9.298863e-006 -6.557788e-001 -6.068374e-001
300570000 1.443871e-006 -4.766394e-006 -6.670900e-001 -5.810353e-001 -4.940462e-006 -3.946078e-006 -6.694372e-001 -5.831652e-001
300855000 -1.451759e-005 -8.297337e-006 -6.799231e-001 -5.574062e-001 1.427954e-005 5.542111e-006 -6.823340e-001 -5.595405e-001
301140000 1.468444e-005 -3.794922e-006 -6.918973e-001 -5.335729e-001 -7.674735e-007 -4.613770e-006 -6.944999e-001 -5.356541e-001
301425000 8.149695e-006 -1.135597e-005 -7.031114e-001 -5.099845e-001 2.209161e-005 -1.570389e-006 -7.056688e-001 -5.119017e-001
301710000 8.124576e-006 7.157482e-006 -7.134617e-001 -4.863002e-001 -8.953087e-006 -4.620672e-007 -7.161186e-001 -4.880644e-001
301995000 -5.019037e-006 1.162398e-006 -7.230605e-001 -4.626091e-001 1.014526e-005 1.691356e-005 -7.257247e-001 -4.643322e-001
302280000 -5.713602e-006 -8.204584e-006 -7.319025e-001 -4.391213e-001 3.248590e-006 3.075351e-007 -7.347471e-001 -4.407043e-001
302565000 -1.448086e-007 1.019736e-005 -7.400810e-001 -4.155196e-001 1.746865e-005 9.127835e-006 -7.428948e-001 -4.171140e-001
302850000 -9.428422e-006 -1.393059e-005 -7.475214e-001 -3.921385e-001 1.117356e-005 -1.000097e-005 -7.503742e-001 -3.937096e-001
303135000 -8.375035e-006 -1.144154e-005 -7.544042e-001 -3.688629e-001 1.459565e-005 1.869751e-005 -7.571138e-001 -3.702868e-001
303420000 2.736309e-006 -1.838623e-005 -7.604521e-001 -3.457856e-001 2.760020e-006 -9.857484e-006 -7.632860e-001 -3.471583e-001
303705000 1.714329e-005 1.431027e-006 -7.659279e-001 -3.228798e-001 6.111520e-006 1.606754e-006 -7.688211e-001 -3.240893e-001
303990000 7.490352e-006 -2.187217e-005 -7.709261e-001 -2.998862e-001 8.466747e-006 7.380127e-006 -7.737762e-001 -3.010834e-001
304275000 1.455543e-005 -1.501538e-005 -7.752210e-001 -2.772190e-001 -3.672466e-006 3.661946e-006 -7.781778e-001 -2.783078e-001
304560000 2.254022e-005 -4.396268e-006 -7.789739e-001 -2.546872e-001 2.372002e-006 9.179833e-006 -7.819129e-001 -2.556321e-001
304845000 1.495252e-005 7.059554e-006 -7.822673e-001 -2.322978e-001 -5.275552e-006 -5.313257e-006 -7.851597e-001 -2.331636e-001
305130000 2.490505e-005 1.712756e-006 -7.848582e-001 -2.100131e-001 -7.861468e-006 8.418362e-006 -7.878813e-001 -2.108475e-001
305415000 -1.383824e-006 6.133343e-006 -7.871152e-001 -1.878898e-001 -1.813385e-005 6.663923e-006 -7.901490e-001 -1.886215e-001
305700000 1.311636e-005 2.088654e-005 -7.887515e-001 -1.659268e-001 1.022610e-006 -1.547367e-005 -7.918102e-001 -1.666368e-001
305985000 2.072588e-006 1.748185e-005 -7.899300e-001 -1.442223e-001 -3.571616e-006 1.631661e-005 -7.929832e-001 -1.447096e-001
306270000 9.415595e-006 2.657834e-006 -7.906406e-001 -1.225412e-001 8.645398e-006 -4.731039e-006 -7.936950e-001 -1.230262e-001
306555000 -1.399006e-005 1.129873e-005 -7.909366e-001 -1.009588e-001 6.073625e-006 3.255474e-006 -7.940040e-001 -1.013913e-001
306840000 -5.340927e-006 2.093932e-005 -7.907702e-001 -7.963064e-002 6.403238e-006 -1.477340e-005 -7.938994e-001 -7.998471e-002
307125000 -1.291381e-005 -2.495078e-006 -7.901812e-001 -5.843031e-002 1.067949e-005 -8.997690e-007 -7.932563e-001 -5.868928e-002
307410000 -8.477235e-006 -1.178053e-005 -7.892330e-001 -3.740913e-002 1.231141e-005 3.135667e-006 -7.923402e-001 -3.761190e-002
307695000 -1.660019e-005 -9.135220e-006 -7.878420e-001 -1.656616e-002 1.131861e-005 3.158449e-006 -7.909105e-001 -1.665099e-002
307980000 -1.368918e-005 -4.390012e-006 -7.860376e-001 4.145365e-003 -7.293866e-006 8.266922e-006 -7.890971e-001 4.115517e-003
308265000 -3.365116e-006 -3.384410e-006 -7.838938e-001 2.472567e-002 -2.784996e-006 6.431744e-006 -7.868627e-001 2.479789e-002
308550000 6.643076e-006 -1.235013e-005 -7.813248e-001 4.516976e-002 -4.578298e-006 3.694933e-006 -7.843159e-001 4.534913e-002
308835000 9.777794e-006 -2.245212e-005 -7.783724e-001 6.545378e-002 4.475484e-006 -7.593738e-007 -7.813663e-001 6.574763e-002
309120000 1.182912e-005 -2.701368e-005 -7.750487e-001 8.560004e-002 -1.228575e-005 3.780244e-006 -7.780423e-001 8.601946e-002
309405000 8.713499e-006 -2.348769e-006 -7.713636e-001 1.056265e-001 -3.954856e-006 -5.757871e-006 -7.744081e-001 1.061139e-001
309690000 8.127156e-006 -3.519315e-006 -7.673608e-001 1.255470e-001 -2.495491e-005 -7.733797e-006 -7.703593e-001 1.261334e-001
309975000 -4.010672e-007 6.997750e-006 -7.630046e-001 1.454120e-001 -1.643158e-006 -5.948435e-006 -7.659099e-001 1.459543e-001
310260000 7.368907e-006 9.054652e-006 -7.582710e-001 1.650593e-001 -6.410136e-006 -9.728276e-006 -7.612017e-001 1.656362e-001
310545000 -1.629102e-006 8.940313e-006 -7.531195e-001 1.846914e-001 -1.322709e-006 -1.251934e-005 -7.560989e-001 1.854239e-001
310830000 1.845631e-006 1.617525e-005 -7.476934e-001 2.041012e-001 3.474123e-006 -8.899778e-006 -7.506157e-001 2.048684e-001
311115000 4.136014e-006 1.664454e-006 -7.419149e-001 2.234970e-001 -7.898295e-006 -6.013926e-006 -7.448550e-001 2.242886e-001
311400000 -2.927241e-006 2.863031e-005 -7.357301e-001 2.426858e-001 2.632202e-006 -2.155348e-005 -7.385774e-001 2.435953e-001
311685000 -1.013619e-005 1.189955e-006 -7.292542e-001 2.618563e-001 3.551172e-006 -3.874769e-006 -7.320564e-001 2.628162e-001
311970000 -1.886220e-005 6.758283e-006 -7.223065e-001 2.808548e-001 9.998805e-006 -1.099972e-005 -7.251698e-001 2.819377e-001
312255000 -4.524633e-006 -5.274460e-006 -7.150810e-001 2.998565e-001 2.084060e-007 -1.832369e-006 -7.179283e-001 3.009534e-001
312540000 1.089490e-005 -2.694114e-006 -7.075096e-001 3.186594e-001 -7.009042e-006 -1.399459e-006 -7.102979e-001 3.199806e-001
312825000 -7.444937e-006 -1.634840e-005 -6.995512e-001 3.373898e-001 -7.752970e-006 5.875469e-007 -7.023178e-001 3.388187e-001
313110000 7.330355e-007 -1.856612e-005 -6.911172e-001 3.561534e-001 -7.830082e-006 4.945569e-006 -6.939282e-001 3.575644e-001
313395000 3.423339e-006 -7.622113e-006 -6.824028e-001 3.747433e-001 -1.205717e-005 -1.040122e-005 -6.851475e-001 3.762298e-001
313680000 -2.236563e-006 -4.630261e-006 -6.732883e-001 3.932256e-001 9.760010e-007 1.043140e-005 -6.760254e-001 3.948402e-001
313965000 -1.076270e-007 -6.216855e-006 -6.637404e-001 4.117227e-001 3.732644e-006 -1.146209e-005 -6.664373e-001 4.133244e-001
314250000 2.746284e-005 -4.048972e-006 -6.538206e-001 4.300034e-001 1.241395e-005 8.057248e-006 -6.564969e-001 4.317826e-001
314535000 1.328709e-005 -2.811521e-006 -6.435228e-001 4.482692e-001 -4.086071e-006 2.380201e-006 -6.460661e-001 4.500359e-001
314820000 7.934074e-006 5.221053e-006 -6.327657e-001 4.663536e-001 1.079451e-005 8.913996e-006 -6.352670e-001 4.682705e-001
315105000 6.070474e-006 1.303648e-005 -6.215778e-001 4.844688e-001 -1.509770e-006 -4.828106e-006 -6.240390e-001 4.864406e-001
315390000 -1.886987e-006 -1.107518e-006 -6.099386e-001 5.024841e-001 -7.065382e-006 -3.464241e-006 -6.123729e-001 5.044625e-001
315675000 1.665315e-005 -4.880333e-006 -5.977755e-001 5.202288e-001 -1.298357e-005 1.080863e-005 -6.002165e-001 5.223674e-001
315960000 4.064350e-006 -6.908665e-006 -5.852417e-001 5.380301e-001 -2.124260e-006 3.390942e-006 -5.875313e-001 5.402130e-001
316245000 8.556905e-006 3.277339e-006 -5.720848e-001 5.557291e-001 8.704282e-007 -7.720001e-006 -5.743901e-001 5.579470e-001
316530000 -1.890769e-006 3.216087e-006 -5.585861e-001 5.731813e-001 2.182133e-006 9.895106e-006 -5.608209e-001 5.754699e-001
316815000 -9.015414e-006 1.364727e-005 -5.445455e-001 5.905662e-001 2.389440e-006 -5.467266e-007 -5.467536e-001 5.929985e-001
317100000 -1.113022e-005 1.944206e-006 -5.299891e-001 6.078128e-001 -7.617210e-007 -1.789586e-005 -5.320698e-001 6.102749e-001
317385000 -8.912277e-006 -1.391745e-005 -5.147752e-001 6.249366e-001 4.907855e-006 3.375878e-006 -5.168826e-001 6.274456e-001
317670000 -7.973482e-006 -6.493454e-006 -4.991518e-001 6.418455e-001 8.013440e-006 3.700131e-006 -5.011657e-001 6.444799e-001
317955000 -7.158461e-006 -5.991858e-006 -4.829385e-001 6.585574e-001 -1.008018e-005 -5.439367e-006 -4.848068e-001 6.613163e-001
318240000 2.925845e-006 1.360818e-005 -4.660966e-001 6.751146e-001 3.622777e-006 -9.702330e-007 -4.679765e-001 6.778384e-001
318525000 4.628373e-007 -1.054621e-005 -4.486487e-001 6.914412e-001 4.721397e-006 5.275123e-006 -4.504466e-001 6.942519e-001
318810000 2.274246e-007 -1.102734e-005 -4.306362e-001 7.075710e-001 1.048235e-005 -6.714472e-006 -4.323402e-001 7.104200e-001
319095000 5.034136e-006 -1.283474e-006 -4.119458e-001 7.233313e-001 2.739926e-006 2.228495e-006 -4.136052e-001 7.263467e-001
319380000 1.066512e-005 -4.062111e-006 -3.925452e-001 7.389230e-001 -9.727581e-006 4.561143e-006 -3.942132e-001 7.418970e-001
319665000 1.538132e-005 4.205781e-006 -3.726211e-001 7.541837e-001 -4.442305e-006 5.622539e-006 -3.740877e-001 7.572625e-001
319950000 7.346331e-006 6.202585e-006 -3.520245e-001 7.690853e-001 -3.912643e-006 8.741210e-006 -3.533479e-001 7.722897e-001
320235000 -2.835909e-006 -7.358169e-006 -3.306244e-001 7.836080e-001 -2.286963e-006 8.677853e-007 -3.319358e-001 7.868686e-001
320520000 3.573174e-006 1.012603e-005 -3.085634e-001 7.978112e-001 -3.951487e-006 -1.241170e-005 -3.098798e-001 8.011121e-001
320805000 8.343892e-006 1.590069e-005 -2.858108e-001 8.116598e-001 4.565691e-006 -1.253378e-005 -2.870767e-001 8.149676e-001
321090000 7.995543e-006 -1.895326e-006 -2.623879e-001 8.247985e-001 -1.414579e-005 5.980860e-006 -2.634492e-001 8.281816e-001
321375000 -7.622275e-006 7.189727e-006 -2.380339e-001 8.376234e-001 -1.046905e-005 4.459932e-006 -2.390556e-001 8.410582e-001
321660000 -3.848801e-006 3.687325e-007 -2.131365e-001 8.498170e-001 -6.353830e-006 -5.806487e-006 -2.140357e-001 8.532901e-001
321945000 1.016250e-006 3.026788e-006 -1.873786e-001 8.614237e-001 1.679780e-006 3.520550e-006 -1.882237e-001 8.649873e-001
322230000 2.771601e-006 -6.371778e-006 -1.610101e-001 8.723240e-001 -3.337588e-006 1.183801e-006 -1.616586e-001 8.759682e-001
322515000 -2.095654e-005 -3.565376e-006 -1.337441e-001 8.826593e-001 -8.804083e-006 8.614505e-006 -1.344017e-001 8.864440e-001
322800000 -1.176089e-005 -2.428523e-006 -1.059001e-001 8.922164e-001 3.247987e-006 8.263220e-006 -1.063014e-001 8.958521e-001
323085000 3.193263e-006 -5.866239e-006 -7.717649e-002 9.009196e-001 -7.477932e-006 -3.778002e-007 -7.746257e-002 9.047055e-001
323370000 2.275381e-006 1.415805e-006 -4.776241e-002 9.088538e-001 -3.075912e-006 9.458554e-006 -4.791484e-002 9.125920e-001
323655000 -3.131360e-006 -8.654592e-006 -1.765086e-002 9.157254e-001 -1.268533e-005 7.494574e-006 -1.767135e-002 9.195846e-001
323940000 1.583394e-005 1.963391e-006 1.318685e-002 9.218317e-001 -1.373067e-006 2.778840e-006 1.323047e-002 9.256341e-001
324225000 1.496237e-005 -3.084990e-007 4.464273e-002 9.267924e-001 -6.455146e-006 -6.126704e-006 4.483650e-002 9.306319e-001
324510000 6.510094e-006 -7.158706e-006 7.687948e-002 9.306782e-001 1.492569e-005 -6.694260e-006 7.715664e-002 9.345346e-001
324795000 5.001788e-006 1.370702e-005 1.095938e-001 9.332732e-001 -1.153379e-005 -2.361214e-005 1.099802e-001 9.372346e-001
325080000 9.031828e-006 1.119557e-005 1.428305e-001 9.347404e-001 8.380985e-007 -3.804339e-006 1.434799e-001 9.387783e-001
325365000 1.554656e-005 3.633029e-006 1.767267e-001 9.349660e-001 1.146118e-006 3.718618e-007 1.774741e-001 9.388936e-001
325650000 7.357716e-006 2.331498e-006 2.110340e-001 9.338233e-001 1.393917e-006 1.592628e-006 2.119473e-001 9.377403e-001
325935000 -5.320218e-007 5.058735e-006 2.457433e-001 9.312414e-001 7.361773e-006 2.168238e-006 2.468327e-001 9.350882e-001
326220000 -1.587061e-005 6.144737e-008 2.807477e-001 9.271069e-001 -9.156624e-006 -7.211314e-006 2.819236e-001 9.310618e-001
326505000 -7.776425e-006 1.833083e-006 3.161330e-001 9.215766e-001 6.621750e-007 7.528514e-006 3.173658e-001 9.254736e-001
326790000 -1.272884e-006 1.431629e-006 3.515838e-001 9.144118e-001 -7.041445e-006 5.228383e-006 3.530879e-001 9.182859e-001
327075000 -1.321550e-005 -9.080739e-006 3.871127e-001 9.055550e-001 -1.924528e-006 -1.395801e-006 3.888665e-001 9.094617e-001
327360000 -1.073968e-005 -2.102013e-006 4.228928e-001 8.951923e-001 -1.007027e-005 -2.566112e-005 4.246948e-001 8.989596e-001
327645000 -1.339723e-006 -1.750185e-005 4.584206e-001 8.829595e-001 -8.046926e-007 3.683942e-008 4.603010e-001 8.868771e-001
327930000 2.092306e-006 -1.184937e-005 4.937190e-001 8.691115e-001 3.341406e-006 -8.892169e-006 4.957347e-001 8.729476e-001
328215000 -3.603460e-006 3.686103e-006 5.287917e-001 8.535373e-001 5.547945e-006 -5.865048e-006 5.309796e-001 8.571701e-001
328500000 -6.042358e-007 -1.790367e-006 5.633396e-001 8.361138e-001 2.793329e-006 3.148799e-006 5.658382e-001 8.397828e-001
328785000 8.861772e-007 -7.266378e-006 5.974603e-001 8.169944e-001 -1.325348e-005 1.880955e-005 5.999548e-001 8.205440e-001
329070000 3.452025e-006 2.419366e-005 6.308544e-001 7.961453e-001 5.007234e-006 2.329116e-006 6.334736e-001 7.996289e-001
329355000 -9.976537e-006 -3.422173e-006 6.636215e-001 7.735671e-001 -7.376155e-006 4.546605e-006 6.664198e-001 7.767904e-001
329640000 6.873312e-006 -1.334998e-005 6.952891e-001 7.492496e-001 -8.269141e-008 -6.833256e-006 6.982591e-001 7.524562e-001
329925000 -1.131131e-005 4.244221e-006 7.260283e-001 7.233292e-001 -8.717103e-006 -1.441897e-006 7.291476e-001 7.264313e-001
330210000 -1.573055e-005 -3.628799e-007 7.556081e-001 6.956275e-001 9.030344e-006 2.808793e-006 7.588769e-001 6.987150e-001
330495000 9.066561e-006 -1.467459e-005 7.839783e-001 6.665800e-001 3.245256e-006 -4.850171e-006 7.873525e-001 6.694601e-001
330780000 -2.519305e-006 -2.550578e-006 8.109192e-001 6.359767e-001 4.104671e-006 -5.749087e-007 8.143983e-001 6.388194e-001
331065000 -2.743621e-006 -7.201284e-006 8.364311e-001 6.041626e-001 -2.801096e-006 2.846740e-006 8.400459e-001 6.066975e-001
331350000 1.255429e-005 -1.601313e-005 8.604293e-001 5.709288e-001 5.407333e-006 1.884980e-006 8.642387e-001 5.734484e-001
331635000 3.590204e-006 4.721568e-006 8.827434e-001 5.365032e-001 -1.292220e-005 8.364890e-006 8.866664e-001 5.388961e-001
331920000 -6.711812e-006 -3.027729e-006 9.034762e-001 5.010946e-001 -1.234624e-005 1.538841e-005 9.073336e-001 5.033026e-001
332205000 1.646631e-006 1.181993e-005 9.222102e-001 4.647190e-001 1.989899e-006 2.999255e-006 9.263383e-001 4.666996e-001
332490000 5.995141e-006 2.534044e-006 9.392740e-001 4.274499e-001 -9.147410e-006 1.862187e-006 9.434620e-001 4.293611e-001
332775000 -3.332171e-007 1.204836e-005 9.544150e-001 3.895108e-001 -8.847946e-006 -8.824621e-006 9.586093e-001 3.913077e-001
333060000 -1.381148e-006 -2.726927e-006 9.676442e-001 3.511027e-001 -5.391601e-006 -1.024550e-005 9.718280e-001 3.526742e-001
333345000 6.130017e-006 -2.877047e-006 9.789495e-001 3.121880e-001 -1.154269e-005 -5.750333e-006 9.832688e-001 3.134603e-001
333630000 1.888869e-006 -3.544385e-006 9.882743e-001 2.728718e-001 2.804084e-006 -4.300644e-006 9.925048e-001 2.741908e-001
333915000 2.842896e-006 1.239344e-005 9.956196e-001 2.335495e-001 2.465744e-006 7.179577e-006 9.999964e-001 2.346363e-001
334200000 -1.246466e-005 -2.793685e-006 1.001073e+000 1.942249e-001 -1.042247e-005 5.241132e-006 1.005455e+000 1.950514e-001
334485000 -6.341003e-006 1.310898e-005 1.004651e+000 1.547330e-001 -5.733540e-008 -7.450568e-006 1.009015e+000 1.554485e-001
334770000 2.313577e-006 6.712060e-006 1.006380e+000 1.156995e-001 4.823984e-006 1.038048e-006 1.010744e+000 1.161420e-001
335055000 4.481200e-006 4.672375e-006 1.006181e+000 7.683463e-002 -1.273683e-005 1.452117e-005 1.010598e+000 7.712384e-002
335340000 -7.222324e-007 1.044259e-005 1.004330e+000 3.832746e-002 -4.323005e-006 -2.923044e-007 1.008696e+000 3.867519e-002
335625000 1.540441e-007 -2.394326e-006 1.000627e+000 5.794948e-004 3.661323e-006 2.733375e-006 1.005020e+000 6.002281e-004
335910000 -8.708861e-006 8.765827e-006 9.952835e-001 -3.674736e-002 -7.719595e-006 2.029977e-007 9.995295e-001 -3.686518e-002
336195000 -1.131588e-006 -1.078331e-007 9.884679e-001 -7.325348e-002 -1.261568e-005 1.061278e-005 9.928172e-001 -7.354897e-002
336480000 -7.075279e-006 1.265502e-005 9.800450e-001 -1.090138e-001 -1.108070e-005 -4.427052e-006 9.843271e-001 -1.096094e-001
336765000 -2.340705e-005 -6.516123e-006 9.704176e-001 -1.440990e-001 2.869072e-006 -8.679776e-006 9.745261e-001 -1.446679e-001
337050000 -1.206406e-006 -1.519196e-007 9.592454e-001 -1.781489e-001 -9.874385e-006 -4.656392e-006 9.634601e-001 -1.789620e-001
337335000 1.460827e-005 -9.361825e-006 9.469447e-001 -2.113935e-001 4.163709e-006 -1.018145e-006 9.509540e-001 -2.123478e-001
337620000 5.600083e-006 -8.835779e-006 9.334025e-001 -2.435464e-001 1.378013e-005 4.209165e-006 9.374730e-001 -2.446283e-001
337905000 9.385208e-006 -6.695356e-006 9.187781e-001 -2.746477e-001 5.371995e-006 -7.278265e-006 9.227796e-001 -2.758480e-001
338190000 -2.308081e-006 -4.944896e-006 9.031602e-001 -3.047840e-001 -7.056441e-006 -1.161795e-006 9.071068e-001 -3.060664e-001
338475000 4.785243e-006 -1.750233e-005 8.867048e-001 -3.338730e-001 1.033554e-005 5.316254e-006 8.904943e-001 -3.353730e-001
338760000 -2.795763e-007 -3.053431e-006 8.693365e-001 -3.619501e-001 -1.247495e-005 -1.120990e-006 8.731392e-001 -3.634705e-001
339045000 9.649565e-007 -7.782016e-006 8.512535e-001 -3.888242e-001 -3.129850e-006 6.707876e-006 8.549351e-001 -3.904474e-001
339330000 1.299902e-005 -8.934229e-007 8.323835e-001 -4.147256e-001 -1.217513e-005 4.469796e-008 8.359504e-001 -4.163728e-001
339615000 1.211379e-005 1.065621e-005 8.129946e-001 -4.394377e-001 -3.323925e-006 -2.018844e-007 8.163702e-001 -4.413239e-001
339900000 4.232357e-006 -7.879257e-006 7.929568e-001 -4.632466e-001 1.234562e-006 -3.065234e-006 7.962995e-001 -4.651025e-001
340185000 1.817464e-006 -3.525077e-006 7.724217e-001 -4.858047e-001 1.325250e-005 4.209521e-006 7.757513e-001 -4.879642e-001
340470000 5.664280e-006 -6.360786e-006 7.515346e-001 -5.074010e-001 7.247587e-006 4.485898e-006 7.547550e-001 -5.095935e-001
340755000 6.223047e-006 5.587945e-006 7.302380e-001 -5.280186e-001 -2.017248e-006 2.350977e-006 7.333179e-001 -5.302609e-001
341040000 1.651729e-005 2.408648e-006 7.086374e-001 -5.475417e-001 -4.185920e-006 5.062316e-006 7.116455e-001 -5.498363e-001
341325000 1.289917e-005 1.486213e-005 6.866433e-001 -5.660627e-001 -1.645447e-005 4.347953e-006 6.896080e-001 -5.684748e-001
341610000 8.595204e-006 1.004278e-005 6.645164e-001 -5.837127e-001 -1.523722e-005 2.663985e-006 6.673836e-001 -5.861864e-001
341895000 -1.039349e-005 1.519470e-005 6.422147e-001 -6.003208e-001 1.232967e-005 5.210097e-006 6.449932e-001 -6.029741e-001
342180000 -3.254389e-006 3.825272e-006 6.197376e-001 -6.160318e-001 1.993078e-006 -7.228711e-006 6.223409e-001 -6.186423e-001
342465000 -1.111745e-005 1.474865e-006 5.972085e-001 -6.309049e-001 1.185793e-005 1.893104e-007 5.997184e-001 -6.336093e-001
342750000 -5.459307e-006 5.714684e-006 5.744694e-001 -6.449378e-001 -6.331431e-006 -7.825879e-006 5.769423e-001 -6.475518e-001
343035000 -5.457517e-006 1.130644e-005 5.517099e-001 -6.580834e-001 -3.038469e-006 6.198403e-006 5.541304e-001 -6.607904e-001
343320000 4.690730e-006 1.262349e-005 5.289553e-001 -6.703417e-001 -2.788855e-006 7.292500e-006 5.312451e-001 -6.731697e-001
343605000 -9.325623e-006 2.047488e-005 5.061893e-001 -6.818939e-001 2.418991e-006 1.344963e-005 5.083203e-001 -6.848338e-001
343890000 -1.027788e-005 9.712274e-006 4.834353e-001 -6.927276e-001 -3.741085e-006 7.596920e-006 4.855360e-001 -6.954771e-001
