!Agilent Technologies,N5230C,SG49000117,A.08.50.07
!Agilent N5230C: A.08.50.07
!Date: Sunday, March 17, 2024 05:43:27
!Correction: S11(Off) 
!S21(Off) 
!S12(Off) 
!S22(Full 1 Port(2)) 
!S2P File: Measurements: S11, S21, S12, S22:
# Hz S  RI   R 50
300000000 -7.509330e-006 -4.912206e-006 -6.480489e-001 -6.138960e-001 -9.568865e-006 -2.697685e-006 9.873458e-001 -2.682724e-001
300285000 1.943037e-006 1.512255e-006 -6.620361e-001 -5.904657e-001 7.836772e-007 -2.014366e-007 9.876533e-001 -2.685893e-001
300570000 3.481412e-006 1.435707e-006 -6.753100e-001 -5.667484e-001 -6.320140e-006 4.327570e-006 9.882836e-001 -2.690606e-001
300855000 -3.559283e-006 8.893299e-006 -6.875875e-001 -5.430990e-001 -9.386564e-006 2.929952e-006 9.886115e-001 -2.685203e-001
301140000 -1.983000e-005 1.676839e-005 -6.991321e-001 -5.192205e-001 2.925957e-007 -1.094780e-005 9.878615e-001 -2.697300e-001
301425000 -1.930101e-005 -4.236112e-006 -7.098311e-001 -4.955112e-001 -2.572199e-006 -8.726016e-006 9.888643e-001 -2.696428e-001
301710000 4.412642e-006 -3.417769e-006 -7.198197e-001 -4.718015e-001 -3.134173e-006 -1.193869e-006 9.887711e-001 -2.713980e-001
301995000 5.519948e-006 -8.207535e-006 -7.289414e-001 -4.481593e-001 -2.157395e-006 -7.389347e-006 9.877789e-001 -2.696680e-001
302280000 -1.421103e-005 -6.730561e-006 -7.374133e-001 -4.246090e-001 6.991027e-006 -1.369475e-005 9.884259e-001 -2.705837e-001
302565000 1.421454e-006 -3.863377e-006 -7.451429e-001 -4.011139e-001 1.461865e-005 -7.274838e-006 9.889405e-001 -2.712517e-001
302850000 -4.710867e-006 -3.782882e-006 -7.521521e-001 -3.777562e-001 4.140367e-006 -8.304232e-006 9.878277e-001 -2.697281e-001
303135000 -2.991347e-006 -8.849117e-006 -7.584945e-001 -3.545073e-001 -1.377422e-006 -2.648544e-006 9.874980e-001 -2.710309e-001
303420000 5.059475e-006 -7.955802e-008 -7.642417e-001 -3.314714e-001 7.336877e-006 -6.164465e-006 9.871979e-001 -2.725845e-001
303705000 6.041723e-006 -1.974775e-006 -7.693722e-001 -3.084717e-001 1.250744e-005 7.095708e-009 9.889348e-001 -2.724217e-001
303990000 2.482582e-005 6.858101e-006 -7.738834e-001 -2.856629e-001 1.651736e-005 8.019207e-006 9.872338e-001 -2.716265e-001
304275000 2.673929e-006 4.184685e-006 -7.778472e-001 -2.630540e-001 -2.871421e-006 1.119163e-005 9.876890e-001 -2.721642e-001
304560000 1.282803e-005 1.789586e-005 -7.812241e-001 -2.404638e-001 9.005444e-006 1.120825e-005 9.878744e-001 -2.723920e-001
304845000 1.817514e-005 8.473462e-006 -7.841556e-001 -2.181532e-001 1.593421e-006 -6.871046e-006 9.869801e-001 -2.721675e-001
305130000 2.087509e-006 1.214964e-005 -7.864992e-001 -1.959750e-001 1.372415e-005 7.873930e-006 9.864781e-001 -2.719018e-001
305415000 3.571981e-006 1.014584e-006 -7.884126e-001 -1.739315e-001 -6.401190e-007 2.509450e-006 9.873163e-001 -2.731057e-001
305700000 -1.970968e-006 2.923081e-006 -7.898124e-001 -1.520296e-001 -1.614120e-006 -9.492766e-006 9.876897e-001 -2.728771e-001
305985000 8.211766e-006 5.220480e-006 -7.905982e-001 -1.302734e-001 -1.064339e-005 -1.540198e-005 9.878249e-001 -2.740615e-001
306270000 6.741948e-006 3.700100e-006 -7.910274e-001 -1.086337e-001 4.253334e-006 -4.666444e-006 9.889284e-001 -2.730848e-001
306555000 4.982386e-006 5.721436e-006 -7.910879e-001 -8.718706e-002 1.190069e-005 -1.507073e-005 9.880504e-001 -2.752284e-001
306840000 3.993463e-007 2.984219e-006 -7.905297e-001 -6.600038e-002 -5.904375e-006 3.019793e-006 9.871486e-001 -2.731264e-001
307125000 -5.615621e-006 -5.323549e-006 -7.896539e-001 -4.485651e-002 2.740161e-006 -1.632257e-005 9.871160e-001 -2.744150e-001
307410000 2.408019e-006 4.930143e-006 -7.883729e-001 -2.387237e-002 1.300802e-005 5.684242e-006 9.875216e-001 -2.749915e-001
307695000 7.436143e-006 -3.015120e-006 -7.867063e-001 -3.116490e-003 -1.922372e-006 -9.746715e-006 9.877980e-001 -2.758408e-001
307980000 -1.390361e-005 -8.281730e-006 -7.846261e-001 1.758176e-002 1.485146e-006 1.367424e-006 9.863220e-001 -2.754050e-001
308265000 5.450451e-007 -5.450802e-006 -7.821869e-001 3.808892e-002 8.159295e-006 -1.083610e-005 9.863613e-001 -2.758517e-001
308550000 8.739817e-006 9.461504e-006 -7.793928e-001 5.844244e-002 1.378172e-006 3.323267e-007 9.859366e-001 -2.751768e-001
308835000 1.051787e-006 -4.699842e-006 -7.761524e-001 7.865803e-002 -4.082561e-006 6.740589e-006 9.860137e-001 -2.765559e-001
309120000 4.632767e-007 -1.289176e-005 -7.725691e-001 9.882364e-002 -1.074668e-005 -6.167253e-006 9.870963e-001 -2.775449e-001
309405000 -2.460230e-006 -1.803270e-006 -7.686364e-001 1.187552e-001 -6.390776e-006 6.738595e-006 9.887673e-001 -2.770745e-001
309690000 -3.176829e-006 1.472407e-007 -7.643328e-001 1.386452e-001 1.102392e-006 6.320321e-006 9.875230e-001 -2.771136e-001
309975000 -9.226031e-006 -3.972520e-006 -7.597064e-001 1.583617e-001 -5.265551e-006 -8.103419e-006 9.864343e-001 -2.771525e-001
310260000 7.681790e-007 -3.952108e-006 -7.547151e-001 1.779191e-001 3.911827e-006 -6.828515e-006 9.883223e-001 -2.776159e-001
310545000 6.873908e-006 -3.738322e-006 -7.493246e-001 1.974073e-001 -1.156632e-005 3.927487e-006 9.869042e-001 -2.781842e-001
310830000 -4.887542e-006 -9.862448e-007 -7.435873e-001 2.167957e-001 -9.342343e-006 -1.380656e-005 9.882196e-001 -2.787263e-001
311115000 7.498923e-006 8.884387e-006 -7.375626e-001 2.361035e-001 5.016686e-006 6.521078e-006 9.864553e-001 -2.784303e-001
311400000 -2.848399e-006 -1.210852e-005 -7.311113e-001 2.552358e-001 2.540180e-006 -1.137019e-005 9.865105e-001 -2.788093e-001
311685000 1.101701e-005 1.093455e-005 -7.243003e-001 2.743509e-001 -4.531046e-007 -6.625632e-006 9.871386e-001 -2.784721e-001
311970000 3.037685e-006 -8.246338e-006 -7.171978e-001 2.933443e-001 1.118945e-006 -4.933274e-006 9.854618e-001 -2.787453e-001
312255000 -8.248766e-006 1.259654e-005 -7.096856e-001 3.122174e-001 -1.984624e-006 -5.582435e-006 9.863503e-001 -2.792258e-001
312540000 3.438927e-007 -6.205084e-006 -7.017868e-001 3.310120e-001 -1.134379e-007 -1.447982e-005 9.860675e-001 -2.795667e-001
312825000 -1.339291e-005 -3.398160e-006 -6.935245e-001 3.496782e-001 -3.815423e-006 3.499538e-006 9.861974e-001 -2.800274e-001
313110000 -1.062675e-005 -4.850143e-006 -6.848971e-001 3.682941e-001 6.677900e-007 -1.572705e-005 9.858397e-001 -2.810932e-001
313395000 -4.200096e-006 -9.083074e-006 -6.759083e-001 3.868060e-001 9.342578e-007 -7.533086e-007 9.862674e-001 -2.798927e-001
313680000 -1.166908e-005 -6.174188e-006 -6.665294e-001 4.052609e-001 9.438840e-006 -3.107486e-006 9.869889e-001 -2.802546e-001
313965000 -4.768027e-006 1.538632e-006 -6.566712e-001 4.235774e-001 8.469164e-007 -3.543822e-006 9.863482e-001 -2.806921e-001
314250000 -1.663377e-006 5.470391e-006 -6.464522e-001 4.418006e-001 4.407031e-007 1.211351e-005 9.852433e-001 -2.810092e-001
314535000 9.634897e-006 2.419283e-006 -6.357355e-001 4.600366e-001 -2.505849e-006 1.343757e-006 9.854425e-001 -2.810777e-001
314820000 2.030105e-005 -2.503738e-006 -6.246681e-001 4.780789e-001 8.109833e-007 -4.385313e-006 9.856083e-001 -2.822899e-001
315105000 8.021631e-007 1.102566e-006 -6.131439e-001 4.960380e-001 3.390113e-006 -1.327448e-005 9.830606e-001 -2.819779e-001
315390000 -6.106187e-006 -5.203912e-006 -6.012371e-001 5.139207e-001 1.007935e-005 5.156036e-006 9.860667e-001 -2.826543e-001
315675000 -5.925796e-006 -6.948699e-006 -5.887804e-001 5.316431e-001 -7.026715e-007 4.601251e-007 9.847742e-001 -2.815188e-001
315960000 -1.134478e-005 -8.394923e-006 -5.758426e-001 5.492542e-001 -2.217894e-006 1.879882e-006 9.846019e-001 -2.823615e-001
316245000 7.553075e-006 3.306999e-007 -5.624728e-001 5.667959e-001 -9.997537e-006 7.154475e-008 9.842365e-001 -2.820517e-001
316530000 1.974868e-007 -2.037305e-006 -5.486214e-001 5.841561e-001 -8.226700e-006 -8.206945e-006 9.853235e-001 -2.833330e-001
316815000 -9.153759e-006 -3.892517e-006 -5.341680e-001 6.013605e-001 -7.228207e-006 7.006128e-007 9.858247e-001 -2.827233e-001
317100000 2.226378e-006 -1.117834e-005 -5.192854e-001 6.185516e-001 -8.411012e-007 6.203526e-006 9.843265e-001 -2.825749e-001
317385000 9.729843e-006 -1.881147e-005 -5.037126e-001 6.355453e-001 -1.008389e-005 9.368022e-006 9.862167e-001 -2.825422e-001
317670000 -4.805471e-007 5.562806e-006 -4.876781e-001 6.522284e-001 -3.961206e-006 -4.056999e-007 9.858084e-001 -2.841789e-001
317955000 9.662750e-006 -1.051213e-005 -4.710357e-001 6.688185e-001 1.309274e-005 -1.353300e-005 9.862190e-001 -2.841562e-001
318240000 -1.599814e-005 -1.440231e-006 -4.537902e-001 6.851296e-001 -1.507936e-006 1.364534e-005 9.849880e-001 -2.843905e-001
318525000 -1.325463e-005 7.789320e-007 -4.360256e-001 7.012519e-001 -8.822396e-006 4.506358e-006 9.850100e-001 -2.842345e-001
318810000 -6.801903e-006 -3.320661e-006 -4.174675e-001 7.171183e-001 -1.543484e-005 -1.026326e-006 9.844885e-001 -2.848017e-001
319095000 -1.363489e-006 5.042000e-006 -3.984511e-001 7.326609e-001 -1.542991e-006 -8.453438e-006 9.842235e-001 -2.839599e-001
319380000 -1.356198e-005 -5.628898e-006 -3.787217e-001 7.480317e-001 2.735547e-006 3.909062e-006 9.852084e-001 -2.862942e-001
319665000 -1.247796e-005 -1.689487e-005 -3.583098e-001 7.630624e-001 -3.048835e-006 4.496713e-006 9.854985e-001 -2.851193e-001
319950000 -1.596966e-005 -9.790037e-006 -3.372210e-001 7.776687e-001 -1.556194e-005 -1.902693e-005 9.844189e-001 -2.871346e-001
320235000 2.027372e-006 -1.109164e-005 -3.154528e-001 7.918520e-001 -4.527051e-006 -1.026518e-006 9.849441e-001 -2.873380e-001
320520000 -9.327701e-006 9.626330e-007 -2.929366e-001 8.057567e-001 5.687301e-006 2.289934e-006 9.844409e-001 -2.871610e-001
320805000 -8.509457e-006 -5.289450e-006 -2.697551e-001 8.191079e-001 -1.561233e-005 9.710823e-007 9.837556e-001 -2.863514e-001
321090000 -5.536654e-006 -4.243413e-006 -2.458381e-001 8.319736e-001 -1.036245e-006 -6.073617e-006 9.836013e-001 -2.868124e-001
321375000 1.798641e-005 -8.025586e-006 -2.211379e-001 8.443347e-001 9.298193e-006 -3.851508e-006 9.841469e-001 -2.870439e-001
321660000 -3.628417e-006 1.135861e-005 -1.957885e-001 8.561190e-001 -5.628111e-006 -7.388005e-006 9.847524e-001 -2.877193e-001
321945000 7.715705e-006 4.359695e-006 -1.696173e-001 8.672892e-001 6.249476e-006 -3.693117e-006 9.837229e-001 -2.887076e-001
322230000 7.389300e-006 -1.080527e-005 -1.427527e-001 8.777664e-001 -7.389131e-006 -2.014940e-006 9.834084e-001 -2.887942e-001
322515000 -5.883259e-006 3.702707e-006 -1.150860e-001 8.875727e-001 4.520962e-006 -1.411071e-005 9.827489e-001 -2.888222e-001
322800000 1.240345e-005 -8.668617e-006 -8.677436e-002 8.965497e-001 -1.026270e-006 -5.666494e-006 9.850394e-001 -2.888114e-001
323085000 -6.497431e-006 -1.203572e-005 -5.761172e-002 9.045951e-001 -1.647377e-005 7.756849e-006 9.841423e-001 -2.890051e-001
323370000 5.992060e-006 4.641311e-006 -2.781815e-002 9.119833e-001 -1.290101e-006 1.918920e-006 9.841897e-001 -2.897454e-001
323655000 -9.141626e-006 -6.244523e-006 2.653162e-003 9.182375e-001 -5.870128e-006 -9.386449e-006 9.833639e-001 -2.903337e-001
323940000 -4.748012e-006 1.590752e-005 3.383826e-002 9.235747e-001 -2.331685e-006 -3.631437e-006 9.831986e-001 -2.907841e-001
324225000 -6.541418e-006 -9.541081e-006 6.567716e-002 9.277701e-001 4.875851e-006 2.034620e-006 9.816756e-001 -2.899783e-001
324510000 -7.471388e-006 7.749470e-007 9.816599e-002 9.308951e-001 1.171734e-005 5.848676e-007 9.840999e-001 -2.920654e-001
324795000 1.990425e-006 -1.311720e-006 1.311710e-001 9.327223e-001 1.929131e-006 5.269390e-006 9.835538e-001 -2.910939e-001
325080000 -5.656811e-006 -8.017525e-006 1.647621e-001 9.334245e-001 -1.197761e-005 5.673689e-006 9.831026e-001 -2.910466e-001
325365000 -1.836747e-005 -1.705114e-006 1.988310e-001 9.327300e-001 -8.647854e-006 3.999019e-006 9.836870e-001 -2.914345e-001
325650000 -4.987078e-006 7.728767e-006 2.333426e-001 9.306377e-001 4.382099e-007 -6.593109e-006 9.834782e-001 -2.910723e-001
325935000 -1.630152e-005 -1.613607e-005 2.681771e-001 9.271165e-001 -1.821414e-005 1.988143e-006 9.831122e-001 -2.923484e-001
326220000 4.131969e-007 2.836072e-006 3.033668e-001 9.221296e-001 -9.915664e-006 1.289255e-005 9.835326e-001 -2.926673e-001
326505000 -3.931835e-006 6.407558e-006 3.387057e-001 9.155080e-001 -1.311329e-005 -5.704568e-006 9.827585e-001 -2.930075e-001
326790000 7.347164e-006 2.761054e-006 3.742617e-001 9.074160e-001 -2.024123e-006 7.327224e-006 9.817678e-001 -2.919541e-001
327075000 -4.126080e-006 3.668603e-006 4.098175e-001 8.975019e-001 -6.848129e-006 -1.438747e-005 9.824198e-001 -2.937799e-001
327360000 -7.662558e-006 1.230659e-005 4.453717e-001 8.859347e-001 2.892125e-006 -3.978013e-006 9.837001e-001 -2.936776e-001
327645000 -7.366631e-006 -5.434160e-006 4.807520e-001 8.727388e-001 -4.643176e-006 -6.918372e-006 9.830607e-001 -2.934228e-001
327930000 -4.224911e-006 -2.763530e-006 5.157946e-001 8.577992e-001 -1.071244e-005 -3.678139e-006 9.823880e-001 -2.932227e-001
328215000 -5.871384e-006 -1.342432e-005 5.505461e-001 8.411580e-001 -5.870193e-006 -5.340876e-006 9.824744e-001 -2.941879e-001
328500000 -1.379340e-005 -1.132930e-005 5.847670e-001 8.226395e-001 -5.485917e-006 3.006711e-006 9.818948e-001 -2.947271e-001
328785000 -9.464269e-006 4.329854e-006 6.184089e-001 8.024235e-001 -1.133504e-005 -1.138997e-005 9.820504e-001 -2.940248e-001
329070000 -7.042323e-006 8.730824e-006 6.512191e-001 7.804725e-001 1.638831e-005 1.269048e-005 9.821529e-001 -2.945791e-001
329355000 -1.025190e-005 -9.266975e-007 6.834057e-001 7.567354e-001 -7.842408e-006 -7.653725e-006 9.820289e-001 -2.957087e-001
329640000 -5.779889e-007 1.381251e-005 7.144424e-001 7.315135e-001 -2.783436e-006 -4.656127e-006 9.821267e-001 -2.954914e-001
329925000 -4.983283e-006 5.707637e-006 7.444694e-001 7.044629e-001 -4.330321e-006 1.323082e-005 9.816647e-001 -2.954646e-001
330210000 9.930548e-006 1.228261e-005 7.732508e-001 6.759649e-001 4.454119e-006 5.638834e-006 9.809443e-001 -2.959569e-001
330495000 -2.246081e-005 9.291505e-007 8.007263e-001 6.460208e-001 1.305949e-006 -1.634505e-005 9.813021e-001 -2.961330e-001
330780000 -9.679359e-006 -1.009724e-005 8.267733e-001 6.147022e-001 -2.458262e-006 3.198431e-006 9.819840e-001 -2.973213e-001
331065000 -8.646422e-006 -9.398747e-006 8.513006e-001 5.819690e-001 1.210962e-005 5.413568e-006 9.803420e-001 -2.955500e-001
331350000 -3.783034e-006 8.583841e-006 8.743715e-001 5.479904e-001 4.913165e-006 8.048825e-006 9.809314e-001 -2.967127e-001
331635000 2.105301e-006 1.613731e-006 8.955580e-001 5.129888e-001 -1.370815e-005 1.382136e-005 9.819066e-001 -2.971980e-001
331920000 1.224022e-005 -2.954272e-006 9.150369e-001 4.768979e-001 -3.313339e-006 2.347783e-007 9.815946e-001 -2.973102e-001
332205000 -3.462566e-007 -5.855655e-006 9.327298e-001 4.400509e-001 -1.546053e-005 -2.271078e-006 9.807917e-001 -2.981523e-001
332490000 -5.708344e-006 -3.664285e-006 9.484662e-001 4.024116e-001 6.166727e-006 -5.370102e-007 9.815048e-001 -2.977440e-001
332775000 -6.951934e-006 7.543452e-006 9.624300e-001 3.640932e-001 -7.018411e-006 -1.375526e-005 9.809375e-001 -2.985539e-001
333060000 3.596329e-006 -9.217406e-006 9.744501e-001 3.253820e-001 -4.041546e-006 -2.820864e-006 9.813989e-001 -2.986406e-001
333345000 -1.157652e-005 3.725168e-006 9.845237e-001 2.861869e-001 -8.456238e-006 2.739995e-007 9.821847e-001 -2.982131e-001
333630000 -1.152588e-005 7.352753e-006 9.926215e-001 2.470174e-001 2.860174e-006 -6.495097e-006 9.811317e-001 -3.000379e-001
333915000 -9.070678e-006 -3.391958e-006 9.988622e-001 2.074739e-001 -1.507622e-005 -3.273339e-006 9.806620e-001 -2.994594e-001
334200000 1.008457e-005 7.311071e-006 1.002966e+000 1.681121e-001 -1.138238e-005 -3.088085e-006 9.813712e-001 -3.004356e-001
334485000 4.525828e-006 -1.221699e-005 1.005383e+000 1.288145e-001 -3.780201e-006 7.808983e-006 9.808245e-001 -2.992702e-001
334770000 2.440454e-006 -4.361966e-006 1.005922e+000 8.986620e-002 -2.461830e-006 -3.996611e-006 9.809857e-001 -3.002719e-001
335055000 3.051230e-006 7.298261e-006 1.004537e+000 5.115448e-002 3.368000e-006 8.335003e-006 9.814590e-001 -3.003318e-001
335340000 -7.123201e-006 -1.114274e-005 1.001549e+000 1.315299e-002 -9.251107e-006 1.082139e-005 9.810869e-001 -3.016321e-001
335625000 1.250629e-005 6.281503e-006 9.968504e-001 -2.444573e-002 -6.115459e-006 4.599751e-007 9.808600e-001 -3.015380e-001
335910000 -1.832267e-006 2.685329e-006 9.905632e-001 -6.120851e-002 -1.182346e-005 4.603199e-006 9.804881e-001 -3.009639e-001
336195000 3.386257e-006 3.714928e-006 9.827268e-001 -9.736409e-002 -4.068906e-006 6.530175e-007 9.796525e-001 -3.011800e-001
336480000 -8.962013e-006 6.828359e-006 9.734318e-001 -1.326601e-001 1.038673e-005 -8.459117e-006 9.806714e-001 -3.012571e-001
336765000 -3.393464e-006 5.587301e-006 9.628325e-001 -1.670126e-001 1.156682e-005 -1.032772e-005 9.805471e-001 -3.021542e-001
337050000 -8.113695e-006 4.043191e-006 9.508541e-001 -2.006222e-001 -1.098285e-005 1.229258e-006 9.810002e-001 -3.023315e-001
337335000 -4.417866e-006 5.877109e-006 9.377402e-001 -2.331933e-001 7.873475e-006 6.365772e-006 9.800414e-001 -3.038938e-001
337620000 -8.497915e-006 -4.560452e-006 9.235474e-001 -2.648008e-001 -9.761537e-006 6.661927e-006 9.800865e-001 -3.036281e-001
337905000 -6.124628e-006 2.306821e-006 9.081744e-001 -2.953322e-001 2.147903e-006 1.612104e-005 9.792066e-001 -3.021105e-001
338190000 -1.764138e-005 -1.668580e-006 8.919798e-001 -3.247045e-001 -7.551890e-006 1.105900e-005 9.796854e-001 -3.039905e-001
338475000 6.658109e-006 -2.873950e-006 8.748648e-001 -3.531686e-001 1.179867e-005 3.659949e-007 9.805202e-001 -3.026661e-001
338760000 -1.819882e-005 -1.770737e-006 8.570110e-001 -3.805259e-001 -1.550529e-005 -6.450668e-006 9.800428e-001 -3.034708e-001
339045000 -2.022727e-006 5.136516e-007 8.383402e-001 -4.067534e-001 3.366959e-006 -9.462374e-006 9.801075e-001 -3.038559e-001
339330000 1.251260e-005 -1.148016e-005 8.190461e-001 -4.319218e-001 1.940953e-006 -2.665648e-006 9.809994e-001 -3.028715e-001
339615000 3.642635e-006 -1.379212e-005 7.992876e-001 -4.560190e-001 -4.890351e-006 -3.650801e-006 9.800498e-001 -3.047561e-001
339900000 5.321555e-006 -1.654014e-005 7.788069e-001 -4.789620e-001 6.799403e-006 2.944020e-006 9.792499e-001 -3.053169e-001
340185000 1.174426e-005 2.396927e-006 7.580460e-001 -5.010087e-001 -1.717723e-005 1.037382e-005 9.797324e-001 -3.053567e-001
340470000 -2.442418e-006 8.027686e-007 7.367367e-001 -5.219615e-001 -4.164027e-006 2.777100e-008 9.796689e-001 -3.044519e-001
340755000 7.951477e-006 2.303099e-006 7.152115e-001 -5.417339e-001 9.158385e-006 1.005160e-005 9.794825e-001 -3.062063e-001
341040000 5.141742e-007 2.220459e-006 6.933076e-001 -5.607442e-001 1.085447e-005 6.725008e-006 9.790719e-001 -3.063453e-001
341325000 -1.182868e-005 -1.484995e-006 6.711515e-001 -5.785757e-001 7.099174e-006 4.318159e-007 9.802836e-001 -3.047827e-001
341610000 -5.403203e-006 1.423474e-005 6.488563e-001 -5.955386e-001 -9.228678e-007 -3.429389e-006 9.806843e-001 -3.056599e-001
341895000 -2.531297e-005 1.130252e-005 6.263882e-001 -6.116121e-001 -8.373091e-006 -5.355425e-006 9.787536e-001 -3.070179e-001
342180000 4.709917e-006 -2.824708e-006 6.038242e-001 -6.266841e-001 -1.191010e-005 2.461909e-006 9.799994e-001 -3.075350e-001
342465000 5.675457e-007 1.414310e-005 5.810793e-001 -6.409790e-001 1.444794e-005 3.221702e-006 9.792545e-001 -3.075664e-001
342750000 1.505860e-005 -1.347002e-005 5.583180e-001 -6.543876e-001 -4.066408e-006 -8.033493e-007 9.809138e-001 -3.068652e-001
343035000 -1.073318e-005 1.685948e-006 5.355608e-001 -6.669413e-001 -6.936205e-006 7.459798e-006 9.788096e-001 -3.085987e-001
343320000 -7.197347e-006 -7.104961e-006 5.126737e-001 -6.788143e-001 -4.708476e-006 -4.624696e-007 9.784294e-001 -3.079238e-001
343605000 3.729010e-006 -1.694634e-006 4.898701e-001 -6.897252e-001 1.373913e-006 9.619660e-008 9.785070e-001 -3.079418e-001
343890000 7.206504e-006 2.800297e-006 4.670605e-001 -7.000710e-001 -9.040357e-007 6.892078e-006 9.792607e-001 -3.088115e-001
