!Agilent Technologies,N5230C,SG49000117,A.08.50.07
!Agilent N5230C: A.08.50.07
!Date: Sunday, March 17, 2024 05:45:54
!Correction: S11(Off) 
!S21(Off) 
!S12(Off) 
!S22(Full 1 Port(2)) 
!S2P File: Measurements: S11, S21, S12, S22:
# Hz S  RI   R 50
300000000 7.887453e-006 -1.126793e-005 -6.592214e-001 -5.965623e-001 6.898528e-007 -1.696835e-005 9.721801e-001 -3.151316e-001
300285000 -4.138084e-006 1.475366e-006 -6.726572e-001 -5.729943e-001 4.914136e-006 6.496239e-007 9.728692e-001 -3.153392e-001
300570000 -5.129705e-007 -1.443691e-006 -6.852201e-001 -5.492195e-001 -3.704249e-006 1.826851e-006 9.732377e-001 -3.160965e-001
300855000 -1.504242e-005 -7.093000e-006 -6.969736e-001 -5.255030e-001 -4.190022e-006 -3.131864e-006 9.735200e-001 -3.155718e-001
301140000 -1.266748e-005 -6.811480e-006 -7.079075e-001 -5.016614e-001 -2.233175e-006 4.007374e-006 9.728634e-001 -3.164639e-001
301425000 -6.299905e-006 9.868027e-006 -7.180146e-001 -4.778177e-001 1.789337e-006 -1.834418e-005 9.737865e-001 -3.167387e-001
301710000 -3.949588e-006 -1.537417e-005 -7.273901e-001 -4.540594e-001 9.004326e-006 -1.687348e-005 9.734914e-001 -3.185571e-001
301995000 1.900348e-005 1.722738e-006 -7.360310e-001 -4.304317e-001 1.627077e-005 -6.219419e-006 9.726689e-001 -3.167993e-001
302280000 -1.156289e-005 -6.325524e-007 -7.438510e-001 -4.069527e-001 2.532397e-005 1.842434e-006 9.730816e-001 -3.177377e-001
302565000 4.175047e-006 4.816229e-006 -7.511233e-001 -3.833486e-001 -2.606664e-007 -8.547587e-007 9.735794e-001 -3.185817e-001
302850000 -1.141633e-005 9.102059e-006 -7.575924e-001 -3.601124e-001 -7.334315e-006 1.241325e-005 9.726758e-001 -3.170975e-001
303135000 1.388127e-006 2.547803e-006 -7.634895e-001 -3.369084e-001 7.028929e-006 2.037489e-006 9.722899e-001 -3.182449e-001
303420000 2.507519e-005 -9.865630e-006 -7.687437e-001 -3.137883e-001 -3.633551e-006 -1.591810e-005 9.716285e-001 -3.198757e-001
303705000 -9.016123e-006 -4.016951e-006 -7.733843e-001 -2.909167e-001 2.925028e-006 1.079317e-005 9.735222e-001 -3.199823e-001
303990000 -1.784224e-006 9.524071e-006 -7.774339e-001 -2.681376e-001 -2.996527e-005 4.493886e-006 9.717714e-001 -3.189123e-001
304275000 -4.885981e-006 5.075626e-006 -7.810371e-001 -2.455426e-001 1.529379e-005 -1.250742e-005 9.723573e-001 -3.197650e-001
304560000 -1.823741e-006 -4.586147e-006 -7.840111e-001 -2.230569e-001 2.852930e-006 2.940841e-006 9.724377e-001 -3.196620e-001
304845000 1.685800e-005 -1.285385e-005 -7.864699e-001 -2.007893e-001 -8.714843e-006 -1.146802e-005 9.715908e-001 -3.198672e-001
305130000 6.918041e-006 1.167157e-007 -7.884018e-001 -1.785657e-001 2.697452e-006 -9.766550e-006 9.712874e-001 -3.198202e-001
305415000 8.044740e-007 -1.733738e-006 -7.898219e-001 -1.567121e-001 6.792187e-006 5.656541e-006 9.717321e-001 -3.207615e-001
305700000 6.281119e-006 -2.606557e-006 -7.907963e-001 -1.348912e-001 7.869610e-006 1.304860e-006 9.723228e-001 -3.205979e-001
305985000 2.732806e-006 9.343055e-006 -7.912742e-001 -1.132426e-001 -3.817493e-006 -1.138262e-005 9.721089e-001 -3.215827e-001
306270000 -1.364023e-006 -5.401505e-006 -7.913576e-001 -9.168555e-002 8.975655e-006 -1.055764e-005 9.733546e-001 -3.210232e-001
306555000 1.721568e-006 6.756338e-007 -7.910066e-001 -7.028775e-002 -1.257807e-005 6.976560e-006 9.721971e-001 -3.231581e-001
306840000 1.995822e-006 -3.564539e-006 -7.900950e-001 -4.920117e-002 -1.378814e-005 -4.681830e-006 9.716021e-001 -3.209631e-001
307125000 5.710772e-007 3.619488e-006 -7.889166e-001 -2.819991e-002 -2.949708e-006 -1.255344e-005 9.711226e-001 -3.223294e-001
307410000 -1.825814e-007 1.484732e-005 -7.872742e-001 -7.261456e-003 -1.186030e-005 -2.223919e-006 9.718154e-001 -3.228874e-001
307695000 6.538117e-006 -1.167992e-005 -7.852897e-001 1.346361e-002 -1.818808e-005 1.061168e-005 9.719577e-001 -3.238254e-001
307980000 8.794856e-006 -1.181865e-005 -7.828114e-001 3.408612e-002 -6.095494e-006 -3.001185e-006 9.702569e-001 -3.234040e-001
308265000 1.517118e-005 2.540292e-006 -7.800025e-001 5.444521e-002 3.372425e-006 2.235953e-006 9.706240e-001 -3.235656e-001
308550000 -1.625722e-005 -1.445157e-006 -7.768435e-001 7.471622e-002 1.013374e-005 1.702470e-005 9.701162e-001 -3.232790e-001
308835000 -5.443171e-006 -7.704484e-006 -7.733443e-001 9.491079e-002 -2.246368e-006 -4.209913e-006 9.702640e-001 -3.244598e-001
309120000 1.639696e-005 4.010546e-006 -7.694055e-001 1.149529e-001 -1.492138e-005 -5.345234e-006 9.713393e-001 -3.256565e-001
309405000 8.302904e-006 9.146085e-006 -7.651780e-001 1.348129e-001 1.113835e-005 5.739540e-006 9.729116e-001 -3.253974e-001
309690000 4.566285e-006 -3.867261e-006 -7.604918e-001 1.545443e-001 -8.959438e-007 -1.490087e-005 9.714587e-001 -3.254475e-001
309975000 4.747498e-007 -2.346820e-006 -7.555222e-001 1.742237e-001 8.384392e-006 4.740334e-007 9.705195e-001 -3.252951e-001
310260000 -1.085846e-005 -1.863505e-006 -7.501883e-001 1.936867e-001 2.471605e-006 -2.959872e-006 9.722508e-001 -3.259526e-001
310545000 -2.502373e-006 -1.111760e-006 -7.445641e-001 2.131317e-001 -2.104509e-007 -1.083854e-005 9.706460e-001 -3.266305e-001
310830000 7.319466e-006 -8.889609e-006 -7.384738e-001 2.325062e-001 1.314975e-005 -8.288433e-006 9.720207e-001 -3.272080e-001
311115000 -1.166853e-005 1.095032e-006 -7.321102e-001 2.516331e-001 -1.715627e-005 9.307739e-006 9.701510e-001 -3.266635e-001
311400000 -1.379215e-006 -2.522132e-005 -7.253471e-001 2.707177e-001 2.148317e-006 -6.336562e-006 9.700975e-001 -3.273642e-001
311685000 5.263417e-006 -2.863336e-005 -7.181882e-001 2.896885e-001 -1.950266e-006 3.133213e-006 9.711317e-001 -3.269546e-001
311970000 -7.123537e-006 2.021048e-006 -7.107297e-001 3.086033e-001 -1.467184e-005 -2.905681e-006 9.693925e-001 -3.273860e-001
312255000 2.082083e-007 3.540853e-007 -7.028388e-001 3.274487e-001 -1.309477e-006 3.258149e-006 9.700254e-001 -3.277874e-001
312540000 -7.367167e-006 1.676153e-006 -6.947355e-001 3.460813e-001 1.094523e-005 -1.559617e-005 9.698083e-001 -3.280938e-001
312825000 9.783265e-006 3.175473e-006 -6.860202e-001 3.647026e-001 1.077913e-005 -1.021388e-006 9.697005e-001 -3.286841e-001
313110000 -6.653561e-006 1.109009e-005 -6.770090e-001 3.833047e-001 -6.920407e-006 -6.128607e-006 9.693698e-001 -3.299502e-001
313395000 -8.825073e-006 7.772437e-007 -6.677774e-001 4.016567e-001 2.325596e-006 -4.931302e-006 9.700716e-001 -3.287849e-001
313680000 -3.206559e-008 1.039177e-005 -6.579382e-001 4.199919e-001 -1.602030e-005 1.249401e-005 9.706999e-001 -3.290005e-001
313965000 7.163473e-006 7.049323e-006 -6.477216e-001 4.382783e-001 -4.818812e-006 3.589649e-006 9.700291e-001 -3.297230e-001
314250000 -1.897550e-005 -4.008378e-007 -6.371918e-001 4.564087e-001 4.564918e-006 -7.736508e-006 9.687105e-001 -3.297462e-001
314535000 -1.044422e-005 4.491850e-006 -6.262023e-001 4.744436e-001 -7.035065e-006 -7.937891e-006 9.691585e-001 -3.297476e-001
314820000 -6.409336e-006 -3.445793e-006 -6.146759e-001 4.922724e-001 -1.295957e-005 -4.549840e-006 9.689543e-001 -3.312855e-001
315105000 -8.281293e-006 5.886349e-006 -6.027290e-001 5.102373e-001 -1.649376e-005 -6.027353e-006 9.666130e-001 -3.306277e-001
315390000 4.691321e-006 -8.910196e-006 -5.904033e-001 5.279020e-001 7.490143e-007 -1.563919e-005 9.692384e-001 -3.316559e-001
315675000 -1.468993e-005 -2.199953e-005 -5.775270e-001 5.455508e-001 1.499840e-005 -1.883886e-005 9.681334e-001 -3.305211e-001
315960000 -3.252065e-006 -4.598272e-006 -5.642577e-001 5.630373e-001 -2.769935e-006 3.538140e-006 9.680513e-001 -3.313794e-001
316245000 -9.842999e-006 -3.973212e-006 -5.504299e-001 5.804469e-001 1.676174e-005 -5.609478e-006 9.674935e-001 -3.312814e-001
316530000 -5.416492e-006 -8.115147e-006 -5.360576e-001 5.976788e-001 6.011001e-006 6.335048e-006 9.684799e-001 -3.325535e-001
316815000 -1.784491e-005 -4.939451e-006 -5.212905e-001 6.147565e-001 1.197173e-005 2.349184e-006 9.692169e-001 -3.317443e-001
317100000 -1.107690e-006 -1.696213e-006 -5.058926e-001 6.315604e-001 1.010696e-006 -3.320585e-006 9.677337e-001 -3.315793e-001
317385000 2.265110e-005 -7.048126e-006 -4.898981e-001 6.483020e-001 -7.959653e-006 -2.231380e-006 9.694855e-001 -3.319959e-001
317670000 -8.868532e-007 1.470721e-006 -4.733256e-001 6.648221e-001 -9.337633e-006 1.146762e-005 9.688392e-001 -3.334432e-001
317955000 -1.055169e-005 1.272483e-005 -4.562803e-001 6.811693e-001 3.324341e-006 9.507373e-006 9.691271e-001 -3.336479e-001
318240000 -7.371967e-006 2.036923e-005 -4.385938e-001 6.973226e-001 -4.338616e-006 1.515072e-005 9.683753e-001 -3.338545e-001
318525000 1.096957e-005 5.814982e-006 -4.202840e-001 7.132287e-001 -5.814698e-006 6.297700e-006 9.682533e-001 -3.336441e-001
318810000 1.284920e-005 -2.105077e-006 -4.013092e-001 7.288245e-001 1.129439e-006 7.624180e-006 9.675544e-001 -3.342558e-001
319095000 -1.216905e-005 1.478308e-005 -3.818080e-001 7.441132e-001 -1.151719e-006 1.661264e-005 9.672876e-001 -3.335027e-001
319380000 -1.657491e-005 -8.308089e-006 -3.614739e-001 7.591524e-001 -2.707104e-006 -3.535045e-006 9.679120e-001 -3.358323e-001
319665000 -5.242647e-006 -8.657582e-006 -3.406272e-001 7.737626e-001 -9.398968e-006 -1.020575e-005 9.685884e-001 -3.345328e-001
319950000 -3.327996e-006 7.130733e-006 -3.189780e-001 7.880228e-001 -6.694957e-006 -1.566330e-005 9.673735e-001 -3.367197e-001
320235000 -3.859899e-006 -1.490811e-005 -2.966682e-001 8.018692e-001 -5.576898e-006 5.360627e-006 9.678844e-001 -3.368933e-001
320520000 -1.287564e-005 -8.143374e-006 -2.736942e-001 8.152681e-001 -2.877236e-006 -1.479621e-006 9.673238e-001 -3.367155e-001
320805000 6.207822e-006 -2.029486e-005 -2.499528e-001 8.282635e-001 6.457160e-006 -1.535020e-005 9.665900e-001 -3.358197e-001
321090000 6.290672e-006 9.136144e-006 -2.255082e-001 8.407094e-001 -9.500154e-006 3.863896e-006 9.663445e-001 -3.363948e-001
321375000 7.480544e-006 -2.134119e-005 -2.001884e-001 8.524302e-001 9.269944e-006 -3.006086e-006 9.671344e-001 -3.366506e-001
321660000 1.347822e-006 2.241902e-006 -1.743441e-001 8.636820e-001 -6.157258e-006 8.785978e-006 9.674287e-001 -3.374595e-001
321945000 7.057699e-007 3.241564e-006 -1.476626e-001 8.742784e-001 -6.659751e-006 1.625600e-005 9.664136e-001 -3.382979e-001
322230000 4.692101e-006 -1.454816e-005 -1.202065e-001 8.841169e-001 2.923300e-006 1.743948e-005 9.660345e-001 -3.386827e-001
322515000 -1.170575e-005 8.447765e-007 -9.203185e-002 8.933148e-001 -5.937533e-006 1.101521e-005 9.654020e-001 -3.386890e-001
322800000 -2.395218e-006 4.517488e-006 -6.320451e-002 9.015260e-001 6.035591e-006 2.826519e-006 9.677138e-001 -3.388062e-001
323085000 2.054460e-006 -8.789106e-006 -3.359483e-002 9.089906e-001 -3.891972e-006 1.199402e-005 9.666875e-001 -3.388099e-001
323370000 2.718603e-006 6.781450e-006 -3.265845e-003 9.155089e-001 -1.219200e-005 8.107795e-006 9.667237e-001 -3.398472e-001
323655000 3.875481e-006 6.212332e-006 2.767716e-002 9.209514e-001 -7.009628e-006 1.603899e-005 9.659742e-001 -3.401673e-001
323940000 -2.502334e-007 9.279848e-006 5.928796e-002 9.254218e-001 -1.643146e-005 -1.142071e-005 9.655903e-001 -3.407988e-001
324225000 -1.416136e-005 3.976715e-006 9.157870e-002 9.287071e-001 -4.359896e-006 -7.253242e-006 9.642975e-001 -3.400253e-001
324510000 -2.365845e-005 -1.834006e-006 1.245009e-001 9.308978e-001 3.239173e-006 1.107288e-006 9.665396e-001 -3.419881e-001
324795000 9.054806e-007 -1.963267e-005 1.578110e-001 9.317976e-001 7.490870e-006 -1.234845e-005 9.660131e-001 -3.411091e-001
325080000 3.811041e-006 -6.406561e-006 1.916384e-001 9.313496e-001 1.454070e-006 1.517646e-006 9.656547e-001 -3.412036e-001
325365000 -5.117679e-006 -1.247404e-005 2.260210e-001 9.295637e-001 -6.667229e-006 -1.260293e-006 9.662171e-001 -3.416253e-001
325650000 3.895819e-006 -5.345155e-006 2.606987e-001 9.263589e-001 -6.209073e-006 -9.557011e-006 9.659054e-001 -3.413464e-001
325935000 2.982768e-006 -8.911124e-006 2.958038e-001 9.217333e-001 1.400446e-005 -1.256024e-005 9.654202e-001 -3.426113e-001
326220000 -1.189377e-005 -1.757015e-005 3.309656e-001 9.154959e-001 2.757454e-006 -1.966572e-005 9.656425e-001 -3.431278e-001
326505000 6.698551e-006 -7.063070e-006 3.664466e-001 9.076656e-001 -4.040193e-006 -4.621887e-006 9.650286e-001 -3.432600e-001
326790000 1.448188e-005 -6.874056e-006 4.019015e-001 8.982405e-001 1.481686e-005 -6.719024e-006 9.640220e-001 -3.422807e-001
327075000 -3.333142e-006 -2.888579e-006 4.373895e-001 8.870996e-001 1.674588e-006 6.202407e-006 9.645904e-001 -3.441311e-001
327360000 3.188397e-005 4.671701e-007 4.727679e-001 8.742883e-001 8.235031e-006 6.650264e-006 9.659328e-001 -3.441059e-001
327645000 1.413153e-005 9.406431e-006 5.078959e-001 8.597029e-001 1.401992e-006 1.576273e-006 9.652600e-001 -3.440624e-001
327930000 -2.897118e-006 1.014500e-005 5.425933e-001 8.435374e-001 3.718415e-007 2.291510e-007 9.645261e-001 -3.437335e-001
328215000 -8.284401e-006 5.061125e-006 5.770411e-001 8.254318e-001 -1.185663e-005 -1.160129e-005 9.646072e-001 -3.448012e-001
328500000 -2.183205e-006 -8.868405e-006 6.106387e-001 8.056965e-001 -2.865819e-007 -7.362328e-006 9.638733e-001 -3.453506e-001
328785000 1.397685e-006 -1.523516e-005 6.437070e-001 7.841157e-001 1.421649e-005 -1.566523e-005 9.641168e-001 -3.447274e-001
329070000 -9.804223e-006 -1.222416e-005 6.759650e-001 7.609543e-001 6.112478e-007 1.607843e-006 9.641505e-001 -3.453204e-001
329355000 -1.626869e-005 4.346294e-006 7.072659e-001 7.359178e-001 3.173982e-006 2.525284e-005 9.638934e-001 -3.463798e-001
329640000 6.951601e-006 -1.334084e-005 7.374867e-001 7.095444e-001 4.701160e-006 -7.394476e-007 9.640268e-001 -3.462460e-001
329925000 -1.095560e-005 -2.740125e-006 7.665559e-001 6.814361e-001 -7.124715e-007 1.908518e-005 9.636327e-001 -3.462660e-001
330210000 -5.973718e-006 7.294993e-007 7.942454e-001 6.517407e-001 -3.479840e-006 9.505179e-006 9.628764e-001 -3.467918e-001
330495000 -3.787690e-006 8.444567e-007 8.206842e-001 6.206776e-001 4.077289e-006 5.858478e-006 9.631287e-001 -3.467657e-001
330780000 -2.086798e-006 5.620107e-006 8.456237e-001 5.883107e-001 3.744341e-006 2.379316e-006 9.639338e-001 -3.483070e-001
331065000 -1.692560e-005 -1.313731e-007 8.688387e-001 5.547167e-001 -9.211984e-006 -1.409706e-005 9.623096e-001 -3.463591e-001
331350000 9.581947e-008 8.152695e-006 8.906559e-001 5.199136e-001 -2.920452e-006 -7.317787e-006 9.627715e-001 -3.476860e-001
331635000 3.307949e-006 -3.187317e-007 9.105567e-001 4.841659e-001 1.550450e-006 5.089225e-007 9.637225e-001 -3.481897e-001
331920000 -1.684064e-006 -3.152662e-006 9.286137e-001 4.473334e-001 4.646047e-006 -6.442220e-006 9.634076e-001 -3.483990e-001
332205000 6.120433e-007 -8.188644e-006 9.448804e-001 4.098905e-001 -1.729695e-006 -2.440627e-006 9.625172e-001 -3.492194e-001
332490000 -1.887449e-006 2.454836e-006 9.593152e-001 3.716971e-001 5.219553e-006 9.464236e-006 9.634516e-001 -3.489856e-001
332775000 1.595522e-006 2.900366e-006 9.716241e-001 3.330869e-001 -3.210097e-006 -2.567102e-007 9.626246e-001 -3.496882e-001
333060000 1.281086e-006 -8.720805e-006 9.821512e-001 2.939922e-001 -4.120845e-006 1.828033e-005 9.628691e-001 -3.499791e-001
333345000 7.607734e-006 3.525596e-006 9.907480e-001 2.546751e-001 -2.662274e-006 8.395073e-006 9.637693e-001 -3.495583e-001
333630000 3.313649e-006 -1.303262e-005 9.972845e-001 2.152882e-001 4.397154e-006 1.404564e-005 9.625363e-001 -3.514775e-001
333915000 -7.329113e-006 7.059451e-006 1.002100e+000 1.758398e-001 -3.408587e-006 4.829251e-006 9.621241e-001 -3.505523e-001
334200000 -1.055125e-005 3.134110e-006 1.004871e+000 1.364744e-001 -1.153314e-005 1.763616e-006 9.627947e-001 -3.518916e-001
334485000 2.461907e-006 9.339347e-006 1.005768e+000 9.736519e-002 -7.669159e-006 -6.038720e-006 9.622193e-001 -3.507865e-001
334770000 -6.207961e-006 -4.804698e-006 1.004938e+000 5.866017e-002 -4.960794e-006 3.320435e-006 9.625122e-001 -3.517981e-001
335055000 1.252600e-005 -4.990050e-006 1.002317e+000 2.034038e-002 -9.310797e-006 1.498509e-005 9.629171e-001 -3.519487e-001
335340000 5.243572e-007 9.711866e-006 9.979263e-001 -1.737888e-002 -1.269084e-005 -8.091497e-006 9.624479e-001 -3.532313e-001
335625000 1.547526e-006 -4.744474e-006 9.918351e-001 -5.445832e-002 -1.317618e-005 -7.984082e-006 9.623269e-001 -3.530982e-001
335910000 -1.448301e-005 1.332627e-006 9.842921e-001 -9.077911e-002 -8.152530e-006 -1.182999e-008 9.619144e-001 -3.525891e-001
336195000 2.751631e-006 8.251754e-006 9.753796e-001 -1.262976e-001 3.485445e-006 -1.421023e-005 9.609941e-001 -3.527533e-001
336480000 2.753898e-006 8.188590e-007 9.650726e-001 -1.609534e-001 9.250120e-006 -3.050009e-006 9.622594e-001 -3.529152e-001
336765000 -3.679959e-006 -3.785770e-006 9.532446e-001 -1.948588e-001 1.775842e-005 2.952586e-006 9.617556e-001 -3.538094e-001
337050000 -2.969230e-006 -2.950023e-006 9.404127e-001 -2.275380e-001 1.009690e-005 -6.781769e-006 9.622080e-001 -3.539703e-001
337335000 -8.392093e-006 1.132492e-005 9.262825e-001 -2.594181e-001 9.589860e-008 1.354113e-005 9.609586e-001 -3.557669e-001
337620000 -1.229065e-006 -2.245132e-007 9.111071e-001 -2.903472e-001 3.776424e-006 3.975906e-006 9.611381e-001 -3.555684e-001
337905000 -5.051789e-006 -2.015791e-006 8.950643e-001 -3.200091e-001 -8.707311e-006 -2.975776e-006 9.601563e-001 -3.539464e-001
338190000 -1.291679e-005 -1.163397e-006 8.780800e-001 -3.485837e-001 -1.311615e-005 -1.202960e-005 9.607238e-001 -3.557303e-001
338475000 -1.800425e-005 -2.619610e-006 8.602536e-001 -3.762670e-001 -1.222871e-006 -4.913607e-006 9.617727e-001 -3.547872e-001
338760000 -9.108189e-006 1.827290e-006 8.416677e-001 -4.028025e-001 -6.190183e-006 -8.633639e-006 9.609405e-001 -3.554118e-001
339045000 -8.038817e-006 4.857359e-007 8.225429e-001 -4.281181e-001 -1.046091e-005 2.648683e-006 9.610531e-001 -3.559455e-001
339330000 -1.469655e-005 -1.583174e-005 8.026922e-001 -4.525258e-001 -3.527830e-008 5.193944e-006 9.620000e-001 -3.550085e-001
339615000 -3.696268e-006 2.168910e-006 7.823712e-001 -4.757436e-001 -4.306690e-006 4.429946e-006 9.608587e-001 -3.568384e-001
339900000 -4.756317e-008 -1.385170e-005 7.614945e-001 -4.979908e-001 -7.065803e-006 -1.073895e-006 9.602038e-001 -3.574461e-001
340185000 -1.023137e-005 1.169801e-006 7.403802e-001 -5.190870e-001 -1.295871e-006 9.870793e-006 9.605768e-001 -3.574949e-001
340470000 6.971091e-006 3.110462e-006 7.187148e-001 -5.392234e-001 -2.075584e-005 -1.202456e-005 9.606385e-001 -3.566642e-001
340755000 -1.070767e-006 4.963401e-006 6.968519e-001 -5.582204e-001 -1.189700e-005 5.833966e-006 9.603829e-001 -3.585526e-001
341040000 1.986119e-006 -1.543824e-005 6.747380e-001 -5.763800e-001 7.631721e-006 3.163302e-006 9.597479e-001 -3.584618e-001
341325000 1.176495e-005 3.061406e-007 6.522468e-001 -5.935331e-001 -4.824030e-006 -5.685420e-006 9.611833e-001 -3.569898e-001
341610000 1.236878e-005 1.296548e-005 6.297690e-001 -6.097886e-001 -1.883906e-006 5.045478e-006 9.613796e-001 -3.581479e-001
341895000 1.379986e-005 2.254515e-007 6.069901e-001 -6.250908e-001 1.470499e-005 8.427272e-006 9.594178e-001 -3.594345e-001
342180000 1.676567e-005 5.831108e-006 5.842939e-001 -6.394258e-001 -7.338484e-006 6.660621e-006 9.605290e-001 -3.599591e-001
342465000 5.939055e-006 1.657874e-005 5.614761e-001 -6.530285e-001 9.532822e-006 -2.149933e-005 9.597377e-001 -3.600354e-001
342750000 -1.702574e-005 2.052065e-006 5.385443e-001 -6.657102e-001 6.748159e-006 -1.395297e-005 9.614505e-001 -3.597148e-001
343035000 -1.359422e-005 2.198837e-005 5.156590e-001 -6.776242e-001 6.318141e-006 8.285568e-006 9.592680e-001 -3.610813e-001
343320000 -1.214591e-006 -6.792494e-007 4.928246e-001 -6.887146e-001 1.097891e-005 1.546378e-005 9.588171e-001 -3.605331e-001
343605000 -7.520297e-006 -2.110084e-006 4.700100e-001 -6.990964e-001 -1.280136e-005 1.207753e-005 9.591292e-001 -3.604814e-001
343890000 -1.011141e-005 -3.700318e-006 4.471201e-001 -7.086846e-001 -1.442267e-005 9.708438e-006 9.594952e-001 -3.614371e-001
