!Agilent Technologies,N5230C,SG49000117,A.08.50.07
!Agilent N5230C: A.08.50.07
!Date: Tuesday, May 07, 2024 00:12:38
!Correction: S11(Full 2 Port(1,2)) 
!S21(Full 2 Port(1,2)) 
!S12(Full 2 Port(1,2)) 
!S22(Full 2 Port(1,2)) 
!S2P File: Measurements: S11, S21, S12, S22:
# Hz S  MA   R 50
2000000000 1.051426e+000 -2.370046e+001 1.147947e-003 2.405846e+001 2.087507e-003 5.165984e+000 1.120196e+000 -3.889389e+001
2000100000 1.051305e+000 -2.370291e+001 1.150392e-003 2.413055e+001 2.066805e-003 5.706898e+000 1.120436e+000 -3.888256e+001
2000200000 1.051067e+000 -2.370860e+001 1.144754e-003 2.378732e+001 2.101962e-003 5.732472e+000 1.120751e+000 -3.888194e+001
2000300000 1.050953e+000 -2.371642e+001 1.146464e-003 2.408399e+001 2.093285e-003 5.526198e+000 1.120885e+000 -3.888820e+001
2000400000 1.050807e+000 -2.372247e+001 1.160311e-003 2.450015e+001 2.079099e-003 5.775249e+000 1.121065e+000 -3.889492e+001
2000500000 1.050699e+000 -2.373032e+001 1.146822e-003 2.366271e+001 2.106657e-003 5.795433e+000 1.121334e+000 -3.889924e+001
2000600000 1.050716e+000 -2.372185e+001 1.144203e-003 2.362881e+001 2.092553e-003 4.795905e+000 1.121264e+000 -3.888233e+001
2000700000 1.050682e+000 -2.371586e+001 1.151050e-003 2.332385e+001 2.116808e-003 5.457785e+000 1.121194e+000 -3.886077e+001
2000800000 1.050779e+000 -2.370454e+001 1.146548e-003 2.303401e+001 2.098546e-003 4.778662e+000 1.121087e+000 -3.884792e+001
2000900000 1.050709e+000 -2.369674e+001 1.144108e-003 2.281791e+001 2.089529e-003 4.240345e+000 1.120972e+000 -3.883142e+001
2001000000 1.050721e+000 -2.368680e+001 1.140263e-003 2.302514e+001 2.087346e-003 4.385256e+000 1.120853e+000 -3.882208e+001
2001100000 1.050650e+000 -2.367872e+001 1.136172e-003 2.337592e+001 2.072063e-003 4.203076e+000 1.120767e+000 -3.881799e+001
2001200000 1.050546e+000 -2.366902e+001 1.133801e-003 2.268558e+001 2.074215e-003 4.892841e+000 1.120457e+000 -3.881493e+001
2001300000 1.050598e+000 -2.367312e+001 1.134730e-003 2.327609e+001 2.086023e-003 4.259591e+000 1.120409e+000 -3.882452e+001
2001400000 1.050736e+000 -2.369068e+001 1.148424e-003 2.279734e+001 2.077091e-003 3.974677e+000 1.120155e+000 -3.885208e+001
2001500000 1.050889e+000 -2.370443e+001 1.140580e-003 2.282660e+001 2.068006e-003 4.354431e+000 1.119879e+000 -3.887952e+001
2001600000 1.051046e+000 -2.371640e+001 1.131162e-003 2.243139e+001 2.079791e-003 4.277510e+000 1.119669e+000 -3.890858e+001
2001700000 1.051243e+000 -2.372976e+001 1.136355e-003 2.244058e+001 2.098629e-003 3.906373e+000 1.119572e+000 -3.892986e+001
2001800000 1.051446e+000 -2.373625e+001 1.148614e-003 2.216619e+001 2.066382e-003 3.350325e+000 1.119356e+000 -3.895195e+001
2001900000 1.051587e+000 -2.373719e+001 1.138999e-003 2.182773e+001 2.069509e-003 3.208589e+000 1.119249e+000 -3.897491e+001
2002000000 1.051824e+000 -2.374602e+001 1.143211e-003 2.216881e+001 2.068541e-003 3.161063e+000 1.119057e+000 -3.899235e+001
2002100000 1.051846e+000 -2.373231e+001 1.146864e-003 2.167935e+001 2.057565e-003 2.875746e+000 1.119313e+000 -3.897058e+001
2002200000 1.051778e+000 -2.372203e+001 1.134860e-003 2.167373e+001 2.067145e-003 2.701319e+000 1.119434e+000 -3.894053e+001
2002300000 1.051797e+000 -2.370834e+001 1.135501e-003 2.151715e+001 2.048686e-003 3.150028e+000 1.119627e+000 -3.891631e+001
2002400000 1.051681e+000 -2.369661e+001 1.136356e-003 2.137969e+001 2.059390e-003 2.624962e+000 1.119875e+000 -3.889036e+001
2002500000 1.051612e+000 -2.369014e+001 1.132785e-003 2.110719e+001 2.061341e-003 2.793888e+000 1.119926e+000 -3.887177e+001
2002600000 1.051538e+000 -2.368374e+001 1.134582e-003 2.149083e+001 2.069116e-003 2.721870e+000 1.120130e+000 -3.884412e+001
2002700000 1.051429e+000 -2.367649e+001 1.132013e-003 2.118615e+001 2.030148e-003 2.700669e+000 1.120185e+000 -3.882738e+001
2002800000 1.051315e+000 -2.368147e+001 1.130822e-003 2.158572e+001 2.061428e-003 3.135125e+000 1.120230e+000 -3.882019e+001
2002900000 1.051185e+000 -2.369131e+001 1.123562e-003 2.138729e+001 2.043950e-003 2.430385e+000 1.120228e+000 -3.883813e+001
2003000000 1.051116e+000 -2.369772e+001 1.121099e-003 2.123738e+001 2.060958e-003 2.418983e+000 1.120266e+000 -3.884996e+001
2003100000 1.051015e+000 -2.370539e+001 1.129553e-003 2.128526e+001 2.042182e-003 2.733625e+000 1.120323e+000 -3.886731e+001
2003200000 1.050948e+000 -2.371526e+001 1.125718e-003 2.091076e+001 2.036173e-003 2.096827e+000 1.120385e+000 -3.887637e+001
2003300000 1.050903e+000 -2.372370e+001 1.125249e-003 2.117365e+001 2.030440e-003 2.366902e+000 1.120398e+000 -3.889552e+001
2003400000 1.050877e+000 -2.372894e+001 1.123570e-003 2.127864e+001 2.048896e-003 2.012887e+000 1.120573e+000 -3.891074e+001
2003500000 1.050876e+000 -2.373459e+001 1.119763e-003 2.093472e+001 2.040470e-003 1.909964e+000 1.120629e+000 -3.893388e+001
2003600000 1.050886e+000 -2.373935e+001 1.123111e-003 2.050288e+001 2.007972e-003 1.966717e+000 1.120790e+000 -3.892170e+001
2003700000 1.050933e+000 -2.374967e+001 1.119692e-003 2.054396e+001 2.043555e-003 1.172502e+000 1.121027e+000 -3.891685e+001
2003800000 1.050944e+000 -2.375299e+001 1.121089e-003 2.058807e+001 2.040457e-003 1.770129e+000 1.121132e+000 -3.891304e+001
2003900000 1.050998e+000 -2.376034e+001 1.112231e-003 2.005918e+001 2.021489e-003 1.889172e+000 1.121223e+000 -3.890418e+001
2004000000 1.051049e+000 -2.376452e+001 1.116095e-003 1.993102e+001 2.034898e-003 1.884302e+000 1.121230e+000 -3.890047e+001
2004100000 1.051027e+000 -2.376977e+001 1.100495e-003 2.034768e+001 2.030687e-003 1.913937e+000 1.121341e+000 -3.889557e+001
2004200000 1.051032e+000 -2.378032e+001 1.106429e-003 1.986433e+001 2.014760e-003 1.893358e+000 1.121459e+000 -3.890003e+001
2004300000 1.051098e+000 -2.377939e+001 1.120894e-003 2.004056e+001 2.017757e-003 1.742826e+000 1.121213e+000 -3.889877e+001
2004400000 1.051192e+000 -2.377789e+001 1.113410e-003 1.963928e+001 2.016351e-003 2.005733e+000 1.120989e+000 -3.889570e+001
2004500000 1.051250e+000 -2.377500e+001 1.104853e-003 1.989193e+001 2.017027e-003 9.592268e-001 1.120747e+000 -3.889147e+001
2004600000 1.051244e+000 -2.377411e+001 1.107359e-003 1.960329e+001 2.017850e-003 1.495065e+000 1.120600e+000 -3.889072e+001
2004700000 1.051456e+000 -2.377303e+001 1.099152e-003 1.945214e+001 2.041079e-003 1.736532e+000 1.120388e+000 -3.888957e+001
2004800000 1.051485e+000 -2.377550e+001 1.112513e-003 1.943532e+001 2.031042e-003 1.506850e+000 1.120289e+000 -3.888419e+001
2004900000 1.051506e+000 -2.377090e+001 1.106451e-003 1.914111e+001 2.009350e-003 4.291486e-001 1.120246e+000 -3.888637e+001
2005000000 1.051579e+000 -2.377179e+001 1.102554e-003 1.941456e+001 1.989918e-003 6.701133e-001 1.120112e+000 -3.889291e+001
2005100000 1.051587e+000 -2.377762e+001 1.118775e-003 1.884721e+001 1.993700e-003 9.601544e-001 1.120336e+000 -3.888043e+001
2005200000 1.051553e+000 -2.378448e+001 1.104234e-003 1.889334e+001 2.003223e-003 1.034178e+000 1.120394e+000 -3.886937e+001
2005300000 1.051451e+000 -2.378792e+001 1.099328e-003 1.939613e+001 1.996120e-003 1.839047e-001 1.120588e+000 -3.885986e+001
2005400000 1.051468e+000 -2.379483e+001 1.101074e-003 1.891590e+001 1.981370e-003 2.037053e-001 1.120748e+000 -3.885335e+001
2005500000 1.051474e+000 -2.379803e+001 1.091636e-003 1.930820e+001 1.981432e-003 2.632807e-001 1.120746e+000 -3.884352e+001
2005600000 1.051456e+000 -2.379791e+001 1.109403e-003 1.903803e+001 1.968929e-003 4.038557e-001 1.120899e+000 -3.883657e+001
2005700000 1.051417e+000 -2.380086e+001 1.106342e-003 1.932717e+001 1.978974e-003 6.680012e-001 1.121061e+000 -3.883104e+001
2005800000 1.051415e+000 -2.380327e+001 1.105538e-003 1.885805e+001 1.982747e-003 3.037510e-001 1.121191e+000 -3.883305e+001
2005900000 1.051578e+000 -2.380447e+001 1.103341e-003 1.887397e+001 2.001183e-003 1.011058e+000 1.121316e+000 -3.883820e+001
2006000000 1.051586e+000 -2.379964e+001 1.089292e-003 1.856469e+001 1.985285e-003 3.941087e-001 1.121466e+000 -3.885112e+001
2006100000 1.051633e+000 -2.380363e+001 1.085504e-003 1.867183e+001 1.983369e-003 6.856089e-001 1.121489e+000 -3.886376e+001
2006200000 1.051660e+000 -2.380331e+001 1.093294e-003 1.833749e+001 1.990776e-003 1.705609e-001 1.121735e+000 -3.886919e+001
2006300000 1.051726e+000 -2.380287e+001 1.101971e-003 1.872633e+001 1.983490e-003 9.583627e-002 1.121723e+000 -3.888436e+001
2006400000 1.051692e+000 -2.380632e+001 1.097526e-003 1.818548e+001 1.971914e-003 -1.912468e-001 1.121718e+000 -3.889861e+001
2006500000 1.051716e+000 -2.381001e+001 1.086489e-003 1.810078e+001 1.990517e-003 2.838437e-001 1.121718e+000 -3.891103e+001
2006600000 1.051670e+000 -2.381474e+001 1.080517e-003 1.879744e+001 1.974881e-003 -4.276001e-001 1.121764e+000 -3.891376e+001
2006700000 1.051543e+000 -2.381908e+001 1.091794e-003 1.760631e+001 1.973352e-003 -8.063106e-001 1.121753e+000 -3.891542e+001
2006800000 1.051488e+000 -2.382023e+001 1.093470e-003 1.817946e+001 1.974804e-003 -3.087960e-001 1.121664e+000 -3.892088e+001
2006900000 1.051366e+000 -2.382394e+001 1.086127e-003 1.720670e+001 1.982084e-003 -2.919467e-001 1.121543e+000 -3.892451e+001
2007000000 1.051443e+000 -2.382707e+001 1.089605e-003 1.763412e+001 1.982536e-003 -1.111386e-001 1.121565e+000 -3.892694e+001
2007100000 1.051375e+000 -2.382489e+001 1.076242e-003 1.788177e+001 1.965758e-003 -7.434032e-001 1.121477e+000 -3.893521e+001
2007200000 1.051410e+000 -2.382989e+001 1.091953e-003 1.738771e+001 1.981170e-003 1.417816e-001 1.121426e+000 -3.893499e+001
2007300000 1.051383e+000 -2.383621e+001 1.086110e-003 1.747157e+001 1.943214e-003 -6.818244e-001 1.121356e+000 -3.893010e+001
2007400000 1.051401e+000 -2.384342e+001 1.092268e-003 1.720243e+001 1.965922e-003 -6.802903e-001 1.121053e+000 -3.892314e+001
2007500000 1.051500e+000 -2.385274e+001 1.085073e-003 1.744775e+001 1.966350e-003 -5.700842e-001 1.120792e+000 -3.891839e+001
2007600000 1.051414e+000 -2.385958e+001 1.080996e-003 1.764920e+001 1.968766e-003 -1.031818e+000 1.120553e+000 -3.890635e+001
2007700000 1.051482e+000 -2.386583e+001 1.079965e-003 1.727397e+001 1.946672e-003 -1.280378e+000 1.120571e+000 -3.890538e+001
2007800000 1.051475e+000 -2.386754e+001 1.091565e-003 1.644973e+001 1.978130e-003 -1.494651e+000 1.120292e+000 -3.889989e+001
2007900000 1.051485e+000 -2.387663e+001 1.089301e-003 1.760445e+001 1.971511e-003 -1.328038e+000 1.120177e+000 -3.889438e+001
2008000000 1.051495e+000 -2.387822e+001 1.073745e-003 1.798959e+001 1.941926e-003 -1.094804e+000 1.119963e+000 -3.888527e+001
2008100000 1.051429e+000 -2.386828e+001 1.078246e-003 1.667865e+001 1.957930e-003 -2.472502e-001 1.119823e+000 -3.888839e+001
2008200000 1.051349e+000 -2.385514e+001 1.070472e-003 1.735919e+001 1.936843e-003 -2.845457e-001 1.119703e+000 -3.888524e+001
2008300000 1.051316e+000 -2.384843e+001 1.071362e-003 1.703099e+001 1.959199e-003 -1.732564e+000 1.119465e+000 -3.889001e+001
2008400000 1.051256e+000 -2.383656e+001 1.088792e-003 1.741491e+001 1.975194e-003 -8.353598e-001 1.119414e+000 -3.889644e+001
2008500000 1.051247e+000 -2.382715e+001 1.076134e-003 1.721636e+001 1.935998e-003 -1.075610e+000 1.119363e+000 -3.890198e+001
2008600000 1.051193e+000 -2.381894e+001 1.070760e-003 1.799524e+001 1.946249e-003 -9.098502e-001 1.119350e+000 -3.890746e+001
2008700000 1.051134e+000 -2.381193e+001 1.075317e-003 1.685866e+001 1.944441e-003 -7.632278e-001 1.119385e+000 -3.891149e+001
2008800000 1.051092e+000 -2.381036e+001 1.081084e-003 1.669129e+001 1.921691e-003 -1.416723e+000 1.119508e+000 -3.892213e+001
2008900000 1.051102e+000 -2.381979e+001 1.075516e-003 1.682030e+001 1.945328e-003 -1.661449e+000 1.119883e+000 -3.893591e+001
2009000000 1.051091e+000 -2.382484e+001 1.086716e-003 1.692707e+001 1.942517e-003 -1.669001e+000 1.120097e+000 -3.894317e+001
2009100000 1.051082e+000 -2.383275e+001 1.064523e-003 1.686351e+001 1.943751e-003 -1.762137e+000 1.120317e+000 -3.895555e+001
2009200000 1.051098e+000 -2.384441e+001 1.067821e-003 1.736939e+001 1.934175e-003 -1.888269e+000 1.120595e+000 -3.896426e+001
2009300000 1.051074e+000 -2.384932e+001 1.073417e-003 1.694218e+001 1.939596e-003 -8.086175e-001 1.120763e+000 -3.897715e+001
2009400000 1.051068e+000 -2.385521e+001 1.076269e-003 1.646433e+001 1.936860e-003 -1.717496e+000 1.120913e+000 -3.898559e+001
2009500000 1.051094e+000 -2.386014e+001 1.070837e-003 1.705805e+001 1.961312e-003 -1.397530e+000 1.121119e+000 -3.899824e+001
2009600000 1.051225e+000 -2.386131e+001 1.073708e-003 1.650282e+001 1.923544e-003 -1.338225e+000 1.121139e+000 -3.899808e+001
2009700000 1.051374e+000 -2.385802e+001 1.073083e-003 1.590938e+001 1.924854e-003 -1.743940e+000 1.121210e+000 -3.899808e+001
2009800000 1.051405e+000 -2.385402e+001 1.070620e-003 1.660759e+001 1.934878e-003 -1.175018e+000 1.121169e+000 -3.900607e+001
2009900000 1.051544e+000 -2.384902e+001 1.072506e-003 1.649289e+001 1.941741e-003 -2.608461e+000 1.121300e+000 -3.901188e+001
2010000000 1.051605e+000 -2.385039e+001 1.073649e-003 1.642803e+001 1.938090e-003 -6.290398e-001 1.121122e+000 -3.901503e+001
2010100000 1.051731e+000 -2.384957e+001 1.073684e-003 1.748756e+001 1.934736e-003 -1.538035e+000 1.121104e+000 -3.902211e+001
2010200000 1.051729e+000 -2.384377e+001 1.074496e-003 1.642717e+001 1.929245e-003 -1.503055e+000 1.121042e+000 -3.902484e+001
2010300000 1.051753e+000 -2.384462e+001 1.056506e-003 1.667688e+001 1.955604e-003 -2.425342e+000 1.120857e+000 -3.902696e+001
2010400000 1.051711e+000 -2.383719e+001 1.072277e-003 1.595946e+001 1.929966e-003 -2.379661e+000 1.120559e+000 -3.902716e+001
2010500000 1.051724e+000 -2.383828e+001 1.067787e-003 1.614252e+001 1.895028e-003 -1.759596e+000 1.120387e+000 -3.902797e+001
2010600000 1.051772e+000 -2.383805e+001 1.067043e-003 1.590728e+001 1.937805e-003 -2.165687e+000 1.120183e+000 -3.903136e+001
2010700000 1.051702e+000 -2.383882e+001 1.077622e-003 1.573915e+001 1.919469e-003 -1.157967e+000 1.119983e+000 -3.903246e+001
2010800000 1.051612e+000 -2.383984e+001 1.077437e-003 1.674959e+001 1.911145e-003 -1.827819e+000 1.119751e+000 -3.903693e+001
2010900000 1.051686e+000 -2.383695e+001 1.074012e-003 1.623903e+001 1.924606e-003 -1.713270e+000 1.119592e+000 -3.904321e+001
2011000000 1.051552e+000 -2.383914e+001 1.074276e-003 1.585091e+001 1.911337e-003 -2.077381e+000 1.119486e+000 -3.904587e+001
2011100000 1.051318e+000 -2.384215e+001 1.071468e-003 1.619216e+001 1.924563e-003 -2.508955e+000 1.119741e+000 -3.902001e+001
2011200000 1.051056e+000 -2.384479e+001 1.065052e-003 1.608001e+001 1.931949e-003 -2.115493e+000 1.119999e+000 -3.900576e+001
2011300000 1.050743e+000 -2.384937e+001 1.068584e-003 1.623926e+001 1.928836e-003 -1.850678e+000 1.120235e+000 -3.898483e+001
2011400000 1.050512e+000 -2.385393e+001 1.064094e-003 1.559595e+001 1.935445e-003 -2.700523e+000 1.120359e+000 -3.896692e+001
2011500000 1.050405e+000 -2.385491e+001 1.062670e-003 1.645919e+001 1.916786e-003 -2.437659e+000 1.120459e+000 -3.895517e+001
2011600000 1.050249e+000 -2.385867e+001 1.068874e-003 1.589483e+001 1.928398e-003 -2.056006e+000 1.120724e+000 -3.893897e+001
2011700000 1.050118e+000 -2.385869e+001 1.076681e-003 1.602135e+001 1.930365e-003 -1.632934e+000 1.120943e+000 -3.892609e+001
2011800000 1.050202e+000 -2.386615e+001 1.063690e-003 1.607781e+001 1.925676e-003 -2.055290e+000 1.120726e+000 -3.892365e+001
2011900000 1.050265e+000 -2.388584e+001 1.068390e-003 1.551895e+001 1.930240e-003 -1.698644e+000 1.120314e+000 -3.893547e+001
2012000000 1.050505e+000 -2.389933e+001 1.074856e-003 1.534268e+001 1.921845e-003 -2.733369e+000 1.119943e+000 -3.895205e+001
2012100000 1.050705e+000 -2.391018e+001 1.070675e-003 1.536721e+001 1.909255e-003 -2.140368e+000 1.119493e+000 -3.897317e+001
2012200000 1.050935e+000 -2.392047e+001 1.071756e-003 1.493514e+001 1.924462e-003 -2.100184e+000 1.119339e+000 -3.898673e+001
2012300000 1.051191e+000 -2.392089e+001 1.081991e-003 1.594059e+001 1.907222e-003 -1.775302e+000 1.119089e+000 -3.900279e+001
2012400000 1.051530e+000 -2.391980e+001 1.079566e-003 1.534179e+001 1.911709e-003 -2.213005e+000 1.118936e+000 -3.901894e+001
2012500000 1.051838e+000 -2.391994e+001 1.059997e-003 1.523694e+001 1.915911e-003 -2.857993e+000 1.118865e+000 -3.904037e+001
2012600000 1.052112e+000 -2.389540e+001 1.059712e-003 1.543163e+001 1.892987e-003 -2.997377e+000 1.119825e+000 -3.904265e+001
2012700000 1.052353e+000 -2.386757e+001 1.074225e-003 1.518151e+001 1.928685e-003 -2.289489e+000 1.120704e+000 -3.903860e+001
2012800000 1.052568e+000 -2.384367e+001 1.062944e-003 1.529691e+001 1.940572e-003 -3.037655e+000 1.121425e+000 -3.903254e+001
2012900000 1.052770e+000 -2.382309e+001 1.066759e-003 1.510591e+001 1.916221e-003 -2.467086e+000 1.122189e+000 -3.903251e+001
2013000000 1.052863e+000 -2.380975e+001 1.084741e-003 1.464331e+001 1.922273e-003 -3.339371e+000 1.122699e+000 -3.902141e+001
2013100000 1.052973e+000 -2.379831e+001 1.065856e-003 1.479323e+001 1.931574e-003 -2.602985e+000 1.123226e+000 -3.901578e+001
2013200000 1.052917e+000 -2.378762e+001 1.063764e-003 1.539608e+001 1.945339e-003 -2.554919e+000 1.123693e+000 -3.900295e+001
2013300000 1.052665e+000 -2.379408e+001 1.064711e-003 1.496993e+001 1.944082e-003 -2.873852e+000 1.123748e+000 -3.899441e+001
2013400000 1.052096e+000 -2.381302e+001 1.076282e-003 1.503961e+001 1.927271e-003 -3.066040e+000 1.123567e+000 -3.898811e+001
2013500000 1.051544e+000 -2.383356e+001 1.082617e-003 1.489975e+001 1.938582e-003 -3.097420e+000 1.123298e+000 -3.897694e+001
2013600000 1.050979e+000 -2.385038e+001 1.076529e-003 1.439711e+001 1.946374e-003 -2.850078e+000 1.123073e+000 -3.896510e+001
2013700000 1.050647e+000 -2.386867e+001 1.084476e-003 1.488255e+001 1.948630e-003 -2.644306e+000 1.122888e+000 -3.896423e+001
2013800000 1.050376e+000 -2.388499e+001 1.083995e-003 1.506092e+001 1.932947e-003 -2.667979e+000 1.122670e+000 -3.896274e+001
2013900000 1.050109e+000 -2.389869e+001 1.082341e-003 1.420332e+001 1.942852e-003 -3.834334e+000 1.122590e+000 -3.895087e+001
2014000000 1.049962e+000 -2.391369e+001 1.079150e-003 1.494822e+001 1.927341e-003 -3.264158e+000 1.122292e+000 -3.894669e+001
2014100000 1.050242e+000 -2.390070e+001 1.071550e-003 1.482091e+001 1.945249e-003 -3.527339e+000 1.122190e+000 -3.896268e+001
2014200000 1.050515e+000 -2.388767e+001 1.060589e-003 1.474880e+001 1.939035e-003 -3.352335e+000 1.122085e+000 -3.898230e+001
2014300000 1.050729e+000 -2.387918e+001 1.088787e-003 1.367322e+001 1.941431e-003 -3.260664e+000 1.121883e+000 -3.900009e+001
2014400000 1.050950e+000 -2.387063e+001 1.074634e-003 1.431223e+001 1.917542e-003 -3.460984e+000 1.121685e+000 -3.901599e+001
2014500000 1.051127e+000 -2.386247e+001 1.075696e-003 1.431624e+001 1.937397e-003 -2.861330e+000 1.121535e+000 -3.903051e+001
2014600000 1.051200e+000 -2.385771e+001 1.077438e-003 1.462029e+001 1.957478e-003 -3.222548e+000 1.121271e+000 -3.904458e+001
2014700000 1.051286e+000 -2.385009e+001 1.071587e-003 1.435748e+001 1.924108e-003 -3.577522e+000 1.121171e+000 -3.905735e+001
2014800000 1.051178e+000 -2.385394e+001 1.084061e-003 1.434721e+001 1.949708e-003 -3.630106e+000 1.120895e+000 -3.906618e+001
2014900000 1.050943e+000 -2.386590e+001 1.084952e-003 1.414936e+001 1.931679e-003 -3.053375e+000 1.120639e+000 -3.904528e+001
2015000000 1.050766e+000 -2.388003e+001 1.085531e-003 1.416544e+001 1.942320e-003 -3.871282e+000 1.120382e+000 -3.903236e+001
2015100000 1.050597e+000 -2.389862e+001 1.084014e-003 1.409968e+001 1.927997e-003 -2.784948e+000 1.120190e+000 -3.902892e+001
2015200000 1.050441e+000 -2.391136e+001 1.083529e-003 1.407919e+001 1.961750e-003 -3.756055e+000 1.120012e+000 -3.901582e+001
2015300000 1.050311e+000 -2.392367e+001 1.081314e-003 1.392374e+001 1.951295e-003 -4.263737e+000 1.119956e+000 -3.900965e+001
2015400000 1.050327e+000 -2.393678e+001 1.078300e-003 1.369668e+001 1.944984e-003 -3.305818e+000 1.119865e+000 -3.900612e+001
