!Agilent Technologies,N5230C,SG49000117,A.08.50.07
!Agilent N5230C: A.08.50.07
!Date: Tuesday, May 07, 2024 00:16:24
!Correction: S11(Full 2 Port(1,2)) 
!S21(Full 2 Port(1,2)) 
!S12(Full 2 Port(1,2)) 
!S22(Full 2 Port(1,2)) 
!S2P File: Measurements: S11, S21, S12, S22:
# Hz S  MA   R 50
2000000000 1.051780e+000 -2.400335e+001 2.008574e-003 4.009848e+001 3.623256e-003 2.132785e+001 1.124277e+000 -4.004901e+001
2000100000 1.051643e+000 -2.400783e+001 2.008066e-003 4.005093e+001 3.609519e-003 2.190260e+001 1.124506e+000 -4.003850e+001
2000200000 1.051426e+000 -2.401449e+001 2.006761e-003 4.010036e+001 3.602333e-003 2.140946e+001 1.124828e+000 -4.004008e+001
2000300000 1.051324e+000 -2.402137e+001 1.994757e-003 4.037153e+001 3.606890e-003 2.175033e+001 1.125093e+000 -4.004638e+001
2000400000 1.051161e+000 -2.402893e+001 2.003943e-003 4.016774e+001 3.623023e-003 2.149513e+001 1.125165e+000 -4.005215e+001
2000500000 1.051047e+000 -2.403651e+001 2.004442e-003 4.021629e+001 3.591578e-003 2.146350e+001 1.125379e+000 -4.005696e+001
2000600000 1.051099e+000 -2.402864e+001 2.002794e-003 4.021520e+001 3.598753e-003 2.173823e+001 1.125448e+000 -4.003981e+001
2000700000 1.051090e+000 -2.401986e+001 2.010951e-003 4.004483e+001 3.591329e-003 2.147939e+001 1.125357e+000 -4.001874e+001
2000800000 1.051109e+000 -2.400804e+001 2.007431e-003 4.019671e+001 3.588589e-003 2.154908e+001 1.125195e+000 -4.000935e+001
2000900000 1.051039e+000 -2.400217e+001 1.994517e-003 4.014025e+001 3.562066e-003 2.180401e+001 1.125195e+000 -3.999342e+001
2001000000 1.051085e+000 -2.399067e+001 1.994516e-003 4.043740e+001 3.583403e-003 2.155428e+001 1.125047e+000 -3.998640e+001
2001100000 1.051034e+000 -2.398231e+001 1.980458e-003 4.040106e+001 3.596978e-003 2.166051e+001 1.124777e+000 -3.997837e+001
2001200000 1.050990e+000 -2.397696e+001 1.991250e-003 3.980501e+001 3.545135e-003 2.182661e+001 1.124782e+000 -3.997429e+001
2001300000 1.051016e+000 -2.397905e+001 1.983686e-003 3.999664e+001 3.583228e-003 2.181790e+001 1.124689e+000 -3.998545e+001
2001400000 1.051123e+000 -2.399732e+001 1.995321e-003 4.016811e+001 3.559480e-003 2.173622e+001 1.124415e+000 -4.001704e+001
2001500000 1.051251e+000 -2.401390e+001 1.993372e-003 3.986345e+001 3.573488e-003 2.162676e+001 1.124162e+000 -4.004551e+001
2001600000 1.051388e+000 -2.402383e+001 1.993831e-003 3.994788e+001 3.575732e-003 2.170823e+001 1.124034e+000 -4.007103e+001
2001700000 1.051557e+000 -2.403472e+001 1.997239e-003 4.016055e+001 3.567599e-003 2.185747e+001 1.123775e+000 -4.009426e+001
2001800000 1.051802e+000 -2.404182e+001 1.988625e-003 4.024927e+001 3.556618e-003 2.151601e+001 1.123611e+000 -4.012097e+001
2001900000 1.052004e+000 -2.404910e+001 1.989948e-003 4.028630e+001 3.557838e-003 2.156536e+001 1.123417e+000 -4.014309e+001
2002000000 1.052208e+000 -2.405360e+001 1.987325e-003 4.001978e+001 3.555282e-003 2.178982e+001 1.123318e+000 -4.016179e+001
2002100000 1.052222e+000 -2.403954e+001 1.985344e-003 4.003015e+001 3.558823e-003 2.151104e+001 1.123463e+000 -4.013826e+001
2002200000 1.052173e+000 -2.403056e+001 1.986908e-003 4.030720e+001 3.548001e-003 2.170150e+001 1.123720e+000 -4.011243e+001
2002300000 1.052156e+000 -2.401748e+001 1.982654e-003 4.033871e+001 3.576579e-003 2.130186e+001 1.123957e+000 -4.008398e+001
2002400000 1.052065e+000 -2.400719e+001 1.988976e-003 4.020882e+001 3.501767e-003 2.148941e+001 1.124125e+000 -4.006039e+001
2002500000 1.052050e+000 -2.399865e+001 1.970386e-003 4.009420e+001 3.542755e-003 2.180978e+001 1.124165e+000 -4.003920e+001
2002600000 1.051925e+000 -2.399366e+001 1.987518e-003 4.068415e+001 3.516594e-003 2.196643e+001 1.124380e+000 -4.001701e+001
2002700000 1.051837e+000 -2.398724e+001 1.965422e-003 4.057128e+001 3.524301e-003 2.203341e+001 1.124481e+000 -3.999593e+001
2002800000 1.051717e+000 -2.398792e+001 1.963392e-003 4.033975e+001 3.534383e-003 2.206700e+001 1.124649e+000 -3.999789e+001
2002900000 1.051617e+000 -2.400076e+001 1.969963e-003 4.040658e+001 3.533273e-003 2.177845e+001 1.124618e+000 -4.001119e+001
2003000000 1.051406e+000 -2.400553e+001 1.971682e-003 4.040793e+001 3.531293e-003 2.175557e+001 1.124596e+000 -4.002855e+001
2003100000 1.051387e+000 -2.401623e+001 1.975166e-003 4.036678e+001 3.533488e-003 2.184991e+001 1.124747e+000 -4.004293e+001
2003200000 1.051304e+000 -2.402234e+001 1.966439e-003 4.041339e+001 3.530859e-003 2.193343e+001 1.124795e+000 -4.005682e+001
2003300000 1.051288e+000 -2.403024e+001 1.968072e-003 4.062890e+001 3.513010e-003 2.169572e+001 1.124894e+000 -4.007179e+001
2003400000 1.051313e+000 -2.403554e+001 1.963870e-003 4.045783e+001 3.511978e-003 2.163168e+001 1.124932e+000 -4.008650e+001
2003500000 1.051290e+000 -2.404339e+001 1.966769e-003 4.049632e+001 3.514909e-003 2.148746e+001 1.124969e+000 -4.010312e+001
2003600000 1.051334e+000 -2.404763e+001 1.961760e-003 4.035693e+001 3.502373e-003 2.203996e+001 1.125232e+000 -4.010181e+001
2003700000 1.051367e+000 -2.405363e+001 1.963473e-003 4.056365e+001 3.524312e-003 2.204412e+001 1.125460e+000 -4.009281e+001
2003800000 1.051389e+000 -2.406387e+001 1.965471e-003 4.024653e+001 3.496476e-003 2.202078e+001 1.125508e+000 -4.009007e+001
2003900000 1.051409e+000 -2.407011e+001 1.959809e-003 4.053678e+001 3.483369e-003 2.224841e+001 1.125613e+000 -4.009058e+001
2004000000 1.051390e+000 -2.407206e+001 1.952533e-003 4.025912e+001 3.489911e-003 2.173784e+001 1.125756e+000 -4.008026e+001
2004100000 1.051399e+000 -2.408169e+001 1.960185e-003 4.071186e+001 3.493830e-003 2.188922e+001 1.125679e+000 -4.007630e+001
2004200000 1.051450e+000 -2.408546e+001 1.960915e-003 4.056596e+001 3.494384e-003 2.221510e+001 1.125695e+000 -4.008050e+001
2004300000 1.051443e+000 -2.408616e+001 1.966525e-003 4.018216e+001 3.486477e-003 2.196940e+001 1.125536e+000 -4.007798e+001
2004400000 1.051575e+000 -2.408295e+001 1.950972e-003 4.039069e+001 3.496216e-003 2.189891e+001 1.125227e+000 -4.007531e+001
2004500000 1.051662e+000 -2.408415e+001 1.949856e-003 4.062078e+001 3.465619e-003 2.244390e+001 1.125086e+000 -4.007621e+001
2004600000 1.051747e+000 -2.408197e+001 1.956818e-003 4.112121e+001 3.501670e-003 2.236217e+001 1.124813e+000 -4.007352e+001
2004700000 1.051794e+000 -2.408095e+001 1.960987e-003 4.055577e+001 3.468111e-003 2.226460e+001 1.124646e+000 -4.007446e+001
2004800000 1.051894e+000 -2.408228e+001 1.950328e-003 4.074327e+001 3.483793e-003 2.242511e+001 1.124531e+000 -4.007445e+001
2004900000 1.051955e+000 -2.408274e+001 1.948273e-003 4.108247e+001 3.475341e-003 2.203029e+001 1.124389e+000 -4.007785e+001
2005000000 1.051985e+000 -2.407904e+001 1.943258e-003 4.094841e+001 3.475143e-003 2.226686e+001 1.124381e+000 -4.007506e+001
2005100000 1.051912e+000 -2.408716e+001 1.951825e-003 4.102539e+001 3.463869e-003 2.235198e+001 1.124531e+000 -4.007132e+001
2005200000 1.051947e+000 -2.409181e+001 1.947495e-003 4.093259e+001 3.469429e-003 2.259759e+001 1.124718e+000 -4.006263e+001
2005300000 1.051904e+000 -2.409843e+001 1.953746e-003 4.098389e+001 3.469611e-003 2.249843e+001 1.124883e+000 -4.005552e+001
2005400000 1.051859e+000 -2.410142e+001 1.947788e-003 4.104792e+001 3.454296e-003 2.231167e+001 1.125036e+000 -4.005046e+001
2005500000 1.051894e+000 -2.410641e+001 1.948398e-003 4.090117e+001 3.489351e-003 2.246663e+001 1.125161e+000 -4.003874e+001
2005600000 1.051896e+000 -2.411234e+001 1.947539e-003 4.094247e+001 3.478317e-003 2.274843e+001 1.125401e+000 -4.003424e+001
2005700000 1.051931e+000 -2.411070e+001 1.944230e-003 4.119785e+001 3.465861e-003 2.244966e+001 1.125588e+000 -4.002928e+001
2005800000 1.051956e+000 -2.411413e+001 1.943068e-003 4.091542e+001 3.480581e-003 2.277257e+001 1.125742e+000 -4.003423e+001
2005900000 1.051981e+000 -2.410957e+001 1.947226e-003 4.110632e+001 3.463360e-003 2.284356e+001 1.125959e+000 -4.003669e+001
2006000000 1.052042e+000 -2.411340e+001 1.945438e-003 4.103749e+001 3.467780e-003 2.264263e+001 1.125998e+000 -4.005478e+001
2006100000 1.052085e+000 -2.411361e+001 1.943563e-003 4.096752e+001 3.458553e-003 2.255598e+001 1.126164e+000 -4.006407e+001
2006200000 1.052088e+000 -2.410906e+001 1.951549e-003 4.124159e+001 3.479376e-003 2.245379e+001 1.126278e+000 -4.007444e+001
2006300000 1.052164e+000 -2.411471e+001 1.946822e-003 4.101604e+001 3.462496e-003 2.241331e+001 1.126327e+000 -4.009158e+001
2006400000 1.052171e+000 -2.411520e+001 1.943055e-003 4.126557e+001 3.461087e-003 2.280196e+001 1.126335e+000 -4.010638e+001
2006500000 1.052175e+000 -2.411792e+001 1.947977e-003 4.122531e+001 3.489352e-003 2.309668e+001 1.126329e+000 -4.011811e+001
2006600000 1.052096e+000 -2.412323e+001 1.942679e-003 4.121493e+001 3.472521e-003 2.288473e+001 1.126350e+000 -4.012696e+001
2006700000 1.052020e+000 -2.412447e+001 1.938517e-003 4.107414e+001 3.453100e-003 2.263832e+001 1.126323e+000 -4.012775e+001
2006800000 1.051934e+000 -2.413078e+001 1.939259e-003 4.136942e+001 3.456938e-003 2.276488e+001 1.126228e+000 -4.013182e+001
2006900000 1.051875e+000 -2.413376e+001 1.945977e-003 4.153080e+001 3.483056e-003 2.283473e+001 1.126282e+000 -4.013427e+001
2007000000 1.051846e+000 -2.413532e+001 1.953384e-003 4.120404e+001 3.460622e-003 2.277504e+001 1.126208e+000 -4.014019e+001
2007100000 1.051810e+000 -2.413457e+001 1.941436e-003 4.134929e+001 3.445596e-003 2.241669e+001 1.126074e+000 -4.014385e+001
2007200000 1.051832e+000 -2.414131e+001 1.934699e-003 4.144249e+001 3.470871e-003 2.260091e+001 1.125996e+000 -4.015374e+001
2007300000 1.051867e+000 -2.414474e+001 1.946929e-003 4.140032e+001 3.459844e-003 2.301160e+001 1.125938e+000 -4.014668e+001
2007400000 1.051867e+000 -2.415283e+001 1.944992e-003 4.120522e+001 3.465878e-003 2.280510e+001 1.125714e+000 -4.013937e+001
2007500000 1.051847e+000 -2.416256e+001 1.934704e-003 4.134874e+001 3.465362e-003 2.290113e+001 1.125497e+000 -4.013270e+001
2007600000 1.051891e+000 -2.416924e+001 1.933490e-003 4.135372e+001 3.460686e-003 2.297391e+001 1.125193e+000 -4.012664e+001
2007700000 1.051949e+000 -2.417368e+001 1.932154e-003 4.177643e+001 3.461228e-003 2.293992e+001 1.125139e+000 -4.012362e+001
2007800000 1.051906e+000 -2.417885e+001 1.950959e-003 4.168999e+001 3.443377e-003 2.313980e+001 1.124919e+000 -4.011618e+001
2007900000 1.051957e+000 -2.418414e+001 1.935165e-003 4.138954e+001 3.457067e-003 2.286784e+001 1.124814e+000 -4.011378e+001
2008000000 1.051946e+000 -2.418862e+001 1.928711e-003 4.133350e+001 3.445873e-003 2.286909e+001 1.124579e+000 -4.010806e+001
2008100000 1.051837e+000 -2.417566e+001 1.939228e-003 4.182445e+001 3.455116e-003 2.303622e+001 1.124435e+000 -4.010794e+001
2008200000 1.051848e+000 -2.416349e+001 1.938389e-003 4.153917e+001 3.442731e-003 2.300268e+001 1.124252e+000 -4.010871e+001
2008300000 1.051759e+000 -2.415366e+001 1.936651e-003 4.180119e+001 3.431715e-003 2.333844e+001 1.124126e+000 -4.011234e+001
2008400000 1.051733e+000 -2.414218e+001 1.941529e-003 4.136742e+001 3.443572e-003 2.326500e+001 1.124095e+000 -4.011764e+001
2008500000 1.051699e+000 -2.413168e+001 1.954512e-003 4.160971e+001 3.444305e-003 2.347558e+001 1.124034e+000 -4.012444e+001
2008600000 1.051653e+000 -2.412709e+001 1.936797e-003 4.157269e+001 3.448857e-003 2.335209e+001 1.123916e+000 -4.012297e+001
2008700000 1.051594e+000 -2.412125e+001 1.942032e-003 4.215170e+001 3.472727e-003 2.363414e+001 1.123995e+000 -4.013885e+001
2008800000 1.051618e+000 -2.412381e+001 1.948930e-003 4.170473e+001 3.453347e-003 2.326152e+001 1.124141e+000 -4.014767e+001
2008900000 1.051534e+000 -2.412874e+001 1.944496e-003 4.182646e+001 3.440701e-003 2.359060e+001 1.124439e+000 -4.016096e+001
2009000000 1.051502e+000 -2.413742e+001 1.950151e-003 4.185110e+001 3.461916e-003 2.339739e+001 1.124621e+000 -4.017001e+001
2009100000 1.051513e+000 -2.414328e+001 1.944661e-003 4.190784e+001 3.445563e-003 2.327316e+001 1.124849e+000 -4.018296e+001
2009200000 1.051535e+000 -2.414984e+001 1.939310e-003 4.190992e+001 3.464717e-003 2.360288e+001 1.125098e+000 -4.019397e+001
2009300000 1.051510e+000 -2.415636e+001 1.949905e-003 4.178695e+001 3.454376e-003 2.319253e+001 1.125238e+000 -4.020336e+001
2009400000 1.051552e+000 -2.416411e+001 1.941229e-003 4.185508e+001 3.462123e-003 2.363370e+001 1.125455e+000 -4.021206e+001
2009500000 1.051509e+000 -2.416787e+001 1.938376e-003 4.158686e+001 3.454257e-003 2.362625e+001 1.125543e+000 -4.021877e+001
2009600000 1.051689e+000 -2.416604e+001 1.946630e-003 4.221906e+001 3.467774e-003 2.393031e+001 1.125669e+000 -4.022638e+001
2009700000 1.051767e+000 -2.416542e+001 1.938201e-003 4.185652e+001 3.462901e-003 2.394680e+001 1.125609e+000 -4.023190e+001
2009800000 1.051986e+000 -2.416369e+001 1.946451e-003 4.218819e+001 3.461797e-003 2.367851e+001 1.125684e+000 -4.023325e+001
2009900000 1.051984e+000 -2.415905e+001 1.944990e-003 4.168811e+001 3.449030e-003 2.399758e+001 1.125602e+000 -4.023637e+001
2010000000 1.052087e+000 -2.415834e+001 1.951768e-003 4.194603e+001 3.455100e-003 2.361292e+001 1.125565e+000 -4.024738e+001
2010100000 1.052170e+000 -2.415541e+001 1.946253e-003 4.208342e+001 3.451880e-003 2.390028e+001 1.125604e+000 -4.025200e+001
2010200000 1.052196e+000 -2.415384e+001 1.951010e-003 4.169617e+001 3.455731e-003 2.418536e+001 1.125537e+000 -4.026037e+001
2010300000 1.052218e+000 -2.415327e+001 1.957515e-003 4.214672e+001 3.479160e-003 2.401952e+001 1.125408e+000 -4.025453e+001
2010400000 1.052236e+000 -2.414916e+001 1.951367e-003 4.207541e+001 3.468646e-003 2.346816e+001 1.125083e+000 -4.026080e+001
2010500000 1.052167e+000 -2.414747e+001 1.954949e-003 4.194357e+001 3.456302e-003 2.348526e+001 1.124789e+000 -4.025908e+001
2010600000 1.052196e+000 -2.414721e+001 1.958207e-003 4.198899e+001 3.436093e-003 2.413872e+001 1.124572e+000 -4.026480e+001
2010700000 1.052135e+000 -2.414697e+001 1.949082e-003 4.212851e+001 3.451976e-003 2.374975e+001 1.124363e+000 -4.026280e+001
2010800000 1.052199e+000 -2.414943e+001 1.949073e-003 4.216188e+001 3.470499e-003 2.381896e+001 1.124154e+000 -4.026706e+001
2010900000 1.052090e+000 -2.414982e+001 1.947653e-003 4.249427e+001 3.462501e-003 2.393637e+001 1.123951e+000 -4.027398e+001
2011000000 1.052026e+000 -2.414962e+001 1.953900e-003 4.215982e+001 3.476077e-003 2.395718e+001 1.123916e+000 -4.027933e+001
2011100000 1.051780e+000 -2.415485e+001 1.955942e-003 4.218531e+001 3.464349e-003 2.388353e+001 1.124181e+000 -4.025841e+001
2011200000 1.051481e+000 -2.415741e+001 1.946515e-003 4.248532e+001 3.474824e-003 2.348283e+001 1.124390e+000 -4.023758e+001
2011300000 1.051247e+000 -2.416142e+001 1.940941e-003 4.230088e+001 3.457483e-003 2.404271e+001 1.124470e+000 -4.022005e+001
2011400000 1.051026e+000 -2.416376e+001 1.951667e-003 4.223326e+001 3.457963e-003 2.375198e+001 1.124739e+000 -4.020797e+001
2011500000 1.050905e+000 -2.416515e+001 1.961664e-003 4.205952e+001 3.488441e-003 2.363367e+001 1.124899e+000 -4.019045e+001
2011600000 1.050717e+000 -2.416818e+001 1.964074e-003 4.206282e+001 3.484647e-003 2.427309e+001 1.125064e+000 -4.017351e+001
2011700000 1.050636e+000 -2.417096e+001 1.939257e-003 4.243501e+001 3.487679e-003 2.414771e+001 1.125230e+000 -4.016257e+001
2011800000 1.050667e+000 -2.418262e+001 1.958942e-003 4.207846e+001 3.453818e-003 2.406268e+001 1.125107e+000 -4.016062e+001
2011900000 1.050851e+000 -2.419771e+001 1.948206e-003 4.223424e+001 3.456695e-003 2.414575e+001 1.124538e+000 -4.017865e+001
2012000000 1.050979e+000 -2.420837e+001 1.970214e-003 4.225686e+001 3.478292e-003 2.415891e+001 1.124204e+000 -4.019752e+001
2012100000 1.051219e+000 -2.421715e+001 1.960453e-003 4.219816e+001 3.494139e-003 2.433017e+001 1.123848e+000 -4.021088e+001
2012200000 1.051452e+000 -2.422289e+001 1.969529e-003 4.208745e+001 3.498421e-003 2.350722e+001 1.123455e+000 -4.022876e+001
2012300000 1.051703e+000 -2.422821e+001 1.958409e-003 4.197738e+001 3.465815e-003 2.383661e+001 1.123309e+000 -4.024739e+001
2012400000 1.052001e+000 -2.423222e+001 1.961501e-003 4.209623e+001 3.491697e-003 2.404699e+001 1.123235e+000 -4.025906e+001
2012500000 1.052265e+000 -2.423004e+001 1.967282e-003 4.210634e+001 3.460054e-003 2.351142e+001 1.123186e+000 -4.027761e+001
2012600000 1.052596e+000 -2.420296e+001 1.965579e-003 4.230322e+001 3.468157e-003 2.366137e+001 1.124012e+000 -4.028046e+001
2012700000 1.052825e+000 -2.417734e+001 1.956392e-003 4.257635e+001 3.478318e-003 2.368146e+001 1.124831e+000 -4.027994e+001
2012800000 1.053095e+000 -2.415123e+001 1.966532e-003 4.218621e+001 3.474136e-003 2.408390e+001 1.125650e+000 -4.027728e+001
2012900000 1.053194e+000 -2.413493e+001 1.971458e-003 4.248094e+001 3.485890e-003 2.367198e+001 1.126397e+000 -4.027751e+001
2013000000 1.053387e+000 -2.411645e+001 1.956252e-003 4.231943e+001 3.497024e-003 2.433553e+001 1.126979e+000 -4.027020e+001
2013100000 1.053479e+000 -2.410570e+001 1.967128e-003 4.255810e+001 3.483274e-003 2.422494e+001 1.127482e+000 -4.026088e+001
2013200000 1.053517e+000 -2.409921e+001 1.969778e-003 4.200871e+001 3.474850e-003 2.408016e+001 1.127929e+000 -4.025668e+001
2013300000 1.053236e+000 -2.410470e+001 1.971666e-003 4.264401e+001 3.470347e-003 2.417292e+001 1.127979e+000 -4.023888e+001
2013400000 1.052554e+000 -2.412258e+001 1.963509e-003 4.216366e+001 3.482534e-003 2.450716e+001 1.127705e+000 -4.023167e+001
2013500000 1.052007e+000 -2.414272e+001 1.968458e-003 4.203318e+001 3.488843e-003 2.447402e+001 1.127482e+000 -4.022412e+001
2013600000 1.051593e+000 -2.416184e+001 1.968956e-003 4.224554e+001 3.470769e-003 2.446094e+001 1.127292e+000 -4.021622e+001
2013700000 1.051178e+000 -2.418013e+001 1.974300e-003 4.220101e+001 3.471999e-003 2.444643e+001 1.127062e+000 -4.021460e+001
2013800000 1.050883e+000 -2.419321e+001 1.976361e-003 4.212880e+001 3.493765e-003 2.461981e+001 1.126826e+000 -4.020237e+001
2013900000 1.050692e+000 -2.420704e+001 1.981310e-003 4.244434e+001 3.500848e-003 2.442340e+001 1.126778e+000 -4.019733e+001
2014000000 1.050498e+000 -2.422144e+001 1.979401e-003 4.235144e+001 3.519134e-003 2.428044e+001 1.126449e+000 -4.019662e+001
2014100000 1.050756e+000 -2.420935e+001 1.983038e-003 4.217497e+001 3.518974e-003 2.369578e+001 1.126354e+000 -4.020979e+001
2014200000 1.051001e+000 -2.420275e+001 1.982149e-003 4.226305e+001 3.543982e-003 2.383942e+001 1.126139e+000 -4.023129e+001
2014300000 1.051285e+000 -2.419063e+001 1.977691e-003 4.213298e+001 3.508979e-003 2.393396e+001 1.125890e+000 -4.024744e+001
2014400000 1.051381e+000 -2.418113e+001 1.974240e-003 4.214653e+001 3.491119e-003 2.401326e+001 1.125796e+000 -4.026198e+001
2014500000 1.051581e+000 -2.417456e+001 1.987605e-003 4.194896e+001 3.503364e-003 2.416307e+001 1.125620e+000 -4.027620e+001
2014600000 1.051715e+000 -2.416833e+001 1.994324e-003 4.242577e+001 3.517616e-003 2.402856e+001 1.125323e+000 -4.029538e+001
2014700000 1.051806e+000 -2.416089e+001 1.990256e-003 4.247238e+001 3.510912e-003 2.430874e+001 1.125219e+000 -4.030476e+001
2014800000 1.051715e+000 -2.416389e+001 1.988170e-003 4.220503e+001 3.505741e-003 2.438949e+001 1.124882e+000 -4.030842e+001
2014900000 1.051550e+000 -2.417899e+001 1.998769e-003 4.205124e+001 3.533536e-003 2.440885e+001 1.124603e+000 -4.030093e+001
2015000000 1.051260e+000 -2.419513e+001 1.991508e-003 4.215494e+001 3.524572e-003 2.421060e+001 1.124430e+000 -4.028553e+001
2015100000 1.051116e+000 -2.420902e+001 1.986527e-003 4.188705e+001 3.532168e-003 2.419424e+001 1.124129e+000 -4.027778e+001
2015200000 1.050983e+000 -2.422025e+001 1.995078e-003 4.213583e+001 3.521320e-003 2.398735e+001 1.123982e+000 -4.026959e+001
2015300000 1.050875e+000 -2.423280e+001 1.998747e-003 4.194342e+001 3.519016e-003 2.408615e+001 1.123911e+000 -4.026069e+001
2015400000 1.050809e+000 -2.424558e+001 1.994591e-003 4.211395e+001 3.517006e-003 2.394981e+001 1.123851e+000 -4.025002e+001
2015500000 1.050758e+000 -2.425897e+001 1.990976e-003 4.231884e+001 3.543069e-003 2.415419e+001 1.123773e+000 -4.024279e+001
