!Agilent Technologies,N5230C,SG49000117,A.08.50.07
!Agilent N5230C: A.08.50.07
!Date: Tuesday, May 07, 2024 00:14:39
!Correction: S11(Full 2 Port(1,2)) 
!S21(Full 2 Port(1,2)) 
!S12(Full 2 Port(1,2)) 
!S22(Full 2 Port(1,2)) 
!S2P File: Measurements: S11, S21, S12, S22:
# Hz S  MA   R 50
2000000000 1.051437e+000 -2.391663e+001 1.382646e-003 3.497769e+001 2.491120e-003 1.635551e+001 1.122196e+000 -3.931858e+001
2000100000 1.051236e+000 -2.391987e+001 1.371896e-003 3.496529e+001 2.475202e-003 1.603396e+001 1.122359e+000 -3.930678e+001
2000200000 1.051088e+000 -2.392780e+001 1.367672e-003 3.469791e+001 2.474084e-003 1.650875e+001 1.122643e+000 -3.931030e+001
2000300000 1.050937e+000 -2.393662e+001 1.369994e-003 3.500798e+001 2.463677e-003 1.612630e+001 1.122834e+000 -3.931121e+001
2000400000 1.050774e+000 -2.394379e+001 1.383127e-003 3.517626e+001 2.457457e-003 1.673914e+001 1.123026e+000 -3.931685e+001
2000500000 1.050690e+000 -2.395259e+001 1.359409e-003 3.516818e+001 2.458849e-003 1.629085e+001 1.123228e+000 -3.932509e+001
2000600000 1.050681e+000 -2.394333e+001 1.375129e-003 3.439845e+001 2.460735e-003 1.635704e+001 1.123249e+000 -3.930667e+001
2000700000 1.050702e+000 -2.393192e+001 1.376517e-003 3.452486e+001 2.452833e-003 1.656482e+001 1.123176e+000 -3.929393e+001
2000800000 1.050707e+000 -2.392234e+001 1.370259e-003 3.505233e+001 2.462549e-003 1.672624e+001 1.123063e+000 -3.927615e+001
2000900000 1.050617e+000 -2.391522e+001 1.364309e-003 3.494773e+001 2.469157e-003 1.593176e+001 1.122951e+000 -3.925977e+001
2001000000 1.050675e+000 -2.390526e+001 1.366520e-003 3.486546e+001 2.482977e-003 1.664856e+001 1.122909e+000 -3.924960e+001
2001100000 1.050658e+000 -2.389679e+001 1.365216e-003 3.445391e+001 2.474639e-003 1.605472e+001 1.122703e+000 -3.924402e+001
2001200000 1.050594e+000 -2.389045e+001 1.358186e-003 3.429260e+001 2.466099e-003 1.609578e+001 1.122618e+000 -3.924051e+001
2001300000 1.050587e+000 -2.389552e+001 1.359864e-003 3.493785e+001 2.459954e-003 1.594439e+001 1.122490e+000 -3.925097e+001
2001400000 1.050730e+000 -2.391074e+001 1.360056e-003 3.452457e+001 2.438309e-003 1.587380e+001 1.122221e+000 -3.927980e+001
2001500000 1.050866e+000 -2.392570e+001 1.364278e-003 3.506464e+001 2.461845e-003 1.643176e+001 1.122002e+000 -3.930635e+001
2001600000 1.051033e+000 -2.393860e+001 1.354517e-003 3.446549e+001 2.440156e-003 1.564692e+001 1.121816e+000 -3.933457e+001
2001700000 1.051229e+000 -2.394928e+001 1.358065e-003 3.437884e+001 2.430389e-003 1.621199e+001 1.121585e+000 -3.936198e+001
2001800000 1.051377e+000 -2.395699e+001 1.359205e-003 3.465551e+001 2.428087e-003 1.615904e+001 1.121473e+000 -3.938456e+001
2001900000 1.051568e+000 -2.396208e+001 1.352717e-003 3.423650e+001 2.432713e-003 1.575499e+001 1.121269e+000 -3.940221e+001
2002000000 1.051795e+000 -2.396712e+001 1.367226e-003 3.443084e+001 2.442713e-003 1.636124e+001 1.121173e+000 -3.942437e+001
2002100000 1.051849e+000 -2.395228e+001 1.360636e-003 3.445327e+001 2.441274e-003 1.596554e+001 1.121387e+000 -3.939860e+001
2002200000 1.051745e+000 -2.394207e+001 1.351793e-003 3.457193e+001 2.441647e-003 1.584338e+001 1.121581e+000 -3.937666e+001
2002300000 1.051754e+000 -2.393136e+001 1.357773e-003 3.462739e+001 2.436076e-003 1.581601e+001 1.121746e+000 -3.934772e+001
2002400000 1.051737e+000 -2.392012e+001 1.366381e-003 3.475761e+001 2.449551e-003 1.593612e+001 1.121954e+000 -3.932391e+001
2002500000 1.051638e+000 -2.391317e+001 1.363354e-003 3.489722e+001 2.429906e-003 1.569373e+001 1.122085e+000 -3.930111e+001
2002600000 1.051556e+000 -2.390486e+001 1.359261e-003 3.439737e+001 2.437161e-003 1.588872e+001 1.122191e+000 -3.927961e+001
2002700000 1.051505e+000 -2.390037e+001 1.351745e-003 3.425319e+001 2.433931e-003 1.529272e+001 1.122326e+000 -3.926049e+001
2002800000 1.051324e+000 -2.390026e+001 1.346570e-003 3.440195e+001 2.425740e-003 1.543968e+001 1.122441e+000 -3.925183e+001
2002900000 1.051223e+000 -2.390956e+001 1.352078e-003 3.469522e+001 2.418782e-003 1.561028e+001 1.122483e+000 -3.927010e+001
2003000000 1.051103e+000 -2.391970e+001 1.349043e-003 3.440655e+001 2.417931e-003 1.565355e+001 1.122537e+000 -3.928567e+001
2003100000 1.050985e+000 -2.392784e+001 1.343510e-003 3.422209e+001 2.403324e-003 1.598123e+001 1.122599e+000 -3.930257e+001
2003200000 1.050954e+000 -2.393649e+001 1.347076e-003 3.443954e+001 2.417773e-003 1.601281e+001 1.122632e+000 -3.931488e+001
2003300000 1.050888e+000 -2.394399e+001 1.344143e-003 3.418065e+001 2.421392e-003 1.600500e+001 1.122725e+000 -3.933478e+001
2003400000 1.050913e+000 -2.394563e+001 1.336747e-003 3.403851e+001 2.418326e-003 1.581301e+001 1.122799e+000 -3.934730e+001
2003500000 1.050897e+000 -2.395268e+001 1.341593e-003 3.432448e+001 2.430767e-003 1.546363e+001 1.122887e+000 -3.936636e+001
2003600000 1.050922e+000 -2.395851e+001 1.343377e-003 3.469963e+001 2.418066e-003 1.541667e+001 1.123072e+000 -3.936196e+001
2003700000 1.050963e+000 -2.396890e+001 1.334350e-003 3.402237e+001 2.413270e-003 1.518982e+001 1.123217e+000 -3.935256e+001
2003800000 1.051000e+000 -2.397595e+001 1.335531e-003 3.389530e+001 2.411419e-003 1.564201e+001 1.123373e+000 -3.934573e+001
2003900000 1.051025e+000 -2.397936e+001 1.336295e-003 3.407388e+001 2.382888e-003 1.553947e+001 1.123524e+000 -3.934560e+001
2004000000 1.051033e+000 -2.398764e+001 1.349137e-003 3.419955e+001 2.391584e-003 1.513018e+001 1.123574e+000 -3.933915e+001
2004100000 1.051027e+000 -2.399347e+001 1.336200e-003 3.443234e+001 2.382867e-003 1.591989e+001 1.123629e+000 -3.933757e+001
2004200000 1.051023e+000 -2.399704e+001 1.333856e-003 3.444167e+001 2.382003e-003 1.588488e+001 1.123499e+000 -3.933825e+001
2004300000 1.051110e+000 -2.399969e+001 1.334611e-003 3.464315e+001 2.390932e-003 1.571627e+001 1.123540e+000 -3.933789e+001
2004400000 1.051191e+000 -2.399557e+001 1.343639e-003 3.417857e+001 2.389896e-003 1.566619e+001 1.123216e+000 -3.933531e+001
2004500000 1.051260e+000 -2.399446e+001 1.339963e-003 3.441636e+001 2.388075e-003 1.594385e+001 1.122888e+000 -3.933426e+001
2004600000 1.051342e+000 -2.399534e+001 1.336351e-003 3.469817e+001 2.377713e-003 1.564537e+001 1.122721e+000 -3.933191e+001
2004700000 1.051420e+000 -2.399395e+001 1.336229e-003 3.400917e+001 2.373695e-003 1.632355e+001 1.122604e+000 -3.933313e+001
2004800000 1.051487e+000 -2.399522e+001 1.328235e-003 3.451644e+001 2.393616e-003 1.601244e+001 1.122389e+000 -3.933292e+001
2004900000 1.051565e+000 -2.399428e+001 1.335075e-003 3.417508e+001 2.374840e-003 1.576088e+001 1.122325e+000 -3.933744e+001
2005000000 1.051634e+000 -2.399800e+001 1.334214e-003 3.421041e+001 2.393779e-003 1.530440e+001 1.122256e+000 -3.933638e+001
2005100000 1.051541e+000 -2.400036e+001 1.329734e-003 3.422992e+001 2.392693e-003 1.561367e+001 1.122445e+000 -3.932673e+001
2005200000 1.051549e+000 -2.400516e+001 1.337788e-003 3.434115e+001 2.390301e-003 1.557840e+001 1.122590e+000 -3.931963e+001
2005300000 1.051521e+000 -2.400989e+001 1.335278e-003 3.473026e+001 2.372147e-003 1.489226e+001 1.122720e+000 -3.930804e+001
2005400000 1.051550e+000 -2.401474e+001 1.324494e-003 3.397650e+001 2.395989e-003 1.558762e+001 1.122990e+000 -3.930344e+001
2005500000 1.051500e+000 -2.401709e+001 1.334609e-003 3.404967e+001 2.362933e-003 1.551403e+001 1.123152e+000 -3.929732e+001
2005600000 1.051467e+000 -2.402263e+001 1.328825e-003 3.417761e+001 2.373136e-003 1.575619e+001 1.123252e+000 -3.929123e+001
2005700000 1.051479e+000 -2.402562e+001 1.335656e-003 3.451133e+001 2.389040e-003 1.582965e+001 1.123348e+000 -3.928555e+001
2005800000 1.051547e+000 -2.402607e+001 1.326281e-003 3.407894e+001 2.381056e-003 1.572206e+001 1.123619e+000 -3.928955e+001
2005900000 1.051579e+000 -2.402218e+001 1.333548e-003 3.403678e+001 2.385807e-003 1.622628e+001 1.123785e+000 -3.929636e+001
2006000000 1.051662e+000 -2.402497e+001 1.335707e-003 3.423462e+001 2.361681e-003 1.596784e+001 1.123986e+000 -3.930742e+001
2006100000 1.051684e+000 -2.402495e+001 1.338250e-003 3.436600e+001 2.354950e-003 1.556007e+001 1.123996e+000 -3.931749e+001
2006200000 1.051756e+000 -2.402608e+001 1.331242e-003 3.424931e+001 2.386199e-003 1.634737e+001 1.124198e+000 -3.933104e+001
2006300000 1.051708e+000 -2.402819e+001 1.320642e-003 3.435871e+001 2.361311e-003 1.606795e+001 1.124185e+000 -3.934644e+001
2006400000 1.051724e+000 -2.402928e+001 1.325540e-003 3.416562e+001 2.390713e-003 1.596000e+001 1.124224e+000 -3.935896e+001
2006500000 1.051748e+000 -2.403058e+001 1.322527e-003 3.437423e+001 2.390293e-003 1.544765e+001 1.124287e+000 -3.936978e+001
2006600000 1.051683e+000 -2.403232e+001 1.330534e-003 3.445316e+001 2.376961e-003 1.562461e+001 1.124285e+000 -3.938020e+001
2006700000 1.051597e+000 -2.403915e+001 1.332525e-003 3.425562e+001 2.382255e-003 1.553992e+001 1.124248e+000 -3.938026e+001
2006800000 1.051533e+000 -2.403918e+001 1.316951e-003 3.462828e+001 2.365004e-003 1.563202e+001 1.124167e+000 -3.938555e+001
2006900000 1.051456e+000 -2.404445e+001 1.326722e-003 3.477605e+001 2.368817e-003 1.574298e+001 1.124162e+000 -3.938301e+001
2007000000 1.051527e+000 -2.404753e+001 1.326291e-003 3.419913e+001 2.374503e-003 1.636500e+001 1.124089e+000 -3.939156e+001
2007100000 1.051449e+000 -2.404828e+001 1.323490e-003 3.448496e+001 2.357097e-003 1.631558e+001 1.124041e+000 -3.939791e+001
2007200000 1.051442e+000 -2.405218e+001 1.316238e-003 3.417078e+001 2.373878e-003 1.625254e+001 1.123943e+000 -3.940321e+001
2007300000 1.051454e+000 -2.405303e+001 1.329141e-003 3.416984e+001 2.379986e-003 1.645225e+001 1.123786e+000 -3.939972e+001
2007400000 1.051506e+000 -2.406320e+001 1.318010e-003 3.437234e+001 2.382873e-003 1.588752e+001 1.123560e+000 -3.939103e+001
2007500000 1.051528e+000 -2.407405e+001 1.319955e-003 3.466246e+001 2.383825e-003 1.601080e+001 1.123450e+000 -3.938087e+001
2007600000 1.051558e+000 -2.408204e+001 1.324470e-003 3.453363e+001 2.346077e-003 1.590619e+001 1.123216e+000 -3.937427e+001
2007700000 1.051499e+000 -2.408679e+001 1.320401e-003 3.421914e+001 2.353441e-003 1.559834e+001 1.123021e+000 -3.937344e+001
2007800000 1.051565e+000 -2.409466e+001 1.329265e-003 3.403674e+001 2.367940e-003 1.627887e+001 1.122792e+000 -3.936814e+001
2007900000 1.051526e+000 -2.409596e+001 1.316591e-003 3.425356e+001 2.354720e-003 1.593378e+001 1.122670e+000 -3.935865e+001
2008000000 1.051509e+000 -2.410079e+001 1.324157e-003 3.413166e+001 2.360672e-003 1.665269e+001 1.122512e+000 -3.936019e+001
2008100000 1.051458e+000 -2.408768e+001 1.324137e-003 3.434969e+001 2.353552e-003 1.564718e+001 1.122357e+000 -3.935904e+001
2008200000 1.051450e+000 -2.408020e+001 1.322217e-003 3.472189e+001 2.339516e-003 1.644220e+001 1.122207e+000 -3.936195e+001
2008300000 1.051393e+000 -2.406607e+001 1.333978e-003 3.446189e+001 2.387142e-003 1.584552e+001 1.122131e+000 -3.936301e+001
2008400000 1.051339e+000 -2.405674e+001 1.318457e-003 3.422190e+001 2.367921e-003 1.663942e+001 1.121962e+000 -3.936601e+001
2008500000 1.051286e+000 -2.404795e+001 1.327520e-003 3.433644e+001 2.351237e-003 1.594917e+001 1.121895e+000 -3.937418e+001
2008600000 1.051238e+000 -2.403978e+001 1.320826e-003 3.426122e+001 2.354504e-003 1.619001e+001 1.121901e+000 -3.938194e+001
2008700000 1.051246e+000 -2.403439e+001 1.327636e-003 3.432011e+001 2.356768e-003 1.595864e+001 1.121968e+000 -3.938482e+001
2008800000 1.051239e+000 -2.403309e+001 1.331925e-003 3.456646e+001 2.351484e-003 1.586197e+001 1.122088e+000 -3.939475e+001
2008900000 1.051146e+000 -2.404320e+001 1.323870e-003 3.450376e+001 2.355489e-003 1.644884e+001 1.122310e+000 -3.940359e+001
2009000000 1.051149e+000 -2.404877e+001 1.322623e-003 3.480222e+001 2.359953e-003 1.659918e+001 1.122538e+000 -3.942309e+001
2009100000 1.051142e+000 -2.405817e+001 1.327849e-003 3.441264e+001 2.348813e-003 1.631485e+001 1.122878e+000 -3.943122e+001
2009200000 1.051122e+000 -2.406470e+001 1.316970e-003 3.477528e+001 2.355324e-003 1.612878e+001 1.122989e+000 -3.944268e+001
2009300000 1.051123e+000 -2.406772e+001 1.320726e-003 3.431219e+001 2.359900e-003 1.695422e+001 1.123234e+000 -3.945112e+001
2009400000 1.051164e+000 -2.407679e+001 1.310873e-003 3.485118e+001 2.378567e-003 1.614548e+001 1.123410e+000 -3.946014e+001
2009500000 1.051150e+000 -2.408358e+001 1.326789e-003 3.505114e+001 2.362159e-003 1.610496e+001 1.123514e+000 -3.946870e+001
2009600000 1.051300e+000 -2.408079e+001 1.328920e-003 3.410314e+001 2.359807e-003 1.619378e+001 1.123513e+000 -3.947406e+001
2009700000 1.051416e+000 -2.408027e+001 1.325617e-003 3.483780e+001 2.361097e-003 1.597555e+001 1.123615e+000 -3.948120e+001
2009800000 1.051528e+000 -2.407728e+001 1.323531e-003 3.427777e+001 2.359086e-003 1.618349e+001 1.123653e+000 -3.948714e+001
2009900000 1.051660e+000 -2.407230e+001 1.328950e-003 3.458101e+001 2.357959e-003 1.616292e+001 1.123666e+000 -3.948752e+001
2010000000 1.051751e+000 -2.407090e+001 1.318609e-003 3.476698e+001 2.359918e-003 1.631607e+001 1.123584e+000 -3.949134e+001
2010100000 1.051812e+000 -2.407092e+001 1.327059e-003 3.465616e+001 2.347066e-003 1.633000e+001 1.123548e+000 -3.949398e+001
2010200000 1.051760e+000 -2.406997e+001 1.325766e-003 3.465042e+001 2.361119e-003 1.641832e+001 1.123484e+000 -3.950363e+001
2010300000 1.051793e+000 -2.406262e+001 1.320919e-003 3.486192e+001 2.346703e-003 1.585000e+001 1.123315e+000 -3.950527e+001
2010400000 1.051837e+000 -2.406346e+001 1.325686e-003 3.460026e+001 2.373606e-003 1.606998e+001 1.122985e+000 -3.950970e+001
2010500000 1.051785e+000 -2.406304e+001 1.334007e-003 3.416893e+001 2.362829e-003 1.667565e+001 1.122754e+000 -3.950675e+001
2010600000 1.051813e+000 -2.406049e+001 1.339661e-003 3.503269e+001 2.371560e-003 1.621401e+001 1.122616e+000 -3.951102e+001
2010700000 1.051771e+000 -2.405893e+001 1.331482e-003 3.441001e+001 2.356213e-003 1.606862e+001 1.122281e+000 -3.951256e+001
2010800000 1.051723e+000 -2.406042e+001 1.333834e-003 3.472273e+001 2.366864e-003 1.615421e+001 1.122142e+000 -3.951324e+001
2010900000 1.051752e+000 -2.406233e+001 1.328205e-003 3.445779e+001 2.385300e-003 1.636446e+001 1.121985e+000 -3.951562e+001
2011000000 1.051678e+000 -2.406482e+001 1.330736e-003 3.437479e+001 2.343602e-003 1.661102e+001 1.121849e+000 -3.952316e+001
2011100000 1.051367e+000 -2.406398e+001 1.328749e-003 3.437642e+001 2.358764e-003 1.639610e+001 1.122065e+000 -3.950500e+001
2011200000 1.051080e+000 -2.406965e+001 1.329661e-003 3.452375e+001 2.348020e-003 1.636413e+001 1.122334e+000 -3.948287e+001
2011300000 1.050872e+000 -2.407009e+001 1.329738e-003 3.453894e+001 2.362792e-003 1.663844e+001 1.122558e+000 -3.946654e+001
2011400000 1.050639e+000 -2.407492e+001 1.331389e-003 3.494737e+001 2.352451e-003 1.652936e+001 1.122700e+000 -3.944620e+001
2011500000 1.050446e+000 -2.407873e+001 1.340864e-003 3.454780e+001 2.369773e-003 1.632388e+001 1.122799e+000 -3.943355e+001
2011600000 1.050328e+000 -2.408157e+001 1.330761e-003 3.487234e+001 2.352317e-003 1.662359e+001 1.123042e+000 -3.941925e+001
2011700000 1.050249e+000 -2.408519e+001 1.327189e-003 3.435670e+001 2.382100e-003 1.621123e+001 1.123182e+000 -3.940309e+001
2011800000 1.050284e+000 -2.409215e+001 1.332189e-003 3.453826e+001 2.374554e-003 1.638356e+001 1.123081e+000 -3.940474e+001
2011900000 1.050431e+000 -2.410434e+001 1.334445e-003 3.449359e+001 2.382278e-003 1.642084e+001 1.122658e+000 -3.942110e+001
2012000000 1.050561e+000 -2.412150e+001 1.335897e-003 3.446153e+001 2.373887e-003 1.636497e+001 1.122136e+000 -3.943499e+001
2012100000 1.050814e+000 -2.413052e+001 1.333186e-003 3.455339e+001 2.365645e-003 1.649458e+001 1.121839e+000 -3.945167e+001
2012200000 1.051048e+000 -2.413766e+001 1.342169e-003 3.438728e+001 2.364892e-003 1.661255e+001 1.121589e+000 -3.946746e+001
2012300000 1.051283e+000 -2.414328e+001 1.333532e-003 3.418615e+001 2.380101e-003 1.679074e+001 1.121336e+000 -3.948840e+001
2012400000 1.051623e+000 -2.414326e+001 1.336707e-003 3.455379e+001 2.382018e-003 1.640428e+001 1.121242e+000 -3.950429e+001
2012500000 1.051883e+000 -2.414194e+001 1.343386e-003 3.450090e+001 2.383300e-003 1.656338e+001 1.121139e+000 -3.952573e+001
2012600000 1.052119e+000 -2.411458e+001 1.333843e-003 3.436755e+001 2.402071e-003 1.658390e+001 1.122051e+000 -3.952677e+001
2012700000 1.052482e+000 -2.408709e+001 1.331824e-003 3.438908e+001 2.381172e-003 1.640417e+001 1.122938e+000 -3.952235e+001
2012800000 1.052648e+000 -2.406792e+001 1.337875e-003 3.436575e+001 2.395838e-003 1.597553e+001 1.123742e+000 -3.952082e+001
2012900000 1.052831e+000 -2.404918e+001 1.353861e-003 3.484660e+001 2.393001e-003 1.613363e+001 1.124409e+000 -3.951379e+001
2013000000 1.052983e+000 -2.403163e+001 1.346525e-003 3.430086e+001 2.397957e-003 1.642749e+001 1.124922e+000 -3.951159e+001
2013100000 1.053033e+000 -2.402042e+001 1.352008e-003 3.450943e+001 2.366469e-003 1.655737e+001 1.125463e+000 -3.949998e+001
2013200000 1.053149e+000 -2.401034e+001 1.348197e-003 3.429402e+001 2.395413e-003 1.634906e+001 1.125965e+000 -3.948998e+001
2013300000 1.052861e+000 -2.401792e+001 1.341893e-003 3.425695e+001 2.402980e-003 1.591070e+001 1.126086e+000 -3.947937e+001
2013400000 1.052156e+000 -2.403870e+001 1.343611e-003 3.454806e+001 2.408947e-003 1.611098e+001 1.125804e+000 -3.947027e+001
2013500000 1.051608e+000 -2.405536e+001 1.345258e-003 3.459674e+001 2.402161e-003 1.638296e+001 1.125564e+000 -3.946530e+001
2013600000 1.051116e+000 -2.407317e+001 1.354632e-003 3.393187e+001 2.401344e-003 1.595828e+001 1.125303e+000 -3.945515e+001
2013700000 1.050746e+000 -2.409159e+001 1.352827e-003 3.468884e+001 2.409233e-003 1.657990e+001 1.125062e+000 -3.944830e+001
2013800000 1.050462e+000 -2.410685e+001 1.357847e-003 3.440270e+001 2.403606e-003 1.602417e+001 1.124951e+000 -3.944649e+001
2013900000 1.050254e+000 -2.412336e+001 1.349514e-003 3.443096e+001 2.405677e-003 1.633626e+001 1.124808e+000 -3.943599e+001
2014000000 1.050077e+000 -2.413866e+001 1.362191e-003 3.427845e+001 2.390123e-003 1.617362e+001 1.124627e+000 -3.943406e+001
2014100000 1.050358e+000 -2.412513e+001 1.356744e-003 3.450608e+001 2.406495e-003 1.602588e+001 1.124436e+000 -3.944998e+001
2014200000 1.050550e+000 -2.411287e+001 1.349905e-003 3.411190e+001 2.424797e-003 1.603879e+001 1.124265e+000 -3.946717e+001
2014300000 1.050876e+000 -2.410255e+001 1.352005e-003 3.421534e+001 2.418753e-003 1.622297e+001 1.123994e+000 -3.948885e+001
2014400000 1.051022e+000 -2.409457e+001 1.348540e-003 3.419953e+001 2.407498e-003 1.622256e+001 1.123910e+000 -3.950208e+001
2014500000 1.051206e+000 -2.408699e+001 1.370038e-003 3.437228e+001 2.413568e-003 1.618222e+001 1.123722e+000 -3.952162e+001
2014600000 1.051303e+000 -2.408079e+001 1.360004e-003 3.403556e+001 2.424505e-003 1.534347e+001 1.123522e+000 -3.953338e+001
2014700000 1.051380e+000 -2.407505e+001 1.358082e-003 3.395416e+001 2.418068e-003 1.533304e+001 1.123285e+000 -3.954323e+001
2014800000 1.051312e+000 -2.408029e+001 1.367475e-003 3.403028e+001 2.408567e-003 1.601719e+001 1.123035e+000 -3.954810e+001
2014900000 1.051059e+000 -2.409171e+001 1.374011e-003 3.397665e+001 2.417245e-003 1.570945e+001 1.122692e+000 -3.953500e+001
2015000000 1.050823e+000 -2.410755e+001 1.369643e-003 3.430553e+001 2.408082e-003 1.586913e+001 1.122485e+000 -3.952454e+001
2015100000 1.050707e+000 -2.412041e+001 1.365780e-003 3.401963e+001 2.410099e-003 1.618753e+001 1.122337e+000 -3.951647e+001
2015200000 1.050523e+000 -2.412940e+001 1.363873e-003 3.372537e+001 2.419396e-003 1.539907e+001 1.122166e+000 -3.950327e+001
2015300000 1.050470e+000 -2.414781e+001 1.365591e-003 3.370106e+001 2.407894e-003 1.615274e+001 1.122008e+000 -3.949876e+001
2015400000 1.050417e+000 -2.415786e+001 1.378921e-003 3.413041e+001 2.432171e-003 1.575961e+001 1.121966e+000 -3.949283e+001
2015500000 1.050365e+000 -2.417237e+001 1.356985e-003 3.357932e+001 2.436766e-003 1.582137e+001 1.121944e+000 -3.948512e+001
