!Agilent Technologies,N5230C,SG49000117,A.08.50.07
!Agilent N5230C: A.08.50.07
!Date: Tuesday, May 07, 2024 00:11:11
!Correction: S11(Full 2 Port(1,2)) 
!S21(Full 2 Port(1,2)) 
!S12(Full 2 Port(1,2)) 
!S22(Full 2 Port(1,2)) 
!S2P File: Measurements: S11, S21, S12, S22:
# Hz S  MA   R 50
2000000000 1.051844e+000 -2.352791e+001 7.814274e-004 1.200768e+001 1.413712e-003 -5.403794e+000 1.123982e+000 -3.943137e+001
2000100000 1.051700e+000 -2.353235e+001 7.947060e-004 1.265737e+001 1.439809e-003 -5.937547e+000 1.124274e+000 -3.942565e+001
2000200000 1.051506e+000 -2.354077e+001 7.689079e-004 1.228422e+001 1.438509e-003 -5.372487e+000 1.124488e+000 -3.942579e+001
2000300000 1.051366e+000 -2.354774e+001 7.790382e-004 1.278870e+001 1.425941e-003 -6.435859e+000 1.124727e+000 -3.943011e+001
2000400000 1.051208e+000 -2.355579e+001 7.786609e-004 1.231106e+001 1.412755e-003 -6.863260e+000 1.124888e+000 -3.943619e+001
2000500000 1.051084e+000 -2.356493e+001 7.797031e-004 1.237349e+001 1.404822e-003 -6.767428e+000 1.125103e+000 -3.944062e+001
2000600000 1.051139e+000 -2.355663e+001 7.961832e-004 1.235636e+001 1.425073e-003 -6.677525e+000 1.124995e+000 -3.941965e+001
2000700000 1.051171e+000 -2.354819e+001 7.733717e-004 1.170096e+001 1.420252e-003 -6.738292e+000 1.124972e+000 -3.940441e+001
2000800000 1.051158e+000 -2.353634e+001 7.902898e-004 1.137776e+001 1.390801e-003 -7.512419e+000 1.124853e+000 -3.938525e+001
2000900000 1.051157e+000 -2.352975e+001 7.768634e-004 1.247287e+001 1.408422e-003 -7.139319e+000 1.124779e+000 -3.937298e+001
2001000000 1.051115e+000 -2.351872e+001 7.804108e-004 1.112915e+001 1.402476e-003 -7.548996e+000 1.124677e+000 -3.936467e+001
2001100000 1.051122e+000 -2.351151e+001 7.764070e-004 1.090192e+001 1.418124e-003 -7.597244e+000 1.124514e+000 -3.935446e+001
2001200000 1.050992e+000 -2.350270e+001 7.826354e-004 1.032828e+001 1.373420e-003 -7.961317e+000 1.124422e+000 -3.935156e+001
2001300000 1.051023e+000 -2.350795e+001 7.799817e-004 9.808170e+000 1.396212e-003 -8.814280e+000 1.124273e+000 -3.936301e+001
2001400000 1.051143e+000 -2.352305e+001 7.737264e-004 1.062438e+001 1.396973e-003 -8.399078e+000 1.124025e+000 -3.939458e+001
2001500000 1.051271e+000 -2.353587e+001 7.672000e-004 1.029544e+001 1.402889e-003 -8.468650e+000 1.123781e+000 -3.942202e+001
2001600000 1.051462e+000 -2.355288e+001 7.794291e-004 1.050029e+001 1.389144e-003 -8.183099e+000 1.123580e+000 -3.944765e+001
2001700000 1.051721e+000 -2.355838e+001 7.758168e-004 9.629005e+000 1.391683e-003 -9.413524e+000 1.123378e+000 -3.947405e+001
2001800000 1.051881e+000 -2.356973e+001 7.817884e-004 9.768143e+000 1.390638e-003 -8.348601e+000 1.123206e+000 -3.949146e+001
2001900000 1.051990e+000 -2.356945e+001 7.653150e-004 9.717293e+000 1.388116e-003 -9.210131e+000 1.123023e+000 -3.951812e+001
2002000000 1.052231e+000 -2.357895e+001 7.693204e-004 9.276454e+000 1.370629e-003 -9.090353e+000 1.122968e+000 -3.953894e+001
2002100000 1.052253e+000 -2.356548e+001 7.819989e-004 8.990379e+000 1.390263e-003 -1.009194e+001 1.123207e+000 -3.950995e+001
2002200000 1.052205e+000 -2.355577e+001 7.773113e-004 9.684907e+000 1.383563e-003 -9.296021e+000 1.123293e+000 -3.948508e+001
2002300000 1.052140e+000 -2.354472e+001 7.724100e-004 8.566998e+000 1.406501e-003 -9.148224e+000 1.123526e+000 -3.945864e+001
2002400000 1.052076e+000 -2.353216e+001 7.743026e-004 8.748008e+000 1.385306e-003 -9.765877e+000 1.123661e+000 -3.942756e+001
2002500000 1.052038e+000 -2.352493e+001 7.782708e-004 7.626364e+000 1.399225e-003 -1.001169e+001 1.123797e+000 -3.941103e+001
2002600000 1.051973e+000 -2.351805e+001 7.686577e-004 7.638308e+000 1.379989e-003 -1.062222e+001 1.123968e+000 -3.938528e+001
2002700000 1.051873e+000 -2.351258e+001 7.641160e-004 8.083570e+000 1.395221e-003 -1.029846e+001 1.123982e+000 -3.936696e+001
2002800000 1.051690e+000 -2.351479e+001 7.607901e-004 7.416791e+000 1.401206e-003 -1.033004e+001 1.124083e+000 -3.936018e+001
2002900000 1.051577e+000 -2.352079e+001 7.703740e-004 6.893655e+000 1.387632e-003 -1.064188e+001 1.124129e+000 -3.937732e+001
2003000000 1.051449e+000 -2.353106e+001 7.754000e-004 6.535953e+000 1.366618e-003 -1.044569e+001 1.124254e+000 -3.939036e+001
2003100000 1.051437e+000 -2.353869e+001 7.735025e-004 6.977820e+000 1.393444e-003 -1.092232e+001 1.124248e+000 -3.941252e+001
2003200000 1.051338e+000 -2.354198e+001 7.663567e-004 6.768807e+000 1.363397e-003 -9.938732e+000 1.124405e+000 -3.941958e+001
2003300000 1.051243e+000 -2.355319e+001 7.594315e-004 6.380200e+000 1.386292e-003 -1.053559e+001 1.124457e+000 -3.943949e+001
2003400000 1.051278e+000 -2.355782e+001 7.607131e-004 6.194640e+000 1.375835e-003 -1.140887e+001 1.124551e+000 -3.945459e+001
2003500000 1.051330e+000 -2.356229e+001 7.502119e-004 7.289386e+000 1.378622e-003 -1.126623e+001 1.124545e+000 -3.946867e+001
2003600000 1.051309e+000 -2.357125e+001 7.588208e-004 5.923123e+000 1.374763e-003 -1.209953e+001 1.124705e+000 -3.946150e+001
2003700000 1.051387e+000 -2.357517e+001 7.632776e-004 6.179163e+000 1.385436e-003 -1.241047e+001 1.124957e+000 -3.945713e+001
2003800000 1.051458e+000 -2.358241e+001 7.611733e-004 5.712071e+000 1.364677e-003 -1.207032e+001 1.125090e+000 -3.945344e+001
2003900000 1.051399e+000 -2.358687e+001 7.515090e-004 5.642447e+000 1.386080e-003 -1.210461e+001 1.125169e+000 -3.944802e+001
2004000000 1.051488e+000 -2.359661e+001 7.574621e-004 4.920870e+000 1.345140e-003 -1.275950e+001 1.125204e+000 -3.944371e+001
2004100000 1.051423e+000 -2.360441e+001 7.592040e-004 5.059613e+000 1.345854e-003 -1.342731e+001 1.125261e+000 -3.943787e+001
2004200000 1.051462e+000 -2.360856e+001 7.524342e-004 5.459695e+000 1.364686e-003 -1.305270e+001 1.125242e+000 -3.943895e+001
2004300000 1.051463e+000 -2.361188e+001 7.492158e-004 4.123105e+000 1.343259e-003 -1.288939e+001 1.125156e+000 -3.943935e+001
2004400000 1.051582e+000 -2.360578e+001 7.557997e-004 5.156509e+000 1.348676e-003 -1.292233e+001 1.124843e+000 -3.943687e+001
2004500000 1.051661e+000 -2.360350e+001 7.621594e-004 3.628701e+000 1.348003e-003 -1.398023e+001 1.124606e+000 -3.943281e+001
2004600000 1.051731e+000 -2.360504e+001 7.542309e-004 4.734642e+000 1.357832e-003 -1.380965e+001 1.124355e+000 -3.943031e+001
2004700000 1.051827e+000 -2.360445e+001 7.390120e-004 4.897941e+000 1.348982e-003 -1.316112e+001 1.124232e+000 -3.943375e+001
2004800000 1.051960e+000 -2.359973e+001 7.574341e-004 4.290308e+000 1.348998e-003 -1.331452e+001 1.124083e+000 -3.943068e+001
2004900000 1.051937e+000 -2.360234e+001 7.507376e-004 4.429204e+000 1.344644e-003 -1.493087e+001 1.123956e+000 -3.943103e+001
2005000000 1.052032e+000 -2.360209e+001 7.561985e-004 4.743488e+000 1.350928e-003 -1.469868e+001 1.123913e+000 -3.943750e+001
2005100000 1.052030e+000 -2.360712e+001 7.608817e-004 4.473194e+000 1.339250e-003 -1.462634e+001 1.124080e+000 -3.942737e+001
2005200000 1.051962e+000 -2.361421e+001 7.456435e-004 4.067602e+000 1.351841e-003 -1.443403e+001 1.124259e+000 -3.941540e+001
2005300000 1.051845e+000 -2.361705e+001 7.437381e-004 3.689552e+000 1.329601e-003 -1.487257e+001 1.124516e+000 -3.940791e+001
2005400000 1.051871e+000 -2.362543e+001 7.459463e-004 2.568934e+000 1.323554e-003 -1.488743e+001 1.124629e+000 -3.939953e+001
2005500000 1.051882e+000 -2.362741e+001 7.457160e-004 3.554890e+000 1.314085e-003 -1.468129e+001 1.124726e+000 -3.939322e+001
2005600000 1.051892e+000 -2.362875e+001 7.440470e-004 2.987768e+000 1.330736e-003 -1.541140e+001 1.124924e+000 -3.938444e+001
2005700000 1.051852e+000 -2.363010e+001 7.534212e-004 2.332500e+000 1.326852e-003 -1.578330e+001 1.125139e+000 -3.938045e+001
2005800000 1.051869e+000 -2.363254e+001 7.304953e-004 2.163957e+000 1.327525e-003 -1.592685e+001 1.125355e+000 -3.938474e+001
2005900000 1.051983e+000 -2.363271e+001 7.418982e-004 2.840328e+000 1.314214e-003 -1.482413e+001 1.125457e+000 -3.939230e+001
2006000000 1.052028e+000 -2.363370e+001 7.439901e-004 1.775160e+000 1.330417e-003 -1.535111e+001 1.125602e+000 -3.940033e+001
2006100000 1.052088e+000 -2.363228e+001 7.378709e-004 1.766834e+000 1.302012e-003 -1.667948e+001 1.125678e+000 -3.941306e+001
2006200000 1.052083e+000 -2.363333e+001 7.533982e-004 2.880961e+000 1.297145e-003 -1.503721e+001 1.125865e+000 -3.942352e+001
2006300000 1.052160e+000 -2.363385e+001 7.470928e-004 1.680621e+000 1.310493e-003 -1.557124e+001 1.125874e+000 -3.943575e+001
2006400000 1.052120e+000 -2.363724e+001 7.257700e-004 1.316589e+000 1.316176e-003 -1.650833e+001 1.125981e+000 -3.944748e+001
2006500000 1.052142e+000 -2.363801e+001 7.336873e-004 1.055232e+000 1.319505e-003 -1.727826e+001 1.125948e+000 -3.946772e+001
2006600000 1.052036e+000 -2.364052e+001 7.332077e-004 1.688335e+000 1.310568e-003 -1.740129e+001 1.125933e+000 -3.946874e+001
2006700000 1.051973e+000 -2.364792e+001 7.273543e-004 1.837505e+000 1.327012e-003 -1.655835e+001 1.125914e+000 -3.947119e+001
2006800000 1.051868e+000 -2.364619e+001 7.274296e-004 7.127530e-001 1.290684e-003 -1.612708e+001 1.125866e+000 -3.947561e+001
2006900000 1.051888e+000 -2.365204e+001 7.293748e-004 1.437800e+000 1.294295e-003 -1.717883e+001 1.125813e+000 -3.947479e+001
2007000000 1.051827e+000 -2.365241e+001 7.395743e-004 1.760397e+000 1.309761e-003 -1.743069e+001 1.125721e+000 -3.948471e+001
2007100000 1.051817e+000 -2.365534e+001 7.343314e-004 1.080083e+000 1.293901e-003 -1.689032e+001 1.125710e+000 -3.948707e+001
2007200000 1.051800e+000 -2.365364e+001 7.256909e-004 1.688209e+000 1.286129e-003 -1.756655e+001 1.125701e+000 -3.948590e+001
2007300000 1.051813e+000 -2.365884e+001 7.360645e-004 7.642447e-001 1.299345e-003 -1.713327e+001 1.125480e+000 -3.949185e+001
2007400000 1.051883e+000 -2.366895e+001 7.193054e-004 6.237114e-001 1.294872e-003 -1.665919e+001 1.125273e+000 -3.947963e+001
2007500000 1.051922e+000 -2.367852e+001 7.222368e-004 6.512759e-002 1.291289e-003 -1.858021e+001 1.125121e+000 -3.947273e+001
2007600000 1.051889e+000 -2.368320e+001 7.270080e-004 -6.687923e-001 1.305321e-003 -1.803440e+001 1.124878e+000 -3.946730e+001
2007700000 1.051963e+000 -2.369176e+001 7.144153e-004 3.781361e-001 1.294687e-003 -1.761220e+001 1.124746e+000 -3.946318e+001
2007800000 1.051963e+000 -2.369726e+001 7.189592e-004 1.470387e-001 1.291388e-003 -1.747083e+001 1.124529e+000 -3.945533e+001
2007900000 1.051930e+000 -2.370439e+001 7.175778e-004 3.692241e-001 1.291009e-003 -1.812005e+001 1.124384e+000 -3.944999e+001
2008000000 1.051906e+000 -2.370459e+001 7.218963e-004 2.919731e-003 1.308763e-003 -1.839771e+001 1.124192e+000 -3.944487e+001
2008100000 1.051851e+000 -2.369297e+001 7.312066e-004 3.791112e-001 1.291721e-003 -1.843161e+001 1.123928e+000 -3.944936e+001
2008200000 1.051749e+000 -2.368077e+001 7.136585e-004 4.102269e-001 1.251162e-003 -1.949510e+001 1.123820e+000 -3.945243e+001
2008300000 1.051685e+000 -2.366731e+001 7.224521e-004 -7.587439e-002 1.270264e-003 -1.884739e+001 1.123732e+000 -3.945235e+001
2008400000 1.051700e+000 -2.366079e+001 7.218690e-004 -1.185834e+000 1.253939e-003 -1.990719e+001 1.123551e+000 -3.945346e+001
2008500000 1.051629e+000 -2.365215e+001 7.165276e-004 -3.046243e-001 1.280862e-003 -1.938546e+001 1.123516e+000 -3.945673e+001
2008600000 1.051573e+000 -2.364442e+001 7.118480e-004 4.660278e-001 1.248422e-003 -1.811740e+001 1.123561e+000 -3.946251e+001
2008700000 1.051574e+000 -2.363871e+001 7.143041e-004 -8.971159e-001 1.258756e-003 -1.894636e+001 1.123636e+000 -3.947129e+001
2008800000 1.051579e+000 -2.363644e+001 7.297428e-004 -2.748204e-001 1.255572e-003 -1.895660e+001 1.123818e+000 -3.947928e+001
2008900000 1.051479e+000 -2.364446e+001 7.134110e-004 -6.624224e-001 1.270719e-003 -1.912275e+001 1.123939e+000 -3.949388e+001
2009000000 1.051453e+000 -2.365042e+001 6.922059e-004 -6.909392e-001 1.269747e-003 -1.828567e+001 1.124310e+000 -3.950400e+001
2009100000 1.051527e+000 -2.365906e+001 7.036281e-004 -1.400139e+000 1.246041e-003 -1.863078e+001 1.124484e+000 -3.951282e+001
2009200000 1.051476e+000 -2.366643e+001 7.020427e-004 -1.328513e+000 1.270008e-003 -2.029092e+001 1.124840e+000 -3.952583e+001
2009300000 1.051491e+000 -2.367254e+001 7.037563e-004 -1.191196e+000 1.254955e-003 -2.020144e+001 1.124826e+000 -3.953208e+001
2009400000 1.051468e+000 -2.368020e+001 7.010774e-004 -1.841639e+000 1.231983e-003 -2.029411e+001 1.124985e+000 -3.954134e+001
2009500000 1.051517e+000 -2.368330e+001 7.042563e-004 -1.854708e+000 1.274434e-003 -1.992488e+001 1.125224e+000 -3.955486e+001
2009600000 1.051671e+000 -2.368328e+001 7.018945e-004 -1.558234e+000 1.240975e-003 -2.023162e+001 1.125272e+000 -3.955954e+001
2009700000 1.051800e+000 -2.368286e+001 6.963474e-004 -2.786046e+000 1.243541e-003 -2.103309e+001 1.125303e+000 -3.956373e+001
2009800000 1.051914e+000 -2.368017e+001 6.870136e-004 -1.315992e+000 1.236003e-003 -1.975616e+001 1.125336e+000 -3.956228e+001
2009900000 1.052044e+000 -2.367599e+001 7.031607e-004 -2.392953e+000 1.220425e-003 -2.094896e+001 1.125305e+000 -3.957102e+001
2010000000 1.052096e+000 -2.367523e+001 6.993822e-004 -9.508591e-001 1.227715e-003 -2.076831e+001 1.125322e+000 -3.957201e+001
2010100000 1.052116e+000 -2.367407e+001 7.041681e-004 -3.026263e+000 1.249348e-003 -1.983451e+001 1.125249e+000 -3.957807e+001
2010200000 1.052179e+000 -2.366809e+001 6.910613e-004 -2.263165e+000 1.251106e-003 -2.084687e+001 1.125158e+000 -3.958389e+001
2010300000 1.052175e+000 -2.366550e+001 7.094579e-004 -2.015529e+000 1.252719e-003 -2.041444e+001 1.124987e+000 -3.958650e+001
2010400000 1.052219e+000 -2.366475e+001 6.933145e-004 -1.088141e+000 1.234841e-003 -2.036955e+001 1.124711e+000 -3.958786e+001
2010500000 1.052159e+000 -2.366068e+001 6.954724e-004 -1.533619e+000 1.249910e-003 -2.130351e+001 1.124532e+000 -3.958555e+001
2010600000 1.052221e+000 -2.365907e+001 6.922333e-004 -2.604717e+000 1.218721e-003 -1.982301e+001 1.124205e+000 -3.959229e+001
2010700000 1.052119e+000 -2.365994e+001 6.828950e-004 -2.576859e+000 1.242315e-003 -2.028098e+001 1.124114e+000 -3.959166e+001
2010800000 1.052118e+000 -2.366375e+001 6.887643e-004 -1.828971e+000 1.257763e-003 -2.048391e+001 1.123834e+000 -3.959357e+001
2010900000 1.052117e+000 -2.366329e+001 6.881712e-004 -2.884713e+000 1.206577e-003 -2.102958e+001 1.123763e+000 -3.959854e+001
2011000000 1.051962e+000 -2.366734e+001 6.868249e-004 -2.079367e+000 1.250357e-003 -2.040504e+001 1.123630e+000 -3.960180e+001
2011100000 1.051697e+000 -2.366271e+001 6.936513e-004 -2.712226e+000 1.232991e-003 -2.050521e+001 1.123779e+000 -3.958335e+001
2011200000 1.051456e+000 -2.366734e+001 6.859609e-004 -3.704733e+000 1.202610e-003 -2.044773e+001 1.124006e+000 -3.956330e+001
2011300000 1.051244e+000 -2.367318e+001 6.882134e-004 -2.120540e+000 1.204773e-003 -2.014871e+001 1.124264e+000 -3.954783e+001
2011400000 1.050979e+000 -2.367374e+001 6.909272e-004 -2.074044e+000 1.219787e-003 -2.031715e+001 1.124428e+000 -3.952603e+001
2011500000 1.050840e+000 -2.367803e+001 6.901653e-004 -2.606095e+000 1.227355e-003 -2.081590e+001 1.124630e+000 -3.951127e+001
2011600000 1.050707e+000 -2.368400e+001 6.826808e-004 -4.091040e+000 1.230080e-003 -2.164969e+001 1.124769e+000 -3.949657e+001
2011700000 1.050530e+000 -2.368497e+001 6.781196e-004 -2.327385e+000 1.224514e-003 -2.242426e+001 1.124926e+000 -3.948298e+001
2011800000 1.050651e+000 -2.369095e+001 6.893137e-004 -3.912597e+000 1.214138e-003 -2.118906e+001 1.124802e+000 -3.948704e+001
2011900000 1.050729e+000 -2.370398e+001 6.758854e-004 -3.917434e+000 1.216617e-003 -2.095293e+001 1.124401e+000 -3.949996e+001
2012000000 1.050958e+000 -2.372092e+001 6.662022e-004 -3.359514e+000 1.232974e-003 -2.166248e+001 1.123924e+000 -3.951441e+001
2012100000 1.051162e+000 -2.373016e+001 6.819387e-004 -3.906780e+000 1.194303e-003 -2.180867e+001 1.123655e+000 -3.953431e+001
2012200000 1.051417e+000 -2.373850e+001 6.694415e-004 -3.586902e+000 1.222969e-003 -2.153136e+001 1.123292e+000 -3.954583e+001
2012300000 1.051697e+000 -2.374147e+001 6.939320e-004 -5.014921e+000 1.221891e-003 -2.003212e+001 1.123097e+000 -3.956778e+001
2012400000 1.051989e+000 -2.374189e+001 6.822583e-004 -3.756150e+000 1.207840e-003 -2.112850e+001 1.122990e+000 -3.958309e+001
2012500000 1.052244e+000 -2.374047e+001 6.876087e-004 -3.589139e+000 1.209870e-003 -2.033985e+001 1.122950e+000 -3.960036e+001
2012600000 1.052583e+000 -2.371393e+001 6.907857e-004 -4.189403e+000 1.210279e-003 -1.974055e+001 1.123791e+000 -3.960239e+001
2012700000 1.052801e+000 -2.368529e+001 6.811785e-004 -3.780511e+000 1.208857e-003 -2.223350e+001 1.124663e+000 -3.959743e+001
2012800000 1.053030e+000 -2.366387e+001 6.821256e-004 -3.465244e+000 1.192734e-003 -2.075921e+001 1.125431e+000 -3.959885e+001
2012900000 1.053208e+000 -2.364211e+001 6.830500e-004 -3.618022e+000 1.231958e-003 -2.208456e+001 1.126127e+000 -3.959409e+001
2013000000 1.053307e+000 -2.363196e+001 6.665899e-004 -3.321218e+000 1.202325e-003 -2.097875e+001 1.126769e+000 -3.958332e+001
2013100000 1.053414e+000 -2.361586e+001 6.726924e-004 -4.432559e+000 1.220223e-003 -2.179160e+001 1.127298e+000 -3.957518e+001
2013200000 1.053460e+000 -2.360731e+001 6.862732e-004 -4.288596e+000 1.214608e-003 -2.062940e+001 1.127673e+000 -3.956754e+001
2013300000 1.053142e+000 -2.361505e+001 6.729292e-004 -3.936416e+000 1.211791e-003 -2.286938e+001 1.127765e+000 -3.955709e+001
2013400000 1.052554e+000 -2.363674e+001 6.799854e-004 -3.088887e+000 1.216042e-003 -2.219361e+001 1.127497e+000 -3.954505e+001
2013500000 1.051991e+000 -2.365181e+001 6.867469e-004 -3.503316e+000 1.203577e-003 -2.169202e+001 1.127231e+000 -3.953772e+001
2013600000 1.051490e+000 -2.367277e+001 6.726896e-004 -5.003988e+000 1.198030e-003 -2.160008e+001 1.127064e+000 -3.953033e+001
2013700000 1.051164e+000 -2.368571e+001 6.699826e-004 -3.581194e+000 1.219945e-003 -2.115742e+001 1.126915e+000 -3.953020e+001
2013800000 1.050894e+000 -2.370492e+001 6.696053e-004 -3.922830e+000 1.180238e-003 -2.130702e+001 1.126696e+000 -3.951699e+001
2013900000 1.050583e+000 -2.371999e+001 6.783709e-004 -3.570441e+000 1.193159e-003 -2.085535e+001 1.126625e+000 -3.951102e+001
2014000000 1.050424e+000 -2.373363e+001 6.708222e-004 -3.469119e+000 1.199256e-003 -2.119809e+001 1.126328e+000 -3.950877e+001
2014100000 1.050744e+000 -2.371849e+001 6.759266e-004 -4.125453e+000 1.197465e-003 -2.293475e+001 1.126214e+000 -3.952301e+001
2014200000 1.050949e+000 -2.371113e+001 6.767815e-004 -4.767458e+000 1.185736e-003 -2.238107e+001 1.126042e+000 -3.954173e+001
2014300000 1.051250e+000 -2.369721e+001 6.688050e-004 -5.880240e+000 1.215180e-003 -2.152848e+001 1.125823e+000 -3.956033e+001
2014400000 1.051367e+000 -2.369120e+001 6.807754e-004 -4.239048e+000 1.190835e-003 -2.189891e+001 1.125695e+000 -3.957528e+001
2014500000 1.051486e+000 -2.368217e+001 6.842071e-004 -3.603441e+000 1.231745e-003 -2.234727e+001 1.125496e+000 -3.958927e+001
2014600000 1.051673e+000 -2.367453e+001 6.594598e-004 -4.743049e+000 1.191138e-003 -2.185736e+001 1.125263e+000 -3.960448e+001
2014700000 1.051776e+000 -2.366737e+001 6.861524e-004 -3.857463e+000 1.209088e-003 -2.253629e+001 1.125141e+000 -3.961916e+001
2014800000 1.051655e+000 -2.367210e+001 6.767194e-004 -5.300899e+000 1.203366e-003 -2.313627e+001 1.124869e+000 -3.962263e+001
2014900000 1.051415e+000 -2.368647e+001 6.729811e-004 -4.573426e+000 1.179794e-003 -2.236347e+001 1.124547e+000 -3.960739e+001
2015000000 1.051174e+000 -2.369936e+001 6.836862e-004 -4.268114e+000 1.209289e-003 -2.247977e+001 1.124309e+000 -3.959837e+001
2015100000 1.051022e+000 -2.371582e+001 6.703280e-004 -3.457759e+000 1.201130e-003 -2.245046e+001 1.124101e+000 -3.958975e+001
2015200000 1.050951e+000 -2.372771e+001 6.702802e-004 -4.521245e+000 1.182451e-003 -2.206987e+001 1.123979e+000 -3.957844e+001
2015300000 1.050814e+000 -2.373978e+001 6.781179e-004 -3.889813e+000 1.184435e-003 -2.256318e+001 1.123879e+000 -3.956802e+001
