!Agilent Technologies,N5230C,SG49000117,A.08.50.07
!Agilent N5230C: A.08.50.07
!Date: Tuesday, May 07, 2024 00:09:29
!Correction: S11(Full 2 Port(1,2)) 
!S21(Full 2 Port(1,2)) 
!S12(Full 2 Port(1,2)) 
!S22(Full 2 Port(1,2)) 
!S2P File: Measurements: S11, S21, S12, S22:
# Hz S  MA   R 50
2000000000 1.051477e+000 -2.389728e+001 4.974419e-004 2.252704e+001 8.845593e-004 2.780275e+000 1.123204e+000 -4.012431e+001
2000100000 1.051260e+000 -2.389836e+001 4.989678e-004 2.310608e+001 8.740520e-004 1.369398e+000 1.123543e+000 -4.011127e+001
2000200000 1.051136e+000 -2.390738e+001 4.993943e-004 2.214163e+001 8.714765e-004 2.032211e+000 1.123819e+000 -4.011221e+001
2000300000 1.050971e+000 -2.391454e+001 5.071263e-004 2.297276e+001 9.029259e-004 1.021928e+000 1.123944e+000 -4.011684e+001
2000400000 1.050874e+000 -2.392049e+001 4.997973e-004 2.132998e+001 8.958368e-004 1.911307e+000 1.124222e+000 -4.012214e+001
2000500000 1.050732e+000 -2.392962e+001 5.011857e-004 2.121998e+001 8.974817e-004 1.229116e+000 1.124295e+000 -4.013145e+001
2000600000 1.050779e+000 -2.392257e+001 4.975461e-004 2.100628e+001 9.071829e-004 7.391906e-001 1.124271e+000 -4.011004e+001
2000700000 1.050792e+000 -2.391175e+001 5.101633e-004 2.147209e+001 9.155027e-004 9.569595e-001 1.124195e+000 -4.009081e+001
2000800000 1.050718e+000 -2.390336e+001 5.094154e-004 2.016721e+001 9.069391e-004 4.767720e-001 1.124061e+000 -4.007775e+001
2000900000 1.050732e+000 -2.389458e+001 5.168897e-004 1.998046e+001 9.166368e-004 -3.108690e-001 1.124007e+000 -4.006163e+001
2001000000 1.050776e+000 -2.388516e+001 5.128566e-004 2.073367e+001 9.108072e-004 3.024092e-001 1.123843e+000 -4.005292e+001
2001100000 1.050749e+000 -2.387748e+001 5.205114e-004 2.008896e+001 9.147330e-004 -5.942026e-001 1.123781e+000 -4.004901e+001
2001200000 1.050631e+000 -2.386826e+001 5.131486e-004 1.912994e+001 9.127858e-004 -9.591736e-001 1.123591e+000 -4.004083e+001
2001300000 1.050671e+000 -2.387193e+001 5.234126e-004 1.969598e+001 9.226050e-004 -6.311108e-001 1.123481e+000 -4.005225e+001
2001400000 1.050844e+000 -2.388967e+001 5.313612e-004 1.862853e+001 9.422532e-004 -8.788010e-001 1.123212e+000 -4.008054e+001
2001500000 1.050945e+000 -2.390483e+001 5.284258e-004 1.910513e+001 9.361387e-004 -2.391403e+000 1.122925e+000 -4.011063e+001
2001600000 1.051127e+000 -2.391459e+001 5.332899e-004 1.883633e+001 9.386041e-004 -2.987766e+000 1.122775e+000 -4.013819e+001
2001700000 1.051279e+000 -2.392872e+001 5.254549e-004 1.877951e+001 9.490881e-004 -1.752710e+000 1.122522e+000 -4.016188e+001
2001800000 1.051436e+000 -2.393620e+001 5.359362e-004 1.857044e+001 9.529557e-004 -1.694976e+000 1.122376e+000 -4.018429e+001
2001900000 1.051669e+000 -2.393660e+001 5.385570e-004 1.919897e+001 9.703126e-004 -2.150763e+000 1.122151e+000 -4.020357e+001
2002000000 1.051865e+000 -2.394275e+001 5.328127e-004 1.842452e+001 9.617655e-004 -2.427289e+000 1.122006e+000 -4.022472e+001
2002100000 1.051875e+000 -2.393487e+001 5.347869e-004 1.688665e+001 9.655239e-004 -2.320380e+000 1.122133e+000 -4.020274e+001
2002200000 1.051869e+000 -2.392169e+001 5.266500e-004 1.779142e+001 9.739048e-004 -3.528416e+000 1.122393e+000 -4.017097e+001
2002300000 1.051797e+000 -2.391099e+001 5.509650e-004 1.754220e+001 9.688901e-004 -5.510086e+000 1.122587e+000 -4.014751e+001
2002400000 1.051770e+000 -2.389746e+001 5.518816e-004 1.690597e+001 9.725703e-004 -4.354855e+000 1.122792e+000 -4.012269e+001
2002500000 1.051698e+000 -2.389292e+001 5.411971e-004 1.661704e+001 9.719221e-004 -4.025881e+000 1.122949e+000 -4.009808e+001
2002600000 1.051592e+000 -2.388206e+001 5.529495e-004 1.669245e+001 9.625727e-004 -4.975843e+000 1.122964e+000 -4.008050e+001
2002700000 1.051554e+000 -2.387477e+001 5.569242e-004 1.567735e+001 9.709359e-004 -5.475968e+000 1.123112e+000 -4.006006e+001
2002800000 1.051344e+000 -2.387905e+001 5.611480e-004 1.568330e+001 9.685176e-004 -5.089550e+000 1.123104e+000 -4.005217e+001
2002900000 1.051235e+000 -2.389031e+001 5.572265e-004 1.635278e+001 9.949143e-004 -4.522696e+000 1.123215e+000 -4.007038e+001
2003000000 1.051136e+000 -2.389656e+001 5.590151e-004 1.593330e+001 9.841133e-004 -5.900662e+000 1.123226e+000 -4.008075e+001
2003100000 1.051047e+000 -2.390791e+001 5.563283e-004 1.422965e+001 9.960263e-004 -5.443378e+000 1.123246e+000 -4.010123e+001
2003200000 1.050987e+000 -2.391367e+001 5.552735e-004 1.531721e+001 9.863249e-004 -4.668829e+000 1.123345e+000 -4.011418e+001
2003300000 1.050929e+000 -2.391763e+001 5.567963e-004 1.466461e+001 1.015713e-003 -5.333862e+000 1.123390e+000 -4.012908e+001
2003400000 1.050934e+000 -2.392580e+001 5.662646e-004 1.406763e+001 1.002620e-003 -6.752133e+000 1.123494e+000 -4.015025e+001
2003500000 1.050950e+000 -2.393220e+001 5.754568e-004 1.488864e+001 1.034178e-003 -6.003900e+000 1.123615e+000 -4.015998e+001
2003600000 1.050990e+000 -2.393731e+001 5.754411e-004 1.575976e+001 1.017648e-003 -6.732335e+000 1.123694e+000 -4.015566e+001
2003700000 1.051054e+000 -2.394337e+001 5.672402e-004 1.409296e+001 1.018546e-003 -7.732547e+000 1.123892e+000 -4.014833e+001
2003800000 1.051021e+000 -2.395091e+001 5.783499e-004 1.315471e+001 1.026897e-003 -7.806034e+000 1.123973e+000 -4.014677e+001
2003900000 1.051121e+000 -2.395541e+001 5.721232e-004 1.400387e+001 1.016690e-003 -7.918787e+000 1.124096e+000 -4.013887e+001
2004000000 1.051067e+000 -2.396414e+001 5.771936e-004 1.417770e+001 1.023770e-003 -8.272175e+000 1.124149e+000 -4.013514e+001
2004100000 1.051088e+000 -2.397037e+001 5.713824e-004 1.301444e+001 1.024422e-003 -8.691408e+000 1.124107e+000 -4.013010e+001
2004200000 1.051078e+000 -2.397565e+001 5.746220e-004 1.339133e+001 1.021434e-003 -8.176665e+000 1.124176e+000 -4.012981e+001
2004300000 1.051153e+000 -2.397557e+001 5.849306e-004 1.286900e+001 1.034174e-003 -7.711787e+000 1.123974e+000 -4.012962e+001
2004400000 1.051212e+000 -2.397433e+001 5.852932e-004 1.120306e+001 1.030026e-003 -8.930917e+000 1.123618e+000 -4.012693e+001
2004500000 1.051333e+000 -2.397436e+001 5.875203e-004 1.215778e+001 1.037622e-003 -8.507654e+000 1.123361e+000 -4.012608e+001
2004600000 1.051375e+000 -2.397141e+001 5.905665e-004 1.270004e+001 1.053387e-003 -9.390978e+000 1.123217e+000 -4.012339e+001
2004700000 1.051496e+000 -2.397140e+001 5.976796e-004 1.217437e+001 1.065774e-003 -1.029959e+001 1.123056e+000 -4.012371e+001
2004800000 1.051552e+000 -2.396933e+001 5.973392e-004 1.104068e+001 1.058163e-003 -1.051554e+001 1.122873e+000 -4.012322e+001
2004900000 1.051590e+000 -2.397164e+001 5.861951e-004 1.126037e+001 1.059187e-003 -1.074735e+001 1.122743e+000 -4.012643e+001
2005000000 1.051723e+000 -2.396822e+001 5.962321e-004 1.095180e+001 1.051380e-003 -1.074513e+001 1.122696e+000 -4.012435e+001
2005100000 1.051604e+000 -2.397685e+001 5.951807e-004 1.039490e+001 1.049685e-003 -1.106814e+001 1.122796e+000 -4.011698e+001
2005200000 1.051596e+000 -2.398308e+001 6.106555e-004 9.939372e+000 1.063444e-003 -1.159904e+001 1.122955e+000 -4.010368e+001
2005300000 1.051511e+000 -2.398591e+001 6.094474e-004 1.009207e+001 1.069040e-003 -1.058364e+001 1.123099e+000 -4.009836e+001
2005400000 1.051551e+000 -2.399146e+001 6.082543e-004 9.316419e+000 1.060620e-003 -1.098575e+001 1.123363e+000 -4.008914e+001
2005500000 1.051530e+000 -2.399582e+001 6.022728e-004 1.009496e+001 1.058905e-003 -1.206761e+001 1.123517e+000 -4.008112e+001
2005600000 1.051505e+000 -2.399685e+001 6.127896e-004 9.339613e+000 1.066748e-003 -1.217951e+001 1.123646e+000 -4.007571e+001
2005700000 1.051503e+000 -2.399932e+001 6.115715e-004 9.216760e+000 1.097484e-003 -1.103905e+001 1.123847e+000 -4.007395e+001
2005800000 1.051567e+000 -2.400256e+001 6.207634e-004 8.461603e+000 1.085135e-003 -1.265610e+001 1.123957e+000 -4.007052e+001
2005900000 1.051697e+000 -2.400188e+001 6.148425e-004 7.986132e+000 1.086320e-003 -1.236310e+001 1.124102e+000 -4.007864e+001
2006000000 1.051659e+000 -2.399990e+001 6.148174e-004 8.337792e+000 1.106910e-003 -1.261443e+001 1.124305e+000 -4.009344e+001
2006100000 1.051710e+000 -2.399960e+001 6.132044e-004 7.530914e+000 1.096790e-003 -1.266480e+001 1.124392e+000 -4.010217e+001
2006200000 1.051757e+000 -2.400047e+001 6.256934e-004 7.789811e+000 1.100429e-003 -1.453974e+001 1.124541e+000 -4.011172e+001
2006300000 1.051771e+000 -2.400288e+001 6.196956e-004 6.729002e+000 1.099954e-003 -1.472901e+001 1.124522e+000 -4.012621e+001
2006400000 1.051747e+000 -2.400530e+001 6.296824e-004 6.568124e+000 1.091610e-003 -1.420896e+001 1.124511e+000 -4.014317e+001
2006500000 1.051807e+000 -2.400778e+001 6.276785e-004 5.593669e+000 1.114457e-003 -1.440284e+001 1.124542e+000 -4.015446e+001
2006600000 1.051700e+000 -2.400882e+001 6.294168e-004 6.343507e+000 1.119980e-003 -1.438158e+001 1.124485e+000 -4.015731e+001
2006700000 1.051620e+000 -2.401388e+001 6.303531e-004 5.705196e+000 1.137733e-003 -1.453584e+001 1.124488e+000 -4.016086e+001
2006800000 1.051569e+000 -2.401576e+001 6.305314e-004 6.195590e+000 1.123445e-003 -1.355214e+001 1.124455e+000 -4.016216e+001
2006900000 1.051509e+000 -2.401997e+001 6.231002e-004 6.222423e+000 1.142057e-003 -1.386212e+001 1.124422e+000 -4.016820e+001
2007000000 1.051475e+000 -2.402148e+001 6.438366e-004 5.731014e+000 1.154087e-003 -1.562359e+001 1.124336e+000 -4.016938e+001
2007100000 1.051407e+000 -2.402414e+001 6.412986e-004 5.098893e+000 1.147645e-003 -1.492140e+001 1.124238e+000 -4.017280e+001
2007200000 1.051429e+000 -2.402485e+001 6.397156e-004 5.628816e+000 1.142310e-003 -1.506293e+001 1.124132e+000 -4.017750e+001
2007300000 1.051449e+000 -2.403210e+001 6.412232e-004 4.837046e+000 1.153247e-003 -1.603604e+001 1.124019e+000 -4.017701e+001
2007400000 1.051503e+000 -2.403934e+001 6.509098e-004 4.045802e+000 1.146239e-003 -1.593241e+001 1.123832e+000 -4.016561e+001
2007500000 1.051502e+000 -2.404868e+001 6.429145e-004 4.149318e+000 1.156224e-003 -1.707168e+001 1.123555e+000 -4.015915e+001
2007600000 1.051503e+000 -2.405439e+001 6.584612e-004 3.837600e+000 1.177859e-003 -1.615998e+001 1.123339e+000 -4.015578e+001
2007700000 1.051524e+000 -2.406153e+001 6.488522e-004 4.618799e+000 1.145671e-003 -1.683098e+001 1.123110e+000 -4.014553e+001
2007800000 1.051545e+000 -2.406329e+001 6.521303e-004 2.723278e+000 1.138031e-003 -1.766739e+001 1.123013e+000 -4.014295e+001
2007900000 1.051574e+000 -2.406995e+001 6.577978e-004 2.743341e+000 1.172499e-003 -1.676956e+001 1.122806e+000 -4.013435e+001
2008000000 1.051575e+000 -2.407302e+001 6.565205e-004 3.085150e+000 1.145834e-003 -1.769152e+001 1.122748e+000 -4.013375e+001
2008100000 1.051460e+000 -2.406364e+001 6.585137e-004 3.130662e+000 1.137120e-003 -1.676313e+001 1.122460e+000 -4.013304e+001
2008200000 1.051430e+000 -2.405247e+001 6.538187e-004 2.054019e+000 1.163131e-003 -1.668375e+001 1.122264e+000 -4.013004e+001
2008300000 1.051329e+000 -2.404030e+001 6.573309e-004 2.233358e+000 1.160239e-003 -1.646322e+001 1.122210e+000 -4.013861e+001
2008400000 1.051352e+000 -2.403006e+001 6.657876e-004 2.127858e+000 1.193278e-003 -1.635921e+001 1.122115e+000 -4.014177e+001
2008500000 1.051248e+000 -2.402296e+001 6.590538e-004 2.124244e+000 1.170817e-003 -1.737374e+001 1.122006e+000 -4.013872e+001
2008600000 1.051179e+000 -2.401448e+001 6.685877e-004 1.289419e+000 1.181370e-003 -1.794234e+001 1.122031e+000 -4.014510e+001
2008700000 1.051242e+000 -2.400707e+001 6.557157e-004 1.612807e+000 1.190443e-003 -1.831348e+001 1.122016e+000 -4.015284e+001
2008800000 1.051189e+000 -2.400716e+001 6.671781e-004 7.984341e-001 1.201310e-003 -1.711992e+001 1.122121e+000 -4.016202e+001
2008900000 1.051162e+000 -2.401694e+001 6.704532e-004 5.126595e-001 1.194228e-003 -1.699699e+001 1.122433e+000 -4.018046e+001
2009000000 1.051168e+000 -2.402461e+001 6.691347e-004 8.887547e-001 1.212526e-003 -1.850358e+001 1.122713e+000 -4.018126e+001
2009100000 1.051081e+000 -2.403006e+001 6.797510e-004 1.175471e+000 1.211022e-003 -1.857471e+001 1.122863e+000 -4.019555e+001
2009200000 1.051117e+000 -2.403723e+001 6.854960e-004 6.476861e-001 1.202907e-003 -1.874319e+001 1.123076e+000 -4.020428e+001
2009300000 1.051128e+000 -2.404235e+001 6.841997e-004 3.602189e-001 1.222368e-003 -1.862833e+001 1.123287e+000 -4.021310e+001
2009400000 1.051084e+000 -2.404759e+001 6.866177e-004 1.961603e-001 1.207544e-003 -1.932529e+001 1.123373e+000 -4.022418e+001
2009500000 1.051144e+000 -2.405092e+001 6.921347e-004 -1.913642e-001 1.224148e-003 -1.959399e+001 1.123559e+000 -4.023537e+001
2009600000 1.051329e+000 -2.405102e+001 6.755000e-004 -3.599648e-001 1.228255e-003 -1.974951e+001 1.123565e+000 -4.023904e+001
2009700000 1.051486e+000 -2.405068e+001 6.865142e-004 -1.296427e+000 1.234320e-003 -1.844633e+001 1.123609e+000 -4.023790e+001
2009800000 1.051535e+000 -2.404713e+001 7.006626e-004 -4.662790e-001 1.223400e-003 -2.019677e+001 1.123639e+000 -4.024210e+001
2009900000 1.051655e+000 -2.404689e+001 6.866794e-004 -1.488047e+000 1.226587e-003 -2.005071e+001 1.123577e+000 -4.024638e+001
2010000000 1.051718e+000 -2.404387e+001 6.911748e-004 -9.088230e-001 1.219812e-003 -2.058934e+001 1.123656e+000 -4.025459e+001
2010100000 1.051738e+000 -2.404131e+001 7.077432e-004 -1.482331e+000 1.235472e-003 -2.023273e+001 1.123561e+000 -4.025552e+001
2010200000 1.051755e+000 -2.403674e+001 6.942294e-004 -1.644436e+000 1.259143e-003 -2.148114e+001 1.123466e+000 -4.026287e+001
2010300000 1.051801e+000 -2.403611e+001 6.924957e-004 -2.337477e+000 1.243185e-003 -2.057454e+001 1.123296e+000 -4.026382e+001
2010400000 1.051800e+000 -2.403328e+001 6.991205e-004 -2.194536e+000 1.244961e-003 -2.145857e+001 1.122981e+000 -4.026839e+001
2010500000 1.051796e+000 -2.403167e+001 6.990601e-004 -2.074077e+000 1.250396e-003 -2.216259e+001 1.122763e+000 -4.026512e+001
2010600000 1.051761e+000 -2.403236e+001 7.113274e-004 -2.865917e+000 1.233079e-003 -2.194276e+001 1.122554e+000 -4.026424e+001
2010700000 1.051771e+000 -2.403320e+001 7.155449e-004 -3.186949e+000 1.222570e-003 -2.228173e+001 1.122294e+000 -4.026890e+001
2010800000 1.051736e+000 -2.403356e+001 7.129811e-004 -2.399264e+000 1.243914e-003 -2.214596e+001 1.122128e+000 -4.027194e+001
2010900000 1.051702e+000 -2.403064e+001 7.131719e-004 -2.987558e+000 1.263513e-003 -2.133275e+001 1.122010e+000 -4.027335e+001
2011000000 1.051668e+000 -2.403137e+001 7.122738e-004 -3.969649e+000 1.229734e-003 -2.140979e+001 1.121787e+000 -4.027274e+001
2011100000 1.051351e+000 -2.403574e+001 7.251927e-004 -4.053720e+000 1.265396e-003 -2.240344e+001 1.122019e+000 -4.025848e+001
2011200000 1.051104e+000 -2.403875e+001 7.286809e-004 -3.967394e+000 1.254637e-003 -2.383504e+001 1.122150e+000 -4.023595e+001
2011300000 1.050815e+000 -2.404170e+001 7.139535e-004 -3.791467e+000 1.275482e-003 -2.236065e+001 1.122468e+000 -4.021830e+001
2011400000 1.050587e+000 -2.404548e+001 7.179421e-004 -4.996237e+000 1.283586e-003 -2.337523e+001 1.122649e+000 -4.020205e+001
2011500000 1.050442e+000 -2.404828e+001 7.293242e-004 -4.300486e+000 1.276082e-003 -2.363072e+001 1.122893e+000 -4.018047e+001
2011600000 1.050300e+000 -2.405068e+001 7.270336e-004 -4.951601e+000 1.294136e-003 -2.358112e+001 1.122943e+000 -4.017152e+001
2011700000 1.050248e+000 -2.405403e+001 7.363028e-004 -4.998343e+000 1.286884e-003 -2.363652e+001 1.123163e+000 -4.015783e+001
2011800000 1.050294e+000 -2.406143e+001 7.301075e-004 -5.396849e+000 1.276645e-003 -2.403047e+001 1.122972e+000 -4.015581e+001
2011900000 1.050387e+000 -2.407881e+001 7.298996e-004 -5.026237e+000 1.291010e-003 -2.457192e+001 1.122487e+000 -4.017222e+001
2012000000 1.050550e+000 -2.409166e+001 7.307369e-004 -6.201402e+000 1.285031e-003 -2.532985e+001 1.122113e+000 -4.018392e+001
2012100000 1.050761e+000 -2.410023e+001 7.363461e-004 -4.844388e+000 1.293530e-003 -2.403538e+001 1.121701e+000 -4.020662e+001
2012200000 1.051018e+000 -2.410910e+001 7.291973e-004 -5.855234e+000 1.322156e-003 -2.380978e+001 1.121505e+000 -4.021877e+001
2012300000 1.051245e+000 -2.410962e+001 7.523819e-004 -5.533192e+000 1.307297e-003 -2.476923e+001 1.121215e+000 -4.023709e+001
2012400000 1.051579e+000 -2.411241e+001 7.454942e-004 -6.104406e+000 1.301033e-003 -2.559328e+001 1.121153e+000 -4.025349e+001
2012500000 1.051855e+000 -2.411089e+001 7.453104e-004 -7.039371e+000 1.321973e-003 -2.622857e+001 1.121027e+000 -4.027058e+001
2012600000 1.052123e+000 -2.408039e+001 7.484924e-004 -6.281116e+000 1.313968e-003 -2.609317e+001 1.121921e+000 -4.027168e+001
2012700000 1.052384e+000 -2.405882e+001 7.527862e-004 -6.193389e+000 1.339570e-003 -2.655619e+001 1.122782e+000 -4.027221e+001
2012800000 1.052652e+000 -2.403591e+001 7.579380e-004 -6.524162e+000 1.324822e-003 -2.653805e+001 1.123553e+000 -4.026492e+001
2012900000 1.052722e+000 -2.401497e+001 7.572761e-004 -7.276285e+000 1.333793e-003 -2.601877e+001 1.124278e+000 -4.025680e+001
2013000000 1.052917e+000 -2.400261e+001 7.506155e-004 -7.036065e+000 1.343682e-003 -2.773207e+001 1.124864e+000 -4.025217e+001
2013100000 1.053031e+000 -2.398887e+001 7.626586e-004 -7.147948e+000 1.346704e-003 -2.708847e+001 1.125322e+000 -4.024347e+001
2013200000 1.053031e+000 -2.397961e+001 7.575191e-004 -7.845964e+000 1.351156e-003 -2.709944e+001 1.125752e+000 -4.023532e+001
2013300000 1.052766e+000 -2.398690e+001 7.688546e-004 -7.570059e+000 1.346743e-003 -2.784290e+001 1.125951e+000 -4.022522e+001
2013400000 1.052194e+000 -2.400479e+001 7.572219e-004 -8.013205e+000 1.338217e-003 -2.884903e+001 1.125640e+000 -4.021277e+001
2013500000 1.051560e+000 -2.402275e+001 7.611234e-004 -8.574954e+000 1.351516e-003 -2.750801e+001 1.125365e+000 -4.020309e+001
2013600000 1.051092e+000 -2.404381e+001 7.721751e-004 -8.764013e+000 1.357561e-003 -2.721252e+001 1.125208e+000 -4.019550e+001
2013700000 1.050712e+000 -2.406024e+001 7.649260e-004 -8.789302e+000 1.354709e-003 -2.757168e+001 1.124863e+000 -4.019335e+001
2013800000 1.050406e+000 -2.407655e+001 7.765758e-004 -8.654406e+000 1.364280e-003 -2.825684e+001 1.124741e+000 -4.018192e+001
2013900000 1.050240e+000 -2.408703e+001 7.733711e-004 -8.887517e+000 1.360229e-003 -2.824815e+001 1.124582e+000 -4.017924e+001
2014000000 1.050035e+000 -2.410014e+001 7.803013e-004 -9.770753e+000 1.395552e-003 -2.962514e+001 1.124441e+000 -4.016994e+001
2014100000 1.050315e+000 -2.409102e+001 7.845692e-004 -9.528892e+000 1.376892e-003 -2.839463e+001 1.124239e+000 -4.018667e+001
2014200000 1.050564e+000 -2.407933e+001 7.789845e-004 -8.934488e+000 1.392672e-003 -2.958796e+001 1.123987e+000 -4.020277e+001
2014300000 1.050805e+000 -2.406966e+001 7.739597e-004 -9.536486e+000 1.373895e-003 -3.024186e+001 1.123807e+000 -4.022093e+001
2014400000 1.051032e+000 -2.405920e+001 7.774166e-004 -1.014469e+001 1.359782e-003 -3.014124e+001 1.123708e+000 -4.023489e+001
2014500000 1.051167e+000 -2.405187e+001 7.823401e-004 -9.449415e+000 1.389210e-003 -2.998936e+001 1.123551e+000 -4.025335e+001
2014600000 1.051296e+000 -2.404585e+001 7.827424e-004 -1.105609e+001 1.381104e-003 -2.910112e+001 1.123408e+000 -4.026046e+001
2014700000 1.051386e+000 -2.403983e+001 7.864072e-004 -1.115119e+001 1.402547e-003 -3.003295e+001 1.123055e+000 -4.027655e+001
2014800000 1.051291e+000 -2.404325e+001 7.922980e-004 -1.120442e+001 1.387001e-003 -3.034330e+001 1.122807e+000 -4.028201e+001
2014900000 1.050989e+000 -2.406098e+001 7.956260e-004 -1.114197e+001 1.407440e-003 -2.976952e+001 1.122581e+000 -4.026672e+001
2015000000 1.050801e+000 -2.406778e+001 8.014918e-004 -1.142656e+001 1.394729e-003 -2.976454e+001 1.122325e+000 -4.025817e+001
2015100000 1.050589e+000 -2.408593e+001 8.054177e-004 -1.170603e+001 1.430756e-003 -3.009032e+001 1.122161e+000 -4.024441e+001
2015200000 1.050508e+000 -2.409965e+001 8.014260e-004 -1.229103e+001 1.416304e-003 -3.080416e+001 1.121960e+000 -4.023353e+001
2015300000 1.050488e+000 -2.411107e+001 8.000347e-004 -1.194147e+001 1.419427e-003 -3.052401e+001 1.121891e+000 -4.021989e+001
