!Agilent Technologies,N5230C,SG49000117,A.08.50.07
!Agilent N5230C: A.08.50.07
!Date: Tuesday, May 07, 2024 00:06:45
!Correction: S11(Full 2 Port(1,2)) 
!S21(Full 2 Port(1,2)) 
!S12(Full 2 Port(1,2)) 
!S22(Full 2 Port(1,2)) 
!S2P File: Measurements: S11, S21, S12, S22:
# Hz S  MA   R 50
2000000000 1.051884e+000 -2.355096e+001 5.172481e-004 1.385654e+001 9.187936e-004 -5.023534e+000 1.124519e+000 -4.008805e+001
2000100000 1.051740e+000 -2.355533e+001 5.150157e-004 1.291005e+001 9.231017e-004 -5.049239e+000 1.124745e+000 -4.008057e+001
2000200000 1.051554e+000 -2.356350e+001 5.194445e-004 1.285777e+001 9.185553e-004 -5.420031e+000 1.124970e+000 -4.008389e+001
2000300000 1.051388e+000 -2.357021e+001 5.209566e-004 1.276453e+001 9.372287e-004 -6.616629e+000 1.125225e+000 -4.008580e+001
2000400000 1.051299e+000 -2.357919e+001 5.187996e-004 1.218435e+001 9.610559e-004 -6.658326e+000 1.125381e+000 -4.009051e+001
2000500000 1.051233e+000 -2.358584e+001 5.234517e-004 1.210200e+001 9.377860e-004 -5.990889e+000 1.125583e+000 -4.009413e+001
2000600000 1.051206e+000 -2.357796e+001 5.254394e-004 1.176926e+001 9.674200e-004 -8.680038e+000 1.125593e+000 -4.007885e+001
2000700000 1.051210e+000 -2.357052e+001 5.225781e-004 1.110223e+001 9.675964e-004 -8.252163e+000 1.125442e+000 -4.006102e+001
2000800000 1.051168e+000 -2.356085e+001 5.328266e-004 1.249336e+001 9.383316e-004 -9.018511e+000 1.125412e+000 -4.004301e+001
2000900000 1.051190e+000 -2.355071e+001 5.304719e-004 1.070005e+001 9.728246e-004 -8.679780e+000 1.125270e+000 -4.003094e+001
2001000000 1.051133e+000 -2.353996e+001 5.342328e-004 1.106653e+001 9.641142e-004 -9.499800e+000 1.125146e+000 -4.002028e+001
2001100000 1.051102e+000 -2.353365e+001 5.310229e-004 9.098716e+000 9.551887e-004 -8.634258e+000 1.125040e+000 -4.001720e+001
2001200000 1.051111e+000 -2.352424e+001 5.289267e-004 1.077010e+001 9.503118e-004 -8.281785e+000 1.124838e+000 -4.000979e+001
2001300000 1.051077e+000 -2.352937e+001 5.371387e-004 9.571100e+000 9.647615e-004 -9.113346e+000 1.124680e+000 -4.002074e+001
2001400000 1.051199e+000 -2.354736e+001 5.350473e-004 9.180797e+000 9.498709e-004 -9.143928e+000 1.124454e+000 -4.004866e+001
2001500000 1.051334e+000 -2.355981e+001 5.435779e-004 1.089570e+001 9.730764e-004 -9.518465e+000 1.124240e+000 -4.007883e+001
2001600000 1.051524e+000 -2.357192e+001 5.457136e-004 8.110458e+000 9.700511e-004 -9.159152e+000 1.124009e+000 -4.010371e+001
2001700000 1.051685e+000 -2.358254e+001 5.323731e-004 7.155016e+000 9.763559e-004 -9.801534e+000 1.123786e+000 -4.012855e+001
2001800000 1.051901e+000 -2.359015e+001 5.356836e-004 7.649631e+000 9.794238e-004 -1.142198e+001 1.123587e+000 -4.015245e+001
2001900000 1.052051e+000 -2.359661e+001 5.392159e-004 7.044125e+000 9.800176e-004 -1.061817e+001 1.123446e+000 -4.016922e+001
2002000000 1.052284e+000 -2.359637e+001 5.460088e-004 7.698833e+000 9.864894e-004 -1.122686e+001 1.123320e+000 -4.018691e+001
2002100000 1.052238e+000 -2.358870e+001 5.422755e-004 7.913040e+000 9.839904e-004 -1.150023e+001 1.123529e+000 -4.016576e+001
2002200000 1.052225e+000 -2.357454e+001 5.498540e-004 6.400263e+000 9.791362e-004 -1.249140e+001 1.123744e+000 -4.014090e+001
2002300000 1.052212e+000 -2.356453e+001 5.564438e-004 6.879721e+000 9.768419e-004 -1.331316e+001 1.123880e+000 -4.011650e+001
2002400000 1.052163e+000 -2.355574e+001 5.537083e-004 6.359759e+000 9.769076e-004 -1.228553e+001 1.124046e+000 -4.009151e+001
2002500000 1.052063e+000 -2.354917e+001 5.525774e-004 6.284592e+000 9.667237e-004 -1.229383e+001 1.124249e+000 -4.006578e+001
2002600000 1.051986e+000 -2.353868e+001 5.465245e-004 4.733788e+000 9.884773e-004 -1.163795e+001 1.124290e+000 -4.004373e+001
2002700000 1.051867e+000 -2.353462e+001 5.560098e-004 4.955402e+000 9.923977e-004 -1.272275e+001 1.124451e+000 -4.002829e+001
2002800000 1.051744e+000 -2.353344e+001 5.536949e-004 5.154905e+000 9.918830e-004 -1.311917e+001 1.124436e+000 -4.001931e+001
2002900000 1.051667e+000 -2.354446e+001 5.593469e-004 5.370840e+000 1.001858e-003 -1.471373e+001 1.124554e+000 -4.003495e+001
2003000000 1.051501e+000 -2.355371e+001 5.539676e-004 5.162137e+000 9.923055e-004 -1.399211e+001 1.124626e+000 -4.005028e+001
2003100000 1.051436e+000 -2.356094e+001 5.492786e-004 4.903470e+000 9.953172e-004 -1.448327e+001 1.124585e+000 -4.006877e+001
2003200000 1.051412e+000 -2.356678e+001 5.573826e-004 3.383694e+000 9.942923e-004 -1.603744e+001 1.124685e+000 -4.008582e+001
2003300000 1.051345e+000 -2.357439e+001 5.528480e-004 3.523915e+000 9.868118e-004 -1.483719e+001 1.124684e+000 -4.009686e+001
2003400000 1.051304e+000 -2.358033e+001 5.583914e-004 3.611607e+000 9.767431e-004 -1.611740e+001 1.124777e+000 -4.011558e+001
2003500000 1.051334e+000 -2.358668e+001 5.571304e-004 3.178437e+000 1.012329e-003 -1.623434e+001 1.124846e+000 -4.012665e+001
2003600000 1.051419e+000 -2.359358e+001 5.646196e-004 2.050687e+000 9.992960e-004 -1.687821e+001 1.125044e+000 -4.012024e+001
2003700000 1.051391e+000 -2.360266e+001 5.628463e-004 1.494562e+000 1.017253e-003 -1.600190e+001 1.125239e+000 -4.011398e+001
2003800000 1.051468e+000 -2.360406e+001 5.617669e-004 1.543137e+000 9.998796e-004 -1.736979e+001 1.125404e+000 -4.011009e+001
2003900000 1.051425e+000 -2.361585e+001 5.577594e-004 7.318838e-001 1.006128e-003 -1.725731e+001 1.125471e+000 -4.010891e+001
2004000000 1.051457e+000 -2.361911e+001 5.687148e-004 2.426414e+000 1.001718e-003 -1.706779e+001 1.125576e+000 -4.010264e+001
2004100000 1.051451e+000 -2.362349e+001 5.669136e-004 -3.668605e-001 1.007635e-003 -1.820440e+001 1.125586e+000 -4.010054e+001
2004200000 1.051445e+000 -2.363075e+001 5.660456e-004 1.248276e-001 9.903111e-004 -1.742064e+001 1.125483e+000 -4.010066e+001
2004300000 1.051499e+000 -2.363433e+001 5.720587e-004 9.257683e-001 9.969608e-004 -1.831511e+001 1.125408e+000 -4.009998e+001
2004400000 1.051614e+000 -2.362984e+001 5.703127e-004 -6.290918e-002 1.013275e-003 -1.854715e+001 1.125051e+000 -4.009688e+001
2004500000 1.051700e+000 -2.362905e+001 5.689110e-004 3.113521e-002 1.008680e-003 -1.960462e+001 1.124846e+000 -4.009648e+001
2004600000 1.051757e+000 -2.362819e+001 5.753171e-004 4.645375e-001 1.002180e-003 -2.049404e+001 1.124552e+000 -4.009352e+001
2004700000 1.051819e+000 -2.362937e+001 5.755010e-004 -1.760890e+000 1.012462e-003 -2.051977e+001 1.124410e+000 -4.009217e+001
2004800000 1.051904e+000 -2.362599e+001 5.764556e-004 -3.536281e-001 1.023753e-003 -2.049288e+001 1.124318e+000 -4.008842e+001
2004900000 1.051976e+000 -2.362530e+001 5.700919e-004 -1.171839e+000 1.010721e-003 -2.014508e+001 1.124135e+000 -4.009363e+001
2005000000 1.052023e+000 -2.362649e+001 5.837812e-004 -1.826988e+000 1.032442e-003 -2.090159e+001 1.124121e+000 -4.009311e+001
2005100000 1.051972e+000 -2.363147e+001 5.742784e-004 -1.474378e+000 1.020697e-003 -2.110509e+001 1.124300e+000 -4.008581e+001
2005200000 1.051995e+000 -2.363864e+001 5.745284e-004 -1.809100e+000 1.031738e-003 -2.131515e+001 1.124442e+000 -4.007279e+001
2005300000 1.051891e+000 -2.364408e+001 5.784976e-004 -2.695968e+000 1.051140e-003 -2.150370e+001 1.124621e+000 -4.006698e+001
2005400000 1.051941e+000 -2.364612e+001 5.819641e-004 -2.846116e+000 1.031666e-003 -2.132934e+001 1.124840e+000 -4.005513e+001
2005500000 1.051863e+000 -2.365174e+001 5.833515e-004 -3.530510e+000 1.028525e-003 -2.207046e+001 1.124991e+000 -4.005307e+001
2005600000 1.051839e+000 -2.365248e+001 5.809185e-004 -2.947262e+000 1.038507e-003 -2.199401e+001 1.125125e+000 -4.004675e+001
2005700000 1.051841e+000 -2.365540e+001 5.784230e-004 -5.049718e+000 1.033263e-003 -2.288222e+001 1.125291e+000 -4.004110e+001
2005800000 1.051886e+000 -2.365538e+001 5.816327e-004 -3.107266e+000 1.040056e-003 -2.245149e+001 1.125471e+000 -4.004076e+001
2005900000 1.051972e+000 -2.365572e+001 5.794581e-004 -3.748997e+000 1.046083e-003 -2.397668e+001 1.125587e+000 -4.005362e+001
2006000000 1.052021e+000 -2.365431e+001 5.814309e-004 -4.086133e+000 1.070845e-003 -2.375812e+001 1.125777e+000 -4.005934e+001
2006100000 1.052075e+000 -2.365384e+001 5.847741e-004 -4.600550e+000 1.038584e-003 -2.335863e+001 1.125850e+000 -4.007412e+001
2006200000 1.052096e+000 -2.365807e+001 5.955304e-004 -5.206106e+000 1.049354e-003 -2.357828e+001 1.126014e+000 -4.008448e+001
2006300000 1.052099e+000 -2.365734e+001 5.956276e-004 -5.156089e+000 1.032804e-003 -2.449943e+001 1.126038e+000 -4.009608e+001
2006400000 1.052128e+000 -2.365992e+001 5.814046e-004 -6.496954e+000 1.048918e-003 -2.438605e+001 1.126064e+000 -4.011088e+001
2006500000 1.052162e+000 -2.366188e+001 5.976968e-004 -5.334827e+000 1.073251e-003 -2.576712e+001 1.126091e+000 -4.012477e+001
2006600000 1.052082e+000 -2.366599e+001 5.794005e-004 -5.642666e+000 1.040297e-003 -2.496179e+001 1.126081e+000 -4.013063e+001
2006700000 1.051990e+000 -2.366784e+001 5.836312e-004 -6.940753e+000 1.056738e-003 -2.569761e+001 1.125998e+000 -4.013284e+001
2006800000 1.051887e+000 -2.367414e+001 5.950599e-004 -7.251515e+000 1.042109e-003 -2.608108e+001 1.125985e+000 -4.013674e+001
2006900000 1.051870e+000 -2.367727e+001 5.877913e-004 -7.698714e+000 1.065298e-003 -2.568079e+001 1.125897e+000 -4.013788e+001
2007000000 1.051826e+000 -2.367731e+001 6.036597e-004 -7.488891e+000 1.065004e-003 -2.526782e+001 1.125919e+000 -4.013900e+001
2007100000 1.051808e+000 -2.368044e+001 5.898049e-004 -7.443402e+000 1.079069e-003 -2.692103e+001 1.125684e+000 -4.014612e+001
2007200000 1.051814e+000 -2.368220e+001 5.968612e-004 -7.507915e+000 1.062540e-003 -2.695444e+001 1.125733e+000 -4.014421e+001
2007300000 1.051848e+000 -2.368914e+001 5.877324e-004 -7.845886e+000 1.070777e-003 -2.622428e+001 1.125508e+000 -4.014814e+001
2007400000 1.051853e+000 -2.369532e+001 5.973043e-004 -9.144355e+000 1.064465e-003 -2.837644e+001 1.125334e+000 -4.013813e+001
2007500000 1.051866e+000 -2.370245e+001 6.032363e-004 -9.099199e+000 1.083083e-003 -2.688903e+001 1.125030e+000 -4.013115e+001
2007600000 1.051875e+000 -2.371125e+001 5.823681e-004 -8.554267e+000 1.070087e-003 -2.787547e+001 1.124848e+000 -4.012791e+001
2007700000 1.051883e+000 -2.371667e+001 5.982015e-004 -9.417116e+000 1.075253e-003 -2.835375e+001 1.124719e+000 -4.011499e+001
2007800000 1.051917e+000 -2.372202e+001 5.882893e-004 -8.872552e+000 1.071370e-003 -2.787154e+001 1.124565e+000 -4.011319e+001
2007900000 1.051914e+000 -2.372909e+001 5.859470e-004 -8.539085e+000 1.068764e-003 -2.851094e+001 1.124409e+000 -4.010744e+001
2008000000 1.051920e+000 -2.373030e+001 6.052518e-004 -9.965807e+000 1.073386e-003 -2.850063e+001 1.124263e+000 -4.010557e+001
2008100000 1.051844e+000 -2.371789e+001 5.898661e-004 -1.070927e+001 1.072154e-003 -3.007673e+001 1.124041e+000 -4.010212e+001
2008200000 1.051750e+000 -2.370789e+001 6.037991e-004 -1.046609e+001 1.085718e-003 -2.964612e+001 1.123846e+000 -4.010466e+001
2008300000 1.051701e+000 -2.369627e+001 5.917118e-004 -1.114576e+001 1.072180e-003 -2.971251e+001 1.123771e+000 -4.010470e+001
2008400000 1.051607e+000 -2.368344e+001 6.064085e-004 -1.096625e+001 1.079479e-003 -2.978611e+001 1.123632e+000 -4.010741e+001
2008500000 1.051600e+000 -2.367625e+001 5.996354e-004 -1.150992e+001 1.064868e-003 -2.947756e+001 1.123653e+000 -4.011670e+001
2008600000 1.051588e+000 -2.366870e+001 6.023078e-004 -1.077904e+001 1.082615e-003 -3.102378e+001 1.123524e+000 -4.011641e+001
2008700000 1.051561e+000 -2.365973e+001 6.080232e-004 -1.164396e+001 1.059665e-003 -3.012692e+001 1.123586e+000 -4.012438e+001
2008800000 1.051529e+000 -2.365881e+001 6.083226e-004 -1.309916e+001 1.083282e-003 -3.043268e+001 1.123709e+000 -4.013754e+001
2008900000 1.051470e+000 -2.367160e+001 6.079455e-004 -1.301354e+001 1.093877e-003 -3.021455e+001 1.124000e+000 -4.014589e+001
2009000000 1.051460e+000 -2.368095e+001 6.147362e-004 -1.196791e+001 1.077208e-003 -3.092114e+001 1.124209e+000 -4.015569e+001
2009100000 1.051463e+000 -2.368665e+001 6.070838e-004 -1.258810e+001 1.097979e-003 -3.125880e+001 1.124449e+000 -4.017231e+001
2009200000 1.051444e+000 -2.369464e+001 6.059634e-004 -1.259525e+001 1.086561e-003 -3.034611e+001 1.124687e+000 -4.017948e+001
2009300000 1.051477e+000 -2.370047e+001 6.059408e-004 -1.365539e+001 1.114326e-003 -3.131212e+001 1.124863e+000 -4.019216e+001
2009400000 1.051469e+000 -2.370530e+001 6.073283e-004 -1.353491e+001 1.094728e-003 -3.329155e+001 1.124938e+000 -4.019669e+001
2009500000 1.051465e+000 -2.371154e+001 5.992021e-004 -1.442858e+001 1.080416e-003 -3.153029e+001 1.125158e+000 -4.020862e+001
2009600000 1.051614e+000 -2.371016e+001 6.136902e-004 -1.391625e+001 1.091414e-003 -3.208184e+001 1.125095e+000 -4.020823e+001
2009700000 1.051735e+000 -2.370625e+001 6.046123e-004 -1.438656e+001 1.095683e-003 -3.252232e+001 1.125259e+000 -4.021828e+001
2009800000 1.051847e+000 -2.370444e+001 6.137227e-004 -1.416573e+001 1.094224e-003 -3.235092e+001 1.125260e+000 -4.022189e+001
2009900000 1.051927e+000 -2.370279e+001 6.119498e-004 -1.445486e+001 1.106506e-003 -3.306031e+001 1.125240e+000 -4.022408e+001
2010000000 1.051991e+000 -2.370038e+001 6.043872e-004 -1.516012e+001 1.090922e-003 -3.410328e+001 1.125207e+000 -4.023043e+001
2010100000 1.052047e+000 -2.369732e+001 6.074657e-004 -1.551780e+001 1.086751e-003 -3.380685e+001 1.125169e+000 -4.023339e+001
2010200000 1.052099e+000 -2.369942e+001 6.091946e-004 -1.535179e+001 1.092926e-003 -3.399007e+001 1.125173e+000 -4.023659e+001
2010300000 1.052096e+000 -2.369217e+001 6.096168e-004 -1.429693e+001 1.074535e-003 -3.343456e+001 1.124891e+000 -4.024057e+001
2010400000 1.052134e+000 -2.369129e+001 6.147011e-004 -1.579288e+001 1.091759e-003 -3.466059e+001 1.124588e+000 -4.024367e+001
2010500000 1.052077e+000 -2.368840e+001 6.139684e-004 -1.576093e+001 1.103955e-003 -3.498822e+001 1.124398e+000 -4.023845e+001
2010600000 1.052102e+000 -2.368664e+001 6.032311e-004 -1.663500e+001 1.107676e-003 -3.444210e+001 1.124203e+000 -4.024391e+001
2010700000 1.052041e+000 -2.368561e+001 6.248215e-004 -1.651116e+001 1.092783e-003 -3.340212e+001 1.123934e+000 -4.024647e+001
2010800000 1.052040e+000 -2.368385e+001 6.224494e-004 -1.709039e+001 1.099564e-003 -3.442353e+001 1.123722e+000 -4.024802e+001
2010900000 1.051985e+000 -2.368716e+001 6.148890e-004 -1.676712e+001 1.105026e-003 -3.493604e+001 1.123620e+000 -4.024798e+001
2011000000 1.051929e+000 -2.368970e+001 6.129775e-004 -1.683731e+001 1.090331e-003 -3.558632e+001 1.123463e+000 -4.025224e+001
2011100000 1.051636e+000 -2.368969e+001 6.167691e-004 -1.656537e+001 1.108866e-003 -3.551539e+001 1.123699e+000 -4.023805e+001
2011200000 1.051417e+000 -2.369266e+001 6.116141e-004 -1.835829e+001 1.108419e-003 -3.632963e+001 1.123876e+000 -4.021469e+001
2011300000 1.051126e+000 -2.370012e+001 6.072033e-004 -1.737730e+001 1.120394e-003 -3.607336e+001 1.124144e+000 -4.019392e+001
2011400000 1.050900e+000 -2.369969e+001 6.155696e-004 -1.831911e+001 1.110361e-003 -3.631833e+001 1.124307e+000 -4.017916e+001
2011500000 1.050730e+000 -2.370538e+001 6.178281e-004 -1.855062e+001 1.112611e-003 -3.753190e+001 1.124518e+000 -4.016564e+001
2011600000 1.050651e+000 -2.370975e+001 6.197596e-004 -1.829435e+001 1.110230e-003 -3.703568e+001 1.124652e+000 -4.014776e+001
2011700000 1.050563e+000 -2.371039e+001 6.204747e-004 -1.900785e+001 1.099481e-003 -3.662533e+001 1.124802e+000 -4.013350e+001
2011800000 1.050554e+000 -2.371863e+001 6.199576e-004 -2.023263e+001 1.104679e-003 -3.600185e+001 1.124753e+000 -4.013273e+001
2011900000 1.050714e+000 -2.373511e+001 6.307833e-004 -1.928874e+001 1.082310e-003 -3.699557e+001 1.124203e+000 -4.015297e+001
2012000000 1.050855e+000 -2.374914e+001 6.237663e-004 -2.026157e+001 1.108899e-003 -3.731126e+001 1.123718e+000 -4.016413e+001
2012100000 1.051057e+000 -2.375460e+001 6.197804e-004 -1.919820e+001 1.099140e-003 -3.782510e+001 1.123440e+000 -4.018462e+001
2012200000 1.051297e+000 -2.376298e+001 6.125444e-004 -1.895315e+001 1.083490e-003 -3.669035e+001 1.123155e+000 -4.019963e+001
2012300000 1.051584e+000 -2.376709e+001 6.204710e-004 -1.996593e+001 1.087040e-003 -3.739906e+001 1.122944e+000 -4.022000e+001
2012400000 1.051928e+000 -2.376776e+001 6.376136e-004 -2.004070e+001 1.104501e-003 -3.749578e+001 1.122849e+000 -4.023279e+001
2012500000 1.052130e+000 -2.376576e+001 6.168724e-004 -2.060079e+001 1.104158e-003 -3.908431e+001 1.122752e+000 -4.025051e+001
2012600000 1.052446e+000 -2.373642e+001 6.172349e-004 -2.032061e+001 1.098084e-003 -3.933677e+001 1.123616e+000 -4.025245e+001
2012700000 1.052709e+000 -2.371147e+001 6.332664e-004 -2.006777e+001 1.095817e-003 -3.894724e+001 1.124457e+000 -4.025174e+001
2012800000 1.052907e+000 -2.368904e+001 6.408486e-004 -2.057178e+001 1.111938e-003 -3.905465e+001 1.125299e+000 -4.025010e+001
2012900000 1.053140e+000 -2.367085e+001 6.192294e-004 -2.108549e+001 1.088880e-003 -3.948288e+001 1.125915e+000 -4.024246e+001
2013000000 1.053249e+000 -2.365605e+001 6.229269e-004 -2.076332e+001 1.116952e-003 -3.957495e+001 1.126582e+000 -4.023726e+001
2013100000 1.053365e+000 -2.364141e+001 6.148784e-004 -2.135714e+001 1.113942e-003 -4.000000e+001 1.127126e+000 -4.022939e+001
2013200000 1.053341e+000 -2.363533e+001 6.205539e-004 -2.055252e+001 1.111033e-003 -3.920919e+001 1.127448e+000 -4.021585e+001
2013300000 1.053042e+000 -2.363919e+001 6.194068e-004 -2.190451e+001 1.102084e-003 -3.838360e+001 1.127568e+000 -4.020683e+001
2013400000 1.052421e+000 -2.365993e+001 6.148925e-004 -2.257866e+001 1.114739e-003 -4.034138e+001 1.127409e+000 -4.020102e+001
2013500000 1.051920e+000 -2.367741e+001 6.208553e-004 -2.239677e+001 1.099644e-003 -4.086218e+001 1.127026e+000 -4.018741e+001
2013600000 1.051408e+000 -2.369674e+001 6.324463e-004 -2.226573e+001 1.129656e-003 -4.027409e+001 1.126947e+000 -4.018463e+001
2013700000 1.051039e+000 -2.371413e+001 6.229964e-004 -2.194269e+001 1.113112e-003 -4.177218e+001 1.126638e+000 -4.017701e+001
2013800000 1.050709e+000 -2.372836e+001 6.262541e-004 -2.092009e+001 1.115812e-003 -4.127116e+001 1.126529e+000 -4.017179e+001
2013900000 1.050494e+000 -2.374716e+001 6.296229e-004 -2.360315e+001 1.096323e-003 -4.128923e+001 1.126324e+000 -4.016333e+001
2014000000 1.050310e+000 -2.375716e+001 6.258529e-004 -2.294197e+001 1.117924e-003 -4.071189e+001 1.126163e+000 -4.016279e+001
2014100000 1.050586e+000 -2.374726e+001 6.237731e-004 -2.269080e+001 1.111858e-003 -4.038057e+001 1.126071e+000 -4.017258e+001
2014200000 1.050805e+000 -2.373927e+001 6.358602e-004 -2.372565e+001 1.128597e-003 -4.091669e+001 1.125849e+000 -4.019614e+001
2014300000 1.051081e+000 -2.372356e+001 6.328305e-004 -2.424577e+001 1.124980e-003 -4.084604e+001 1.125588e+000 -4.020758e+001
2014400000 1.051292e+000 -2.371420e+001 6.265028e-004 -2.353759e+001 1.111119e-003 -4.139640e+001 1.125379e+000 -4.022724e+001
2014500000 1.051456e+000 -2.370752e+001 6.364060e-004 -2.347775e+001 1.104141e-003 -4.176313e+001 1.125225e+000 -4.023882e+001
2014600000 1.051543e+000 -2.369929e+001 6.399748e-004 -2.424735e+001 1.119284e-003 -4.191711e+001 1.125038e+000 -4.025474e+001
2014700000 1.051661e+000 -2.369683e+001 6.290553e-004 -2.414297e+001 1.135821e-003 -4.241789e+001 1.124810e+000 -4.026705e+001
2014800000 1.051452e+000 -2.369685e+001 6.432771e-004 -2.432159e+001 1.121303e-003 -4.230462e+001 1.124549e+000 -4.026656e+001
2014900000 1.051286e+000 -2.371178e+001 6.439100e-004 -2.533564e+001 1.129462e-003 -4.234425e+001 1.124270e+000 -4.025633e+001
2015000000 1.051066e+000 -2.372733e+001 6.357756e-004 -2.406597e+001 1.124750e-003 -4.194450e+001 1.124116e+000 -4.024427e+001
2015100000 1.051037e+000 -2.374144e+001 6.320530e-004 -2.555308e+001 1.129791e-003 -4.249025e+001 1.123780e+000 -4.023782e+001
2015200000 1.050788e+000 -2.375312e+001 6.414246e-004 -2.401436e+001 1.118526e-003 -4.195888e+001 1.123723e+000 -4.022318e+001
2015300000 1.050758e+000 -2.376803e+001 6.295454e-004 -2.634939e+001 1.122078e-003 -4.351392e+001 1.123547e+000 -4.021970e+001
