!Agilent Technologies,N5230C,SG49000117,A.08.50.07
!Agilent N5230C: A.08.50.07
!Date: Tuesday, May 07, 2024 00:23:25
!Correction: S11(Full 2 Port(1,2)) 
!S21(Full 2 Port(1,2)) 
!S12(Full 2 Port(1,2)) 
!S22(Full 2 Port(1,2)) 
!S2P File: Measurements: S11, S21, S12, S22:
# Hz S  MA   R 50
2000000000 1.052004e+000 -2.359152e+001 1.256008e-003 2.538333e+001 2.293140e-003 6.636189e+000 1.127180e+000 -3.943513e+001
2000100000 1.051804e+000 -2.359647e+001 1.272853e-003 2.552800e+001 2.283782e-003 6.533769e+000 1.127525e+000 -3.943090e+001
2000200000 1.051643e+000 -2.360154e+001 1.269353e-003 2.570971e+001 2.276447e-003 7.127945e+000 1.127784e+000 -3.942597e+001
2000300000 1.051491e+000 -2.361152e+001 1.259811e-003 2.593011e+001 2.278221e-003 7.055363e+000 1.127971e+000 -3.943365e+001
2000400000 1.051371e+000 -2.361977e+001 1.266144e-003 2.586546e+001 2.271059e-003 7.249249e+000 1.128164e+000 -3.944038e+001
2000500000 1.051331e+000 -2.362909e+001 1.249228e-003 2.507522e+001 2.276672e-003 6.424833e+000 1.128288e+000 -3.945063e+001
2000600000 1.051323e+000 -2.361992e+001 1.262995e-003 2.552509e+001 2.260461e-003 7.056123e+000 1.128332e+000 -3.942756e+001
2000700000 1.051331e+000 -2.360913e+001 1.249313e-003 2.544014e+001 2.255423e-003 6.944687e+000 1.128267e+000 -3.941354e+001
2000800000 1.051316e+000 -2.360207e+001 1.257862e-003 2.583963e+001 2.246737e-003 7.140507e+000 1.128148e+000 -3.939634e+001
2000900000 1.051274e+000 -2.359295e+001 1.245245e-003 2.583979e+001 2.277931e-003 7.877870e+000 1.128109e+000 -3.938254e+001
2001000000 1.051298e+000 -2.358479e+001 1.231982e-003 2.542631e+001 2.241108e-003 7.426939e+000 1.127890e+000 -3.937787e+001
2001100000 1.051234e+000 -2.357485e+001 1.239383e-003 2.563591e+001 2.250360e-003 7.535406e+000 1.127822e+000 -3.936837e+001
2001200000 1.051182e+000 -2.356655e+001 1.234070e-003 2.599203e+001 2.249211e-003 7.855663e+000 1.127722e+000 -3.936469e+001
2001300000 1.051235e+000 -2.356841e+001 1.234199e-003 2.587587e+001 2.235967e-003 8.103696e+000 1.127626e+000 -3.937846e+001
2001400000 1.051380e+000 -2.358650e+001 1.238044e-003 2.594194e+001 2.244218e-003 7.571847e+000 1.127313e+000 -3.940574e+001
2001500000 1.051461e+000 -2.360141e+001 1.234283e-003 2.614258e+001 2.229847e-003 7.989373e+000 1.127067e+000 -3.943363e+001
2001600000 1.051627e+000 -2.361483e+001 1.241830e-003 2.649150e+001 2.243225e-003 7.747443e+000 1.126906e+000 -3.946113e+001
2001700000 1.051811e+000 -2.362598e+001 1.232354e-003 2.545669e+001 2.231740e-003 7.125119e+000 1.126687e+000 -3.948579e+001
2001800000 1.052004e+000 -2.363135e+001 1.230157e-003 2.611869e+001 2.240291e-003 7.447190e+000 1.126593e+000 -3.951457e+001
2001900000 1.052186e+000 -2.363733e+001 1.236441e-003 2.652341e+001 2.220896e-003 7.851603e+000 1.126381e+000 -3.953482e+001
2002000000 1.052371e+000 -2.363993e+001 1.232658e-003 2.602862e+001 2.201311e-003 8.043046e+000 1.126253e+000 -3.955629e+001
2002100000 1.052442e+000 -2.362877e+001 1.226245e-003 2.639817e+001 2.209487e-003 8.272144e+000 1.126456e+000 -3.952722e+001
2002200000 1.052401e+000 -2.361452e+001 1.218985e-003 2.624550e+001 2.207388e-003 8.036700e+000 1.126670e+000 -3.950082e+001
2002300000 1.052340e+000 -2.360553e+001 1.223883e-003 2.686291e+001 2.220973e-003 8.549479e+000 1.126929e+000 -3.947907e+001
2002400000 1.052243e+000 -2.359598e+001 1.217354e-003 2.697876e+001 2.206167e-003 8.106805e+000 1.127041e+000 -3.944979e+001
2002500000 1.052261e+000 -2.359073e+001 1.215285e-003 2.665294e+001 2.214375e-003 7.915519e+000 1.127116e+000 -3.943353e+001
2002600000 1.052166e+000 -2.358020e+001 1.214969e-003 2.695163e+001 2.187520e-003 8.013971e+000 1.127303e+000 -3.941019e+001
2002700000 1.052064e+000 -2.357468e+001 1.208665e-003 2.669939e+001 2.200940e-003 8.211346e+000 1.127382e+000 -3.939113e+001
2002800000 1.051908e+000 -2.357823e+001 1.214267e-003 2.730718e+001 2.169438e-003 7.754750e+000 1.127435e+000 -3.938718e+001
2002900000 1.051799e+000 -2.358695e+001 1.205091e-003 2.736252e+001 2.189136e-003 8.804062e+000 1.127507e+000 -3.940529e+001
2003000000 1.051654e+000 -2.359583e+001 1.212371e-003 2.752612e+001 2.156458e-003 8.221339e+000 1.127524e+000 -3.941879e+001
2003100000 1.051581e+000 -2.360580e+001 1.214835e-003 2.678449e+001 2.158365e-003 8.758212e+000 1.127639e+000 -3.943710e+001
2003200000 1.051555e+000 -2.361356e+001 1.207549e-003 2.708014e+001 2.161544e-003 9.244797e+000 1.127676e+000 -3.944937e+001
2003300000 1.051495e+000 -2.361701e+001 1.209186e-003 2.761885e+001 2.150491e-003 9.416245e+000 1.127737e+000 -3.946842e+001
2003400000 1.051451e+000 -2.362439e+001 1.191911e-003 2.739623e+001 2.166933e-003 8.802335e+000 1.127804e+000 -3.948230e+001
2003500000 1.051464e+000 -2.362877e+001 1.198997e-003 2.737355e+001 2.171291e-003 9.029337e+000 1.127992e+000 -3.950127e+001
2003600000 1.051499e+000 -2.363614e+001 1.188456e-003 2.753128e+001 2.153450e-003 8.305442e+000 1.128143e+000 -3.949418e+001
2003700000 1.051559e+000 -2.364513e+001 1.188735e-003 2.718204e+001 2.163339e-003 8.703077e+000 1.128245e+000 -3.948873e+001
2003800000 1.051600e+000 -2.364960e+001 1.193859e-003 2.810931e+001 2.163550e-003 8.971835e+000 1.128493e+000 -3.948513e+001
2003900000 1.051592e+000 -2.365740e+001 1.190678e-003 2.759959e+001 2.140858e-003 9.344363e+000 1.128475e+000 -3.948198e+001
2004000000 1.051658e+000 -2.366194e+001 1.189125e-003 2.836880e+001 2.149449e-003 9.023277e+000 1.128454e+000 -3.947718e+001
2004100000 1.051659e+000 -2.366882e+001 1.188408e-003 2.763001e+001 2.141381e-003 9.298326e+000 1.128617e+000 -3.947735e+001
2004200000 1.051607e+000 -2.367416e+001 1.198223e-003 2.760254e+001 2.141869e-003 9.175277e+000 1.128676e+000 -3.947997e+001
2004300000 1.051670e+000 -2.367886e+001 1.188898e-003 2.772942e+001 2.107863e-003 9.608197e+000 1.128454e+000 -3.947807e+001
2004400000 1.051735e+000 -2.367228e+001 1.191675e-003 2.889766e+001 2.141570e-003 9.503234e+000 1.128165e+000 -3.947526e+001
2004500000 1.051815e+000 -2.367079e+001 1.189967e-003 2.833204e+001 2.147210e-003 1.002370e+001 1.127882e+000 -3.947397e+001
2004600000 1.051913e+000 -2.366893e+001 1.180317e-003 2.846536e+001 2.136123e-003 9.715606e+000 1.127695e+000 -3.947698e+001
2004700000 1.052026e+000 -2.367083e+001 1.194719e-003 2.866962e+001 2.127818e-003 9.884470e+000 1.127510e+000 -3.947438e+001
2004800000 1.052054e+000 -2.366529e+001 1.194753e-003 2.885806e+001 2.120794e-003 9.692283e+000 1.127318e+000 -3.947178e+001
2004900000 1.052148e+000 -2.367060e+001 1.187694e-003 2.809536e+001 2.114787e-003 9.605869e+000 1.127356e+000 -3.947603e+001
2005000000 1.052205e+000 -2.367343e+001 1.176859e-003 2.841760e+001 2.121486e-003 9.798500e+000 1.127182e+000 -3.947868e+001
2005100000 1.052133e+000 -2.367412e+001 1.185157e-003 2.895916e+001 2.121048e-003 9.094130e+000 1.127456e+000 -3.947061e+001
2005200000 1.052130e+000 -2.368168e+001 1.180881e-003 2.865676e+001 2.125242e-003 9.920649e+000 1.127530e+000 -3.946020e+001
2005300000 1.052099e+000 -2.368568e+001 1.171831e-003 2.882940e+001 2.119853e-003 1.076688e+001 1.127744e+000 -3.945619e+001
2005400000 1.052115e+000 -2.368970e+001 1.180888e-003 2.924505e+001 2.120656e-003 1.053474e+001 1.127982e+000 -3.944999e+001
2005500000 1.052045e+000 -2.369460e+001 1.170461e-003 2.934002e+001 2.118425e-003 1.026628e+001 1.128076e+000 -3.943813e+001
2005600000 1.052138e+000 -2.369522e+001 1.180037e-003 2.887513e+001 2.110162e-003 1.058207e+001 1.128233e+000 -3.943492e+001
2005700000 1.052081e+000 -2.369881e+001 1.166803e-003 2.884055e+001 2.118405e-003 1.095139e+001 1.128407e+000 -3.942809e+001
2005800000 1.052074e+000 -2.370090e+001 1.172261e-003 2.885496e+001 2.120616e-003 1.036156e+001 1.128574e+000 -3.942971e+001
2005900000 1.052172e+000 -2.369995e+001 1.172133e-003 2.931499e+001 2.098678e-003 1.130946e+001 1.128796e+000 -3.944201e+001
2006000000 1.052176e+000 -2.370099e+001 1.177247e-003 2.975076e+001 2.107400e-003 1.131638e+001 1.128995e+000 -3.945218e+001
2006100000 1.052231e+000 -2.370211e+001 1.165480e-003 2.892594e+001 2.088112e-003 1.049696e+001 1.129030e+000 -3.946520e+001
2006200000 1.052275e+000 -2.370077e+001 1.171663e-003 2.927173e+001 2.092839e-003 1.072963e+001 1.129135e+000 -3.947875e+001
2006300000 1.052358e+000 -2.370181e+001 1.162611e-003 2.942881e+001 2.079480e-003 1.112542e+001 1.129143e+000 -3.949105e+001
2006400000 1.052318e+000 -2.370523e+001 1.168120e-003 2.916623e+001 2.104466e-003 1.146195e+001 1.129199e+000 -3.950533e+001
2006500000 1.052341e+000 -2.370500e+001 1.160224e-003 2.986284e+001 2.087415e-003 1.122973e+001 1.129238e+000 -3.951665e+001
2006600000 1.052263e+000 -2.371220e+001 1.158155e-003 2.925943e+001 2.085158e-003 1.090555e+001 1.129165e+000 -3.952618e+001
2006700000 1.052239e+000 -2.371395e+001 1.165887e-003 3.062107e+001 2.048890e-003 1.130955e+001 1.129120e+000 -3.952878e+001
2006800000 1.052135e+000 -2.371580e+001 1.165197e-003 2.993005e+001 2.096479e-003 1.105772e+001 1.129170e+000 -3.953442e+001
2006900000 1.052040e+000 -2.372105e+001 1.168283e-003 3.023811e+001 2.094012e-003 1.161785e+001 1.129088e+000 -3.953707e+001
2007000000 1.052086e+000 -2.372203e+001 1.172083e-003 2.985569e+001 2.069298e-003 1.149363e+001 1.129052e+000 -3.953799e+001
2007100000 1.051989e+000 -2.372503e+001 1.165541e-003 3.014520e+001 2.086076e-003 1.107561e+001 1.128944e+000 -3.954628e+001
2007200000 1.052036e+000 -2.372910e+001 1.164330e-003 3.039639e+001 2.074388e-003 1.192159e+001 1.128892e+000 -3.955210e+001
2007300000 1.052044e+000 -2.373227e+001 1.166426e-003 3.045065e+001 2.070375e-003 1.145500e+001 1.128694e+000 -3.955080e+001
2007400000 1.052023e+000 -2.374168e+001 1.159330e-003 2.999372e+001 2.068524e-003 1.276407e+001 1.128542e+000 -3.954437e+001
2007500000 1.052114e+000 -2.374815e+001 1.160498e-003 3.044139e+001 2.057594e-003 1.217092e+001 1.128247e+000 -3.953584e+001
2007600000 1.052046e+000 -2.375510e+001 1.156422e-003 3.046568e+001 2.079073e-003 1.245642e+001 1.128042e+000 -3.952678e+001
2007700000 1.052053e+000 -2.376404e+001 1.150519e-003 3.076662e+001 2.080962e-003 1.224129e+001 1.127853e+000 -3.952119e+001
2007800000 1.052153e+000 -2.376653e+001 1.168613e-003 3.037208e+001 2.079628e-003 1.221476e+001 1.127675e+000 -3.952021e+001
2007900000 1.052123e+000 -2.377229e+001 1.164502e-003 3.029301e+001 2.073533e-003 1.278215e+001 1.127573e+000 -3.951221e+001
2008000000 1.052075e+000 -2.377756e+001 1.156567e-003 3.090158e+001 2.069088e-003 1.198509e+001 1.127429e+000 -3.950856e+001
2008100000 1.052019e+000 -2.376656e+001 1.163560e-003 3.058185e+001 2.102917e-003 1.215935e+001 1.127199e+000 -3.951032e+001
2008200000 1.051965e+000 -2.375127e+001 1.150063e-003 3.093311e+001 2.083842e-003 1.220400e+001 1.127028e+000 -3.951259e+001
2008300000 1.051940e+000 -2.374121e+001 1.160210e-003 3.137085e+001 2.052997e-003 1.205868e+001 1.126922e+000 -3.951294e+001
2008400000 1.051922e+000 -2.373265e+001 1.156044e-003 3.110681e+001 2.062826e-003 1.273331e+001 1.126847e+000 -3.951991e+001
2008500000 1.051871e+000 -2.372358e+001 1.158931e-003 3.141056e+001 2.053076e-003 1.302530e+001 1.126738e+000 -3.952656e+001
2008600000 1.051801e+000 -2.371482e+001 1.158807e-003 3.166725e+001 2.051212e-003 1.300747e+001 1.126757e+000 -3.953316e+001
2008700000 1.051806e+000 -2.370778e+001 1.158850e-003 3.155574e+001 2.077505e-003 1.307655e+001 1.126701e+000 -3.953469e+001
2008800000 1.051763e+000 -2.370773e+001 1.155568e-003 3.164119e+001 2.074933e-003 1.346760e+001 1.126848e+000 -3.954890e+001
2008900000 1.051691e+000 -2.371509e+001 1.154853e-003 3.179125e+001 2.079824e-003 1.333329e+001 1.127110e+000 -3.956129e+001
2009000000 1.051664e+000 -2.372624e+001 1.150299e-003 3.242583e+001 2.062298e-003 1.270181e+001 1.127384e+000 -3.957013e+001
2009100000 1.051723e+000 -2.373062e+001 1.150669e-003 3.175157e+001 2.061602e-003 1.323656e+001 1.127617e+000 -3.958282e+001
2009200000 1.051669e+000 -2.374080e+001 1.150990e-003 3.168370e+001 2.064590e-003 1.291133e+001 1.127870e+000 -3.959061e+001
2009300000 1.051737e+000 -2.374251e+001 1.159715e-003 3.192733e+001 2.053871e-003 1.269378e+001 1.128060e+000 -3.960123e+001
2009400000 1.051676e+000 -2.375266e+001 1.144755e-003 3.177585e+001 2.068973e-003 1.346456e+001 1.128143e+000 -3.961161e+001
2009500000 1.051642e+000 -2.375482e+001 1.157643e-003 3.208160e+001 2.073300e-003 1.328535e+001 1.128371e+000 -3.962626e+001
2009600000 1.051860e+000 -2.375483e+001 1.162859e-003 3.191150e+001 2.071510e-003 1.320520e+001 1.128360e+000 -3.962955e+001
2009700000 1.051983e+000 -2.375308e+001 1.165734e-003 3.256296e+001 2.059204e-003 1.298844e+001 1.128406e+000 -3.963008e+001
2009800000 1.052124e+000 -2.375445e+001 1.148052e-003 3.226635e+001 2.053351e-003 1.345013e+001 1.128443e+000 -3.963873e+001
2009900000 1.052198e+000 -2.374732e+001 1.150558e-003 3.202562e+001 2.075875e-003 1.383547e+001 1.128356e+000 -3.964535e+001
2010000000 1.052294e+000 -2.374534e+001 1.158891e-003 3.227578e+001 2.063119e-003 1.360056e+001 1.128368e+000 -3.964452e+001
2010100000 1.052328e+000 -2.374504e+001 1.153813e-003 3.233362e+001 2.054124e-003 1.423443e+001 1.128366e+000 -3.964989e+001
2010200000 1.052374e+000 -2.374428e+001 1.164582e-003 3.237017e+001 2.069236e-003 1.376497e+001 1.128259e+000 -3.965868e+001
2010300000 1.052354e+000 -2.374113e+001 1.148243e-003 3.281643e+001 2.081752e-003 1.439429e+001 1.128000e+000 -3.966342e+001
2010400000 1.052408e+000 -2.373782e+001 1.157878e-003 3.283534e+001 2.073801e-003 1.424616e+001 1.127790e+000 -3.966148e+001
2010500000 1.052401e+000 -2.373732e+001 1.161869e-003 3.284022e+001 2.073006e-003 1.415052e+001 1.127553e+000 -3.966190e+001
2010600000 1.052405e+000 -2.373680e+001 1.161784e-003 3.226290e+001 2.048592e-003 1.459654e+001 1.127369e+000 -3.966600e+001
2010700000 1.052332e+000 -2.373557e+001 1.151265e-003 3.271007e+001 2.048947e-003 1.473500e+001 1.127070e+000 -3.966681e+001
2010800000 1.052286e+000 -2.373538e+001 1.147857e-003 3.335002e+001 2.052600e-003 1.450867e+001 1.126922e+000 -3.966988e+001
2010900000 1.052254e+000 -2.373619e+001 1.150171e-003 3.283966e+001 2.089367e-003 1.469283e+001 1.126746e+000 -3.967696e+001
2011000000 1.052196e+000 -2.373460e+001 1.151693e-003 3.307310e+001 2.067481e-003 1.519947e+001 1.126652e+000 -3.967874e+001
2011100000 1.051936e+000 -2.374259e+001 1.155683e-003 3.342148e+001 2.073132e-003 1.522408e+001 1.126742e+000 -3.966030e+001
2011200000 1.051672e+000 -2.374516e+001 1.156281e-003 3.266093e+001 2.056396e-003 1.509230e+001 1.126979e+000 -3.963705e+001
2011300000 1.051441e+000 -2.374437e+001 1.151158e-003 3.311880e+001 2.050148e-003 1.480691e+001 1.127178e+000 -3.962349e+001
2011400000 1.051193e+000 -2.375067e+001 1.160663e-003 3.350289e+001 2.061204e-003 1.537484e+001 1.127497e+000 -3.961037e+001
2011500000 1.051028e+000 -2.375389e+001 1.147174e-003 3.363962e+001 2.088566e-003 1.501636e+001 1.127583e+000 -3.959364e+001
2011600000 1.050871e+000 -2.375770e+001 1.144686e-003 3.318805e+001 2.069834e-003 1.472327e+001 1.127858e+000 -3.957465e+001
2011700000 1.050850e+000 -2.375825e+001 1.146534e-003 3.290501e+001 2.063032e-003 1.491506e+001 1.127839e+000 -3.956793e+001
2011800000 1.050837e+000 -2.376953e+001 1.148414e-003 3.320768e+001 2.064719e-003 1.524680e+001 1.127721e+000 -3.956210e+001
2011900000 1.050963e+000 -2.378626e+001 1.154965e-003 3.357973e+001 2.055324e-003 1.487375e+001 1.127306e+000 -3.957771e+001
2012000000 1.051181e+000 -2.379838e+001 1.154864e-003 3.387749e+001 2.078199e-003 1.467118e+001 1.126874e+000 -3.959220e+001
2012100000 1.051400e+000 -2.380636e+001 1.149234e-003 3.372255e+001 2.051353e-003 1.507514e+001 1.126604e+000 -3.961045e+001
2012200000 1.051550e+000 -2.381367e+001 1.162925e-003 3.345809e+001 2.068177e-003 1.550672e+001 1.126190e+000 -3.963321e+001
2012300000 1.051922e+000 -2.381706e+001 1.151619e-003 3.359323e+001 2.077443e-003 1.563110e+001 1.126030e+000 -3.964715e+001
2012400000 1.052186e+000 -2.381767e+001 1.159421e-003 3.364446e+001 2.072498e-003 1.528774e+001 1.125928e+000 -3.966835e+001
2012500000 1.052439e+000 -2.381654e+001 1.159125e-003 3.404294e+001 2.075824e-003 1.550809e+001 1.125931e+000 -3.968319e+001
2012600000 1.052772e+000 -2.379131e+001 1.152401e-003 3.387909e+001 2.075500e-003 1.604005e+001 1.126771e+000 -3.968622e+001
2012700000 1.053008e+000 -2.376081e+001 1.157625e-003 3.387995e+001 2.064399e-003 1.538537e+001 1.127643e+000 -3.968355e+001
2012800000 1.053192e+000 -2.373970e+001 1.170709e-003 3.427413e+001 2.086018e-003 1.595312e+001 1.128370e+000 -3.968259e+001
2012900000 1.053364e+000 -2.371822e+001 1.163652e-003 3.409789e+001 2.072048e-003 1.598717e+001 1.129006e+000 -3.967535e+001
2013000000 1.053575e+000 -2.370460e+001 1.158631e-003 3.346366e+001 2.094112e-003 1.541599e+001 1.129699e+000 -3.967335e+001
2013100000 1.053602e+000 -2.369379e+001 1.154542e-003 3.449986e+001 2.107161e-003 1.526232e+001 1.130226e+000 -3.966477e+001
2013200000 1.053640e+000 -2.368727e+001 1.164699e-003 3.433088e+001 2.073374e-003 1.591595e+001 1.130588e+000 -3.965354e+001
2013300000 1.053412e+000 -2.369185e+001 1.169157e-003 3.425672e+001 2.072450e-003 1.629884e+001 1.130657e+000 -3.964453e+001
2013400000 1.052735e+000 -2.371246e+001 1.168600e-003 3.459241e+001 2.075284e-003 1.582841e+001 1.130510e+000 -3.963454e+001
2013500000 1.052225e+000 -2.372838e+001 1.169262e-003 3.420668e+001 2.099390e-003 1.658646e+001 1.130268e+000 -3.962157e+001
2013600000 1.051728e+000 -2.374543e+001 1.166056e-003 3.426421e+001 2.077602e-003 1.609412e+001 1.129918e+000 -3.962230e+001
2013700000 1.051272e+000 -2.376482e+001 1.160026e-003 3.494914e+001 2.073043e-003 1.601272e+001 1.129701e+000 -3.961199e+001
2013800000 1.051082e+000 -2.377926e+001 1.161936e-003 3.412036e+001 2.074271e-003 1.625759e+001 1.129530e+000 -3.960723e+001
2013900000 1.050758e+000 -2.379185e+001 1.163986e-003 3.425948e+001 2.070324e-003 1.659368e+001 1.129380e+000 -3.960355e+001
2014000000 1.050649e+000 -2.380995e+001 1.161993e-003 3.417756e+001 2.075564e-003 1.598264e+001 1.129139e+000 -3.959626e+001
2014100000 1.050976e+000 -2.380099e+001 1.167752e-003 3.472931e+001 2.084571e-003 1.723228e+001 1.129031e+000 -3.960990e+001
2014200000 1.051194e+000 -2.378661e+001 1.184201e-003 3.389154e+001 2.091540e-003 1.635645e+001 1.128832e+000 -3.963010e+001
2014300000 1.051404e+000 -2.377626e+001 1.172935e-003 3.474614e+001 2.080601e-003 1.631650e+001 1.128749e+000 -3.964772e+001
2014400000 1.051663e+000 -2.376736e+001 1.164975e-003 3.479753e+001 2.095014e-003 1.686603e+001 1.128559e+000 -3.966618e+001
2014500000 1.051762e+000 -2.375977e+001 1.170370e-003 3.492659e+001 2.087752e-003 1.694327e+001 1.128243e+000 -3.968309e+001
2014600000 1.051901e+000 -2.375338e+001 1.179698e-003 3.455276e+001 2.055028e-003 1.648401e+001 1.128062e+000 -3.969860e+001
2014700000 1.051903e+000 -2.374810e+001 1.165413e-003 3.509902e+001 2.084408e-003 1.691643e+001 1.127874e+000 -3.970867e+001
2014800000 1.051872e+000 -2.375187e+001 1.180139e-003 3.472433e+001 2.072137e-003 1.650442e+001 1.127628e+000 -3.970549e+001
2014900000 1.051636e+000 -2.376598e+001 1.164462e-003 3.457992e+001 2.070073e-003 1.697369e+001 1.127329e+000 -3.969194e+001
2015000000 1.051415e+000 -2.377961e+001 1.178887e-003 3.510252e+001 2.100286e-003 1.678518e+001 1.127058e+000 -3.968725e+001
2015100000 1.051306e+000 -2.379257e+001 1.172444e-003 3.485664e+001 2.080585e-003 1.710628e+001 1.126918e+000 -3.967590e+001
2015200000 1.051160e+000 -2.380532e+001 1.181330e-003 3.503381e+001 2.077835e-003 1.721834e+001 1.126631e+000 -3.966989e+001
2015300000 1.051051e+000 -2.382221e+001 1.186435e-003 3.467180e+001 2.077933e-003 1.700883e+001 1.126702e+000 -3.965731e+001
2015400000 1.050985e+000 -2.383121e+001 1.181721e-003 3.497189e+001 2.097638e-003 1.712314e+001 1.126551e+000 -3.965544e+001
2015500000 1.050950e+000 -2.384768e+001 1.177891e-003 3.446226e+001 2.102840e-003 1.688393e+001 1.126574e+000 -3.964598e+001
