!Agilent Technologies,N5230C,SG49000117,A.08.50.07
!Agilent N5230C: A.08.50.07
!Date: Wednesday, May 08, 2024 00:04:24
!Correction: S11(Full 2 Port(1,2)) 
!S21(Full 2 Port(1,2)) 
!S12(Full 2 Port(1,2)) 
!S22(Full 2 Port(1,2)) 
!S2P File: Measurements: S11, S21, S12, S22:
# Hz S  MA   R 50
300000 1.002597e+000 -1.756399e-001 6.523085e-006 -1.424706e+002 8.797373e-005 -1.288097e+002 1.009362e+000 -4.891798e-001
1049985 1.000523e+000 -1.571788e-001 1.322848e-005 -1.674719e+002 8.188107e-006 9.477089e+001 1.000342e+000 -2.760610e-001
1799970 9.995522e-001 -1.004610e-001 1.634810e-005 -4.594139e+001 3.096417e-005 9.391846e+001 9.995406e-001 -2.505794e-001
2549955 9.994341e-001 -9.018276e-002 1.018036e-004 -1.081677e+002 1.973952e-004 -1.376563e+002 9.999799e-001 -1.741202e-001
3299940 1.000303e+000 -8.676217e-002 9.801491e-006 -1.495372e+002 7.624884e-006 -5.641594e+001 9.986128e-001 -1.974749e-001
4049925 9.999155e-001 -1.397686e-001 8.177928e-006 -1.550432e+002 1.139421e-005 -2.368424e+001 9.999904e-001 -1.874149e-001
4799910 1.000216e+000 -1.330336e-001 3.881808e-006 7.624315e+001 1.511440e-005 7.148225e+001 1.000438e+000 -1.968426e-001
5549895 9.999855e-001 -1.363841e-001 1.106327e-005 1.618404e+002 8.090229e-006 -6.731957e+001 1.000293e+000 -1.634419e-001
6299880 9.998305e-001 -1.314989e-001 8.742283e-006 -1.462072e+002 1.891666e-005 4.093772e+001 1.000790e+000 -2.304326e-001
7049865 9.996746e-001 -1.596261e-001 1.186797e-005 1.349904e+002 2.511176e-005 -3.433577e+001 1.000291e+000 -2.686255e-001
7799850 1.000076e+000 -1.757154e-001 4.752486e-006 1.666240e+002 1.182302e-005 1.775453e+002 9.992530e-001 -2.829247e-001
8549835 9.998326e-001 -1.727807e-001 1.061683e-006 -1.228495e+002 2.166338e-005 -3.423809e+001 9.999400e-001 -3.443831e-001
9299820 9.999166e-001 -1.882638e-001 2.374819e-006 1.058389e+002 6.694552e-006 -2.900141e+001 9.996406e-001 -3.373445e-001
10049805 1.000129e+000 -2.252230e-001 8.869621e-006 1.143479e+002 2.486196e-005 6.770953e+001 9.998373e-001 -3.632313e-001
10799790 9.998231e-001 -2.054081e-001 1.053144e-005 1.768790e+002 1.154277e-005 1.260545e+002 1.000006e+000 -3.514293e-001
11549775 1.000138e+000 -2.280573e-001 6.381589e-006 -1.614088e+002 1.302191e-005 -7.966102e+001 9.998947e-001 -3.570875e-001
12299760 9.998509e-001 -2.345455e-001 7.310967e-006 -1.605906e+002 7.195133e-006 1.604942e+002 1.001382e+000 -3.836094e-001
13049745 1.000291e+000 -2.939077e-001 3.703490e-006 1.117916e+001 1.940966e-005 -2.246510e+001 1.000154e+000 -4.353765e-001
13799730 1.000106e+000 -3.050227e-001 6.778647e-006 1.296427e+002 4.767542e-005 1.627279e+002 9.992209e-001 -4.680537e-001
14549715 1.000382e+000 -3.268122e-001 1.348821e-006 1.728618e+002 4.673285e-006 -1.521588e+002 1.001055e+000 -4.617235e-001
15299700 9.995812e-001 -3.129034e-001 1.261844e-005 1.431715e+002 3.818949e-005 4.046135e+001 9.999378e-001 -5.256482e-001
16049685 1.000324e+000 -3.180910e-001 1.019343e-005 8.851711e+001 3.348720e-005 9.793800e+001 1.001056e+000 -5.118467e-001
16799670 9.999091e-001 -3.283082e-001 1.252475e-006 1.713020e+002 2.678782e-005 1.451572e+002 1.001994e+000 -5.629860e-001
17549655 1.000233e+000 -3.803070e-001 8.817509e-006 6.155170e+001 2.022231e-005 5.293091e+001 1.001249e+000 -5.500957e-001
18299640 9.999546e-001 -3.568220e-001 1.034449e-005 7.651307e+001 4.441651e-005 1.297384e+002 1.000749e+000 -6.597278e-001
19049625 1.000264e+000 -4.041806e-001 3.689420e-006 1.719376e+002 2.490305e-005 -6.395214e+001 1.000033e+000 -5.796706e-001
19799610 1.000786e+000 -3.942724e-001 1.994409e-005 2.258467e+001 3.401985e-005 -3.161734e+000 9.997479e-001 -6.157997e-001
20549595 9.997811e-001 -3.955037e-001 2.219813e-006 -9.241474e+001 3.431110e-005 1.564341e+002 9.999219e-001 -7.072451e-001
21299580 9.996631e-001 -4.069555e-001 6.077347e-006 -1.067367e+002 2.079198e-005 -1.349427e+002 9.993798e-001 -6.289647e-001
22049565 9.996847e-001 -4.620814e-001 8.704013e-006 1.688847e+002 3.235868e-005 5.654721e+001 9.994298e-001 -6.900896e-001
22799550 1.000560e+000 -4.252056e-001 1.731964e-005 -9.962799e+001 5.134394e-005 -1.554059e+002 1.001354e+000 -7.455778e-001
23549535 1.000454e+000 -4.771621e-001 1.518083e-005 -1.665288e+001 8.277669e-005 -2.477581e+001 1.000318e+000 -7.590741e-001
24299520 1.000166e+000 -4.965757e-001 3.786870e-005 -5.387258e+001 3.919355e-005 1.014567e+002 9.990937e-001 -7.918984e-001
25049505 1.000330e+000 -5.178919e-001 1.738612e-005 1.481367e+002 8.337160e-005 -1.097508e+002 1.000450e+000 -8.291651e-001
25799490 1.000060e+000 -5.148519e-001 1.240501e-005 -5.802927e+001 3.588618e-005 6.584029e+000 1.000110e+000 -9.040900e-001
26549475 1.000897e+000 -5.166978e-001 6.928985e-006 -1.299944e+002 2.544395e-005 1.084152e+002 1.001248e+000 -8.758751e-001
27299460 1.000368e+000 -5.228189e-001 2.337891e-005 -1.200123e+002 5.902058e-005 -1.087520e+002 1.000170e+000 -9.024405e-001
28049445 1.000134e+000 -5.355824e-001 1.098358e-005 -7.353750e+001 3.212392e-005 1.451916e+001 1.001973e+000 -9.288933e-001
28799430 9.999747e-001 -5.988979e-001 6.049903e-006 -1.268696e+002 3.170385e-005 1.248798e+002 9.998062e-001 -1.006730e+000
29549415 1.000302e+000 -5.495750e-001 2.034946e-006 -5.738620e+001 8.105174e-006 -1.018392e+001 1.001287e+000 -9.378392e-001
30299400 1.000203e+000 -5.908870e-001 1.799689e-006 1.372644e+002 2.570857e-005 8.508894e+001 1.001481e+000 -1.009334e+000
31049385 1.000529e+000 -5.549458e-001 6.731673e-006 -1.441033e+002 4.130287e-005 1.766905e+002 9.999306e-001 -1.044045e+000
31799370 1.000406e+000 -6.502685e-001 1.584551e-005 -1.590609e+001 1.447382e-005 3.356790e+001 1.001127e+000 -1.009518e+000
32549355 1.000882e+000 -6.443406e-001 1.306138e-005 -9.731232e+001 1.525652e-005 2.508643e+001 1.001141e+000 -1.033934e+000
33299340 1.000507e+000 -6.367493e-001 5.876243e-006 -7.701686e+001 2.140314e-005 1.602212e+002 1.000574e+000 -1.075453e+000
34049325 9.998541e-001 -6.794168e-001 8.139154e-006 8.019225e+001 2.345884e-005 -4.837134e+000 1.000210e+000 -1.090851e+000
34799310 1.000028e+000 -7.005361e-001 1.056140e-005 -1.169988e+002 3.015066e-005 1.385812e+001 9.992853e-001 -1.114884e+000
35549295 1.000155e+000 -7.352413e-001 2.172832e-006 -8.222102e+001 1.469513e-005 -2.301645e+001 1.001581e+000 -1.116218e+000
36299280 1.000226e+000 -7.264553e-001 6.845589e-006 -1.359874e+002 1.344821e-005 -1.393999e+002 1.000531e+000 -1.177952e+000
37049265 1.000708e+000 -7.372876e-001 8.714908e-006 6.980783e+001 1.216092e-005 -1.190811e+002 1.000298e+000 -1.200386e+000
37799250 1.000318e+000 -7.353060e-001 1.247511e-005 2.481978e+001 2.006831e-005 1.452031e+000 1.000695e+000 -1.196937e+000
38549235 9.998438e-001 -7.574231e-001 2.011372e-005 -7.488620e+001 3.440431e-005 9.432760e+001 9.999771e-001 -1.287799e+000
39299220 1.000700e+000 -7.583856e-001 1.446033e-006 1.797442e+002 4.380627e-005 -7.243243e+001 1.000137e+000 -1.222793e+000
40049205 1.000271e+000 -7.249088e-001 2.329149e-005 1.554263e+002 5.212199e-005 1.462841e+002 1.001721e+000 -1.293071e+000
40799190 1.000715e+000 -8.044579e-001 2.028237e-005 1.710509e+001 4.160908e-005 1.778835e+002 1.001873e+000 -1.342789e+000
41549175 9.995264e-001 -7.720839e-001 1.855075e-005 -5.667584e+001 4.721094e-005 7.957887e+001 1.000319e+000 -1.354619e+000
42299160 1.000224e+000 -8.041179e-001 2.656107e-006 1.750838e+002 4.731242e-005 1.501232e+002 1.000199e+000 -1.276475e+000
43049145 1.000836e+000 -8.048399e-001 1.167190e-005 -1.565792e+002 9.753469e-006 5.183154e+001 1.000487e+000 -1.393118e+000
43799130 1.000238e+000 -8.298916e-001 3.817538e-005 1.759402e+002 3.718751e-005 -1.233613e+002 9.998188e-001 -1.399579e+000
44549115 1.000709e+000 -8.124188e-001 8.156392e-006 -1.065911e+001 3.561136e-005 1.659996e+002 1.000983e+000 -1.437434e+000
45299100 1.001019e+000 -8.954217e-001 1.485319e-005 -5.164997e+001 7.047260e-006 8.048429e+000 1.002088e+000 -1.419589e+000
46049085 1.001080e+000 -8.705648e-001 3.071788e-005 -1.417598e+002 4.831086e-005 3.031939e+001 1.002051e+000 -1.408628e+000
46799070 1.000881e+000 -8.839509e-001 2.716768e-005 8.523884e+001 3.693658e-005 2.972706e+001 1.001283e+000 -1.449021e+000
47549055 1.000883e+000 -9.252516e-001 1.114858e-005 -1.043710e+002 4.667342e-005 6.386135e+001 1.000191e+000 -1.545631e+000
48299040 1.001227e+000 -9.070858e-001 1.982856e-005 -1.612087e+002 4.437590e-005 -6.450275e+000 1.000087e+000 -1.481473e+000
49049025 1.001313e+000 -9.344454e-001 2.494862e-006 3.933271e+001 2.543821e-005 6.709335e+001 1.002055e+000 -1.460858e+000
49799010 9.999724e-001 -9.614120e-001 1.729905e-005 1.275690e+002 2.872510e-005 1.546414e+002 1.000756e+000 -1.495991e+000
50548995 9.997322e-001 -9.803178e-001 1.538063e-006 -4.790736e+001 3.672859e-005 -7.435941e+001 1.001852e+000 -1.600875e+000
51298980 1.001278e+000 -9.935648e-001 7.905769e-006 -8.759786e+001 2.729798e-005 1.568663e+001 9.999081e-001 -1.577229e+000
52048965 1.000188e+000 -9.723708e-001 3.978982e-006 -9.027969e+001 4.599864e-005 -1.554091e+002 1.000681e+000 -1.512672e+000
52798950 1.000535e+000 -9.670538e-001 1.148250e-005 8.604942e+001 7.748232e-006 4.125824e+001 1.001952e+000 -1.679468e+000
53548935 1.001965e+000 -1.053485e+000 1.015782e-005 -3.129345e+001 3.072849e-005 1.624309e+002 1.001485e+000 -1.648221e+000
54298920 1.000552e+000 -1.029071e+000 1.515789e-005 -7.204789e+001 1.511164e-005 -4.943729e+001 9.996721e-001 -1.702021e+000
55048905 1.000611e+000 -1.005157e+000 2.228591e-005 -7.279508e+001 4.652829e-005 6.341846e+001 9.988218e-001 -1.724501e+000
55798890 1.000408e+000 -1.046531e+000 1.009878e-005 -5.633019e+000 5.883101e-005 8.353413e+001 1.001372e+000 -1.889382e+000
56548875 1.000875e+000 -1.073496e+000 3.045655e-005 1.265530e+002 7.260806e-005 6.105087e+001 9.995202e-001 -1.736664e+000
57298860 1.001528e+000 -1.104675e+000 1.480223e-005 1.264138e+002 1.428825e-005 1.089090e+002 1.002094e+000 -1.679825e+000
58048845 1.000286e+000 -1.124955e+000 2.047080e-005 -1.723554e+002 6.231789e-005 1.088720e+002 1.001140e+000 -1.661744e+000
58798830 1.000216e+000 -1.054720e+000 1.101081e-005 -1.432843e+002 1.197927e-004 4.148713e+001 1.001144e+000 -1.724191e+000
59548815 1.000841e+000 -1.162202e+000 1.256870e-005 1.028339e+002 3.674332e-005 -1.506103e+002 1.001720e+000 -1.804801e+000
60298800 1.000947e+000 -1.126581e+000 2.246527e-005 -7.287691e+001 1.498120e-005 1.002499e+002 1.001706e+000 -1.869876e+000
61048785 1.001866e+000 -1.122454e+000 6.669381e-006 -1.101887e+002 7.531988e-006 2.465852e+001 1.002194e+000 -1.752081e+000
61798770 1.000759e+000 -1.170707e+000 1.683905e-005 1.165036e+002 3.525391e-005 5.143172e+000 1.002768e+000 -1.952725e+000
62548755 1.001284e+000 -1.121716e+000 8.571011e-006 -5.318698e+001 2.462079e-005 1.273119e+002 1.001716e+000 -1.921280e+000
63298740 1.001554e+000 -1.159580e+000 3.726188e-006 -1.202692e+002 5.439536e-005 4.749997e+001 1.002445e+000 -1.890230e+000
64048725 1.001048e+000 -1.114872e+000 1.867736e-005 1.304477e+002 2.789211e-005 1.179481e+002 1.001473e+000 -1.825542e+000
64798710 1.000369e+000 -1.208305e+000 6.094359e-006 -3.242464e+001 2.766050e-005 1.245413e+002 1.001084e+000 -2.075156e+000
65548695 1.001090e+000 -1.247810e+000 3.672186e-006 2.309865e+001 5.796569e-005 4.788578e+000 1.002316e+000 -1.910699e+000
66298680 1.001502e+000 -1.232673e+000 1.622934e-005 9.699930e+001 6.855708e-005 6.261232e+001 1.001723e+000 -2.045274e+000
67048665 1.001563e+000 -1.173841e+000 6.486676e-006 -4.856687e+001 5.004134e-005 -1.593004e+002 1.002128e+000 -2.048689e+000
67798650 1.000836e+000 -1.214367e+000 1.857892e-005 1.421915e+002 3.923130e-005 -1.042160e+002 1.002362e+000 -2.062012e+000
68548635 1.000529e+000 -1.237407e+000 1.864816e-005 -1.208991e+002 7.900420e-005 3.494160e+001 1.003563e+000 -2.028412e+000
69298620 1.001619e+000 -1.262262e+000 1.218030e-005 -1.350071e+002 5.861531e-005 -1.305115e+002 1.002734e+000 -2.033913e+000
70048605 1.001331e+000 -1.268426e+000 1.536582e-005 7.868421e+001 4.409772e-006 4.075587e+001 1.003060e+000 -2.151257e+000
70798590 1.001598e+000 -1.239917e+000 2.093400e-005 1.440817e+002 2.483777e-005 -1.397606e+001 1.001137e+000 -2.173119e+000
71548575 1.001435e+000 -1.276187e+000 1.250393e-005 3.858718e+001 9.709761e-005 1.201642e+002 1.001336e+000 -2.262624e+000
72298560 1.001535e+000 -1.315570e+000 1.321650e-005 1.251166e+002 5.728005e-005 1.634944e+002 1.001402e+000 -2.327749e+000
73048545 1.001370e+000 -1.330932e+000 5.365763e-006 -7.699239e+001 3.476598e-005 6.603018e+001 1.003241e+000 -2.160242e+000
73798530 1.001269e+000 -1.268336e+000 3.174316e-006 1.299075e+002 1.492055e-005 7.738438e+001 1.003450e+000 -2.315857e+000
74548515 1.001780e+000 -1.382386e+000 2.379787e-005 5.779413e+001 3.845270e-005 6.940077e+001 1.002326e+000 -2.272485e+000
75298500 1.001853e+000 -1.363627e+000 2.223834e-005 -1.532151e+002 1.774436e-005 4.195865e+001 1.001483e+000 -2.297801e+000
76048485 1.001758e+000 -1.355442e+000 1.381724e-005 -8.600490e+001 4.865734e-005 4.351604e+001 1.003000e+000 -2.321136e+000
76798470 1.001693e+000 -1.322874e+000 1.012090e-005 -1.563973e+002 3.871301e-005 -9.528737e+001 1.001940e+000 -2.291790e+000
77548455 1.001077e+000 -1.396729e+000 8.854300e-006 8.740794e+001 5.010633e-006 -4.646594e+001 1.004304e+000 -2.298928e+000
78298440 1.001928e+000 -1.405107e+000 1.074997e-005 -1.199948e+002 3.194304e-005 4.226662e+001 1.002298e+000 -2.370376e+000
79048425 1.001950e+000 -1.440081e+000 4.970726e-006 4.010170e+001 2.437098e-005 -1.397457e+002 1.003713e+000 -2.377957e+000
79798410 1.002052e+000 -1.411539e+000 1.863756e-005 -8.296636e+001 7.458180e-005 -8.566476e+001 1.001946e+000 -2.332891e+000
80548395 1.001977e+000 -1.401945e+000 7.067154e-006 -3.312247e+001 2.924658e-005 -1.807446e+001 1.001352e+000 -2.463624e+000
81298380 1.001434e+000 -1.471794e+000 2.146540e-005 1.093515e+002 3.024008e-005 1.120704e+002 1.003004e+000 -2.353999e+000
82048365 1.001413e+000 -1.423995e+000 2.701417e-006 1.056717e+002 5.827291e-005 -8.026039e+000 1.004483e+000 -2.420880e+000
82798350 1.002247e+000 -1.430587e+000 8.714276e-006 9.643339e+001 1.627604e-005 -1.613631e+002 1.003515e+000 -2.451005e+000
83548335 1.001225e+000 -1.469709e+000 3.275076e-006 -1.077290e+002 3.999096e-005 -1.634728e+002 1.002086e+000 -2.489324e+000
84298320 1.002276e+000 -1.514122e+000 1.445897e-005 -4.180764e+001 5.591168e-005 4.814775e+001 1.002878e+000 -2.449316e+000
85048305 1.001238e+000 -1.508436e+000 1.423932e-005 -1.106236e+002 6.081121e-005 1.154860e+002 1.003216e+000 -2.517180e+000
85798290 1.000854e+000 -1.548684e+000 2.168598e-005 2.492553e+001 3.811190e-005 -1.900418e+001 1.003386e+000 -2.511857e+000
86548275 1.001938e+000 -1.552754e+000 1.213633e-005 1.627238e+001 6.460275e-006 -8.091013e+001 1.002720e+000 -2.497216e+000
87298260 1.001161e+000 -1.538635e+000 2.588093e-005 -3.005222e+001 5.021958e-005 -5.188509e+001 1.004387e+000 -2.550805e+000
88048245 1.001208e+000 -1.487871e+000 2.352212e-005 7.919832e+001 3.975910e-005 -7.228567e+001 1.003501e+000 -2.623291e+000
88798230 1.002319e+000 -1.556598e+000 3.141514e-005 5.414085e+001 2.590989e-005 1.103135e+002 1.004414e+000 -2.610561e+000
89548215 1.002316e+000 -1.565213e+000 1.181216e-005 -7.743161e+001 3.554613e-005 1.133135e+001 1.002109e+000 -2.624420e+000
90298200 1.001163e+000 -1.592155e+000 1.126182e-005 1.574305e+002 4.982122e-005 -1.442450e+002 1.004103e+000 -2.481149e+000
91048185 1.001798e+000 -1.639698e+000 2.191028e-005 -6.902982e+001 4.280479e-005 1.262613e+002 1.002722e+000 -2.597630e+000
91798170 1.002117e+000 -1.613406e+000 4.761006e-005 -1.489598e+002 4.125415e-005 7.578112e+001 1.004090e+000 -2.702838e+000
92548155 1.002826e+000 -1.620378e+000 1.027303e-005 -2.960364e+000 2.286682e-005 -1.569970e+002 1.004163e+000 -2.712997e+000
93298140 1.002862e+000 -1.644114e+000 2.238312e-005 -4.566517e+001 4.478277e-006 1.156778e+002 1.004315e+000 -2.611240e+000
94048125 1.002303e+000 -1.688373e+000 1.461546e-005 -3.562088e+001 4.140631e-005 -6.328215e+001 1.005527e+000 -2.736181e+000
94798110 1.002417e+000 -1.629719e+000 1.865413e-005 7.246346e+001 1.797512e-005 4.304064e+001 1.003471e+000 -2.740052e+000
95548095 1.002156e+000 -1.650024e+000 2.628353e-005 1.444714e+002 5.225902e-005 1.302978e+002 1.002598e+000 -2.701256e+000
96298080 1.002170e+000 -1.627568e+000 3.285605e-005 5.811340e+001 4.514663e-006 5.881654e+001 1.002935e+000 -2.761740e+000
97048065 1.001886e+000 -1.702731e+000 4.170009e-005 7.900015e+000 5.148743e-006 1.490393e+002 1.002879e+000 -2.742517e+000
97798050 1.001853e+000 -1.626409e+000 1.632199e-005 2.662179e+001 5.049095e-005 6.340662e+000 1.004686e+000 -2.865244e+000
98548035 1.002694e+000 -1.693780e+000 1.526353e-005 -1.423073e+002 5.859058e-005 1.189195e+002 1.004061e+000 -2.826747e+000
99298020 1.002797e+000 -1.708103e+000 7.055300e-006 9.993198e+001 5.693185e-005 -7.712138e+001 1.004557e+000 -2.914725e+000
100048005 1.002673e+000 -1.716029e+000 2.586196e-005 4.118549e+000 4.358740e-005 -1.366578e+002 1.003147e+000 -2.901539e+000
100797990 1.002814e+000 -1.709537e+000 4.441872e-005 5.487188e+000 7.297999e-005 1.548008e+002 1.004096e+000 -2.802686e+000
101547975 1.002011e+000 -1.738846e+000 1.057614e-005 5.524257e+001 3.008156e-005 8.153611e+001 1.002585e+000 -2.857418e+000
102297960 1.003905e+000 -1.714080e+000 1.457661e-005 2.583019e+001 6.802510e-005 4.136338e+001 1.004873e+000 -2.847307e+000
103047945 1.002576e+000 -1.738535e+000 2.375582e-005 8.449010e+001 7.167604e-005 3.435233e+001 1.003272e+000 -2.885623e+000
103797930 1.002104e+000 -1.764136e+000 1.728080e-005 -3.971163e+001 5.530651e-005 -2.235932e+001 1.005407e+000 -2.978232e+000
104547915 1.002496e+000 -1.714966e+000 9.511630e-006 1.721309e+002 4.727715e-005 1.056999e+001 1.005786e+000 -2.878988e+000
105297900 1.002164e+000 -1.796357e+000 2.690154e-005 8.900328e+001 1.173272e-004 -4.460446e+001 1.005985e+000 -2.836004e+000
106047885 1.003213e+000 -1.772466e+000 2.463293e-005 -1.670770e+002 8.423503e-005 3.241051e+001 1.004883e+000 -3.056027e+000
106797870 1.003287e+000 -1.793937e+000 2.386477e-005 3.765157e+001 5.844836e-005 -5.138636e+001 1.005237e+000 -3.058975e+000
107547855 1.003466e+000 -1.832634e+000 2.591286e-005 6.962053e+001 1.533205e-005 -5.726374e+001 1.004991e+000 -2.906536e+000
108297840 1.002731e+000 -1.819740e+000 7.561146e-006 1.747200e+002 4.718944e-005 9.262373e+001 1.004015e+000 -3.073317e+000
109047825 1.002853e+000 -1.863519e+000 9.835912e-006 1.564962e+002 4.386130e-005 8.177945e+001 1.006359e+000 -3.150372e+000
109797810 1.002324e+000 -1.896295e+000 2.499217e-005 1.130910e+002 8.763259e-005 7.932830e+001 1.005838e+000 -3.031354e+000
110547795 1.002335e+000 -1.836506e+000 8.895809e-006 -8.224120e+001 6.596032e-005 7.452340e+001 1.005294e+000 -3.117845e+000
111297780 1.003002e+000 -1.841785e+000 2.026780e-005 -1.026392e+002 8.982146e-005 2.727187e+001 1.004574e+000 -2.981930e+000
112047765 1.001943e+000 -1.884675e+000 1.632975e-005 -1.711082e+002 1.985558e-005 -1.528293e+002 1.003964e+000 -3.052823e+000
112797750 1.002658e+000 -1.904157e+000 1.499844e-005 1.679716e+002 1.460614e-005 1.464822e+002 1.004485e+000 -3.104934e+000
113547735 1.003216e+000 -1.875729e+000 8.350120e-006 -7.720765e+000 4.015327e-005 -6.991456e+001 1.004381e+000 -3.112707e+000
114297720 1.001891e+000 -1.898899e+000 8.872235e-006 -9.028072e+001 8.501331e-006 -1.437975e+001 1.007056e+000 -3.189324e+000
115047705 1.003223e+000 -1.891234e+000 3.940256e-005 -1.560762e+002 5.335657e-005 -4.993920e+001 1.005154e+000 -3.204350e+000
115797690 1.003372e+000 -1.918295e+000 2.093417e-005 1.665425e+002 2.300884e-005 -1.520750e+002 1.005783e+000 -3.291187e+000
116547675 1.003463e+000 -1.946431e+000 1.867377e-005 5.914721e+001 5.908801e-005 -1.307050e+001 1.005061e+000 -3.184075e+000
117297660 1.003412e+000 -1.910210e+000 2.397317e-005 1.574058e+002 3.803859e-005 1.050589e+001 1.005643e+000 -3.222901e+000
