!Agilent Technologies,N5230C,SG49000117,A.08.50.07
!Agilent N5230C: A.08.50.07
!Date: Tuesday, May 07, 2024 00:28:01
!Correction: S11(Full 2 Port(1,2)) 
!S21(Full 2 Port(1,2)) 
!S12(Full 2 Port(1,2)) 
!S22(Full 2 Port(1,2)) 
!S2P File: Measurements: S11, S21, S12, S22:
# Hz S  MA   R 50
2000000000 1.051574e+000 -2.367180e+001 8.214352e-004 7.324990e+000 1.502592e-003 -1.085827e+001 1.127427e+000 -3.935662e+001
2000100000 1.051386e+000 -2.367464e+001 8.261590e-004 8.554399e+000 1.476802e-003 -1.086980e+001 1.127621e+000 -3.934395e+001
2000200000 1.051218e+000 -2.368401e+001 8.275533e-004 8.430504e+000 1.495747e-003 -1.048602e+001 1.128047e+000 -3.934801e+001
2000300000 1.051112e+000 -2.369045e+001 8.173112e-004 8.266656e+000 1.479319e-003 -1.066047e+001 1.128090e+000 -3.935467e+001
2000400000 1.050941e+000 -2.369705e+001 8.262211e-004 7.964305e+000 1.477112e-003 -1.072466e+001 1.128305e+000 -3.935999e+001
2000500000 1.050870e+000 -2.370546e+001 8.293971e-004 8.575384e+000 1.458723e-003 -1.038119e+001 1.128519e+000 -3.937226e+001
2000600000 1.050868e+000 -2.369412e+001 8.147328e-004 8.853358e+000 1.468302e-003 -1.040252e+001 1.128566e+000 -3.935150e+001
2000700000 1.050856e+000 -2.369021e+001 8.132306e-004 7.781694e+000 1.434372e-003 -1.053275e+001 1.128424e+000 -3.933303e+001
2000800000 1.050860e+000 -2.367489e+001 7.958576e-004 8.730642e+000 1.448140e-003 -1.000983e+001 1.128366e+000 -3.931708e+001
2000900000 1.050838e+000 -2.366909e+001 7.976112e-004 9.352448e+000 1.463802e-003 -9.805117e+000 1.128213e+000 -3.930677e+001
2001000000 1.050864e+000 -2.366205e+001 8.079770e-004 8.798051e+000 1.444894e-003 -9.599496e+000 1.128125e+000 -3.929553e+001
2001100000 1.050850e+000 -2.365130e+001 7.999993e-004 8.519061e+000 1.451124e-003 -1.028894e+001 1.128002e+000 -3.928871e+001
2001200000 1.050722e+000 -2.364214e+001 7.937009e-004 9.313283e+000 1.454670e-003 -1.045021e+001 1.127827e+000 -3.928762e+001
2001300000 1.050743e+000 -2.364511e+001 7.910202e-004 8.084389e+000 1.450397e-003 -1.090043e+001 1.127734e+000 -3.929853e+001
2001400000 1.050894e+000 -2.366282e+001 8.031910e-004 9.199655e+000 1.442118e-003 -1.023019e+001 1.127480e+000 -3.932915e+001
2001500000 1.051087e+000 -2.367826e+001 7.943868e-004 9.000036e+000 1.442736e-003 -1.086894e+001 1.127305e+000 -3.935485e+001
2001600000 1.051230e+000 -2.369268e+001 7.795448e-004 9.066087e+000 1.427751e-003 -1.077761e+001 1.127051e+000 -3.938719e+001
2001700000 1.051389e+000 -2.370115e+001 7.878832e-004 8.306697e+000 1.402260e-003 -1.026808e+001 1.126845e+000 -3.941473e+001
2001800000 1.051619e+000 -2.371275e+001 7.896615e-004 8.648731e+000 1.413077e-003 -9.565579e+000 1.126735e+000 -3.943442e+001
2001900000 1.051771e+000 -2.371804e+001 7.893277e-004 8.804371e+000 1.416463e-003 -9.328240e+000 1.126501e+000 -3.945922e+001
2002000000 1.051971e+000 -2.371955e+001 7.842023e-004 9.055291e+000 1.401438e-003 -8.579476e+000 1.126370e+000 -3.947457e+001
2002100000 1.052003e+000 -2.370555e+001 7.918367e-004 9.011759e+000 1.417500e-003 -8.662150e+000 1.126620e+000 -3.945208e+001
2002200000 1.051956e+000 -2.369665e+001 7.914513e-004 8.945079e+000 1.417154e-003 -9.811760e+000 1.126795e+000 -3.942476e+001
2002300000 1.051936e+000 -2.368112e+001 7.688593e-004 8.715825e+000 1.404672e-003 -9.955557e+000 1.126999e+000 -3.940112e+001
2002400000 1.051860e+000 -2.367850e+001 7.747706e-004 8.503280e+000 1.383675e-003 -1.021360e+001 1.127177e+000 -3.937601e+001
2002500000 1.051744e+000 -2.366550e+001 7.822146e-004 9.502553e+000 1.407118e-003 -9.948128e+000 1.127325e+000 -3.935991e+001
2002600000 1.051666e+000 -2.365858e+001 7.614045e-004 9.650047e+000 1.391997e-003 -1.051733e+001 1.127450e+000 -3.933468e+001
2002700000 1.051534e+000 -2.365490e+001 7.750193e-004 9.686126e+000 1.377820e-003 -9.858150e+000 1.127463e+000 -3.931330e+001
2002800000 1.051480e+000 -2.365541e+001 7.696017e-004 1.015381e+001 1.383696e-003 -1.010318e+001 1.127649e+000 -3.931391e+001
2002900000 1.051330e+000 -2.366558e+001 7.722555e-004 8.902225e+000 1.382735e-003 -8.501110e+000 1.127695e+000 -3.932798e+001
2003000000 1.051208e+000 -2.367331e+001 7.710044e-004 9.129944e+000 1.378223e-003 -8.336866e+000 1.127787e+000 -3.934483e+001
2003100000 1.051138e+000 -2.368338e+001 7.646331e-004 9.286630e+000 1.358897e-003 -8.226007e+000 1.127737e+000 -3.935468e+001
2003200000 1.051133e+000 -2.369059e+001 7.612294e-004 9.895997e+000 1.372936e-003 -9.447158e+000 1.127790e+000 -3.937547e+001
2003300000 1.051000e+000 -2.369857e+001 7.545424e-004 9.991114e+000 1.368328e-003 -9.470358e+000 1.127978e+000 -3.939148e+001
2003400000 1.051048e+000 -2.369973e+001 7.578449e-004 9.789605e+000 1.351202e-003 -8.693688e+000 1.127946e+000 -3.940995e+001
2003500000 1.051022e+000 -2.370797e+001 7.538474e-004 1.015161e+001 1.386373e-003 -8.452290e+000 1.128067e+000 -3.942815e+001
2003600000 1.051075e+000 -2.371405e+001 7.630134e-004 1.039727e+001 1.372302e-003 -8.316586e+000 1.128361e+000 -3.942038e+001
2003700000 1.051115e+000 -2.372060e+001 7.580186e-004 1.098493e+001 1.379855e-003 -9.338191e+000 1.128454e+000 -3.941412e+001
2003800000 1.051181e+000 -2.372783e+001 7.547123e-004 1.088148e+001 1.347214e-003 -8.662971e+000 1.128491e+000 -3.940931e+001
2003900000 1.051150e+000 -2.373614e+001 7.577813e-004 1.123451e+001 1.348915e-003 -8.506994e+000 1.128680e+000 -3.940296e+001
2004000000 1.051166e+000 -2.374169e+001 7.389410e-004 1.091070e+001 1.351801e-003 -8.759288e+000 1.128809e+000 -3.940562e+001
2004100000 1.051165e+000 -2.374762e+001 7.434666e-004 1.231659e+001 1.319517e-003 -8.522661e+000 1.128730e+000 -3.939951e+001
2004200000 1.051199e+000 -2.375623e+001 7.484329e-004 9.815545e+000 1.367150e-003 -7.786429e+000 1.128820e+000 -3.940152e+001
2004300000 1.051211e+000 -2.375352e+001 7.410197e-004 1.127052e+001 1.355462e-003 -8.729986e+000 1.128618e+000 -3.940182e+001
2004400000 1.051361e+000 -2.375163e+001 7.511540e-004 1.084706e+001 1.305820e-003 -7.575922e+000 1.128297e+000 -3.939832e+001
2004500000 1.051377e+000 -2.375170e+001 7.402958e-004 1.021080e+001 1.322476e-003 -7.468274e+000 1.128003e+000 -3.939986e+001
2004600000 1.051447e+000 -2.374646e+001 7.458989e-004 1.244638e+001 1.332916e-003 -7.718729e+000 1.127830e+000 -3.940004e+001
2004700000 1.051552e+000 -2.374626e+001 7.386443e-004 1.097330e+001 1.356681e-003 -7.640211e+000 1.127704e+000 -3.940363e+001
2004800000 1.051632e+000 -2.374865e+001 7.455450e-004 1.068298e+001 1.313634e-003 -7.908241e+000 1.127584e+000 -3.940369e+001
2004900000 1.051701e+000 -2.374988e+001 7.332753e-004 1.142596e+001 1.352560e-003 -6.750189e+000 1.127461e+000 -3.940474e+001
2005000000 1.051793e+000 -2.374936e+001 7.314676e-004 1.123585e+001 1.315346e-003 -6.791903e+000 1.127375e+000 -3.940086e+001
2005100000 1.051721e+000 -2.375476e+001 7.255115e-004 1.112875e+001 1.342226e-003 -7.474514e+000 1.127380e+000 -3.939726e+001
2005200000 1.051678e+000 -2.375783e+001 7.263501e-004 1.161023e+001 1.326517e-003 -9.501102e+000 1.127590e+000 -3.938702e+001
2005300000 1.051644e+000 -2.376397e+001 7.385903e-004 1.151950e+001 1.306992e-003 -6.834752e+000 1.127847e+000 -3.938041e+001
2005400000 1.051633e+000 -2.377072e+001 7.257387e-004 1.243598e+001 1.303855e-003 -7.568598e+000 1.128086e+000 -3.937349e+001
2005500000 1.051622e+000 -2.377081e+001 7.367557e-004 1.093376e+001 1.289948e-003 -7.267842e+000 1.128221e+000 -3.936411e+001
2005600000 1.051651e+000 -2.377495e+001 7.184905e-004 1.123144e+001 1.299607e-003 -6.570159e+000 1.128334e+000 -3.936031e+001
2005700000 1.051594e+000 -2.377948e+001 7.157253e-004 1.139735e+001 1.270636e-003 -7.913916e+000 1.128550e+000 -3.935818e+001
2005800000 1.051688e+000 -2.378156e+001 7.278590e-004 1.197057e+001 1.295567e-003 -6.115139e+000 1.128709e+000 -3.936113e+001
2005900000 1.051694e+000 -2.378060e+001 7.213695e-004 1.219922e+001 1.306123e-003 -6.410970e+000 1.128819e+000 -3.937018e+001
2006000000 1.051714e+000 -2.377525e+001 7.224997e-004 1.245289e+001 1.299798e-003 -5.810391e+000 1.129069e+000 -3.937843e+001
2006100000 1.051766e+000 -2.378034e+001 7.165881e-004 1.187428e+001 1.301917e-003 -5.660805e+000 1.129100e+000 -3.939537e+001
2006200000 1.051812e+000 -2.378035e+001 7.315271e-004 1.269742e+001 1.283027e-003 -6.989443e+000 1.129218e+000 -3.940394e+001
2006300000 1.051876e+000 -2.378363e+001 7.169142e-004 1.214302e+001 1.289089e-003 -6.637477e+000 1.129288e+000 -3.941881e+001
2006400000 1.051921e+000 -2.378535e+001 7.104127e-004 1.208405e+001 1.261342e-003 -7.208074e+000 1.129325e+000 -3.943148e+001
2006500000 1.051850e+000 -2.378306e+001 7.157433e-004 1.217081e+001 1.282574e-003 -5.501233e+000 1.129320e+000 -3.944760e+001
2006600000 1.051818e+000 -2.378989e+001 7.199651e-004 1.227164e+001 1.275453e-003 -6.767252e+000 1.129326e+000 -3.945589e+001
2006700000 1.051767e+000 -2.379550e+001 7.176908e-004 1.281092e+001 1.277659e-003 -6.726878e+000 1.129307e+000 -3.945484e+001
2006800000 1.051636e+000 -2.380058e+001 7.042854e-004 1.195212e+001 1.293457e-003 -6.137415e+000 1.129211e+000 -3.945929e+001
2006900000 1.051590e+000 -2.379843e+001 7.023020e-004 1.221005e+001 1.271401e-003 -6.654862e+000 1.129255e+000 -3.946224e+001
2007000000 1.051561e+000 -2.380497e+001 7.009634e-004 1.268109e+001 1.246647e-003 -5.544980e+000 1.129134e+000 -3.946526e+001
2007100000 1.051539e+000 -2.380734e+001 7.231924e-004 1.345475e+001 1.247691e-003 -5.721749e+000 1.129060e+000 -3.947286e+001
2007200000 1.051568e+000 -2.381082e+001 7.077975e-004 1.325375e+001 1.263656e-003 -5.700312e+000 1.128914e+000 -3.947483e+001
2007300000 1.051581e+000 -2.381437e+001 6.908146e-004 1.362225e+001 1.261425e-003 -4.837235e+000 1.128842e+000 -3.947668e+001
2007400000 1.051577e+000 -2.381920e+001 6.874640e-004 1.297989e+001 1.265201e-003 -4.917561e+000 1.128558e+000 -3.946731e+001
2007500000 1.051562e+000 -2.383135e+001 7.137222e-004 1.325176e+001 1.277240e-003 -4.717060e+000 1.128350e+000 -3.945899e+001
2007600000 1.051586e+000 -2.383736e+001 7.027921e-004 1.301918e+001 1.226770e-003 -5.743951e+000 1.128218e+000 -3.945537e+001
2007700000 1.051621e+000 -2.384431e+001 6.993123e-004 1.314149e+001 1.243304e-003 -5.613697e+000 1.127946e+000 -3.944796e+001
2007800000 1.051687e+000 -2.384779e+001 6.966355e-004 1.458022e+001 1.240431e-003 -5.090989e+000 1.127690e+000 -3.944488e+001
2007900000 1.051635e+000 -2.385256e+001 7.010067e-004 1.420056e+001 1.243369e-003 -5.690578e+000 1.127593e+000 -3.943998e+001
2008000000 1.051677e+000 -2.385621e+001 7.039305e-004 1.370035e+001 1.227771e-003 -4.766340e+000 1.127478e+000 -3.943328e+001
2008100000 1.051618e+000 -2.384440e+001 6.987888e-004 1.330719e+001 1.260313e-003 -5.332761e+000 1.127284e+000 -3.943825e+001
2008200000 1.051446e+000 -2.383379e+001 7.001481e-004 1.415409e+001 1.226307e-003 -3.909429e+000 1.127198e+000 -3.943499e+001
2008300000 1.051431e+000 -2.382355e+001 6.992139e-004 1.421716e+001 1.223739e-003 -4.416389e+000 1.127011e+000 -3.944587e+001
2008400000 1.051343e+000 -2.381091e+001 7.033432e-004 1.318814e+001 1.226763e-003 -3.357538e+000 1.126884e+000 -3.944825e+001
2008500000 1.051387e+000 -2.380068e+001 6.819203e-004 1.340370e+001 1.229903e-003 -4.375003e+000 1.126796e+000 -3.945334e+001
2008600000 1.051315e+000 -2.379256e+001 6.965561e-004 1.418474e+001 1.231699e-003 -3.199350e+000 1.126803e+000 -3.946084e+001
2008700000 1.051351e+000 -2.378970e+001 6.885612e-004 1.392121e+001 1.238659e-003 -3.089501e+000 1.126758e+000 -3.946480e+001
2008800000 1.051237e+000 -2.378735e+001 6.916340e-004 1.481631e+001 1.248759e-003 -3.062366e+000 1.126993e+000 -3.947969e+001
2008900000 1.051261e+000 -2.379616e+001 6.906874e-004 1.461356e+001 1.245505e-003 -3.744315e+000 1.127277e+000 -3.948888e+001
2009000000 1.051189e+000 -2.380436e+001 6.853346e-004 1.526910e+001 1.231284e-003 -3.587007e+000 1.127549e+000 -3.949757e+001
2009100000 1.051218e+000 -2.381080e+001 6.847908e-004 1.545139e+001 1.248547e-003 -3.604779e+000 1.127684e+000 -3.951381e+001
2009200000 1.051241e+000 -2.381505e+001 6.892725e-004 1.593913e+001 1.190029e-003 -3.710332e+000 1.127868e+000 -3.952200e+001
2009300000 1.051219e+000 -2.382831e+001 6.899490e-004 1.600040e+001 1.241428e-003 -2.361068e+000 1.128135e+000 -3.952814e+001
2009400000 1.051199e+000 -2.383022e+001 6.945940e-004 1.616652e+001 1.202452e-003 -3.236595e+000 1.128275e+000 -3.954011e+001
2009500000 1.051224e+000 -2.383347e+001 6.856216e-004 1.554334e+001 1.224582e-003 -3.191193e+000 1.128358e+000 -3.954855e+001
2009600000 1.051410e+000 -2.383531e+001 6.925752e-004 1.579014e+001 1.213823e-003 -3.093333e+000 1.128574e+000 -3.955748e+001
2009700000 1.051508e+000 -2.383535e+001 6.894548e-004 1.505249e+001 1.215166e-003 -2.698863e+000 1.128469e+000 -3.956040e+001
2009800000 1.051623e+000 -2.383029e+001 6.726697e-004 1.636341e+001 1.226692e-003 -2.021340e+000 1.128472e+000 -3.956388e+001
2009900000 1.051735e+000 -2.382830e+001 6.791794e-004 1.626174e+001 1.221822e-003 -2.570610e+000 1.128496e+000 -3.956496e+001
2010000000 1.051778e+000 -2.382634e+001 6.879643e-004 1.569032e+001 1.217284e-003 -2.265712e+000 1.128462e+000 -3.957712e+001
2010100000 1.051809e+000 -2.382192e+001 6.771119e-004 1.513908e+001 1.215574e-003 -1.703016e+000 1.128360e+000 -3.958080e+001
2010200000 1.051884e+000 -2.382243e+001 6.780464e-004 1.626079e+001 1.213677e-003 -2.866338e+000 1.128299e+000 -3.958255e+001
2010300000 1.051944e+000 -2.381669e+001 6.877630e-004 1.667947e+001 1.242532e-003 -1.999711e+000 1.128109e+000 -3.958520e+001
2010400000 1.051935e+000 -2.381406e+001 6.817224e-004 1.715249e+001 1.208674e-003 -2.262018e+000 1.127845e+000 -3.958351e+001
2010500000 1.051868e+000 -2.381670e+001 6.770027e-004 1.669032e+001 1.210599e-003 -2.212826e+000 1.127624e+000 -3.958977e+001
2010600000 1.051885e+000 -2.381377e+001 6.811884e-004 1.806409e+001 1.207066e-003 -1.797058e+000 1.127368e+000 -3.958591e+001
2010700000 1.051822e+000 -2.381443e+001 6.939858e-004 1.726532e+001 1.194234e-003 -1.249574e+000 1.127158e+000 -3.959901e+001
2010800000 1.051793e+000 -2.381438e+001 6.887377e-004 1.728492e+001 1.226782e-003 -2.066996e+000 1.126941e+000 -3.959677e+001
2010900000 1.051791e+000 -2.381727e+001 6.828933e-004 1.646499e+001 1.205164e-003 -1.776579e+000 1.126865e+000 -3.960093e+001
2011000000 1.051686e+000 -2.382164e+001 6.808091e-004 1.739979e+001 1.220263e-003 -1.992593e+000 1.126708e+000 -3.960876e+001
2011100000 1.051392e+000 -2.382174e+001 6.800803e-004 1.708766e+001 1.194521e-003 -1.689847e+000 1.126904e+000 -3.959208e+001
2011200000 1.051162e+000 -2.382449e+001 6.836154e-004 1.762872e+001 1.204449e-003 -1.941786e+000 1.127066e+000 -3.956976e+001
2011300000 1.050875e+000 -2.382561e+001 6.778466e-004 1.588987e+001 1.225237e-003 -2.215586e+000 1.127291e+000 -3.955573e+001
2011400000 1.050668e+000 -2.382745e+001 6.765439e-004 1.613449e+001 1.192573e-003 -8.139408e-001 1.127455e+000 -3.953312e+001
2011500000 1.050522e+000 -2.383530e+001 6.753479e-004 1.669247e+001 1.225222e-003 -1.752538e+000 1.127627e+000 -3.952487e+001
2011600000 1.050408e+000 -2.383628e+001 6.837324e-004 1.588974e+001 1.196117e-003 -1.466213e+000 1.127756e+000 -3.950501e+001
2011700000 1.050298e+000 -2.383769e+001 6.707335e-004 1.708910e+001 1.211129e-003 -3.826873e-001 1.127895e+000 -3.949258e+001
2011800000 1.050284e+000 -2.384823e+001 6.654991e-004 1.789379e+001 1.205594e-003 -1.034070e+000 1.127837e+000 -3.949695e+001
2011900000 1.050433e+000 -2.386373e+001 6.769576e-004 1.703840e+001 1.203825e-003 1.148193e-001 1.127406e+000 -3.951036e+001
2012000000 1.050608e+000 -2.387528e+001 6.731990e-004 1.839765e+001 1.214200e-003 2.310252e-001 1.126855e+000 -3.952126e+001
2012100000 1.050934e+000 -2.388807e+001 6.663810e-004 1.757791e+001 1.198916e-003 1.706015e-002 1.126549e+000 -3.954182e+001
2012200000 1.051130e+000 -2.389511e+001 6.754358e-004 1.811779e+001 1.204142e-003 -8.507621e-001 1.126311e+000 -3.956466e+001
2012300000 1.051398e+000 -2.389745e+001 6.899851e-004 1.799261e+001 1.195444e-003 1.311872e-001 1.126109e+000 -3.957568e+001
2012400000 1.051663e+000 -2.390117e+001 6.668298e-004 1.848960e+001 1.213360e-003 9.692833e-001 1.125998e+000 -3.959634e+001
2012500000 1.051947e+000 -2.389419e+001 6.681518e-004 1.776101e+001 1.207079e-003 -3.151541e-001 1.125943e+000 -3.961001e+001
2012600000 1.052192e+000 -2.386942e+001 6.683188e-004 1.730425e+001 1.187099e-003 -5.288869e-002 1.126658e+000 -3.961518e+001
2012700000 1.052472e+000 -2.384373e+001 6.671393e-004 1.744565e+001 1.212917e-003 -4.942879e-001 1.127687e+000 -3.961472e+001
2012800000 1.052649e+000 -2.381918e+001 6.852848e-004 1.922665e+001 1.181960e-003 7.476321e-002 1.128464e+000 -3.960881e+001
2012900000 1.052886e+000 -2.379964e+001 6.777986e-004 1.845357e+001 1.215615e-003 5.265731e-001 1.129123e+000 -3.960622e+001
2013000000 1.053071e+000 -2.378732e+001 6.766365e-004 1.907385e+001 1.200089e-003 -2.797629e-001 1.129677e+000 -3.959848e+001
2013100000 1.053160e+000 -2.377222e+001 6.681156e-004 1.889858e+001 1.182048e-003 3.387931e-002 1.130208e+000 -3.959377e+001
2013200000 1.053114e+000 -2.376742e+001 6.750838e-004 1.748249e+001 1.193601e-003 -1.905140e-001 1.130653e+000 -3.958012e+001
2013300000 1.052876e+000 -2.377414e+001 6.705789e-004 1.852817e+001 1.191206e-003 -7.490192e-001 1.130766e+000 -3.957317e+001
2013400000 1.052206e+000 -2.379532e+001 6.732144e-004 1.866495e+001 1.206789e-003 2.736117e-001 1.130477e+000 -3.956550e+001
2013500000 1.051651e+000 -2.380496e+001 6.750197e-004 1.822096e+001 1.215641e-003 1.139134e+000 1.130147e+000 -3.955497e+001
2013600000 1.051198e+000 -2.382680e+001 6.740406e-004 1.923958e+001 1.203511e-003 -2.799714e-001 1.130021e+000 -3.954878e+001
2013700000 1.050790e+000 -2.384265e+001 6.813607e-004 1.922313e+001 1.218843e-003 1.551680e+000 1.129779e+000 -3.954128e+001
2013800000 1.050528e+000 -2.386262e+001 6.760466e-004 1.835661e+001 1.192476e-003 -3.659270e-001 1.129530e+000 -3.953310e+001
2013900000 1.050321e+000 -2.387623e+001 6.698036e-004 1.894312e+001 1.191673e-003 6.319450e-001 1.129391e+000 -3.953231e+001
2014000000 1.050133e+000 -2.389195e+001 6.726438e-004 2.014532e+001 1.203655e-003 7.736363e-001 1.129214e+000 -3.952702e+001
2014100000 1.050359e+000 -2.388124e+001 6.784609e-004 1.949837e+001 1.214242e-003 2.338890e-001 1.129007e+000 -3.954362e+001
2014200000 1.050742e+000 -2.386704e+001 6.729864e-004 1.853362e+001 1.236395e-003 1.300293e+000 1.128783e+000 -3.956236e+001
2014300000 1.050933e+000 -2.385930e+001 6.819559e-004 1.938517e+001 1.201442e-003 1.228984e+000 1.128676e+000 -3.957716e+001
2014400000 1.051081e+000 -2.384790e+001 6.672560e-004 2.035829e+001 1.208027e-003 9.050300e-001 1.128463e+000 -3.959805e+001
2014500000 1.051284e+000 -2.384110e+001 6.774320e-004 1.922911e+001 1.180743e-003 8.337092e-001 1.128329e+000 -3.960834e+001
2014600000 1.051394e+000 -2.383451e+001 6.703088e-004 1.785317e+001 1.204745e-003 8.524894e-001 1.128117e+000 -3.962614e+001
2014700000 1.051436e+000 -2.382683e+001 6.678262e-004 1.902441e+001 1.205280e-003 1.347231e+000 1.127909e+000 -3.964082e+001
2014800000 1.051383e+000 -2.383281e+001 6.924743e-004 2.018616e+001 1.189848e-003 1.876781e+000 1.127588e+000 -3.964440e+001
2014900000 1.051082e+000 -2.384628e+001 6.724954e-004 1.819413e+001 1.209883e-003 2.276482e+000 1.127356e+000 -3.963213e+001
2015000000 1.050858e+000 -2.386587e+001 6.733101e-004 1.908452e+001 1.189330e-003 1.815964e+000 1.127089e+000 -3.962113e+001
2015100000 1.050767e+000 -2.387368e+001 6.710867e-004 2.048024e+001 1.220658e-003 1.726824e+000 1.126916e+000 -3.961011e+001
2015200000 1.050612e+000 -2.388640e+001 6.835576e-004 1.970845e+001 1.228757e-003 6.532821e-001 1.126698e+000 -3.960074e+001
2015300000 1.050487e+000 -2.390376e+001 6.711759e-004 2.034644e+001 1.201782e-003 1.480281e+000 1.126608e+000 -3.958728e+001
2015400000 1.050425e+000 -2.391322e+001 6.738370e-004 1.987079e+001 1.199443e-003 1.074296e+000 1.126570e+000 -3.958528e+001
