!Agilent Technologies,N5230C,SG49000117,A.08.50.07
!Agilent N5230C: A.08.50.07
!Date: Tuesday, May 07, 2024 03:05:03
!Correction: S11(Full 2 Port(1,2)) 
!S21(Full 2 Port(1,2)) 
!S12(Full 2 Port(1,2)) 
!S22(Full 2 Port(1,2)) 
!S2P File: Measurements: S11, S21, S12, S22:
# Hz S  MA   R 50
2000000000 1.052004e+000 -2.361567e+001 1.076985e-003 6.686744e+000 1.946463e-003 -1.181019e+001 1.126290e+000 -3.910733e+001
2000100000 1.051792e+000 -2.362091e+001 1.062562e-003 7.698700e+000 1.937301e-003 -1.180737e+001 1.126631e+000 -3.910125e+001
2000200000 1.051617e+000 -2.362389e+001 1.074175e-003 6.763031e+000 1.936532e-003 -1.193439e+001 1.126888e+000 -3.910341e+001
2000300000 1.051458e+000 -2.363268e+001 1.060827e-003 6.653216e+000 1.917649e-003 -1.161690e+001 1.127108e+000 -3.910493e+001
2000400000 1.051334e+000 -2.364197e+001 1.053329e-003 6.407010e+000 1.920521e-003 -1.148617e+001 1.127348e+000 -3.910912e+001
2000500000 1.051252e+000 -2.364630e+001 1.040226e-003 7.373779e+000 1.901738e-003 -1.212077e+001 1.127454e+000 -3.911998e+001
2000600000 1.051249e+000 -2.364091e+001 1.046942e-003 6.729873e+000 1.889994e-003 -1.184045e+001 1.127482e+000 -3.909998e+001
2000700000 1.051315e+000 -2.362798e+001 1.051618e-003 7.299960e+000 1.900525e-003 -1.196674e+001 1.127411e+000 -3.908747e+001
2000800000 1.051275e+000 -2.362263e+001 1.034568e-003 7.424185e+000 1.871522e-003 -1.127638e+001 1.127389e+000 -3.906813e+001
2000900000 1.051261e+000 -2.361359e+001 1.041312e-003 6.676015e+000 1.892162e-003 -1.144899e+001 1.127298e+000 -3.905339e+001
2001000000 1.051220e+000 -2.360123e+001 1.040782e-003 6.697703e+000 1.894540e-003 -1.174982e+001 1.127102e+000 -3.904776e+001
2001100000 1.051221e+000 -2.359567e+001 1.037670e-003 6.824335e+000 1.891689e-003 -1.210150e+001 1.127019e+000 -3.903582e+001
2001200000 1.051187e+000 -2.358892e+001 1.031485e-003 6.982594e+000 1.869648e-003 -1.192312e+001 1.126901e+000 -3.903827e+001
2001300000 1.051175e+000 -2.359085e+001 1.026438e-003 6.877261e+000 1.888177e-003 -1.267692e+001 1.126692e+000 -3.904752e+001
2001400000 1.051323e+000 -2.360754e+001 1.037982e-003 6.987918e+000 1.852966e-003 -1.229170e+001 1.126478e+000 -3.908016e+001
2001500000 1.051433e+000 -2.362207e+001 1.021633e-003 7.413506e+000 1.854766e-003 -1.259245e+001 1.126237e+000 -3.910845e+001
2001600000 1.051577e+000 -2.363531e+001 1.010330e-003 6.422033e+000 1.831250e-003 -1.210892e+001 1.126063e+000 -3.913173e+001
2001700000 1.051803e+000 -2.364299e+001 1.008565e-003 6.718223e+000 1.855603e-003 -1.184774e+001 1.125801e+000 -3.916038e+001
2001800000 1.052000e+000 -2.365307e+001 1.019038e-003 6.953281e+000 1.809818e-003 -1.190965e+001 1.125708e+000 -3.918242e+001
2001900000 1.052163e+000 -2.365858e+001 1.006988e-003 6.507736e+000 1.833257e-003 -1.203257e+001 1.125531e+000 -3.920001e+001
2002000000 1.052364e+000 -2.366410e+001 1.005442e-003 6.941175e+000 1.798789e-003 -1.203332e+001 1.125418e+000 -3.922443e+001
2002100000 1.052336e+000 -2.365055e+001 1.006834e-003 6.106691e+000 1.816049e-003 -1.150870e+001 1.125645e+000 -3.920221e+001
2002200000 1.052335e+000 -2.363534e+001 1.000644e-003 6.754985e+000 1.800537e-003 -1.230313e+001 1.125818e+000 -3.917568e+001
2002300000 1.052340e+000 -2.362644e+001 1.001660e-003 7.024530e+000 1.780584e-003 -1.190563e+001 1.126044e+000 -3.914902e+001
2002400000 1.052257e+000 -2.361537e+001 9.944291e-004 6.771424e+000 1.791072e-003 -1.130612e+001 1.126196e+000 -3.912238e+001
2002500000 1.052197e+000 -2.360806e+001 9.897711e-004 6.280378e+000 1.777199e-003 -1.210011e+001 1.126399e+000 -3.909945e+001
2002600000 1.052099e+000 -2.360099e+001 9.840544e-004 7.053563e+000 1.774917e-003 -1.215565e+001 1.126474e+000 -3.907795e+001
2002700000 1.052041e+000 -2.359519e+001 9.865763e-004 7.105960e+000 1.795959e-003 -1.203831e+001 1.126585e+000 -3.906178e+001
2002800000 1.051817e+000 -2.359779e+001 9.986159e-004 6.523988e+000 1.762535e-003 -1.221112e+001 1.126730e+000 -3.905180e+001
2002900000 1.051759e+000 -2.360904e+001 9.833766e-004 7.415656e+000 1.792717e-003 -1.167911e+001 1.126695e+000 -3.907597e+001
2003000000 1.051661e+000 -2.361500e+001 9.673318e-004 7.200118e+000 1.754335e-003 -1.210591e+001 1.126773e+000 -3.908755e+001
2003100000 1.051545e+000 -2.362183e+001 9.691943e-004 7.220165e+000 1.743651e-003 -1.180881e+001 1.126833e+000 -3.910554e+001
2003200000 1.051498e+000 -2.363057e+001 9.693415e-004 7.094380e+000 1.728663e-003 -1.176735e+001 1.126872e+000 -3.911821e+001
2003300000 1.051508e+000 -2.363671e+001 9.594481e-004 6.771454e+000 1.727970e-003 -1.168751e+001 1.127001e+000 -3.913458e+001
2003400000 1.051436e+000 -2.364306e+001 9.667532e-004 7.027386e+000 1.749217e-003 -1.175654e+001 1.127100e+000 -3.915511e+001
2003500000 1.051511e+000 -2.365051e+001 9.624462e-004 6.517129e+000 1.724850e-003 -1.209025e+001 1.127144e+000 -3.916841e+001
2003600000 1.051524e+000 -2.365867e+001 9.650546e-004 7.140122e+000 1.738220e-003 -1.199050e+001 1.127384e+000 -3.916438e+001
2003700000 1.051512e+000 -2.366325e+001 9.493142e-004 7.032828e+000 1.732876e-003 -1.114884e+001 1.127547e+000 -3.915625e+001
2003800000 1.051533e+000 -2.366937e+001 9.527259e-004 6.762577e+000 1.730139e-003 -1.168815e+001 1.127634e+000 -3.915459e+001
2003900000 1.051572e+000 -2.367506e+001 9.526544e-004 7.366222e+000 1.713139e-003 -1.211548e+001 1.127810e+000 -3.915070e+001
2004000000 1.051611e+000 -2.368359e+001 9.379990e-004 7.073144e+000 1.702424e-003 -1.199381e+001 1.127860e+000 -3.914736e+001
2004100000 1.051606e+000 -2.368739e+001 9.388663e-004 7.042296e+000 1.676863e-003 -1.185264e+001 1.127921e+000 -3.914194e+001
2004200000 1.051609e+000 -2.369092e+001 9.461544e-004 7.043997e+000 1.678342e-003 -1.153869e+001 1.127924e+000 -3.914710e+001
2004300000 1.051643e+000 -2.369637e+001 9.329153e-004 7.176089e+000 1.692016e-003 -1.184664e+001 1.127809e+000 -3.914576e+001
2004400000 1.051709e+000 -2.369251e+001 9.382386e-004 7.400864e+000 1.682080e-003 -1.110527e+001 1.127510e+000 -3.914449e+001
2004500000 1.051819e+000 -2.368957e+001 9.244279e-004 7.672215e+000 1.655933e-003 -1.117794e+001 1.127160e+000 -3.914289e+001
2004600000 1.051918e+000 -2.368998e+001 9.336678e-004 7.355344e+000 1.654893e-003 -1.124232e+001 1.127058e+000 -3.914411e+001
2004700000 1.051966e+000 -2.368744e+001 9.268714e-004 7.714043e+000 1.679300e-003 -1.174474e+001 1.126810e+000 -3.914117e+001
2004800000 1.052015e+000 -2.368997e+001 9.273403e-004 7.948089e+000 1.641641e-003 -1.161745e+001 1.126667e+000 -3.913737e+001
2004900000 1.052138e+000 -2.368900e+001 9.284040e-004 7.486981e+000 1.661133e-003 -1.115066e+001 1.126582e+000 -3.914179e+001
2005000000 1.052162e+000 -2.369026e+001 9.239226e-004 7.110477e+000 1.627518e-003 -1.060282e+001 1.126572e+000 -3.914277e+001
2005100000 1.052186e+000 -2.369416e+001 9.151285e-004 7.984706e+000 1.643162e-003 -1.107159e+001 1.126630e+000 -3.913298e+001
2005200000 1.052109e+000 -2.370180e+001 9.126458e-004 7.260659e+000 1.643570e-003 -1.109499e+001 1.126873e+000 -3.912328e+001
2005300000 1.052077e+000 -2.370411e+001 9.127339e-004 7.805555e+000 1.629487e-003 -1.121211e+001 1.127086e+000 -3.911871e+001
2005400000 1.052066e+000 -2.371010e+001 9.210180e-004 8.432283e+000 1.635909e-003 -1.132389e+001 1.127166e+000 -3.910757e+001
2005500000 1.052061e+000 -2.371209e+001 8.963663e-004 7.423985e+000 1.627926e-003 -1.055041e+001 1.127420e+000 -3.910404e+001
2005600000 1.052019e+000 -2.371517e+001 8.995849e-004 7.601558e+000 1.628917e-003 -1.046608e+001 1.127543e+000 -3.910104e+001
2005700000 1.051988e+000 -2.371964e+001 9.002955e-004 8.157460e+000 1.613526e-003 -9.891292e+000 1.127745e+000 -3.909418e+001
2005800000 1.052094e+000 -2.371578e+001 9.013409e-004 7.759905e+000 1.615911e-003 -9.529542e+000 1.127934e+000 -3.909591e+001
2005900000 1.052154e+000 -2.372094e+001 9.048686e-004 8.037375e+000 1.621035e-003 -9.892663e+000 1.128107e+000 -3.911095e+001
2006000000 1.052223e+000 -2.371831e+001 8.929239e-004 7.582675e+000 1.607593e-003 -1.000977e+001 1.128238e+000 -3.911696e+001
2006100000 1.052240e+000 -2.371953e+001 8.858079e-004 7.987689e+000 1.607949e-003 -1.020693e+001 1.128352e+000 -3.912867e+001
2006200000 1.052287e+000 -2.371869e+001 8.914290e-004 8.209622e+000 1.595823e-003 -1.000003e+001 1.128507e+000 -3.914338e+001
2006300000 1.052254e+000 -2.372206e+001 8.884049e-004 8.547275e+000 1.601556e-003 -1.050932e+001 1.128550e+000 -3.915171e+001
2006400000 1.052278e+000 -2.372186e+001 8.793072e-004 8.936131e+000 1.601217e-003 -9.835358e+000 1.128570e+000 -3.916855e+001
2006500000 1.052246e+000 -2.372350e+001 8.843291e-004 8.271385e+000 1.570579e-003 -9.925766e+000 1.128495e+000 -3.918349e+001
2006600000 1.052251e+000 -2.372762e+001 8.768393e-004 7.780304e+000 1.586043e-003 -9.764410e+000 1.128530e+000 -3.918845e+001
2006700000 1.052211e+000 -2.372986e+001 8.719875e-004 8.518962e+000 1.574119e-003 -9.776811e+000 1.128595e+000 -3.919128e+001
2006800000 1.052054e+000 -2.373460e+001 8.732465e-004 8.115523e+000 1.576884e-003 -9.411435e+000 1.128501e+000 -3.919368e+001
2006900000 1.052060e+000 -2.373801e+001 8.812236e-004 8.004984e+000 1.560791e-003 -9.559711e+000 1.128477e+000 -3.919831e+001
2007000000 1.051998e+000 -2.374354e+001 8.606917e-004 8.090986e+000 1.585809e-003 -9.651988e+000 1.128410e+000 -3.920286e+001
2007100000 1.052009e+000 -2.374058e+001 8.654634e-004 8.679173e+000 1.567861e-003 -9.850088e+000 1.128307e+000 -3.920766e+001
2007200000 1.051984e+000 -2.374169e+001 8.767566e-004 9.480296e+000 1.569180e-003 -9.517511e+000 1.128234e+000 -3.920834e+001
2007300000 1.052034e+000 -2.374735e+001 8.716105e-004 8.764921e+000 1.568912e-003 -9.502097e+000 1.128088e+000 -3.920993e+001
2007400000 1.052035e+000 -2.375946e+001 8.639003e-004 8.800865e+000 1.544472e-003 -9.344117e+000 1.127870e+000 -3.920317e+001
2007500000 1.052074e+000 -2.376509e+001 8.678813e-004 9.422863e+000 1.533921e-003 -9.852162e+000 1.127696e+000 -3.919727e+001
2007600000 1.052033e+000 -2.377343e+001 8.600758e-004 9.163848e+000 1.534149e-003 -9.294731e+000 1.127513e+000 -3.919286e+001
2007700000 1.052074e+000 -2.377796e+001 8.646189e-004 9.660073e+000 1.538729e-003 -8.476147e+000 1.127334e+000 -3.918436e+001
2007800000 1.052133e+000 -2.378407e+001 8.491794e-004 9.094419e+000 1.538919e-003 -8.779808e+000 1.127122e+000 -3.918037e+001
2007900000 1.052112e+000 -2.378959e+001 8.477469e-004 9.362605e+000 1.538706e-003 -8.354765e+000 1.126896e+000 -3.917788e+001
2008000000 1.052084e+000 -2.379368e+001 8.433951e-004 1.000602e+001 1.535274e-003 -8.160133e+000 1.126782e+000 -3.917391e+001
2008100000 1.051986e+000 -2.377829e+001 8.420507e-004 9.773000e+000 1.522940e-003 -8.800170e+000 1.126603e+000 -3.917419e+001
2008200000 1.051953e+000 -2.376522e+001 8.464096e-004 1.013747e+001 1.521528e-003 -9.238960e+000 1.126379e+000 -3.917048e+001
2008300000 1.051886e+000 -2.375877e+001 8.433717e-004 9.508458e+000 1.515498e-003 -8.293016e+000 1.126345e+000 -3.917671e+001
2008400000 1.051858e+000 -2.374784e+001 8.487662e-004 8.974216e+000 1.520568e-003 -8.306812e+000 1.126257e+000 -3.918030e+001
2008500000 1.051875e+000 -2.373744e+001 8.416323e-004 9.987777e+000 1.496783e-003 -7.897790e+000 1.126120e+000 -3.918559e+001
2008600000 1.051807e+000 -2.372980e+001 8.443763e-004 1.010500e+001 1.512634e-003 -8.845749e+000 1.126111e+000 -3.919626e+001
2008700000 1.051767e+000 -2.372498e+001 8.423417e-004 1.051209e+001 1.520839e-003 -8.403530e+000 1.126202e+000 -3.919913e+001
2008800000 1.051768e+000 -2.372427e+001 8.326870e-004 1.071406e+001 1.494013e-003 -8.256374e+000 1.126286e+000 -3.920953e+001
2008900000 1.051710e+000 -2.373612e+001 8.366247e-004 1.028374e+001 1.490536e-003 -8.213819e+000 1.126638e+000 -3.922352e+001
2009000000 1.051692e+000 -2.374139e+001 8.314506e-004 1.067124e+001 1.503290e-003 -7.868917e+000 1.126932e+000 -3.923254e+001
2009100000 1.051646e+000 -2.374946e+001 8.414987e-004 1.092149e+001 1.501408e-003 -6.619108e+000 1.127105e+000 -3.924532e+001
2009200000 1.051706e+000 -2.375281e+001 8.398953e-004 1.046777e+001 1.490513e-003 -7.670876e+000 1.127248e+000 -3.925363e+001
2009300000 1.051665e+000 -2.376489e+001 8.315046e-004 1.029515e+001 1.499869e-003 -6.998595e+000 1.127482e+000 -3.926450e+001
2009400000 1.051665e+000 -2.376894e+001 8.415194e-004 1.092603e+001 1.511555e-003 -7.494918e+000 1.127653e+000 -3.927665e+001
2009500000 1.051725e+000 -2.377356e+001 8.267892e-004 1.135906e+001 1.483785e-003 -6.722531e+000 1.127743e+000 -3.928588e+001
2009600000 1.051844e+000 -2.377244e+001 8.285590e-004 1.124218e+001 1.482462e-003 -6.803471e+000 1.127808e+000 -3.929411e+001
2009700000 1.052002e+000 -2.376828e+001 8.210153e-004 1.194197e+001 1.477064e-003 -6.966103e+000 1.127832e+000 -3.929195e+001
2009800000 1.052124e+000 -2.376735e+001 8.295515e-004 1.222032e+001 1.448788e-003 -6.332464e+000 1.127882e+000 -3.930091e+001
2009900000 1.052151e+000 -2.376730e+001 8.176211e-004 1.207349e+001 1.465606e-003 -5.832973e+000 1.127911e+000 -3.930247e+001
2010000000 1.052231e+000 -2.376342e+001 8.223281e-004 1.176323e+001 1.448548e-003 -6.013624e+000 1.127767e+000 -3.931215e+001
2010100000 1.052287e+000 -2.376066e+001 8.230411e-004 1.173950e+001 1.439903e-003 -6.111500e+000 1.127775e+000 -3.931486e+001
2010200000 1.052351e+000 -2.375889e+001 8.269911e-004 1.212171e+001 1.486525e-003 -6.206654e+000 1.127736e+000 -3.931959e+001
2010300000 1.052345e+000 -2.375482e+001 8.192660e-004 1.258983e+001 1.460228e-003 -6.754286e+000 1.127521e+000 -3.932207e+001
2010400000 1.052343e+000 -2.375663e+001 8.190339e-004 1.212749e+001 1.483716e-003 -6.620728e+000 1.127302e+000 -3.931987e+001
2010500000 1.052324e+000 -2.375453e+001 8.150228e-004 1.233801e+001 1.432927e-003 -5.660396e+000 1.127013e+000 -3.932619e+001
2010600000 1.052318e+000 -2.375173e+001 8.214209e-004 1.183304e+001 1.444888e-003 -5.959404e+000 1.126715e+000 -3.933142e+001
2010700000 1.052297e+000 -2.375234e+001 8.107356e-004 1.234957e+001 1.467303e-003 -5.961587e+000 1.126660e+000 -3.933149e+001
2010800000 1.052280e+000 -2.375358e+001 8.259208e-004 1.285372e+001 1.436553e-003 -5.298943e+000 1.126373e+000 -3.933118e+001
2010900000 1.052194e+000 -2.375768e+001 7.986033e-004 1.213750e+001 1.440407e-003 -5.396115e+000 1.126255e+000 -3.933507e+001
2011000000 1.052177e+000 -2.375297e+001 8.097974e-004 1.242442e+001 1.422149e-003 -5.682065e+000 1.126079e+000 -3.933866e+001
2011100000 1.051933e+000 -2.375924e+001 8.069481e-004 1.293782e+001 1.425603e-003 -5.498672e+000 1.126320e+000 -3.932232e+001
2011200000 1.051650e+000 -2.376307e+001 8.042556e-004 1.349353e+001 1.424617e-003 -5.220126e+000 1.126528e+000 -3.930425e+001
2011300000 1.051374e+000 -2.376294e+001 7.975930e-004 1.254569e+001 1.435844e-003 -4.434252e+000 1.126732e+000 -3.928466e+001
2011400000 1.051170e+000 -2.376503e+001 8.096235e-004 1.307283e+001 1.420777e-003 -4.633162e+000 1.126918e+000 -3.926634e+001
2011500000 1.050993e+000 -2.376734e+001 8.134344e-004 1.375180e+001 1.430936e-003 -4.367813e+000 1.127147e+000 -3.925475e+001
2011600000 1.050840e+000 -2.377054e+001 7.963550e-004 1.330621e+001 1.423439e-003 -4.503197e+000 1.127247e+000 -3.924020e+001
2011700000 1.050737e+000 -2.377737e+001 8.047476e-004 1.303967e+001 1.411419e-003 -3.608432e+000 1.127330e+000 -3.922306e+001
2011800000 1.050768e+000 -2.378369e+001 7.904246e-004 1.293236e+001 1.421806e-003 -5.204896e+000 1.127271e+000 -3.922518e+001
2011900000 1.050964e+000 -2.379564e+001 8.045652e-004 1.349784e+001 1.414850e-003 -4.774920e+000 1.126742e+000 -3.924362e+001
2012000000 1.051157e+000 -2.380975e+001 7.933747e-004 1.388775e+001 1.423458e-003 -4.417430e+000 1.126444e+000 -3.925962e+001
2012100000 1.051311e+000 -2.382360e+001 7.969652e-004 1.392268e+001 1.405644e-003 -4.286331e+000 1.126027e+000 -3.927533e+001
2012200000 1.051581e+000 -2.382509e+001 8.027567e-004 1.410047e+001 1.432569e-003 -5.150089e+000 1.125696e+000 -3.929338e+001
2012300000 1.051827e+000 -2.383321e+001 8.010243e-004 1.382558e+001 1.421169e-003 -3.877436e+000 1.125487e+000 -3.930937e+001
2012400000 1.052176e+000 -2.383235e+001 7.953348e-004 1.313394e+001 1.422515e-003 -3.428970e+000 1.125423e+000 -3.933042e+001
2012500000 1.052492e+000 -2.382969e+001 7.914525e-004 1.417838e+001 1.404827e-003 -4.375660e+000 1.125385e+000 -3.934468e+001
2012600000 1.052704e+000 -2.380403e+001 7.947860e-004 1.382276e+001 1.424924e-003 -4.403430e+000 1.126151e+000 -3.934285e+001
2012700000 1.052980e+000 -2.377466e+001 7.987898e-004 1.444101e+001 1.433044e-003 -4.027884e+000 1.127134e+000 -3.934888e+001
2012800000 1.053179e+000 -2.375289e+001 7.935928e-004 1.405532e+001 1.405486e-003 -4.107618e+000 1.127836e+000 -3.934994e+001
2012900000 1.053354e+000 -2.373362e+001 8.099004e-004 1.460972e+001 1.433057e-003 -3.587692e+000 1.128593e+000 -3.933957e+001
2013000000 1.053524e+000 -2.371946e+001 7.984465e-004 1.373792e+001 1.445935e-003 -3.327689e+000 1.129159e+000 -3.933282e+001
2013100000 1.053568e+000 -2.371079e+001 7.936868e-004 1.515815e+001 1.442336e-003 -3.082422e+000 1.129723e+000 -3.932562e+001
2013200000 1.053612e+000 -2.370296e+001 8.047681e-004 1.483541e+001 1.429255e-003 -3.446541e+000 1.130088e+000 -3.931596e+001
2013300000 1.053356e+000 -2.370676e+001 7.921730e-004 1.535098e+001 1.434683e-003 -2.800274e+000 1.130170e+000 -3.930655e+001
2013400000 1.052646e+000 -2.372817e+001 7.803596e-004 1.468575e+001 1.412457e-003 -3.336245e+000 1.129938e+000 -3.929605e+001
2013500000 1.052158e+000 -2.374473e+001 7.913205e-004 1.548173e+001 1.419361e-003 -2.607691e+000 1.129682e+000 -3.928823e+001
2013600000 1.051677e+000 -2.376415e+001 7.889107e-004 1.536842e+001 1.416783e-003 -2.769843e+000 1.129562e+000 -3.928402e+001
2013700000 1.051358e+000 -2.377929e+001 8.005580e-004 1.473658e+001 1.427718e-003 -3.350644e+000 1.129153e+000 -3.927276e+001
2013800000 1.051013e+000 -2.379715e+001 7.907660e-004 1.476694e+001 1.400383e-003 -1.370971e+000 1.129035e+000 -3.926612e+001
2013900000 1.050724e+000 -2.381466e+001 7.987606e-004 1.585318e+001 1.419281e-003 -2.613826e+000 1.128889e+000 -3.926325e+001
2014000000 1.050581e+000 -2.382360e+001 7.858693e-004 1.607623e+001 1.429724e-003 -1.968045e+000 1.128728e+000 -3.925686e+001
2014100000 1.050878e+000 -2.381124e+001 7.816765e-004 1.562079e+001 1.435090e-003 -1.777529e+000 1.128542e+000 -3.927858e+001
2014200000 1.051109e+000 -2.380117e+001 7.923287e-004 1.585861e+001 1.416895e-003 -2.006549e+000 1.128370e+000 -3.929669e+001
2014300000 1.051380e+000 -2.379230e+001 7.914034e-004 1.643887e+001 1.392996e-003 -1.816483e+000 1.128150e+000 -3.930906e+001
2014400000 1.051585e+000 -2.378032e+001 7.945949e-004 1.567818e+001 1.421843e-003 -1.632063e+000 1.128034e+000 -3.932681e+001
2014500000 1.051763e+000 -2.377733e+001 7.906125e-004 1.572960e+001 1.418621e-003 -1.919571e+000 1.127818e+000 -3.934436e+001
2014600000 1.051862e+000 -2.376939e+001 7.946971e-004 1.575744e+001 1.415288e-003 -1.995400e+000 1.127627e+000 -3.935866e+001
2014700000 1.051927e+000 -2.376214e+001 7.906885e-004 1.649255e+001 1.408715e-003 -2.380330e+000 1.127398e+000 -3.937005e+001
2014800000 1.051772e+000 -2.376264e+001 7.968340e-004 1.625929e+001 1.412667e-003 -7.113363e-001 1.127148e+000 -3.937315e+001
2014900000 1.051566e+000 -2.377973e+001 7.809263e-004 1.575584e+001 1.410327e-003 -1.363830e+000 1.126736e+000 -3.936164e+001
2015000000 1.051376e+000 -2.379332e+001 7.870925e-004 1.607776e+001 1.389149e-003 -2.134984e+000 1.126600e+000 -3.935067e+001
2015100000 1.051185e+000 -2.380365e+001 7.794126e-004 1.749858e+001 1.395597e-003 -9.343551e-001 1.126374e+000 -3.933955e+001
2015200000 1.051083e+000 -2.382112e+001 7.804554e-004 1.634775e+001 1.405191e-003 -2.095139e+000 1.126175e+000 -3.932891e+001
2015300000 1.050977e+000 -2.383241e+001 7.902708e-004 1.704988e+001 1.391490e-003 -1.052592e+000 1.126076e+000 -3.932028e+001
2015400000 1.050885e+000 -2.385078e+001 7.948653e-004 1.646326e+001 1.387117e-003 -1.492349e+000 1.126010e+000 -3.931157e+001
