!Agilent Technologies,N5230C,SG49000117,A.08.50.07
!Agilent N5230C: A.08.50.07
!Date: Wednesday, May 08, 2024 00:00:53
!Correction: S11(Full 2 Port(1,2)) 
!S21(Full 2 Port(1,2)) 
!S12(Full 2 Port(1,2)) 
!S22(Full 2 Port(1,2)) 
!S2P File: Measurements: S11, S21, S12, S22:
# Hz S  MA   R 50
300000 1.002580e+000 -1.805641e-001 4.929286e-005 -1.192830e+002 7.121252e-005 1.365992e+002 1.010033e+000 -5.483942e-001
1049985 1.000499e+000 -1.595305e-001 1.718619e-005 -1.364453e+002 1.840325e-005 -1.383837e+002 1.000342e+000 -2.789449e-001
1799970 9.997090e-001 -1.018389e-001 1.202737e-005 -3.974883e+001 1.961074e-005 -5.760880e+001 9.996046e-001 -2.485376e-001
2549955 9.994133e-001 -8.854327e-002 9.560084e-005 -1.188620e+002 1.777455e-004 -1.339044e+002 9.999660e-001 -1.741860e-001
3299940 1.000342e+000 -8.784702e-002 4.294511e-006 -1.115297e+002 2.279006e-005 1.061013e+001 9.986366e-001 -1.905599e-001
4049925 9.999084e-001 -1.401260e-001 1.294158e-005 -1.682924e+002 6.111414e-006 -1.768561e+002 9.999996e-001 -1.838028e-001
4799910 1.000260e+000 -1.329845e-001 8.773048e-006 -1.576551e+002 1.327629e-005 -6.513739e+001 1.000337e+000 -1.977520e-001
5549895 1.000005e+000 -1.390683e-001 9.104382e-006 -3.585766e+001 1.139863e-005 8.834008e+000 1.000409e+000 -1.708530e-001
6299880 9.998788e-001 -1.307424e-001 5.313614e-006 4.134973e+001 1.359437e-005 1.646186e+002 1.000761e+000 -2.282076e-001
7049865 9.997109e-001 -1.534148e-001 2.380518e-006 1.293348e+002 1.353071e-005 -1.458367e+002 1.000425e+000 -2.620166e-001
7799850 1.000087e+000 -1.796852e-001 1.579525e-005 1.378428e+002 1.216232e-005 -1.342732e+002 9.992815e-001 -2.744953e-001
8549835 9.999045e-001 -1.778021e-001 1.397770e-005 1.773700e+002 1.023470e-005 -1.774248e+002 9.999293e-001 -3.404809e-001
9299820 1.000012e+000 -1.910449e-001 5.397035e-006 3.319215e+001 2.486322e-005 8.632990e+001 9.998262e-001 -3.304009e-001
10049805 1.000238e+000 -2.251850e-001 1.674364e-005 2.485005e+001 3.539737e-005 6.973209e+001 9.998806e-001 -3.553914e-001
10799790 9.997315e-001 -2.019797e-001 8.778858e-006 1.286039e+002 2.758179e-005 7.842290e+001 9.999952e-001 -3.473584e-001
11549775 1.000141e+000 -2.272079e-001 8.817239e-006 -1.042894e+002 2.702351e-005 -9.507037e+001 9.999745e-001 -3.563528e-001
12299760 9.999121e-001 -2.347414e-001 4.223890e-006 -1.189443e+002 1.635051e-005 1.440381e+002 1.001500e+000 -3.782941e-001
13049745 1.000391e+000 -2.928377e-001 1.549471e-005 -7.851014e+001 2.551764e-005 -1.801582e+001 1.000087e+000 -4.265805e-001
13799730 1.000196e+000 -2.982275e-001 7.927315e-006 -2.672113e+001 1.531677e-005 -4.971752e+001 9.992722e-001 -4.586396e-001
14549715 1.000373e+000 -3.165047e-001 1.456036e-005 9.629806e+001 4.206243e-005 6.154179e+001 1.001120e+000 -4.592689e-001
15299700 9.995888e-001 -3.114089e-001 1.088254e-005 -1.574531e+002 6.320315e-006 9.846877e+001 9.997773e-001 -5.167217e-001
16049685 1.000416e+000 -3.073208e-001 7.823690e-006 1.471887e+002 1.118128e-005 -1.754754e+002 1.000934e+000 -5.085312e-001
16799670 9.999498e-001 -3.216798e-001 9.162431e-006 3.396281e+001 5.901739e-005 8.554346e+001 1.001924e+000 -5.466166e-001
17549655 1.000301e+000 -3.825681e-001 3.027619e-006 -4.730693e+001 2.871105e-005 1.439367e+002 1.001083e+000 -5.504733e-001
18299640 9.999965e-001 -3.545268e-001 7.900822e-006 9.305695e+001 1.860715e-005 3.690139e-001 1.000669e+000 -6.481841e-001
19049625 1.000251e+000 -4.006785e-001 1.148882e-005 1.684986e+002 4.669769e-005 1.212541e+002 1.000303e+000 -5.702450e-001
19799610 1.000645e+000 -3.868673e-001 8.199962e-006 -1.896764e+001 2.651872e-005 -1.683137e+002 9.998619e-001 -6.077103e-001
20549595 9.997499e-001 -3.909368e-001 5.892103e-006 -1.657688e+002 2.102137e-005 8.461391e+001 9.995741e-001 -6.929224e-001
21299580 9.996989e-001 -3.977461e-001 3.040168e-006 -1.156328e+002 4.226096e-005 1.296517e+002 9.994631e-001 -6.232440e-001
22049565 9.997630e-001 -4.560215e-001 6.751494e-006 -3.578328e+001 1.458976e-005 2.221933e+001 9.997108e-001 -6.756539e-001
22799550 1.000466e+000 -4.188158e-001 6.307750e-006 -6.918742e+001 4.066670e-005 8.435485e+001 1.001227e+000 -7.386845e-001
23549535 1.000499e+000 -4.709120e-001 1.313341e-005 1.069889e+002 2.104391e-005 1.286466e+002 1.000365e+000 -7.425018e-001
24299520 1.000248e+000 -4.933188e-001 8.692592e-006 1.759889e+002 6.456563e-006 -1.182084e+002 9.991386e-001 -7.884245e-001
25049505 1.000473e+000 -5.119992e-001 1.296997e-005 -1.085853e+002 1.828515e-005 7.371278e+001 1.000504e+000 -8.289070e-001
25799490 1.000059e+000 -5.125319e-001 4.341236e-006 -1.575497e+002 9.617223e-006 9.394279e+001 1.000139e+000 -8.887708e-001
26549475 1.000961e+000 -5.197266e-001 9.485808e-006 -4.764981e+001 3.741003e-005 -3.562447e+001 1.000925e+000 -8.818012e-001
27299460 1.000421e+000 -5.233899e-001 1.242880e-005 -5.097261e+001 2.609977e-005 1.085908e+002 1.000329e+000 -8.991064e-001
28049445 1.000146e+000 -5.286697e-001 2.767793e-006 6.904276e+001 1.646055e-005 -1.745742e+002 1.001881e+000 -9.184385e-001
28799430 9.999334e-001 -6.012933e-001 4.072616e-006 -1.133721e+002 1.838804e-005 8.608835e+001 9.999148e-001 -1.003928e+000
29549415 1.000291e+000 -5.426325e-001 1.567102e-005 1.274821e+002 5.189969e-005 -1.537333e+002 1.001330e+000 -9.439805e-001
30299400 1.000164e+000 -5.836077e-001 1.048664e-005 -1.480374e+000 4.006769e-005 4.129591e+000 1.001536e+000 -1.014616e+000
31049385 1.000504e+000 -5.488079e-001 1.397567e-005 8.835295e+000 6.366608e-005 9.105074e+001 1.000215e+000 -1.045061e+000
31799370 1.000482e+000 -6.472745e-001 1.004977e-005 1.047856e+002 1.381814e-005 1.590287e+002 1.001163e+000 -1.005656e+000
32549355 1.000848e+000 -6.422978e-001 2.176417e-005 -2.974920e+001 1.820867e-005 3.755143e+001 1.001204e+000 -1.022729e+000
33299340 1.000562e+000 -6.333455e-001 2.042609e-005 1.644963e+001 3.557696e-005 8.611660e+001 1.000527e+000 -1.069064e+000
34049325 9.998206e-001 -6.790813e-001 8.091820e-006 1.781582e+002 1.524344e-005 -7.362023e+001 1.000363e+000 -1.089342e+000
34799310 1.000075e+000 -6.975645e-001 4.700919e-006 -1.089619e+002 3.735799e-005 7.949016e+001 9.993619e-001 -1.115000e+000
35549295 1.000255e+000 -7.361353e-001 8.979919e-006 -7.873733e+001 1.538616e-005 1.615225e+002 1.001636e+000 -1.101410e+000
36299280 1.000197e+000 -7.212254e-001 1.721392e-005 1.215726e+002 3.790188e-005 -2.239115e+001 1.000598e+000 -1.181018e+000
37049265 1.000804e+000 -7.292995e-001 8.657690e-006 -9.109674e+001 1.691996e-005 1.531172e+002 1.000319e+000 -1.184477e+000
37799250 1.000225e+000 -7.271012e-001 1.328159e-005 -5.073411e+001 5.189459e-006 1.478716e+002 1.000784e+000 -1.190120e+000
38549235 9.998599e-001 -7.463413e-001 2.304425e-005 1.717223e+002 1.775176e-005 -1.792946e+002 9.999213e-001 -1.275151e+000
39299220 1.000702e+000 -7.567449e-001 7.184126e-006 -1.358055e+002 1.940600e-005 -1.722411e+002 1.000065e+000 -1.224994e+000
40049205 1.000126e+000 -7.397028e-001 5.640172e-006 1.521585e+002 1.314256e-005 8.385390e+001 1.001754e+000 -1.287322e+000
40799190 1.000889e+000 -7.888288e-001 1.237199e-005 1.645314e+001 3.614097e-005 -9.250544e+001 1.001892e+000 -1.334272e+000
41549175 9.996316e-001 -7.677988e-001 1.187261e-005 -4.858608e-001 9.476603e-006 1.498368e+002 1.000243e+000 -1.350100e+000
42299160 1.000322e+000 -7.992795e-001 2.348867e-005 -1.356597e+002 1.949617e-005 -8.158408e+001 1.000577e+000 -1.284348e+000
43049145 1.000651e+000 -8.028924e-001 1.976957e-005 1.442870e+002 5.059611e-005 -1.407762e+002 1.000527e+000 -1.373533e+000
43799130 1.000305e+000 -8.354788e-001 1.750422e-005 9.903126e+001 4.709398e-005 1.687309e+002 9.997441e-001 -1.373131e+000
44549115 1.000589e+000 -8.103267e-001 1.340251e-005 9.345475e+000 1.046479e-005 4.649275e+001 1.000952e+000 -1.417324e+000
45299100 1.001240e+000 -8.904395e-001 1.282269e-005 1.596832e+002 6.202870e-005 7.075024e+001 1.001926e+000 -1.399912e+000
46049085 1.001081e+000 -8.708993e-001 2.375494e-005 1.592493e+002 3.928227e-005 1.020040e+002 1.002073e+000 -1.370953e+000
46799070 1.000842e+000 -8.810546e-001 2.185597e-005 1.499344e+002 1.305523e-005 1.156574e+002 1.001136e+000 -1.442042e+000
47549055 1.000645e+000 -9.216551e-001 2.280512e-005 -1.142727e+002 1.345659e-005 5.119981e+001 9.999962e-001 -1.537449e+000
48299040 1.001273e+000 -9.011672e-001 2.213166e-005 2.986407e+001 2.544684e-005 8.167465e+001 1.000268e+000 -1.479673e+000
49049025 1.001192e+000 -9.258738e-001 1.048726e-005 5.200172e+001 2.107706e-005 7.559563e+001 1.002106e+000 -1.449562e+000
49799010 9.999683e-001 -9.568492e-001 4.828457e-006 -1.255570e+002 6.096327e-005 -8.014651e+000 1.000960e+000 -1.490709e+000
50548995 9.996876e-001 -9.769229e-001 1.663107e-005 -6.756905e+001 1.746132e-005 1.395484e+002 1.001915e+000 -1.588237e+000
51298980 1.001310e+000 -9.884579e-001 2.034545e-005 9.972269e+001 2.275739e-005 1.177569e+002 9.998977e-001 -1.569882e+000
52048965 1.000222e+000 -9.753006e-001 2.036432e-005 -1.490507e+002 1.549611e-005 -1.299242e+002 1.000835e+000 -1.501948e+000
52798950 1.000564e+000 -9.633844e-001 1.028661e-005 -1.851424e+001 4.879393e-005 3.744308e+001 1.001967e+000 -1.657632e+000
53548935 1.002023e+000 -1.047992e+000 7.736163e-006 1.295703e+002 1.975599e-005 7.076836e+000 1.001298e+000 -1.641994e+000
54298920 1.000534e+000 -1.021334e+000 1.428988e-006 -7.764047e+001 1.876650e-005 -1.416193e+002 9.998550e-001 -1.709092e+000
55048905 1.000671e+000 -1.003471e+000 9.829148e-006 -1.377427e+002 4.442670e-005 -8.738017e+001 9.987530e-001 -1.720089e+000
55798890 1.000288e+000 -1.036097e+000 1.035280e-005 1.448312e+002 1.271481e-005 -9.565737e+001 1.001020e+000 -1.874515e+000
56548875 1.000768e+000 -1.074195e+000 3.751488e-006 -1.307408e+002 3.401085e-005 -1.421226e+002 9.997928e-001 -1.723440e+000
57298860 1.001639e+000 -1.099238e+000 1.161154e-005 9.317641e+001 7.421403e-005 1.232275e+002 1.002149e+000 -1.668673e+000
58048845 1.000273e+000 -1.123347e+000 7.201395e-006 -5.367842e+001 2.483512e-005 1.481019e+002 1.001457e+000 -1.652896e+000
58798830 1.000265e+000 -1.042602e+000 1.238730e-005 7.323985e+001 8.616190e-005 8.495539e+001 1.001168e+000 -1.714784e+000
59548815 1.000940e+000 -1.157459e+000 1.769897e-005 -1.288611e+002 8.161317e-005 6.585971e+001 1.001355e+000 -1.783611e+000
60298800 1.000932e+000 -1.124774e+000 2.651795e-005 -1.056928e+002 2.110153e-005 -9.173318e+001 1.001920e+000 -1.885489e+000
61048785 1.002062e+000 -1.120024e+000 1.294242e-005 6.261773e+001 3.590964e-005 -2.951610e+001 1.002105e+000 -1.731823e+000
61798770 1.000817e+000 -1.158698e+000 2.542339e-005 -6.468661e+001 7.017624e-005 -2.109064e+001 1.002680e+000 -1.958488e+000
62548755 1.001261e+000 -1.116974e+000 1.222058e-005 -1.423064e+002 4.243727e-005 -3.515213e+001 1.001965e+000 -1.913719e+000
63298740 1.001444e+000 -1.148682e+000 1.765513e-005 6.715798e+001 6.760522e-006 -2.517914e+001 1.002344e+000 -1.902674e+000
64048725 1.001085e+000 -1.112145e+000 1.630855e-005 1.653472e+001 4.140516e-005 -8.862912e+001 1.001201e+000 -1.837037e+000
64798710 1.000404e+000 -1.208247e+000 5.472939e-006 1.323983e+002 1.399625e-005 -6.729885e+001 1.001274e+000 -2.073366e+000
65548695 1.001109e+000 -1.235849e+000 2.442636e-005 -9.224538e+001 2.537236e-005 -1.092661e+001 1.002334e+000 -1.873876e+000
66298680 1.001551e+000 -1.220963e+000 7.863984e-006 -1.176296e+002 1.970180e-005 1.085735e+002 1.001348e+000 -2.017375e+000
67048665 1.001576e+000 -1.173868e+000 1.073376e-005 1.058263e+002 3.728639e-005 1.135524e+002 1.002381e+000 -2.047778e+000
67798650 1.000924e+000 -1.208578e+000 1.722835e-005 -1.429769e+002 2.049200e-005 3.221056e+001 1.002117e+000 -2.066974e+000
68548635 1.000706e+000 -1.231480e+000 4.703673e-006 2.464877e+001 3.116654e-005 -1.348872e+002 1.003596e+000 -2.015282e+000
69298620 1.001540e+000 -1.256481e+000 1.649749e-005 -1.415936e+002 6.506654e-005 3.283459e+001 1.002608e+000 -2.030786e+000
70048605 1.001475e+000 -1.262945e+000 1.430320e-005 4.017898e+001 4.131984e-005 1.126793e+002 1.003049e+000 -2.154540e+000
70798590 1.001570e+000 -1.240090e+000 2.263645e-005 5.315836e+001 3.858275e-005 -1.980104e+001 1.001342e+000 -2.156842e+000
71548575 1.001410e+000 -1.265899e+000 1.627206e-005 -5.673007e+001 5.422060e-005 6.577109e+000 1.001309e+000 -2.240474e+000
72298560 1.001439e+000 -1.300204e+000 1.737025e-005 -1.785556e+002 3.458475e-005 -1.048411e+002 1.001429e+000 -2.313310e+000
73048545 1.001423e+000 -1.323510e+000 1.698272e-005 -2.007273e+001 2.259759e-005 -1.046843e+002 1.003596e+000 -2.143825e+000
73798530 1.001179e+000 -1.260812e+000 8.221265e-006 -8.651428e+001 4.367997e-005 1.662927e+002 1.003430e+000 -2.302185e+000
74548515 1.001777e+000 -1.374300e+000 2.846050e-005 -7.491569e+001 4.140812e-005 -1.591021e+002 1.002379e+000 -2.255141e+000
75298500 1.001823e+000 -1.353633e+000 2.379937e-005 -1.323086e+002 4.481958e-005 1.557863e+002 1.001238e+000 -2.290288e+000
76048485 1.001767e+000 -1.350575e+000 1.004206e-005 1.050697e+002 2.265416e-005 1.385504e+002 1.002888e+000 -2.312377e+000
76798470 1.001700e+000 -1.322486e+000 2.495311e-005 -1.277399e+002 5.822517e-005 1.139323e+002 1.001655e+000 -2.283355e+000
77548455 1.001184e+000 -1.391520e+000 3.154221e-006 7.394531e+001 3.678955e-005 1.139107e+002 1.004234e+000 -2.303550e+000
78298440 1.001894e+000 -1.392820e+000 1.613743e-005 -1.218320e+002 2.870618e-005 -1.402538e+002 1.001997e+000 -2.354603e+000
79048425 1.002007e+000 -1.432939e+000 6.294360e-006 -8.485463e+001 2.579812e-005 1.270489e+001 1.003710e+000 -2.371518e+000
79798410 1.002033e+000 -1.408370e+000 1.683493e-005 1.668867e+002 3.954291e-005 1.033362e+002 1.002127e+000 -2.309177e+000
80548395 1.002023e+000 -1.409932e+000 5.711945e-006 -3.148878e+001 2.785231e-005 -6.212953e+001 1.001464e+000 -2.466967e+000
81298380 1.001598e+000 -1.472824e+000 2.200980e-005 -1.654198e+002 4.932124e-005 2.292745e+000 1.002609e+000 -2.350471e+000
82048365 1.001375e+000 -1.417134e+000 2.212963e-005 -1.009631e+002 1.904813e-005 -9.486869e+001 1.004359e+000 -2.402245e+000
82798350 1.002399e+000 -1.418074e+000 2.168523e-005 -1.571944e+002 1.795415e-005 -1.026636e+000 1.003720e+000 -2.437017e+000
83548335 1.001382e+000 -1.462187e+000 3.006135e-005 5.860516e+001 7.094947e-006 1.137041e+002 1.001812e+000 -2.482396e+000
84298320 1.002169e+000 -1.510715e+000 1.168613e-005 1.047681e+002 2.179237e-005 1.739009e+002 1.003168e+000 -2.448543e+000
85048305 1.001192e+000 -1.509603e+000 2.980728e-005 -9.800425e+001 2.845698e-005 -1.775808e+002 1.002955e+000 -2.501893e+000
85798290 1.000950e+000 -1.547736e+000 8.828596e-006 1.752522e+002 2.323597e-005 1.657497e+002 1.003574e+000 -2.494077e+000
86548275 1.001851e+000 -1.531562e+000 2.298780e-005 1.447822e+002 2.383067e-005 -2.287609e+001 1.002564e+000 -2.493376e+000
87298260 1.001451e+000 -1.522770e+000 1.484998e-005 -1.861443e+001 1.604047e-005 -2.807131e+001 1.004536e+000 -2.536039e+000
88048245 1.001354e+000 -1.497526e+000 4.458730e-006 -1.738721e+002 3.689036e-005 3.235841e+001 1.003604e+000 -2.630220e+000
88798230 1.002436e+000 -1.563603e+000 4.824121e-006 1.489095e+002 8.529619e-006 -6.243624e+001 1.004653e+000 -2.602298e+000
89548215 1.002333e+000 -1.559671e+000 9.293458e-006 -4.612495e+001 3.788411e-005 -3.571567e+000 1.001809e+000 -2.618019e+000
90298200 1.001082e+000 -1.586461e+000 3.447904e-005 1.081815e+002 6.141094e-006 -1.444165e+002 1.004101e+000 -2.472404e+000
91048185 1.001910e+000 -1.634745e+000 1.470458e-005 -4.007522e+001 1.155040e-005 1.752883e+002 1.002609e+000 -2.574088e+000
91798170 1.002097e+000 -1.596343e+000 4.728935e-005 -1.123450e+002 6.438001e-005 1.105606e+002 1.003989e+000 -2.672579e+000
92548155 1.002853e+000 -1.617389e+000 3.143089e-005 -5.945105e+001 1.609673e-005 3.307965e+001 1.004317e+000 -2.694077e+000
93298140 1.002779e+000 -1.632716e+000 1.964103e-005 -1.359745e+001 3.186203e-005 -9.398108e+001 1.004471e+000 -2.611339e+000
94048125 1.002423e+000 -1.674347e+000 3.552228e-005 -1.789509e+002 4.686507e-005 -1.670059e+002 1.005224e+000 -2.732971e+000
94798110 1.002573e+000 -1.613460e+000 1.594365e-005 9.590975e+001 7.102547e-005 1.359500e+002 1.003660e+000 -2.705060e+000
95548095 1.002110e+000 -1.633228e+000 3.270302e-005 9.181563e+001 5.766955e-005 1.554408e+002 1.002574e+000 -2.700729e+000
96298080 1.002374e+000 -1.626161e+000 1.726610e-005 1.586756e+002 2.021251e-005 -1.090932e+002 1.003195e+000 -2.750841e+000
97048065 1.001482e+000 -1.699233e+000 1.397040e-005 1.741226e+002 2.163793e-005 8.972639e+001 1.003084e+000 -2.738199e+000
97798050 1.001965e+000 -1.623345e+000 9.653239e-006 1.515030e+002 3.592747e-005 -3.810809e+001 1.004899e+000 -2.866406e+000
98548035 1.002693e+000 -1.691537e+000 3.076989e-005 -1.423202e+002 1.249650e-005 -6.661600e+001 1.004121e+000 -2.827073e+000
99298020 1.002822e+000 -1.690343e+000 1.602990e-005 -2.711663e+001 4.096419e-005 -1.415207e+002 1.004820e+000 -2.911815e+000
100048005 1.002710e+000 -1.704294e+000 1.200658e-005 -1.264994e+002 3.709450e-005 -9.364783e+001 1.003186e+000 -2.887124e+000
100797990 1.002698e+000 -1.703386e+000 2.327410e-005 -1.052903e+002 1.622704e-005 -1.494148e+002 1.004279e+000 -2.792984e+000
101547975 1.002102e+000 -1.722229e+000 3.008490e-005 -6.455984e+001 4.656201e-005 1.090743e+002 1.002404e+000 -2.858337e+000
102297960 1.003855e+000 -1.705711e+000 1.108160e-005 -1.172425e+000 5.367210e-005 6.953531e+001 1.004938e+000 -2.842445e+000
103047945 1.002515e+000 -1.729003e+000 4.782095e-006 -4.616730e+001 6.235899e-005 2.540367e+001 1.003354e+000 -2.858400e+000
103797930 1.002154e+000 -1.746994e+000 1.153442e-005 3.895965e+001 8.312380e-006 -1.795461e+002 1.005147e+000 -2.967789e+000
104547915 1.002507e+000 -1.718246e+000 6.620467e-006 1.534480e+002 2.800434e-005 -1.013959e+002 1.005675e+000 -2.845378e+000
105297900 1.002252e+000 -1.781288e+000 1.189782e-005 -1.523565e+001 3.269927e-005 1.815176e+001 1.005655e+000 -2.812661e+000
106047885 1.003287e+000 -1.762982e+000 1.214818e-005 3.330801e+001 3.989738e-005 1.643186e+001 1.005150e+000 -3.043145e+000
106797870 1.003264e+000 -1.787902e+000 1.991959e-005 -1.680010e+002 4.896761e-005 -2.655197e-001 1.005179e+000 -3.027604e+000
107547855 1.003416e+000 -1.839624e+000 1.910554e-005 -6.708778e+001 7.297748e-005 6.163242e+001 1.005077e+000 -2.884327e+000
108297840 1.002865e+000 -1.811836e+000 1.534534e-005 1.966112e+001 4.852430e-005 1.154425e+001 1.004461e+000 -3.069242e+000
109047825 1.002887e+000 -1.848080e+000 6.002274e-006 -1.364724e+002 4.506567e-005 6.038273e+001 1.006356e+000 -3.142276e+000
109797810 1.002405e+000 -1.890743e+000 1.378779e-005 -5.942325e+001 3.589650e-005 -1.426471e+002 1.005650e+000 -3.023249e+000
110547795 1.002520e+000 -1.819774e+000 1.017275e-005 -1.532019e+002 5.096761e-005 -1.650838e+002 1.005402e+000 -3.103498e+000
111297780 1.002904e+000 -1.834134e+000 1.206519e-005 -4.006567e+001 6.042251e-005 -1.389194e+002 1.004665e+000 -2.979054e+000
112047765 1.001972e+000 -1.874619e+000 1.884795e-005 -1.203680e+002 1.248103e-005 1.313268e+002 1.004275e+000 -3.027420e+000
112797750 1.002807e+000 -1.899534e+000 6.848585e-006 1.634752e+002 3.144508e-005 -4.499521e+001 1.004576e+000 -3.085918e+000
113547735 1.003326e+000 -1.875032e+000 8.149187e-006 4.319740e+001 3.988351e-005 1.104423e+002 1.004404e+000 -3.100873e+000
114297720 1.001947e+000 -1.893643e+000 1.038381e-005 -1.325364e+002 9.147208e-005 5.617604e-001 1.006889e+000 -3.172936e+000
115047705 1.003191e+000 -1.885010e+000 2.978216e-006 -1.070072e+002 1.527894e-005 -3.096185e+001 1.005295e+000 -3.181106e+000
115797690 1.003455e+000 -1.900553e+000 6.243592e-006 1.144673e+002 1.340563e-005 4.035610e+001 1.005764e+000 -3.278843e+000
116547675 1.003495e+000 -1.939117e+000 7.674952e-006 -3.688994e+001 1.088951e-005 3.778650e+001 1.005304e+000 -3.170723e+000
117297660 1.003508e+000 -1.909992e+000 1.160028e-005 1.663547e+002 2.928177e-005 2.918469e+001 1.005829e+000 -3.206363e+000
