!Agilent Technologies,N5230C,SG49000117,A.08.50.07
!Agilent N5230C: A.08.50.07
!Date: Tuesday, May 07, 2024 00:30:55
!Correction: S11(Full 2 Port(1,2)) 
!S21(Full 2 Port(1,2)) 
!S12(Full 2 Port(1,2)) 
!S22(Full 2 Port(1,2)) 
!S2P File: Measurements: S11, S21, S12, S22:
# Hz S  MA   R 50
2000000000 1.051388e+000 -2.361064e+001 7.767864e-004 -2.170531e+001 1.411078e-003 -3.971349e+001 1.123157e+000 -3.912213e+001
2000100000 1.051236e+000 -2.361305e+001 7.692798e-004 -2.173240e+001 1.397887e-003 -3.986405e+001 1.123519e+000 -3.911178e+001
2000200000 1.051099e+000 -2.362033e+001 7.700635e-004 -2.167353e+001 1.387608e-003 -3.956004e+001 1.123734e+000 -3.911285e+001
2000300000 1.050917e+000 -2.362565e+001 7.542723e-004 -2.174740e+001 1.371352e-003 -4.122428e+001 1.124118e+000 -3.911808e+001
2000400000 1.050795e+000 -2.363597e+001 7.632621e-004 -2.219266e+001 1.404416e-003 -4.072039e+001 1.124167e+000 -3.912796e+001
2000500000 1.050685e+000 -2.364221e+001 7.604633e-004 -2.180256e+001 1.389638e-003 -4.068550e+001 1.124315e+000 -3.912874e+001
2000600000 1.050686e+000 -2.363509e+001 7.630235e-004 -2.203207e+001 1.411998e-003 -4.043299e+001 1.124370e+000 -3.911436e+001
2000700000 1.050714e+000 -2.362601e+001 7.516533e-004 -2.144318e+001 1.366908e-003 -4.081728e+001 1.124184e+000 -3.909540e+001
2000800000 1.050720e+000 -2.361327e+001 7.551432e-004 -2.213303e+001 1.359442e-003 -4.056633e+001 1.124194e+000 -3.907823e+001
2000900000 1.050724e+000 -2.360731e+001 7.499492e-004 -2.208339e+001 1.367254e-003 -4.160619e+001 1.124106e+000 -3.907228e+001
2001000000 1.050671e+000 -2.359879e+001 7.508426e-004 -2.279794e+001 1.361752e-003 -4.195987e+001 1.124017e+000 -3.905886e+001
2001100000 1.050630e+000 -2.359192e+001 7.402909e-004 -2.234761e+001 1.347294e-003 -4.203485e+001 1.123834e+000 -3.904993e+001
2001200000 1.050669e+000 -2.358475e+001 7.440758e-004 -2.238203e+001 1.346883e-003 -4.171200e+001 1.123736e+000 -3.904585e+001
2001300000 1.050629e+000 -2.358463e+001 7.365266e-004 -2.171001e+001 1.326469e-003 -4.014980e+001 1.123618e+000 -3.905846e+001
2001400000 1.050695e+000 -2.360079e+001 7.432030e-004 -2.260615e+001 1.314286e-003 -4.115532e+001 1.123314e+000 -3.909111e+001
2001500000 1.050915e+000 -2.361540e+001 7.463995e-004 -2.229199e+001 1.312533e-003 -4.216376e+001 1.123225e+000 -3.912252e+001
2001600000 1.051043e+000 -2.363090e+001 7.385655e-004 -2.288180e+001 1.318661e-003 -4.092369e+001 1.122878e+000 -3.915270e+001
2001700000 1.051288e+000 -2.364048e+001 7.220858e-004 -2.249878e+001 1.299337e-003 -4.133757e+001 1.122828e+000 -3.917784e+001
2001800000 1.051401e+000 -2.364647e+001 7.282842e-004 -2.402671e+001 1.335800e-003 -4.153205e+001 1.122527e+000 -3.919843e+001
2001900000 1.051603e+000 -2.365600e+001 7.276354e-004 -2.297553e+001 1.304098e-003 -4.246095e+001 1.122494e+000 -3.922183e+001
2002000000 1.051804e+000 -2.365609e+001 7.175674e-004 -2.376553e+001 1.304232e-003 -4.230402e+001 1.122358e+000 -3.924308e+001
2002100000 1.051806e+000 -2.364734e+001 7.158965e-004 -2.344143e+001 1.312940e-003 -4.222847e+001 1.122481e+000 -3.922008e+001
2002200000 1.051769e+000 -2.363437e+001 7.230771e-004 -2.280165e+001 1.295479e-003 -4.075548e+001 1.122617e+000 -3.919249e+001
2002300000 1.051711e+000 -2.362388e+001 7.177854e-004 -2.413350e+001 1.279243e-003 -4.279186e+001 1.122858e+000 -3.916414e+001
2002400000 1.051655e+000 -2.361352e+001 7.034113e-004 -2.341753e+001 1.265840e-003 -4.157959e+001 1.123015e+000 -3.913814e+001
2002500000 1.051600e+000 -2.360224e+001 7.075936e-004 -2.289991e+001 1.267022e-003 -4.301851e+001 1.123142e+000 -3.911792e+001
2002600000 1.051539e+000 -2.359848e+001 6.979958e-004 -2.459909e+001 1.278239e-003 -4.292568e+001 1.123275e+000 -3.909789e+001
2002700000 1.051408e+000 -2.359116e+001 7.028908e-004 -2.445765e+001 1.274934e-003 -4.357278e+001 1.123399e+000 -3.908017e+001
2002800000 1.051308e+000 -2.359074e+001 6.897371e-004 -2.406990e+001 1.269362e-003 -4.214631e+001 1.123497e+000 -3.907510e+001
2002900000 1.051197e+000 -2.359748e+001 7.047007e-004 -2.395875e+001 1.275858e-003 -4.324117e+001 1.123519e+000 -3.909008e+001
2003000000 1.051054e+000 -2.361033e+001 6.913581e-004 -2.402123e+001 1.236198e-003 -4.222075e+001 1.123442e+000 -3.910487e+001
2003100000 1.050994e+000 -2.362007e+001 6.976108e-004 -2.334032e+001 1.226208e-003 -4.306649e+001 1.123627e+000 -3.912439e+001
2003200000 1.050955e+000 -2.362473e+001 6.909232e-004 -2.402962e+001 1.270900e-003 -4.269526e+001 1.123752e+000 -3.914018e+001
2003300000 1.050896e+000 -2.363188e+001 6.882946e-004 -2.494948e+001 1.248468e-003 -4.253200e+001 1.123842e+000 -3.915622e+001
2003400000 1.050910e+000 -2.364118e+001 6.790120e-004 -2.390434e+001 1.207339e-003 -4.177616e+001 1.123892e+000 -3.917024e+001
2003500000 1.050850e+000 -2.364493e+001 6.740278e-004 -2.401607e+001 1.200338e-003 -4.259612e+001 1.123931e+000 -3.918846e+001
2003600000 1.050893e+000 -2.365047e+001 6.800531e-004 -2.470775e+001 1.213479e-003 -4.184597e+001 1.124189e+000 -3.918074e+001
2003700000 1.050982e+000 -2.365694e+001 6.726755e-004 -2.418715e+001 1.204086e-003 -4.194304e+001 1.124337e+000 -3.917722e+001
2003800000 1.050967e+000 -2.366673e+001 6.661715e-004 -2.448033e+001 1.203162e-003 -4.374101e+001 1.124466e+000 -3.917627e+001
2003900000 1.050982e+000 -2.367233e+001 6.767202e-004 -2.433305e+001 1.206258e-003 -4.351062e+001 1.124565e+000 -3.916748e+001
2004000000 1.051011e+000 -2.367290e+001 6.604599e-004 -2.429578e+001 1.209131e-003 -4.286923e+001 1.124769e+000 -3.916676e+001
2004100000 1.050976e+000 -2.368040e+001 6.596959e-004 -2.442349e+001 1.178124e-003 -4.337050e+001 1.124722e+000 -3.917010e+001
2004200000 1.051080e+000 -2.368956e+001 6.668685e-004 -2.478218e+001 1.184731e-003 -4.349962e+001 1.124711e+000 -3.916639e+001
2004300000 1.051022e+000 -2.369077e+001 6.532732e-004 -2.366378e+001 1.173772e-003 -4.356088e+001 1.124556e+000 -3.916842e+001
2004400000 1.051135e+000 -2.368591e+001 6.418207e-004 -2.393054e+001 1.195268e-003 -4.508092e+001 1.124245e+000 -3.916555e+001
2004500000 1.051273e+000 -2.368524e+001 6.449887e-004 -2.388590e+001 1.176282e-003 -4.375929e+001 1.123988e+000 -3.916749e+001
2004600000 1.051285e+000 -2.368701e+001 6.540517e-004 -2.373609e+001 1.193016e-003 -4.329471e+001 1.123793e+000 -3.915725e+001
2004700000 1.051412e+000 -2.368424e+001 6.485930e-004 -2.472692e+001 1.143656e-003 -4.362601e+001 1.123588e+000 -3.916398e+001
2004800000 1.051490e+000 -2.368225e+001 6.465940e-004 -2.454510e+001 1.149549e-003 -4.384868e+001 1.123386e+000 -3.916189e+001
2004900000 1.051518e+000 -2.368436e+001 6.343699e-004 -2.520585e+001 1.149515e-003 -4.494047e+001 1.123378e+000 -3.916038e+001
2005000000 1.051600e+000 -2.368081e+001 6.409243e-004 -2.389599e+001 1.116712e-003 -4.400723e+001 1.123289e+000 -3.916542e+001
2005100000 1.051613e+000 -2.369086e+001 6.444392e-004 -2.512677e+001 1.120462e-003 -4.221534e+001 1.123435e+000 -3.915575e+001
2005200000 1.051513e+000 -2.369678e+001 6.297502e-004 -2.521270e+001 1.122136e-003 -4.358622e+001 1.123585e+000 -3.914491e+001
2005300000 1.051485e+000 -2.370348e+001 6.197729e-004 -2.497206e+001 1.112262e-003 -4.283636e+001 1.123785e+000 -3.914087e+001
2005400000 1.051463e+000 -2.370295e+001 6.298494e-004 -2.495538e+001 1.124592e-003 -4.390186e+001 1.123952e+000 -3.913456e+001
2005500000 1.051476e+000 -2.370824e+001 6.214786e-004 -2.379823e+001 1.126919e-003 -4.312485e+001 1.124107e+000 -3.912428e+001
2005600000 1.051466e+000 -2.371516e+001 6.218810e-004 -2.581189e+001 1.111940e-003 -4.282187e+001 1.124276e+000 -3.912202e+001
2005700000 1.051423e+000 -2.371450e+001 6.149180e-004 -2.424933e+001 1.131061e-003 -4.450900e+001 1.124518e+000 -3.911975e+001
2005800000 1.051461e+000 -2.371541e+001 6.269432e-004 -2.547966e+001 1.110247e-003 -4.333263e+001 1.124614e+000 -3.911716e+001
2005900000 1.051538e+000 -2.371182e+001 6.061851e-004 -2.482169e+001 1.112380e-003 -4.455906e+001 1.124813e+000 -3.912672e+001
2006000000 1.051560e+000 -2.371569e+001 6.250554e-004 -2.439573e+001 1.119707e-003 -4.258663e+001 1.125004e+000 -3.913842e+001
2006100000 1.051638e+000 -2.371530e+001 6.120139e-004 -2.396332e+001 1.093414e-003 -4.502049e+001 1.125068e+000 -3.914903e+001
2006200000 1.051642e+000 -2.371794e+001 5.997801e-004 -2.452008e+001 1.091653e-003 -4.469206e+001 1.125147e+000 -3.916510e+001
2006300000 1.051664e+000 -2.371673e+001 6.063376e-004 -2.449220e+001 1.088255e-003 -4.416022e+001 1.125239e+000 -3.918002e+001
2006400000 1.051758e+000 -2.371861e+001 6.095361e-004 -2.502581e+001 1.077586e-003 -4.314315e+001 1.125261e+000 -3.919274e+001
2006500000 1.051768e+000 -2.371879e+001 6.093063e-004 -2.603386e+001 1.079515e-003 -4.449604e+001 1.125346e+000 -3.920893e+001
2006600000 1.051728e+000 -2.372211e+001 5.925868e-004 -2.578344e+001 1.089948e-003 -4.283088e+001 1.125290e+000 -3.921303e+001
2006700000 1.051514e+000 -2.372954e+001 5.987052e-004 -2.625420e+001 1.102543e-003 -4.391277e+001 1.125237e+000 -3.921308e+001
2006800000 1.051421e+000 -2.373236e+001 5.893391e-004 -2.583923e+001 1.068620e-003 -4.427784e+001 1.125252e+000 -3.921487e+001
2006900000 1.051412e+000 -2.373672e+001 5.846310e-004 -2.465343e+001 1.079382e-003 -4.351661e+001 1.125214e+000 -3.921642e+001
2007000000 1.051457e+000 -2.374003e+001 5.832604e-004 -2.428766e+001 1.068539e-003 -4.416146e+001 1.125118e+000 -3.922604e+001
2007100000 1.051405e+000 -2.373362e+001 5.874124e-004 -2.358463e+001 1.066756e-003 -4.319038e+001 1.125010e+000 -3.923512e+001
2007200000 1.051349e+000 -2.374139e+001 5.775576e-004 -2.429215e+001 1.027390e-003 -4.421420e+001 1.124904e+000 -3.923728e+001
2007300000 1.051395e+000 -2.374984e+001 5.705780e-004 -2.534155e+001 1.047077e-003 -4.340400e+001 1.124868e+000 -3.923722e+001
2007400000 1.051434e+000 -2.375648e+001 5.821689e-004 -2.443849e+001 1.023288e-003 -4.357458e+001 1.124587e+000 -3.922808e+001
2007500000 1.051531e+000 -2.376446e+001 5.676893e-004 -2.355477e+001 1.019537e-003 -4.303977e+001 1.124384e+000 -3.922439e+001
2007600000 1.051470e+000 -2.376884e+001 5.711305e-004 -2.506305e+001 1.014210e-003 -4.273142e+001 1.124165e+000 -3.920958e+001
2007700000 1.051411e+000 -2.377619e+001 5.662950e-004 -2.396228e+001 1.016279e-003 -4.252077e+001 1.123870e+000 -3.920428e+001
2007800000 1.051505e+000 -2.378405e+001 5.600714e-004 -2.761205e+001 1.011325e-003 -4.312280e+001 1.123838e+000 -3.920710e+001
2007900000 1.051469e+000 -2.378802e+001 5.626135e-004 -2.374088e+001 1.029212e-003 -4.344035e+001 1.123664e+000 -3.919944e+001
2008000000 1.051476e+000 -2.379406e+001 5.755062e-004 -2.487252e+001 1.020525e-003 -4.282889e+001 1.123533e+000 -3.919365e+001
2008100000 1.051443e+000 -2.377828e+001 5.487635e-004 -2.413654e+001 1.022689e-003 -4.251185e+001 1.123276e+000 -3.919477e+001
2008200000 1.051392e+000 -2.376541e+001 5.584294e-004 -2.391146e+001 1.010946e-003 -4.413887e+001 1.123125e+000 -3.920269e+001
2008300000 1.051302e+000 -2.375670e+001 5.716191e-004 -2.554725e+001 9.998515e-004 -4.225692e+001 1.122962e+000 -3.919926e+001
2008400000 1.051303e+000 -2.374505e+001 5.634741e-004 -2.455020e+001 9.913894e-004 -4.401094e+001 1.122846e+000 -3.920723e+001
2008500000 1.051227e+000 -2.373748e+001 5.429272e-004 -2.385741e+001 9.846549e-004 -4.279263e+001 1.122785e+000 -3.921161e+001
2008600000 1.051196e+000 -2.372981e+001 5.516551e-004 -2.361901e+001 9.773733e-004 -4.391531e+001 1.122797e+000 -3.921526e+001
2008700000 1.051157e+000 -2.372501e+001 5.429085e-004 -2.452152e+001 9.833163e-004 -4.230326e+001 1.122829e+000 -3.922027e+001
2008800000 1.051098e+000 -2.372489e+001 5.446001e-004 -2.508996e+001 9.845487e-004 -4.269919e+001 1.123031e+000 -3.923308e+001
2008900000 1.051069e+000 -2.373262e+001 5.405181e-004 -2.422647e+001 9.818303e-004 -4.134048e+001 1.123253e+000 -3.924907e+001
2009000000 1.051063e+000 -2.373908e+001 5.375784e-004 -2.299313e+001 9.799669e-004 -4.184913e+001 1.123442e+000 -3.926347e+001
2009100000 1.051090e+000 -2.374406e+001 5.473991e-004 -2.470924e+001 9.917102e-004 -4.177427e+001 1.123812e+000 -3.927145e+001
2009200000 1.051080e+000 -2.375394e+001 5.240557e-004 -2.371392e+001 9.827856e-004 -4.304994e+001 1.123937e+000 -3.928028e+001
2009300000 1.051063e+000 -2.376068e+001 5.369444e-004 -2.464567e+001 9.833823e-004 -4.286596e+001 1.124133e+000 -3.929111e+001
2009400000 1.051067e+000 -2.376782e+001 5.265560e-004 -2.441197e+001 9.633809e-004 -4.239685e+001 1.124293e+000 -3.930429e+001
2009500000 1.051081e+000 -2.377217e+001 5.287986e-004 -2.494147e+001 9.609455e-004 -4.143292e+001 1.124338e+000 -3.931328e+001
2009600000 1.051221e+000 -2.376915e+001 5.149969e-004 -2.332417e+001 9.548686e-004 -4.261885e+001 1.124432e+000 -3.931538e+001
2009700000 1.051380e+000 -2.376765e+001 5.339277e-004 -2.334916e+001 9.323849e-004 -4.196833e+001 1.124482e+000 -3.932125e+001
2009800000 1.051483e+000 -2.376679e+001 5.315115e-004 -2.424273e+001 9.372842e-004 -4.295982e+001 1.124405e+000 -3.932727e+001
2009900000 1.051524e+000 -2.376610e+001 5.313851e-004 -2.427632e+001 9.160299e-004 -4.167985e+001 1.124449e+000 -3.933186e+001
2010000000 1.051623e+000 -2.375830e+001 5.206705e-004 -2.544336e+001 9.355264e-004 -4.262575e+001 1.124419e+000 -3.933239e+001
2010100000 1.051735e+000 -2.376159e+001 5.226578e-004 -2.287473e+001 9.187460e-004 -4.145295e+001 1.124358e+000 -3.934024e+001
2010200000 1.051688e+000 -2.375436e+001 5.258120e-004 -2.349074e+001 9.131623e-004 -4.198805e+001 1.124437e+000 -3.934508e+001
2010300000 1.051708e+000 -2.375207e+001 5.118266e-004 -2.312246e+001 9.290771e-004 -4.098035e+001 1.124215e+000 -3.934843e+001
2010400000 1.051744e+000 -2.375199e+001 5.252293e-004 -2.295100e+001 9.395420e-004 -4.152149e+001 1.123944e+000 -3.934964e+001
2010500000 1.051680e+000 -2.375152e+001 5.185602e-004 -2.219455e+001 9.067388e-004 -4.202139e+001 1.123625e+000 -3.935405e+001
2010600000 1.051715e+000 -2.374907e+001 5.150383e-004 -2.436620e+001 9.119259e-004 -4.162417e+001 1.123356e+000 -3.935556e+001
2010700000 1.051711e+000 -2.374949e+001 5.040707e-004 -2.390979e+001 9.120541e-004 -4.091727e+001 1.123207e+000 -3.935659e+001
2010800000 1.051605e+000 -2.374652e+001 5.107834e-004 -2.253902e+001 9.167221e-004 -4.249101e+001 1.122986e+000 -3.935975e+001
2010900000 1.051588e+000 -2.374941e+001 5.120293e-004 -2.358957e+001 9.081741e-004 -4.127099e+001 1.122923e+000 -3.936472e+001
2011000000 1.051550e+000 -2.375235e+001 5.075902e-004 -2.250815e+001 9.096861e-004 -4.065145e+001 1.122768e+000 -3.935951e+001
2011100000 1.051264e+000 -2.375554e+001 5.072968e-004 -2.208257e+001 8.896884e-004 -4.024183e+001 1.122907e+000 -3.935215e+001
2011200000 1.050948e+000 -2.375747e+001 4.913356e-004 -2.267136e+001 9.133740e-004 -4.043472e+001 1.123106e+000 -3.933368e+001
2011300000 1.050776e+000 -2.375890e+001 4.960817e-004 -2.288953e+001 8.793827e-004 -4.084423e+001 1.123367e+000 -3.931126e+001
2011400000 1.050538e+000 -2.376372e+001 5.040053e-004 -2.306018e+001 8.909318e-004 -4.155463e+001 1.123445e+000 -3.929887e+001
2011500000 1.050397e+000 -2.377126e+001 4.899863e-004 -2.194376e+001 8.909727e-004 -4.061895e+001 1.123670e+000 -3.928207e+001
2011600000 1.050204e+000 -2.377222e+001 4.960906e-004 -2.211279e+001 8.999821e-004 -4.115670e+001 1.123823e+000 -3.927031e+001
2011700000 1.050154e+000 -2.377215e+001 4.961882e-004 -2.313943e+001 8.975624e-004 -3.810038e+001 1.124067e+000 -3.925588e+001
2011800000 1.050173e+000 -2.377886e+001 4.891448e-004 -2.245765e+001 8.893890e-004 -4.125172e+001 1.123838e+000 -3.925687e+001
2011900000 1.050339e+000 -2.379667e+001 5.001161e-004 -2.209746e+001 8.874223e-004 -4.089727e+001 1.123382e+000 -3.927523e+001
2012000000 1.050481e+000 -2.380727e+001 4.962091e-004 -2.213346e+001 8.696994e-004 -3.993041e+001 1.122955e+000 -3.928601e+001
2012100000 1.050708e+000 -2.382216e+001 4.918049e-004 -2.147725e+001 8.785088e-004 -4.035472e+001 1.122612e+000 -3.930441e+001
2012200000 1.050904e+000 -2.382528e+001 4.894627e-004 -2.214524e+001 8.927035e-004 -4.069891e+001 1.122373e+000 -3.932158e+001
2012300000 1.051175e+000 -2.383286e+001 4.852864e-004 -2.322701e+001 8.620734e-004 -4.122533e+001 1.122167e+000 -3.933847e+001
2012400000 1.051446e+000 -2.383018e+001 4.853797e-004 -2.310684e+001 8.723414e-004 -4.026284e+001 1.122092e+000 -3.935732e+001
2012500000 1.051805e+000 -2.382787e+001 4.793645e-004 -2.102561e+001 8.751057e-004 -3.922956e+001 1.121981e+000 -3.937618e+001
2012600000 1.052040e+000 -2.380584e+001 4.871024e-004 -2.098596e+001 8.981384e-004 -4.122738e+001 1.122830e+000 -3.938320e+001
2012700000 1.052295e+000 -2.377297e+001 4.855912e-004 -2.164527e+001 8.873214e-004 -3.884423e+001 1.123654e+000 -3.938059e+001
2012800000 1.052537e+000 -2.375632e+001 4.738670e-004 -2.114932e+001 8.856005e-004 -4.071523e+001 1.124428e+000 -3.937656e+001
2012900000 1.052728e+000 -2.373397e+001 4.879566e-004 -2.334583e+001 8.515277e-004 -3.863567e+001 1.125131e+000 -3.937226e+001
2013000000 1.052904e+000 -2.371787e+001 4.732457e-004 -2.151074e+001 8.542521e-004 -4.046387e+001 1.125751e+000 -3.935721e+001
2013100000 1.052934e+000 -2.370981e+001 4.772960e-004 -2.160565e+001 8.512139e-004 -3.886307e+001 1.126278e+000 -3.935871e+001
2013200000 1.052936e+000 -2.370023e+001 4.703804e-004 -2.068587e+001 8.640341e-004 -3.919117e+001 1.126686e+000 -3.934654e+001
2013300000 1.052656e+000 -2.370290e+001 4.686615e-004 -2.027474e+001 8.571555e-004 -3.880251e+001 1.126773e+000 -3.934019e+001
2013400000 1.052067e+000 -2.372443e+001 4.703168e-004 -2.080620e+001 8.328210e-004 -3.961954e+001 1.126476e+000 -3.932986e+001
2013500000 1.051480e+000 -2.373892e+001 4.738399e-004 -2.038238e+001 8.366851e-004 -3.961645e+001 1.126273e+000 -3.932294e+001
2013600000 1.051136e+000 -2.376076e+001 4.747050e-004 -2.210497e+001 8.222380e-004 -3.837616e+001 1.125971e+000 -3.931117e+001
2013700000 1.050697e+000 -2.378001e+001 4.620370e-004 -2.151052e+001 8.367779e-004 -3.905569e+001 1.125760e+000 -3.930539e+001
2013800000 1.050355e+000 -2.379567e+001 4.485168e-004 -2.305623e+001 8.225432e-004 -3.968549e+001 1.125658e+000 -3.929840e+001
2013900000 1.050156e+000 -2.380836e+001 4.716420e-004 -1.996000e+001 8.464000e-004 -3.794433e+001 1.125427e+000 -3.929633e+001
2014000000 1.049983e+000 -2.382286e+001 4.743680e-004 -1.935786e+001 8.337268e-004 -3.842470e+001 1.125266e+000 -3.928602e+001
2014100000 1.050308e+000 -2.381185e+001 4.595027e-004 -2.021786e+001 8.126617e-004 -3.774417e+001 1.125075e+000 -3.930827e+001
2014200000 1.050496e+000 -2.380338e+001 4.642312e-004 -2.041268e+001 8.204043e-004 -3.882248e+001 1.125006e+000 -3.932779e+001
2014300000 1.050684e+000 -2.378985e+001 4.629779e-004 -2.102232e+001 8.383660e-004 -3.870486e+001 1.124762e+000 -3.934486e+001
2014400000 1.050935e+000 -2.378153e+001 4.597580e-004 -2.006235e+001 8.255542e-004 -3.864023e+001 1.124622e+000 -3.936347e+001
2014500000 1.051087e+000 -2.376987e+001 4.632938e-004 -1.938974e+001 8.112687e-004 -3.763231e+001 1.124405e+000 -3.937607e+001
2014600000 1.051169e+000 -2.376818e+001 4.631064e-004 -2.139712e+001 8.179453e-004 -3.697565e+001 1.124133e+000 -3.939127e+001
2014700000 1.051238e+000 -2.376204e+001 4.705882e-004 -2.030391e+001 8.222911e-004 -3.848840e+001 1.123934e+000 -3.940848e+001
2014800000 1.051186e+000 -2.376471e+001 4.570106e-004 -1.990271e+001 8.409310e-004 -3.831844e+001 1.123684e+000 -3.940709e+001
2014900000 1.050922e+000 -2.377946e+001 4.606317e-004 -1.863393e+001 8.164945e-004 -3.562127e+001 1.123378e+000 -3.939857e+001
2015000000 1.050708e+000 -2.379007e+001 4.652034e-004 -1.968522e+001 8.239057e-004 -3.623065e+001 1.123099e+000 -3.938617e+001
2015100000 1.050550e+000 -2.380810e+001 4.490980e-004 -1.898558e+001 8.052028e-004 -3.587867e+001 1.122992e+000 -3.937521e+001
2015200000 1.050454e+000 -2.382120e+001 4.593470e-004 -2.089079e+001 8.238016e-004 -3.749089e+001 1.122723e+000 -3.936193e+001
