!Agilent Technologies,N5230C,SG49000117,A.08.50.07
!Agilent N5230C: A.08.50.07
!Date: Tuesday, May 07, 2024 00:22:00
!Correction: S11(Full 2 Port(1,2)) 
!S21(Full 2 Port(1,2)) 
!S12(Full 2 Port(1,2)) 
!S22(Full 2 Port(1,2)) 
!S2P File: Measurements: S11, S21, S12, S22:
# Hz S  MA   R 50
2000000000 1.051925e+000 -2.355961e+001 1.263818e-003 1.996076e+001 2.282918e-003 1.177408e+000 1.126844e+000 -3.934596e+001
2000100000 1.051760e+000 -2.356063e+001 1.271462e-003 2.004478e+001 2.300185e-003 1.558127e+000 1.127101e+000 -3.933755e+001
2000200000 1.051577e+000 -2.356946e+001 1.261027e-003 2.039586e+001 2.302731e-003 1.784802e+000 1.127402e+000 -3.934246e+001
2000300000 1.051406e+000 -2.357387e+001 1.264410e-003 2.004010e+001 2.281942e-003 1.559517e+000 1.127620e+000 -3.934417e+001
2000400000 1.051335e+000 -2.358323e+001 1.255366e-003 2.042671e+001 2.251863e-003 1.826760e+000 1.127815e+000 -3.935103e+001
2000500000 1.051164e+000 -2.359385e+001 1.245649e-003 2.041610e+001 2.260936e-003 9.779789e-001 1.128042e+000 -3.935942e+001
2000600000 1.051234e+000 -2.358480e+001 1.245273e-003 2.044366e+001 2.266525e-003 2.099659e+000 1.128025e+000 -3.934477e+001
2000700000 1.051238e+000 -2.357421e+001 1.249772e-003 2.043367e+001 2.269783e-003 1.389398e+000 1.127888e+000 -3.932963e+001
2000800000 1.051224e+000 -2.356593e+001 1.242597e-003 2.099159e+001 2.240519e-003 1.880103e+000 1.127891e+000 -3.931342e+001
2000900000 1.051191e+000 -2.355586e+001 1.240393e-003 2.026534e+001 2.248932e-003 1.594512e+000 1.127742e+000 -3.929263e+001
2001000000 1.051172e+000 -2.354730e+001 1.228415e-003 2.023865e+001 2.220281e-003 1.903132e+000 1.127658e+000 -3.928391e+001
2001100000 1.051152e+000 -2.353884e+001 1.242383e-003 1.998606e+001 2.231805e-003 2.257707e+000 1.127571e+000 -3.927843e+001
2001200000 1.051121e+000 -2.353300e+001 1.234331e-003 2.039975e+001 2.229265e-003 2.317595e+000 1.127400e+000 -3.927688e+001
2001300000 1.051131e+000 -2.353375e+001 1.231788e-003 2.079081e+001 2.230817e-003 2.897299e+000 1.127229e+000 -3.928909e+001
2001400000 1.051243e+000 -2.355233e+001 1.234332e-003 2.029882e+001 2.230560e-003 1.868135e+000 1.126974e+000 -3.931931e+001
2001500000 1.051439e+000 -2.356689e+001 1.236219e-003 2.019259e+001 2.238412e-003 2.124635e+000 1.126812e+000 -3.934841e+001
2001600000 1.051544e+000 -2.357946e+001 1.227884e-003 2.060208e+001 2.225365e-003 1.764771e+000 1.126643e+000 -3.937699e+001
2001700000 1.051724e+000 -2.359131e+001 1.225516e-003 2.064507e+001 2.218884e-003 1.706432e+000 1.126420e+000 -3.939407e+001
2001800000 1.051882e+000 -2.359573e+001 1.236599e-003 2.092097e+001 2.199352e-003 1.738557e+000 1.126192e+000 -3.941957e+001
2001900000 1.052129e+000 -2.360391e+001 1.230080e-003 2.116030e+001 2.203478e-003 1.984705e+000 1.126049e+000 -3.944697e+001
2002000000 1.052308e+000 -2.360631e+001 1.215379e-003 2.060050e+001 2.179266e-003 1.689701e+000 1.125996e+000 -3.946376e+001
2002100000 1.052324e+000 -2.359758e+001 1.225046e-003 2.088189e+001 2.194316e-003 2.466672e+000 1.126178e+000 -3.944364e+001
2002200000 1.052308e+000 -2.358382e+001 1.220546e-003 2.083183e+001 2.183292e-003 2.355249e+000 1.126377e+000 -3.941417e+001
2002300000 1.052273e+000 -2.357111e+001 1.210795e-003 2.109344e+001 2.185076e-003 2.633163e+000 1.126493e+000 -3.938814e+001
2002400000 1.052205e+000 -2.356001e+001 1.204500e-003 2.078953e+001 2.189589e-003 2.381257e+000 1.126783e+000 -3.936738e+001
2002500000 1.052150e+000 -2.355104e+001 1.204761e-003 2.108224e+001 2.177517e-003 2.985200e+000 1.126817e+000 -3.934515e+001
2002600000 1.052026e+000 -2.354630e+001 1.212512e-003 2.113881e+001 2.184133e-003 2.959970e+000 1.126969e+000 -3.932016e+001
2002700000 1.051951e+000 -2.354057e+001 1.206625e-003 2.121403e+001 2.175711e-003 2.928807e+000 1.127061e+000 -3.930227e+001
2002800000 1.051774e+000 -2.354260e+001 1.199109e-003 2.087056e+001 2.182336e-003 2.740554e+000 1.127181e+000 -3.929994e+001
2002900000 1.051690e+000 -2.355193e+001 1.192608e-003 2.179925e+001 2.176026e-003 2.415465e+000 1.127211e+000 -3.931524e+001
2003000000 1.051556e+000 -2.356111e+001 1.191513e-003 2.124984e+001 2.158356e-003 2.411093e+000 1.127287e+000 -3.933099e+001
2003100000 1.051473e+000 -2.356901e+001 1.204427e-003 2.127588e+001 2.147922e-003 3.141275e+000 1.127354e+000 -3.934685e+001
2003200000 1.051431e+000 -2.357454e+001 1.198099e-003 2.112393e+001 2.147030e-003 2.318854e+000 1.127351e+000 -3.936168e+001
2003300000 1.051410e+000 -2.358339e+001 1.191266e-003 2.169213e+001 2.123423e-003 2.551752e+000 1.127552e+000 -3.938101e+001
2003400000 1.051340e+000 -2.358749e+001 1.191042e-003 2.180157e+001 2.134398e-003 2.623927e+000 1.127593e+000 -3.939665e+001
2003500000 1.051404e+000 -2.359563e+001 1.191906e-003 2.176398e+001 2.157831e-003 2.807287e+000 1.127641e+000 -3.941360e+001
2003600000 1.051409e+000 -2.360251e+001 1.192878e-003 2.177902e+001 2.126477e-003 2.876727e+000 1.127872e+000 -3.940781e+001
2003700000 1.051458e+000 -2.360904e+001 1.180142e-003 2.141523e+001 2.140591e-003 3.673053e+000 1.128024e+000 -3.940090e+001
2003800000 1.051543e+000 -2.361024e+001 1.183359e-003 2.120745e+001 2.141358e-003 2.744144e+000 1.128178e+000 -3.939604e+001
2003900000 1.051523e+000 -2.362314e+001 1.176899e-003 2.195195e+001 2.125500e-003 3.535560e+000 1.128259e+000 -3.939265e+001
2004000000 1.051498e+000 -2.362819e+001 1.181919e-003 2.174356e+001 2.146713e-003 3.514341e+000 1.128367e+000 -3.939204e+001
2004100000 1.051557e+000 -2.363298e+001 1.170902e-003 2.194164e+001 2.113693e-003 2.870605e+000 1.128387e+000 -3.939114e+001
2004200000 1.051574e+000 -2.363871e+001 1.170595e-003 2.217496e+001 2.131229e-003 3.394582e+000 1.128316e+000 -3.938781e+001
2004300000 1.051559e+000 -2.364089e+001 1.175553e-003 2.164934e+001 2.106775e-003 3.514998e+000 1.128179e+000 -3.938998e+001
2004400000 1.051660e+000 -2.363938e+001 1.174826e-003 2.172882e+001 2.094090e-003 3.353476e+000 1.127882e+000 -3.938654e+001
2004500000 1.051726e+000 -2.363660e+001 1.153068e-003 2.214462e+001 2.103953e-003 3.051554e+000 1.127646e+000 -3.938646e+001
2004600000 1.051893e+000 -2.363542e+001 1.168231e-003 2.236315e+001 2.092354e-003 3.381025e+000 1.127429e+000 -3.939094e+001
2004700000 1.051867e+000 -2.363376e+001 1.156620e-003 2.230145e+001 2.088086e-003 4.024336e+000 1.127225e+000 -3.938710e+001
2004800000 1.051999e+000 -2.363371e+001 1.160249e-003 2.261031e+001 2.090363e-003 3.935173e+000 1.127129e+000 -3.938214e+001
2004900000 1.052061e+000 -2.363420e+001 1.154221e-003 2.273505e+001 2.103943e-003 3.991549e+000 1.126995e+000 -3.938909e+001
2005000000 1.052090e+000 -2.363693e+001 1.144660e-003 2.297644e+001 2.103771e-003 3.980200e+000 1.126979e+000 -3.939080e+001
2005100000 1.052139e+000 -2.363989e+001 1.161043e-003 2.249219e+001 2.086519e-003 4.191395e+000 1.127099e+000 -3.938128e+001
2005200000 1.051970e+000 -2.364243e+001 1.161538e-003 2.247122e+001 2.086870e-003 3.947967e+000 1.127287e+000 -3.937273e+001
2005300000 1.052039e+000 -2.364941e+001 1.153383e-003 2.307800e+001 2.095980e-003 4.232659e+000 1.127439e+000 -3.936641e+001
2005400000 1.052005e+000 -2.365663e+001 1.156238e-003 2.257902e+001 2.084108e-003 4.196690e+000 1.127691e+000 -3.936023e+001
2005500000 1.052015e+000 -2.365707e+001 1.149098e-003 2.276240e+001 2.067016e-003 3.998303e+000 1.127897e+000 -3.935071e+001
2005600000 1.052021e+000 -2.366378e+001 1.159200e-003 2.288480e+001 2.058145e-003 4.182083e+000 1.128065e+000 -3.934929e+001
2005700000 1.052007e+000 -2.366739e+001 1.152473e-003 2.322888e+001 2.063070e-003 4.519511e+000 1.128199e+000 -3.934479e+001
2005800000 1.051991e+000 -2.366658e+001 1.152077e-003 2.259144e+001 2.048981e-003 4.803045e+000 1.128390e+000 -3.934339e+001
2005900000 1.052034e+000 -2.366660e+001 1.144476e-003 2.296539e+001 2.049129e-003 4.972629e+000 1.128556e+000 -3.935459e+001
2006000000 1.052139e+000 -2.366481e+001 1.149554e-003 2.269461e+001 2.042315e-003 4.966779e+000 1.128579e+000 -3.936565e+001
2006100000 1.052174e+000 -2.366500e+001 1.147926e-003 2.287095e+001 2.066775e-003 4.527196e+000 1.128798e+000 -3.937487e+001
2006200000 1.052213e+000 -2.366477e+001 1.144737e-003 2.373489e+001 2.066679e-003 4.981058e+000 1.128948e+000 -3.938997e+001
2006300000 1.052172e+000 -2.366702e+001 1.146552e-003 2.370850e+001 2.045686e-003 5.061204e+000 1.128933e+000 -3.940492e+001
2006400000 1.052232e+000 -2.366935e+001 1.154707e-003 2.355095e+001 2.040080e-003 4.992124e+000 1.128991e+000 -3.941644e+001
2006500000 1.052244e+000 -2.367082e+001 1.143273e-003 2.296763e+001 2.057918e-003 5.204975e+000 1.128966e+000 -3.943563e+001
2006600000 1.052189e+000 -2.367466e+001 1.141285e-003 2.351485e+001 2.040582e-003 4.800472e+000 1.128996e+000 -3.943604e+001
2006700000 1.052013e+000 -2.367745e+001 1.123714e-003 2.368289e+001 2.025873e-003 5.337222e+000 1.128894e+000 -3.943858e+001
2006800000 1.052021e+000 -2.368390e+001 1.137470e-003 2.406597e+001 2.050985e-003 4.820563e+000 1.128825e+000 -3.944309e+001
2006900000 1.051948e+000 -2.368556e+001 1.138166e-003 2.367638e+001 2.043027e-003 4.720278e+000 1.128816e+000 -3.944819e+001
2007000000 1.051963e+000 -2.368788e+001 1.141200e-003 2.370056e+001 2.018110e-003 5.836966e+000 1.128808e+000 -3.945275e+001
2007100000 1.051891e+000 -2.368671e+001 1.135175e-003 2.361395e+001 2.012389e-003 5.435707e+000 1.128679e+000 -3.945443e+001
2007200000 1.051976e+000 -2.369370e+001 1.141058e-003 2.421886e+001 2.024545e-003 5.653709e+000 1.128642e+000 -3.946228e+001
2007300000 1.051917e+000 -2.369541e+001 1.134704e-003 2.414756e+001 2.023648e-003 6.050508e+000 1.128470e+000 -3.945925e+001
2007400000 1.051969e+000 -2.370201e+001 1.124264e-003 2.386719e+001 2.011182e-003 5.536527e+000 1.128265e+000 -3.945451e+001
2007500000 1.051990e+000 -2.371267e+001 1.125421e-003 2.452222e+001 2.033440e-003 5.844066e+000 1.128100e+000 -3.944678e+001
2007600000 1.052041e+000 -2.372019e+001 1.115229e-003 2.461063e+001 2.027103e-003 5.963612e+000 1.127923e+000 -3.944135e+001
2007700000 1.052007e+000 -2.372435e+001 1.126974e-003 2.478954e+001 2.032268e-003 5.471850e+000 1.127701e+000 -3.943758e+001
2007800000 1.052019e+000 -2.373420e+001 1.122032e-003 2.421727e+001 2.013050e-003 5.851211e+000 1.127556e+000 -3.942884e+001
2007900000 1.052019e+000 -2.373578e+001 1.126229e-003 2.410543e+001 2.007135e-003 5.552043e+000 1.127359e+000 -3.942334e+001
2008000000 1.052024e+000 -2.374276e+001 1.135945e-003 2.486309e+001 1.993570e-003 5.773504e+000 1.127184e+000 -3.942616e+001
2008100000 1.051959e+000 -2.372932e+001 1.118009e-003 2.482171e+001 2.003986e-003 6.544972e+000 1.126982e+000 -3.942168e+001
2008200000 1.051893e+000 -2.372054e+001 1.123563e-003 2.530398e+001 2.013139e-003 5.947204e+000 1.126842e+000 -3.942557e+001
2008300000 1.051858e+000 -2.370368e+001 1.127176e-003 2.514929e+001 1.996794e-003 6.172200e+000 1.126708e+000 -3.943089e+001
2008400000 1.051809e+000 -2.369660e+001 1.115972e-003 2.499046e+001 1.996791e-003 6.702827e+000 1.126517e+000 -3.942998e+001
2008500000 1.051757e+000 -2.368538e+001 1.121245e-003 2.510552e+001 1.994130e-003 6.816638e+000 1.126536e+000 -3.943651e+001
2008600000 1.051693e+000 -2.367776e+001 1.123408e-003 2.529564e+001 2.014452e-003 7.125869e+000 1.126500e+000 -3.944157e+001
2008700000 1.051703e+000 -2.367381e+001 1.125418e-003 2.500431e+001 1.997696e-003 6.249255e+000 1.126561e+000 -3.945111e+001
2008800000 1.051705e+000 -2.367357e+001 1.120338e-003 2.487320e+001 1.996955e-003 6.579634e+000 1.126667e+000 -3.945776e+001
2008900000 1.051607e+000 -2.367978e+001 1.123345e-003 2.544882e+001 2.009343e-003 6.964781e+000 1.127007e+000 -3.947177e+001
2009000000 1.051654e+000 -2.369115e+001 1.109811e-003 2.539436e+001 1.995218e-003 6.750506e+000 1.127210e+000 -3.947801e+001
2009100000 1.051625e+000 -2.369631e+001 1.114988e-003 2.523469e+001 1.996544e-003 7.010820e+000 1.127450e+000 -3.949747e+001
2009200000 1.051602e+000 -2.370415e+001 1.117163e-003 2.505780e+001 2.024589e-003 6.939668e+000 1.127591e+000 -3.950470e+001
2009300000 1.051616e+000 -2.371172e+001 1.110714e-003 2.548751e+001 1.984433e-003 7.551286e+000 1.127843e+000 -3.951849e+001
2009400000 1.051600e+000 -2.371628e+001 1.119600e-003 2.543100e+001 1.968287e-003 7.563053e+000 1.127937e+000 -3.952499e+001
2009500000 1.051661e+000 -2.372122e+001 1.114255e-003 2.590479e+001 2.004891e-003 6.966203e+000 1.128144e+000 -3.953693e+001
2009600000 1.051771e+000 -2.372109e+001 1.117005e-003 2.572929e+001 1.981862e-003 7.204051e+000 1.128170e+000 -3.954116e+001
2009700000 1.051933e+000 -2.372020e+001 1.117453e-003 2.601510e+001 2.003794e-003 7.698013e+000 1.128259e+000 -3.954652e+001
2009800000 1.051991e+000 -2.371734e+001 1.103890e-003 2.597436e+001 1.985722e-003 7.012563e+000 1.128323e+000 -3.954696e+001
2009900000 1.052087e+000 -2.370955e+001 1.100761e-003 2.602854e+001 1.983498e-003 7.566266e+000 1.128156e+000 -3.955376e+001
2010000000 1.052216e+000 -2.371147e+001 1.119949e-003 2.565919e+001 1.997564e-003 7.991742e+000 1.128202e+000 -3.955656e+001
2010100000 1.052235e+000 -2.370907e+001 1.125697e-003 2.592926e+001 1.981329e-003 7.865465e+000 1.128159e+000 -3.956121e+001
2010200000 1.052281e+000 -2.370548e+001 1.117836e-003 2.562593e+001 1.983309e-003 8.011980e+000 1.128052e+000 -3.956914e+001
2010300000 1.052287e+000 -2.370458e+001 1.125744e-003 2.646434e+001 1.978261e-003 8.109267e+000 1.127907e+000 -3.957204e+001
2010400000 1.052292e+000 -2.370103e+001 1.123758e-003 2.625270e+001 1.996585e-003 7.883420e+000 1.127650e+000 -3.957310e+001
2010500000 1.052273e+000 -2.369896e+001 1.116921e-003 2.640966e+001 1.968106e-003 7.658948e+000 1.127379e+000 -3.957517e+001
2010600000 1.052262e+000 -2.369996e+001 1.113214e-003 2.656102e+001 1.970549e-003 7.924748e+000 1.127110e+000 -3.957807e+001
2010700000 1.052239e+000 -2.370204e+001 1.121647e-003 2.629645e+001 1.960397e-003 7.549236e+000 1.126845e+000 -3.958147e+001
2010800000 1.052233e+000 -2.369936e+001 1.108956e-003 2.683258e+001 1.978830e-003 8.203060e+000 1.126740e+000 -3.958317e+001
2010900000 1.052175e+000 -2.369865e+001 1.115133e-003 2.645772e+001 1.992635e-003 7.925472e+000 1.126591e+000 -3.958834e+001
2011000000 1.052154e+000 -2.370200e+001 1.112123e-003 2.643357e+001 1.989822e-003 7.914151e+000 1.126423e+000 -3.959226e+001
2011100000 1.051829e+000 -2.370579e+001 1.114113e-003 2.617721e+001 1.961409e-003 8.073753e+000 1.126626e+000 -3.957449e+001
2011200000 1.051580e+000 -2.370948e+001 1.118474e-003 2.643838e+001 1.974144e-003 9.288836e+000 1.126831e+000 -3.955141e+001
2011300000 1.051316e+000 -2.371071e+001 1.103762e-003 2.703775e+001 1.980848e-003 8.588966e+000 1.127028e+000 -3.953316e+001
2011400000 1.051105e+000 -2.371273e+001 1.111500e-003 2.691526e+001 1.961694e-003 9.224439e+000 1.127274e+000 -3.952094e+001
2011500000 1.050977e+000 -2.371929e+001 1.114902e-003 2.692042e+001 1.967633e-003 9.057441e+000 1.127408e+000 -3.950177e+001
2011600000 1.050785e+000 -2.371712e+001 1.116873e-003 2.683431e+001 2.000916e-003 8.580610e+000 1.127647e+000 -3.949090e+001
2011700000 1.050744e+000 -2.371984e+001 1.100286e-003 2.692697e+001 1.987080e-003 8.838283e+000 1.127761e+000 -3.947684e+001
2011800000 1.050752e+000 -2.373167e+001 1.104183e-003 2.722350e+001 1.977233e-003 8.546738e+000 1.127643e+000 -3.947880e+001
2011900000 1.050928e+000 -2.374383e+001 1.126646e-003 2.716034e+001 1.988788e-003 9.024611e+000 1.127099e+000 -3.949829e+001
2012000000 1.051127e+000 -2.376088e+001 1.117555e-003 2.725653e+001 1.957193e-003 8.796261e+000 1.126721e+000 -3.950621e+001
2012100000 1.051264e+000 -2.377170e+001 1.118829e-003 2.705628e+001 1.969636e-003 9.479011e+000 1.126336e+000 -3.952707e+001
2012200000 1.051522e+000 -2.377790e+001 1.114551e-003 2.746088e+001 1.984517e-003 9.616754e+000 1.126014e+000 -3.954267e+001
2012300000 1.051778e+000 -2.378085e+001 1.105198e-003 2.774696e+001 1.991197e-003 9.510216e+000 1.125901e+000 -3.956295e+001
2012400000 1.052027e+000 -2.378325e+001 1.106414e-003 2.709055e+001 1.990560e-003 9.747027e+000 1.125700e+000 -3.957906e+001
2012500000 1.052339e+000 -2.378151e+001 1.106916e-003 2.768506e+001 1.996542e-003 9.608094e+000 1.125676e+000 -3.959816e+001
2012600000 1.052725e+000 -2.375311e+001 1.114995e-003 2.743764e+001 2.000532e-003 9.353607e+000 1.126545e+000 -3.959987e+001
2012700000 1.052919e+000 -2.372787e+001 1.113652e-003 2.769270e+001 1.999490e-003 9.128729e+000 1.127396e+000 -3.960135e+001
2012800000 1.053131e+000 -2.370292e+001 1.113722e-003 2.763995e+001 1.995479e-003 9.178321e+000 1.128159e+000 -3.959552e+001
2012900000 1.053337e+000 -2.368548e+001 1.112264e-003 2.792866e+001 2.005891e-003 8.886179e+000 1.128862e+000 -3.959320e+001
2013000000 1.053443e+000 -2.366888e+001 1.111205e-003 2.752793e+001 1.990677e-003 9.668514e+000 1.129476e+000 -3.958770e+001
2013100000 1.053497e+000 -2.365800e+001 1.110501e-003 2.811514e+001 1.989793e-003 1.000709e+001 1.129959e+000 -3.958114e+001
2013200000 1.053568e+000 -2.365058e+001 1.107605e-003 2.825824e+001 1.990542e-003 9.959588e+000 1.130412e+000 -3.956791e+001
2013300000 1.053238e+000 -2.365658e+001 1.114057e-003 2.746115e+001 1.961377e-003 9.933862e+000 1.130560e+000 -3.955587e+001
2013400000 1.052644e+000 -2.367574e+001 1.114550e-003 2.810315e+001 1.995111e-003 1.002450e+001 1.130193e+000 -3.954907e+001
2013500000 1.052105e+000 -2.369348e+001 1.116821e-003 2.827313e+001 2.001561e-003 1.033994e+001 1.130023e+000 -3.954206e+001
2013600000 1.051615e+000 -2.371120e+001 1.119791e-003 2.799693e+001 1.975175e-003 9.513999e+000 1.129747e+000 -3.953341e+001
2013700000 1.051207e+000 -2.373268e+001 1.119487e-003 2.837375e+001 1.987161e-003 9.313230e+000 1.129523e+000 -3.952761e+001
2013800000 1.050896e+000 -2.374549e+001 1.114839e-003 2.778167e+001 1.990868e-003 9.909015e+000 1.129332e+000 -3.951786e+001
2013900000 1.050694e+000 -2.376062e+001 1.106744e-003 2.832415e+001 1.985159e-003 9.956878e+000 1.129206e+000 -3.951218e+001
2014000000 1.050559e+000 -2.377256e+001 1.115434e-003 2.772740e+001 1.977382e-003 9.754500e+000 1.129047e+000 -3.951227e+001
2014100000 1.050775e+000 -2.376539e+001 1.117410e-003 2.803421e+001 1.993024e-003 1.023638e+001 1.128866e+000 -3.952529e+001
2014200000 1.051139e+000 -2.375479e+001 1.124199e-003 2.829205e+001 1.978795e-003 1.034496e+001 1.128589e+000 -3.954581e+001
2014300000 1.051338e+000 -2.374334e+001 1.118869e-003 2.850101e+001 2.002561e-003 1.058683e+001 1.128474e+000 -3.956153e+001
2014400000 1.051477e+000 -2.373479e+001 1.114302e-003 2.849558e+001 2.003950e-003 1.005901e+001 1.128215e+000 -3.958012e+001
2014500000 1.051697e+000 -2.372560e+001 1.123787e-003 2.821354e+001 2.013284e-003 1.055797e+001 1.128130e+000 -3.959268e+001
2014600000 1.051820e+000 -2.371945e+001 1.115571e-003 2.821194e+001 2.017259e-003 1.052692e+001 1.127900e+000 -3.960658e+001
2014700000 1.051862e+000 -2.371483e+001 1.119532e-003 2.862224e+001 1.983810e-003 1.015239e+001 1.127737e+000 -3.961895e+001
2014800000 1.051787e+000 -2.371735e+001 1.124329e-003 2.845080e+001 1.994338e-003 1.052968e+001 1.127403e+000 -3.962520e+001
2014900000 1.051519e+000 -2.373141e+001 1.128668e-003 2.849166e+001 1.992902e-003 1.025834e+001 1.127114e+000 -3.961354e+001
2015000000 1.051283e+000 -2.374458e+001 1.120403e-003 2.893079e+001 2.004040e-003 1.092278e+001 1.126906e+000 -3.959845e+001
2015100000 1.051123e+000 -2.375976e+001 1.121955e-003 2.855259e+001 1.983543e-003 9.892043e+000 1.126706e+000 -3.959030e+001
2015200000 1.051086e+000 -2.377378e+001 1.117898e-003 2.867038e+001 1.977025e-003 1.081025e+001 1.126531e+000 -3.958509e+001
2015300000 1.050961e+000 -2.378534e+001 1.122266e-003 2.829206e+001 1.996693e-003 1.019601e+001 1.126491e+000 -3.957632e+001
2015400000 1.050906e+000 -2.379616e+001 1.122076e-003 2.838138e+001 2.014821e-003 1.060644e+001 1.126400e+000 -3.956734e+001
2015500000 1.050836e+000 -2.380894e+001 1.123863e-003 2.875313e+001 1.989233e-003 1.105465e+001 1.126398e+000 -3.955705e+001
