!Agilent Technologies,N5230C,SG49000117,A.08.50.07
!Agilent N5230C: A.08.50.07
!Date: Tuesday, May 07, 2024 03:07:27
!Correction: S11(Full 2 Port(1,2)) 
!S21(Full 2 Port(1,2)) 
!S12(Full 2 Port(1,2)) 
!S22(Full 2 Port(1,2)) 
!S2P File: Measurements: S11, S21, S12, S22:
# Hz S  MA   R 50
2000000000 1.051984e+000 -2.362255e+001 5.792124e-004 -2.655957e+001 1.067178e-003 -4.558128e+001 1.127058e+000 -3.931103e+001
2000100000 1.051816e+000 -2.362528e+001 5.797348e-004 -2.788541e+001 1.072894e-003 -4.515374e+001 1.127410e+000 -3.930462e+001
2000200000 1.051650e+000 -2.362980e+001 5.760647e-004 -2.817211e+001 1.065187e-003 -4.613352e+001 1.127682e+000 -3.930949e+001
2000300000 1.051452e+000 -2.363685e+001 5.832707e-004 -2.754885e+001 1.038917e-003 -4.688207e+001 1.127880e+000 -3.930645e+001
2000400000 1.051284e+000 -2.364564e+001 5.835788e-004 -2.694441e+001 1.041393e-003 -4.789762e+001 1.128113e+000 -3.931806e+001
2000500000 1.051224e+000 -2.365133e+001 5.722494e-004 -2.741127e+001 1.031415e-003 -4.623167e+001 1.128295e+000 -3.932596e+001
2000600000 1.051244e+000 -2.364684e+001 5.708900e-004 -2.768533e+001 1.023549e-003 -4.540565e+001 1.128200e+000 -3.930597e+001
2000700000 1.051230e+000 -2.363937e+001 5.761117e-004 -2.899565e+001 1.029826e-003 -4.640190e+001 1.128198e+000 -3.928822e+001
2000800000 1.051274e+000 -2.362620e+001 5.720765e-004 -2.888333e+001 1.025098e-003 -4.770468e+001 1.128144e+000 -3.927382e+001
2000900000 1.051285e+000 -2.361876e+001 5.607564e-004 -2.796817e+001 1.006164e-003 -4.746925e+001 1.127959e+000 -3.926384e+001
2001000000 1.051180e+000 -2.360893e+001 5.657224e-004 -2.764296e+001 1.027125e-003 -4.753853e+001 1.127802e+000 -3.925462e+001
2001100000 1.051199e+000 -2.359819e+001 5.662020e-004 -2.745657e+001 1.026230e-003 -4.788945e+001 1.127665e+000 -3.924607e+001
2001200000 1.051115e+000 -2.359095e+001 5.702117e-004 -2.900641e+001 1.008898e-003 -4.748903e+001 1.127655e+000 -3.924373e+001
2001300000 1.051121e+000 -2.359522e+001 5.662231e-004 -2.832245e+001 1.017455e-003 -4.765712e+001 1.127436e+000 -3.925642e+001
2001400000 1.051271e+000 -2.361160e+001 5.548880e-004 -2.879904e+001 1.025425e-003 -4.760507e+001 1.127246e+000 -3.928576e+001
2001500000 1.051477e+000 -2.362666e+001 5.550401e-004 -2.875860e+001 1.007893e-003 -4.617774e+001 1.127084e+000 -3.931611e+001
2001600000 1.051588e+000 -2.363746e+001 5.546031e-004 -2.847408e+001 1.010269e-003 -4.823551e+001 1.126723e+000 -3.934868e+001
2001700000 1.051744e+000 -2.365046e+001 5.614877e-004 -2.798675e+001 1.003147e-003 -4.763002e+001 1.126570e+000 -3.936718e+001
2001800000 1.051928e+000 -2.366208e+001 5.522015e-004 -2.755758e+001 9.942111e-004 -4.751441e+001 1.126429e+000 -3.939274e+001
2001900000 1.052148e+000 -2.366227e+001 5.514598e-004 -2.857217e+001 9.911698e-004 -4.754717e+001 1.126232e+000 -3.941217e+001
2002000000 1.052353e+000 -2.366930e+001 5.545374e-004 -2.879668e+001 9.837407e-004 -4.698444e+001 1.126068e+000 -3.943703e+001
2002100000 1.052316e+000 -2.365734e+001 5.534224e-004 -2.757381e+001 9.881634e-004 -4.767106e+001 1.126316e+000 -3.941339e+001
2002200000 1.052313e+000 -2.364102e+001 5.584158e-004 -2.850850e+001 9.802871e-004 -4.818409e+001 1.126511e+000 -3.938580e+001
2002300000 1.052314e+000 -2.363434e+001 5.494177e-004 -3.002011e+001 9.924460e-004 -4.746319e+001 1.126699e+000 -3.935886e+001
2002400000 1.052275e+000 -2.362398e+001 5.468795e-004 -3.013087e+001 9.685609e-004 -4.906564e+001 1.126931e+000 -3.933472e+001
2002500000 1.052203e+000 -2.361605e+001 5.426906e-004 -2.884101e+001 9.668601e-004 -4.730371e+001 1.127006e+000 -3.931286e+001
2002600000 1.052087e+000 -2.360846e+001 5.368535e-004 -2.911969e+001 9.834088e-004 -4.912863e+001 1.127134e+000 -3.929680e+001
2002700000 1.051926e+000 -2.360079e+001 5.434310e-004 -3.080169e+001 9.513539e-004 -4.804126e+001 1.127267e+000 -3.927377e+001
2002800000 1.051830e+000 -2.360288e+001 5.339833e-004 -2.877901e+001 9.715587e-004 -4.711385e+001 1.127370e+000 -3.926937e+001
2002900000 1.051730e+000 -2.361127e+001 5.352552e-004 -2.899438e+001 9.571655e-004 -4.796283e+001 1.127457e+000 -3.928305e+001
2003000000 1.051606e+000 -2.362263e+001 5.304498e-004 -2.968914e+001 9.528430e-004 -4.887394e+001 1.127430e+000 -3.930418e+001
2003100000 1.051466e+000 -2.362939e+001 5.344253e-004 -2.988121e+001 9.741022e-004 -4.950253e+001 1.127549e+000 -3.931444e+001
2003200000 1.051441e+000 -2.363721e+001 5.297657e-004 -2.898822e+001 9.615825e-004 -4.998140e+001 1.127558e+000 -3.933207e+001
2003300000 1.051426e+000 -2.364215e+001 5.329502e-004 -2.845699e+001 9.372141e-004 -4.997377e+001 1.127672e+000 -3.934884e+001
2003400000 1.051416e+000 -2.365003e+001 5.276101e-004 -2.939720e+001 9.598171e-004 -4.937511e+001 1.127724e+000 -3.936948e+001
2003500000 1.051505e+000 -2.365520e+001 5.276574e-004 -2.974883e+001 9.509906e-004 -5.026974e+001 1.127700e+000 -3.938602e+001
2003600000 1.051446e+000 -2.366292e+001 5.268183e-004 -3.160804e+001 9.382489e-004 -4.945992e+001 1.127982e+000 -3.938026e+001
2003700000 1.051530e+000 -2.366991e+001 5.246588e-004 -2.968424e+001 9.572442e-004 -4.823907e+001 1.128194e+000 -3.937709e+001
2003800000 1.051510e+000 -2.367202e+001 5.265450e-004 -3.092900e+001 9.483859e-004 -4.931284e+001 1.128279e+000 -3.937285e+001
2003900000 1.051545e+000 -2.368349e+001 5.323063e-004 -3.032580e+001 9.173368e-004 -4.972435e+001 1.128479e+000 -3.936562e+001
2004000000 1.051563e+000 -2.368675e+001 5.173119e-004 -3.035109e+001 9.239121e-004 -4.838367e+001 1.128462e+000 -3.936340e+001
2004100000 1.051552e+000 -2.369321e+001 5.182805e-004 -3.088008e+001 9.288724e-004 -4.829535e+001 1.128452e+000 -3.936266e+001
2004200000 1.051576e+000 -2.369798e+001 5.131447e-004 -3.157515e+001 9.096115e-004 -4.892414e+001 1.128511e+000 -3.936163e+001
2004300000 1.051664e+000 -2.370259e+001 5.139970e-004 -2.977492e+001 9.274353e-004 -4.733631e+001 1.128410e+000 -3.936027e+001
2004400000 1.051670e+000 -2.369977e+001 5.191519e-004 -3.002836e+001 9.379617e-004 -4.940643e+001 1.128010e+000 -3.936146e+001
2004500000 1.051772e+000 -2.369631e+001 5.208619e-004 -3.075034e+001 9.106714e-004 -4.802147e+001 1.127815e+000 -3.935797e+001
2004600000 1.051889e+000 -2.369701e+001 5.067848e-004 -3.177297e+001 9.290581e-004 -4.862722e+001 1.127550e+000 -3.935775e+001
2004700000 1.051982e+000 -2.369511e+001 5.134395e-004 -3.097747e+001 9.110752e-004 -4.828199e+001 1.127323e+000 -3.935611e+001
2004800000 1.051910e+000 -2.369592e+001 5.051138e-004 -2.990169e+001 8.984290e-004 -4.865989e+001 1.127327e+000 -3.936612e+001
2004900000 1.052144e+000 -2.369508e+001 5.088138e-004 -3.075915e+001 9.194667e-004 -4.932883e+001 1.127150e+000 -3.936084e+001
2005000000 1.052150e+000 -2.369427e+001 4.989946e-004 -3.189900e+001 9.202382e-004 -5.040529e+001 1.127013e+000 -3.935917e+001
2005100000 1.052093e+000 -2.370011e+001 4.947536e-004 -2.970281e+001 9.373273e-004 -4.924529e+001 1.127232e+000 -3.935687e+001
2005200000 1.052115e+000 -2.370830e+001 4.998978e-004 -3.181216e+001 9.033505e-004 -4.769750e+001 1.127422e+000 -3.934518e+001
2005300000 1.052016e+000 -2.370843e+001 4.954273e-004 -3.191718e+001 8.793366e-004 -4.980485e+001 1.127586e+000 -3.933945e+001
2005400000 1.052055e+000 -2.371604e+001 4.943365e-004 -2.976627e+001 8.944502e-004 -4.976340e+001 1.127760e+000 -3.932991e+001
2005500000 1.052016e+000 -2.371959e+001 4.953739e-004 -3.181017e+001 8.856510e-004 -5.125586e+001 1.127984e+000 -3.932451e+001
2005600000 1.052066e+000 -2.372196e+001 5.056118e-004 -3.188877e+001 8.785020e-004 -4.853130e+001 1.128176e+000 -3.932362e+001
2005700000 1.052030e+000 -2.372419e+001 4.851189e-004 -3.156537e+001 8.835022e-004 -4.998655e+001 1.128356e+000 -3.931686e+001
2005800000 1.052057e+000 -2.372656e+001 4.933181e-004 -3.155834e+001 8.910089e-004 -4.867496e+001 1.128475e+000 -3.931475e+001
2005900000 1.052137e+000 -2.372605e+001 4.942950e-004 -3.063834e+001 8.834510e-004 -4.848243e+001 1.128580e+000 -3.932336e+001
2006000000 1.052079e+000 -2.372537e+001 4.935329e-004 -3.197714e+001 8.994728e-004 -5.074369e+001 1.128813e+000 -3.934145e+001
2006100000 1.052132e+000 -2.372343e+001 4.833297e-004 -3.067542e+001 8.692617e-004 -4.908543e+001 1.128871e+000 -3.934910e+001
2006200000 1.052311e+000 -2.372768e+001 4.808597e-004 -3.197605e+001 8.758518e-004 -4.853734e+001 1.128981e+000 -3.936317e+001
2006300000 1.052246e+000 -2.372702e+001 4.771189e-004 -3.080007e+001 8.473829e-004 -5.061252e+001 1.129047e+000 -3.937845e+001
2006400000 1.052301e+000 -2.372734e+001 4.725088e-004 -3.153156e+001 8.734339e-004 -4.931633e+001 1.128996e+000 -3.939154e+001
2006500000 1.052232e+000 -2.372760e+001 4.803980e-004 -3.072528e+001 8.490297e-004 -5.077995e+001 1.129054e+000 -3.941164e+001
2006600000 1.052158e+000 -2.373463e+001 4.904031e-004 -3.209903e+001 8.530656e-004 -5.074986e+001 1.129088e+000 -3.941202e+001
2006700000 1.052057e+000 -2.373848e+001 4.699086e-004 -3.108981e+001 8.661278e-004 -4.807130e+001 1.129016e+000 -3.941286e+001
2006800000 1.052004e+000 -2.374064e+001 4.865096e-004 -3.204844e+001 8.595119e-004 -4.953586e+001 1.128932e+000 -3.942218e+001
2006900000 1.051990e+000 -2.374491e+001 4.606351e-004 -3.229365e+001 8.652325e-004 -4.844088e+001 1.128847e+000 -3.941960e+001
2007000000 1.051995e+000 -2.374768e+001 4.797999e-004 -3.111873e+001 8.469808e-004 -4.892816e+001 1.128895e+000 -3.942214e+001
2007100000 1.051958e+000 -2.375008e+001 4.667463e-004 -3.154268e+001 8.628845e-004 -5.050582e+001 1.128779e+000 -3.943037e+001
2007200000 1.052019e+000 -2.375229e+001 4.731629e-004 -3.179638e+001 8.408179e-004 -4.808879e+001 1.128719e+000 -3.943637e+001
2007300000 1.051939e+000 -2.375478e+001 4.763260e-004 -3.253544e+001 8.478066e-004 -4.814844e+001 1.128660e+000 -3.943259e+001
2007400000 1.052011e+000 -2.376033e+001 4.604762e-004 -3.119142e+001 8.376011e-004 -4.978228e+001 1.128369e+000 -3.942802e+001
2007500000 1.051975e+000 -2.377249e+001 4.645884e-004 -3.082284e+001 8.486923e-004 -4.972774e+001 1.128130e+000 -3.942237e+001
2007600000 1.052008e+000 -2.378016e+001 4.578916e-004 -3.086747e+001 8.462250e-004 -5.008320e+001 1.127885e+000 -3.941668e+001
2007700000 1.052046e+000 -2.378562e+001 4.657162e-004 -3.085266e+001 8.173794e-004 -5.075734e+001 1.127785e+000 -3.941021e+001
2007800000 1.052024e+000 -2.379439e+001 4.552246e-004 -3.075563e+001 8.209858e-004 -4.991016e+001 1.127480e+000 -3.940499e+001
2007900000 1.052057e+000 -2.379586e+001 4.654791e-004 -3.160162e+001 8.098857e-004 -4.863322e+001 1.127452e+000 -3.939909e+001
2008000000 1.052062e+000 -2.379912e+001 4.503896e-004 -3.089149e+001 8.265757e-004 -5.102784e+001 1.127156e+000 -3.940165e+001
2008100000 1.051999e+000 -2.378684e+001 4.505946e-004 -3.208343e+001 8.248918e-004 -5.139732e+001 1.127019e+000 -3.939938e+001
2008200000 1.051915e+000 -2.377658e+001 4.688555e-004 -3.085262e+001 8.222457e-004 -4.993519e+001 1.126921e+000 -3.940205e+001
2008300000 1.051894e+000 -2.376714e+001 4.488351e-004 -3.235270e+001 8.191497e-004 -5.042970e+001 1.126681e+000 -3.940580e+001
2008400000 1.051823e+000 -2.375720e+001 4.551505e-004 -3.194788e+001 8.157428e-004 -5.114606e+001 1.126617e+000 -3.940897e+001
2008500000 1.051739e+000 -2.374622e+001 4.516733e-004 -3.220434e+001 8.024324e-004 -4.954443e+001 1.126547e+000 -3.941149e+001
2008600000 1.051809e+000 -2.373805e+001 4.545190e-004 -3.200514e+001 8.110570e-004 -4.925985e+001 1.126642e+000 -3.941941e+001
2008700000 1.051714e+000 -2.372932e+001 4.521279e-004 -3.180734e+001 8.188369e-004 -5.111513e+001 1.126572e+000 -3.942280e+001
2008800000 1.051674e+000 -2.373292e+001 4.526540e-004 -3.131527e+001 8.024058e-004 -5.082859e+001 1.126741e+000 -3.943951e+001
2008900000 1.051744e+000 -2.373972e+001 4.501631e-004 -3.133252e+001 7.688817e-004 -5.035421e+001 1.127015e+000 -3.944763e+001
2009000000 1.051670e+000 -2.374674e+001 4.503814e-004 -3.319097e+001 8.066823e-004 -5.154845e+001 1.127201e+000 -3.946176e+001
2009100000 1.051620e+000 -2.375394e+001 4.396919e-004 -3.237959e+001 7.852355e-004 -4.989472e+001 1.127477e+000 -3.946826e+001
2009200000 1.051641e+000 -2.376014e+001 4.522653e-004 -3.224001e+001 7.746853e-004 -4.924213e+001 1.127714e+000 -3.947478e+001
2009300000 1.051655e+000 -2.376301e+001 4.406945e-004 -3.432496e+001 7.883908e-004 -4.814226e+001 1.127910e+000 -3.949157e+001
2009400000 1.051606e+000 -2.377311e+001 4.450051e-004 -3.101790e+001 8.087727e-004 -5.021623e+001 1.127995e+000 -3.950394e+001
2009500000 1.051655e+000 -2.377431e+001 4.336393e-004 -3.049750e+001 7.678506e-004 -5.141905e+001 1.128038e+000 -3.951431e+001
2009600000 1.051838e+000 -2.377912e+001 4.580535e-004 -3.195097e+001 7.712657e-004 -4.926458e+001 1.128193e+000 -3.951330e+001
2009700000 1.051960e+000 -2.377719e+001 4.410170e-004 -3.230833e+001 7.866981e-004 -5.232872e+001 1.128174e+000 -3.952603e+001
2009800000 1.052007e+000 -2.377262e+001 4.454802e-004 -3.120694e+001 7.771928e-004 -5.039258e+001 1.128291e+000 -3.952392e+001
2009900000 1.052116e+000 -2.377199e+001 4.337229e-004 -3.235266e+001 7.817016e-004 -4.941689e+001 1.128200e+000 -3.952771e+001
2010000000 1.052219e+000 -2.376843e+001 4.170029e-004 -3.147531e+001 7.763118e-004 -5.120817e+001 1.128187e+000 -3.953583e+001
2010100000 1.052250e+000 -2.376947e+001 4.303049e-004 -3.216718e+001 7.977294e-004 -5.019329e+001 1.128199e+000 -3.954074e+001
2010200000 1.052338e+000 -2.376468e+001 4.291998e-004 -3.323108e+001 7.813686e-004 -5.231344e+001 1.127980e+000 -3.954110e+001
2010300000 1.052275e+000 -2.376230e+001 4.257888e-004 -3.046455e+001 7.671004e-004 -5.145615e+001 1.127804e+000 -3.955299e+001
2010400000 1.052273e+000 -2.376195e+001 4.345338e-004 -3.095793e+001 7.447268e-004 -5.075934e+001 1.127626e+000 -3.955328e+001
2010500000 1.052251e+000 -2.376056e+001 4.163849e-004 -2.983898e+001 7.706764e-004 -5.013471e+001 1.127314e+000 -3.955220e+001
2010600000 1.052297e+000 -2.375680e+001 4.227899e-004 -3.065131e+001 7.650937e-004 -4.890504e+001 1.127099e+000 -3.955173e+001
2010700000 1.052239e+000 -2.375296e+001 4.172595e-004 -3.207263e+001 7.573803e-004 -5.134410e+001 1.126976e+000 -3.955710e+001
2010800000 1.052254e+000 -2.375529e+001 4.296904e-004 -3.096950e+001 7.719522e-004 -5.052848e+001 1.126669e+000 -3.956442e+001
2010900000 1.052155e+000 -2.375621e+001 4.221177e-004 -3.082514e+001 7.716241e-004 -5.091901e+001 1.126558e+000 -3.956342e+001
2011000000 1.052065e+000 -2.376296e+001 4.149461e-004 -3.200964e+001 7.530170e-004 -5.129499e+001 1.126367e+000 -3.956197e+001
2011100000 1.051838e+000 -2.376151e+001 4.306193e-004 -3.163462e+001 7.721927e-004 -5.172033e+001 1.126595e+000 -3.955135e+001
2011200000 1.051554e+000 -2.376646e+001 4.324446e-004 -3.214835e+001 7.353832e-004 -4.924770e+001 1.126867e+000 -3.953041e+001
2011300000 1.051370e+000 -2.376698e+001 4.267691e-004 -3.001523e+001 7.607436e-004 -5.149402e+001 1.127022e+000 -3.951606e+001
2011400000 1.051157e+000 -2.377070e+001 4.108426e-004 -3.230148e+001 7.371153e-004 -4.893185e+001 1.127339e+000 -3.949568e+001
2011500000 1.051003e+000 -2.377219e+001 4.169169e-004 -3.181035e+001 7.358363e-004 -5.017352e+001 1.127426e+000 -3.948286e+001
2011600000 1.050839e+000 -2.377856e+001 4.120404e-004 -3.103766e+001 7.433171e-004 -4.956376e+001 1.127596e+000 -3.947144e+001
2011700000 1.050696e+000 -2.377701e+001 4.071949e-004 -3.216463e+001 7.421735e-004 -4.991384e+001 1.127667e+000 -3.945303e+001
2011800000 1.050716e+000 -2.379132e+001 4.138921e-004 -3.158904e+001 7.340091e-004 -5.069344e+001 1.127611e+000 -3.945326e+001
2011900000 1.050860e+000 -2.380029e+001 4.154867e-004 -3.191484e+001 7.383459e-004 -4.973514e+001 1.127079e+000 -3.947005e+001
2012000000 1.051026e+000 -2.381681e+001 4.148456e-004 -3.170518e+001 7.447536e-004 -5.089850e+001 1.126640e+000 -3.948507e+001
2012100000 1.051277e+000 -2.382776e+001 4.194081e-004 -3.253377e+001 7.429364e-004 -5.009547e+001 1.126337e+000 -3.950671e+001
2012200000 1.051472e+000 -2.383380e+001 4.143431e-004 -3.232677e+001 7.501025e-004 -4.983711e+001 1.126035e+000 -3.952332e+001
2012300000 1.051717e+000 -2.383828e+001 4.147032e-004 -3.300165e+001 7.130099e-004 -4.959996e+001 1.125838e+000 -3.953405e+001
2012400000 1.052055e+000 -2.383805e+001 3.991647e-004 -3.178225e+001 7.404760e-004 -4.953710e+001 1.125731e+000 -3.955494e+001
2012500000 1.052425e+000 -2.383528e+001 4.205869e-004 -3.199683e+001 7.473121e-004 -4.919461e+001 1.125736e+000 -3.957447e+001
2012600000 1.052606e+000 -2.381176e+001 4.008072e-004 -3.111420e+001 7.210195e-004 -5.103494e+001 1.126455e+000 -3.957552e+001
2012700000 1.052909e+000 -2.378131e+001 4.188979e-004 -3.184751e+001 7.507656e-004 -4.986272e+001 1.127348e+000 -3.957469e+001
2012800000 1.053092e+000 -2.375998e+001 4.026398e-004 -3.207057e+001 7.362504e-004 -4.656810e+001 1.128263e+000 -3.957932e+001
2012900000 1.053244e+000 -2.373995e+001 4.191015e-004 -3.146406e+001 7.383996e-004 -5.031521e+001 1.128798e+000 -3.956938e+001
2013000000 1.053493e+000 -2.372571e+001 4.082927e-004 -3.089682e+001 7.370203e-004 -5.088249e+001 1.129400e+000 -3.956393e+001
2013100000 1.053557e+000 -2.371448e+001 4.087570e-004 -3.152281e+001 7.546937e-004 -4.782791e+001 1.129941e+000 -3.955415e+001
2013200000 1.053544e+000 -2.370673e+001 4.018428e-004 -3.124568e+001 7.405474e-004 -4.983085e+001 1.130360e+000 -3.953838e+001
2013300000 1.053270e+000 -2.371365e+001 4.025948e-004 -3.238591e+001 7.280197e-004 -4.960633e+001 1.130503e+000 -3.953971e+001
2013400000 1.052579e+000 -2.372965e+001 4.165507e-004 -3.116371e+001 7.362376e-004 -4.874092e+001 1.130209e+000 -3.952354e+001
2013500000 1.052105e+000 -2.374917e+001 4.221132e-004 -3.176283e+001 7.317916e-004 -4.919417e+001 1.129976e+000 -3.951624e+001
2013600000 1.051644e+000 -2.377350e+001 4.073056e-004 -3.123008e+001 7.588735e-004 -4.904810e+001 1.129654e+000 -3.951801e+001
2013700000 1.051237e+000 -2.379045e+001 3.971962e-004 -3.122446e+001 7.277350e-004 -5.093121e+001 1.129554e+000 -3.950431e+001
2013800000 1.050962e+000 -2.380274e+001 4.011659e-004 -3.135219e+001 7.016691e-004 -5.057326e+001 1.129208e+000 -3.949485e+001
2013900000 1.050711e+000 -2.381780e+001 3.899988e-004 -3.085833e+001 7.072308e-004 -5.060335e+001 1.129161e+000 -3.949024e+001
2014000000 1.050549e+000 -2.383119e+001 4.020493e-004 -2.997419e+001 7.048866e-004 -4.937270e+001 1.128933e+000 -3.948806e+001
2014100000 1.050838e+000 -2.382013e+001 4.009802e-004 -3.275263e+001 7.175072e-004 -4.883867e+001 1.128742e+000 -3.950735e+001
2014200000 1.051076e+000 -2.380883e+001 4.066496e-004 -3.084463e+001 7.084907e-004 -4.979719e+001 1.128573e+000 -3.952065e+001
2014300000 1.051303e+000 -2.379546e+001 4.011258e-004 -3.120888e+001 7.232442e-004 -4.773802e+001 1.128406e+000 -3.954150e+001
2014400000 1.051516e+000 -2.378816e+001 3.883628e-004 -3.149508e+001 7.221737e-004 -4.938702e+001 1.128213e+000 -3.956129e+001
2014500000 1.051721e+000 -2.378041e+001 3.907876e-004 -3.142816e+001 7.141429e-004 -4.900306e+001 1.127997e+000 -3.957097e+001
2014600000 1.051768e+000 -2.377505e+001 4.058170e-004 -3.194046e+001 7.227542e-004 -5.089649e+001 1.127855e+000 -3.959064e+001
2014700000 1.051873e+000 -2.376956e+001 4.186190e-004 -3.105144e+001 7.252166e-004 -5.095871e+001 1.127515e+000 -3.960224e+001
2014800000 1.051762e+000 -2.377109e+001 4.062836e-004 -2.963738e+001 7.017670e-004 -4.905534e+001 1.127355e+000 -3.960215e+001
2014900000 1.051570e+000 -2.378685e+001 4.015915e-004 -3.304636e+001 7.225798e-004 -4.979335e+001 1.127027e+000 -3.958907e+001
2015000000 1.051358e+000 -2.380140e+001 3.991846e-004 -3.222321e+001 7.204931e-004 -5.015699e+001 1.126766e+000 -3.957792e+001
2015100000 1.051120e+000 -2.381476e+001 4.013132e-004 -3.184707e+001 6.974784e-004 -4.759836e+001 1.126620e+000 -3.956938e+001
2015200000 1.051067e+000 -2.382513e+001 4.202543e-004 -3.057020e+001 6.958220e-004 -4.834480e+001 1.126418e+000 -3.956562e+001
