!Agilent Technologies,N5230C,SG49000117,A.08.50.07
!Agilent N5230C: A.08.50.07
!Date: Tuesday, May 07, 2024 23:51:46
!Correction: S11(Full 2 Port(1,2)) 
!S21(Full 2 Port(1,2)) 
!S12(Full 2 Port(1,2)) 
!S22(Full 2 Port(1,2)) 
!S2P File: Measurements: S11, S21, S12, S22:
# Hz S  MA   R 50
300000 1.002397e+000 -1.663609e-001 2.938200e-005 1.111366e+002 3.208835e-005 1.416103e+002 1.009334e+000 -5.081256e-001
1049985 1.000443e+000 -1.547399e-001 6.190985e-006 -1.018863e+002 3.739518e-005 1.336011e+002 1.000412e+000 -2.635128e-001
1799970 9.996763e-001 -9.801567e-002 6.767857e-006 -1.041228e+002 2.476680e-005 3.871139e+001 9.994350e-001 -2.442428e-001
2549955 9.995080e-001 -8.731294e-002 1.076548e-004 -1.184107e+002 2.015865e-004 -1.292900e+002 9.998984e-001 -1.639950e-001
3299940 1.000276e+000 -8.951502e-002 1.262067e-005 -1.710006e+002 2.148671e-005 1.093388e+002 9.986117e-001 -1.885074e-001
4049925 9.998280e-001 -1.371107e-001 7.305152e-006 1.796746e+002 3.285679e-005 6.056265e+001 9.999800e-001 -1.731210e-001
4799910 1.000291e+000 -1.263461e-001 1.182080e-005 -9.610329e+001 1.456226e-005 9.041469e+001 1.000214e+000 -1.929216e-001
5549895 1.000018e+000 -1.372860e-001 5.432035e-006 1.712217e+002 2.104860e-005 9.160522e+001 1.000282e+000 -1.699329e-001
6299880 9.998106e-001 -1.271653e-001 9.244215e-006 -7.344569e+001 1.176086e-005 1.074016e+002 1.000661e+000 -2.217255e-001
7049865 9.996707e-001 -1.517902e-001 9.156910e-006 -1.099067e+002 2.928594e-005 1.606543e+002 1.000331e+000 -2.600299e-001
7799850 1.000047e+000 -1.746356e-001 1.176439e-005 -1.546650e+002 3.144295e-005 1.129099e+002 9.992893e-001 -2.793482e-001
8549835 9.998741e-001 -1.737471e-001 5.429521e-006 -1.295722e+002 2.441282e-005 1.576881e+002 9.998912e-001 -3.425837e-001
9299820 9.999397e-001 -1.891428e-001 8.719724e-006 1.079234e+002 3.206316e-005 2.475996e+000 9.997046e-001 -3.265226e-001
10049805 1.000194e+000 -2.203878e-001 3.246305e-006 9.751891e+001 2.764256e-005 -9.263956e+001 9.997774e-001 -3.654276e-001
10799790 9.997569e-001 -2.029881e-001 5.425249e-006 1.093118e+002 3.232305e-005 3.255320e+001 1.000036e+000 -3.455857e-001
11549775 1.000060e+000 -2.262752e-001 5.861996e-006 7.187724e+001 5.556266e-006 -8.993534e+000 9.998688e-001 -3.572983e-001
12299760 9.999607e-001 -2.364275e-001 1.577860e-005 -1.415970e+001 9.769173e-006 -7.733048e+001 1.001513e+000 -3.799927e-001
13049745 1.000274e+000 -2.923273e-001 3.068925e-006 1.456471e+002 3.151978e-005 5.733331e+001 1.000031e+000 -4.292001e-001
13799730 1.000092e+000 -3.019974e-001 5.011028e-006 -5.203617e+001 2.623250e-005 9.078392e+001 9.993114e-001 -4.619033e-001
14549715 1.000335e+000 -3.177891e-001 5.846851e-006 1.107537e+002 1.269485e-005 -7.035126e+000 1.001200e+000 -4.529246e-001
15299700 9.995784e-001 -3.100348e-001 1.453073e-005 9.234542e+001 1.164669e-005 -1.787961e+002 9.999872e-001 -5.196382e-001
16049685 1.000419e+000 -3.121829e-001 1.506705e-005 8.411111e+001 2.042234e-005 5.670955e+001 1.001018e+000 -5.075762e-001
16799670 9.999428e-001 -3.213157e-001 3.679270e-006 -1.082808e+002 2.853231e-006 -6.008299e+001 1.001833e+000 -5.541733e-001
17549655 1.000237e+000 -3.803102e-001 2.936969e-006 -7.295079e+000 2.216044e-005 1.116086e+002 1.000938e+000 -5.468144e-001
18299640 9.999931e-001 -3.535458e-001 3.281646e-007 -1.581206e+002 1.468161e-005 -1.078352e+001 1.000594e+000 -6.484834e-001
19049625 1.000232e+000 -4.020972e-001 1.420636e-005 -6.709341e+001 4.714605e-005 4.312882e+001 1.000338e+000 -5.706200e-001
19799610 1.000655e+000 -3.849021e-001 1.808537e-006 -1.275350e+002 1.418251e-005 -1.586542e+002 9.999589e-001 -6.133048e-001
20549595 9.997297e-001 -3.893581e-001 1.482584e-005 1.594572e+002 4.694801e-006 1.361806e+002 9.996324e-001 -7.014486e-001
21299580 9.996700e-001 -4.002919e-001 1.437712e-005 3.008522e+000 2.524748e-005 6.292103e+001 9.993750e-001 -6.179524e-001
22049565 9.997793e-001 -4.583432e-001 4.788909e-006 -1.368109e+001 4.138073e-005 -1.367656e+002 9.996622e-001 -6.846588e-001
22799550 1.000536e+000 -4.208096e-001 5.437738e-006 -1.623526e+001 2.483493e-005 1.037241e+002 1.001210e+000 -7.380170e-001
23549535 1.000480e+000 -4.728550e-001 1.120907e-005 6.059192e+001 1.889903e-005 3.648758e+001 1.000350e+000 -7.427313e-001
24299520 1.000184e+000 -4.979935e-001 9.580329e-006 1.186986e+002 2.796243e-005 5.935662e+001 9.988853e-001 -7.721559e-001
25049505 1.000341e+000 -5.183586e-001 9.299251e-006 7.114994e+001 2.039797e-005 -3.759701e+001 1.000556e+000 -8.209165e-001
25799490 1.000065e+000 -5.105738e-001 8.309328e-006 -1.370861e+002 3.104884e-005 9.202702e+001 1.000048e+000 -8.892683e-001
26549475 1.000932e+000 -5.165361e-001 8.567243e-006 1.008559e+002 4.960740e-005 5.658977e+001 1.001038e+000 -8.757794e-001
27299460 1.000438e+000 -5.186692e-001 1.148095e-005 6.859595e+001 3.749421e-005 1.420951e+002 1.000229e+000 -8.857280e-001
28049445 1.000177e+000 -5.269445e-001 1.199376e-005 1.345899e+002 2.788549e-005 2.430328e+001 1.001773e+000 -9.153212e-001
28799430 9.999401e-001 -5.920261e-001 1.923810e-005 1.727125e+002 2.587968e-005 1.419124e+002 9.997654e-001 -1.000319e+000
29549415 1.000238e+000 -5.444364e-001 8.009423e-006 1.794023e+002 3.429652e-005 1.739040e+002 1.001102e+000 -9.358807e-001
30299400 1.000158e+000 -5.845050e-001 1.184576e-006 -1.872559e+001 1.509978e-005 6.506025e+001 1.001681e+000 -1.011665e+000
31049385 1.000400e+000 -5.543593e-001 7.713037e-006 -1.586002e+001 2.185553e-005 1.496122e+002 1.000132e+000 -1.038437e+000
31799370 1.000445e+000 -6.522120e-001 1.142214e-005 -2.999039e+001 4.051472e-005 -1.577052e+001 1.001092e+000 -1.005401e+000
32549355 1.000884e+000 -6.397310e-001 2.091177e-005 -8.162383e+001 5.008587e-005 9.541780e+001 1.001167e+000 -1.017299e+000
33299340 1.000533e+000 -6.392862e-001 1.051317e-005 1.185882e+002 2.866053e-005 -1.475454e+002 1.000408e+000 -1.055652e+000
34049325 9.998757e-001 -6.758050e-001 1.331485e-005 8.465672e+001 3.903399e-005 2.706577e+001 1.000267e+000 -1.087892e+000
34799310 1.000006e+000 -6.989015e-001 7.833997e-006 2.231408e+000 4.964861e-005 -1.597971e+002 9.992669e-001 -1.104237e+000
35549295 1.000186e+000 -7.389202e-001 1.381877e-005 1.450663e+002 2.028841e-005 -3.252012e+000 1.001691e+000 -1.100998e+000
36299280 1.000215e+000 -7.243999e-001 1.343535e-005 5.224614e+001 2.831281e-005 1.202490e+002 1.000657e+000 -1.173868e+000
37049265 1.000754e+000 -7.283098e-001 9.435947e-006 3.043024e+001 1.618294e-005 -4.597936e+001 1.000345e+000 -1.188642e+000
37799250 1.000163e+000 -7.287098e-001 2.535563e-006 7.591351e+001 2.579712e-005 5.335857e+001 1.000678e+000 -1.190585e+000
38549235 9.998842e-001 -7.471830e-001 1.974746e-005 5.696236e+001 1.792615e-005 1.205446e+002 9.999228e-001 -1.273607e+000
39299220 1.000676e+000 -7.559882e-001 9.163488e-006 1.283374e+002 4.426109e-005 2.723205e+001 9.999803e-001 -1.213088e+000
40049205 1.000232e+000 -7.349172e-001 1.318287e-005 5.898113e+001 2.741316e-005 -1.130298e+002 1.001696e+000 -1.284734e+000
40799190 1.000810e+000 -7.954131e-001 6.917986e-006 -1.068953e+002 2.547422e-005 -1.735037e+002 1.001662e+000 -1.331344e+000
41549175 9.995785e-001 -7.644112e-001 3.255307e-006 -1.476304e+002 3.722262e-005 1.553808e+001 1.000253e+000 -1.347042e+000
42299160 1.000154e+000 -8.018188e-001 1.892557e-005 -1.653353e+002 3.735296e-005 1.479943e+000 1.000184e+000 -1.286097e+000
43049145 1.000850e+000 -8.022457e-001 6.256828e-006 -1.565320e+002 1.455824e-005 -1.680131e+002 1.000253e+000 -1.379717e+000
43799130 1.000188e+000 -8.311406e-001 2.095907e-005 -1.462488e+002 3.837390e-005 7.672484e+001 9.999664e-001 -1.382279e+000
44549115 1.000599e+000 -8.135185e-001 1.490198e-005 1.445314e+002 2.132843e-005 -1.235885e+002 1.000904e+000 -1.417626e+000
45299100 1.001006e+000 -8.980013e-001 2.142473e-005 1.717752e+002 2.874836e-005 -9.972412e+001 1.001924e+000 -1.406189e+000
46049085 1.000980e+000 -8.702590e-001 1.742365e-005 1.184700e+002 3.836579e-005 1.078608e+002 1.002063e+000 -1.375528e+000
46799070 1.000918e+000 -8.793911e-001 7.570589e-006 -9.918688e+001 2.828817e-005 2.172251e+001 1.001014e+000 -1.433314e+000
47549055 1.000817e+000 -9.286820e-001 1.095176e-005 -5.380856e+001 2.071983e-005 1.565581e+001 1.000173e+000 -1.531700e+000
48299040 1.001195e+000 -9.003532e-001 4.937846e-006 4.269362e+001 3.857555e-005 -1.499744e+002 1.000020e+000 -1.472249e+000
49049025 1.001268e+000 -9.303710e-001 8.786395e-006 3.084446e+001 1.242960e-005 -4.080239e+001 1.002331e+000 -1.438359e+000
49799010 9.999033e-001 -9.684674e-001 1.287250e-005 -6.386712e+001 2.470413e-005 -5.481562e+001 1.000769e+000 -1.483040e+000
50548995 9.997190e-001 -9.773642e-001 9.010297e-006 2.039499e+001 1.894254e-005 5.998015e+000 1.001971e+000 -1.583032e+000
51298980 1.001279e+000 -9.858811e-001 9.004654e-006 -1.137174e+002 4.134394e-005 7.759057e+001 1.000033e+000 -1.564523e+000
52048965 1.000145e+000 -9.811554e-001 2.701809e-005 -1.471774e+002 1.996137e-005 1.206180e+002 1.000580e+000 -1.502211e+000
52798950 1.000431e+000 -9.647501e-001 1.346045e-005 -9.206276e+001 4.215183e-005 -1.787527e+002 1.001934e+000 -1.657195e+000
53548935 1.001910e+000 -1.054966e+000 1.520699e-005 5.537767e+001 6.745534e-005 -1.150072e+002 1.001613e+000 -1.634065e+000
54298920 1.000578e+000 -1.021826e+000 7.736083e-006 -4.727546e+001 5.639318e-005 -1.375600e+002 9.994683e-001 -1.694892e+000
55048905 1.000495e+000 -1.004203e+000 2.475081e-005 -5.661155e+001 4.004910e-005 1.446858e+002 9.988126e-001 -1.734347e+000
55798890 1.000275e+000 -1.038395e+000 6.853428e-006 5.916586e+001 6.233417e-005 1.270457e+002 1.001299e+000 -1.853849e+000
56548875 1.000905e+000 -1.076982e+000 1.983113e-005 -6.205101e+001 3.434358e-005 1.268048e+002 9.994720e-001 -1.700559e+000
57298860 1.001535e+000 -1.097422e+000 7.535231e-006 -1.713094e+002 3.724215e-005 2.023086e+001 1.002082e+000 -1.661865e+000
58048845 1.000229e+000 -1.118155e+000 8.488517e-006 -1.082078e+002 4.997622e-005 -2.522893e+001 1.000882e+000 -1.656448e+000
58798830 1.000182e+000 -1.048620e+000 1.628288e-005 7.335040e+001 5.747158e-005 7.333791e+001 1.001404e+000 -1.709028e+000
59548815 1.000799e+000 -1.157215e+000 1.969599e-005 -3.726859e+000 4.283239e-005 2.176687e+001 1.001449e+000 -1.791363e+000
60298800 1.001024e+000 -1.125925e+000 5.658969e-006 -1.615340e+002 6.002827e-005 1.466532e+001 1.001737e+000 -1.875626e+000
61048785 1.001890e+000 -1.117665e+000 1.617004e-005 -1.745763e+002 1.394791e-005 -3.508015e+000 1.002243e+000 -1.742934e+000
61798770 1.000726e+000 -1.159650e+000 1.600846e-005 1.533636e+002 3.665013e-005 -2.473236e+001 1.002853e+000 -1.951302e+000
62548755 1.001267e+000 -1.119432e+000 1.735052e-005 1.362208e+002 3.775827e-005 4.499554e+001 1.001265e+000 -1.905975e+000
63298740 1.001400e+000 -1.149450e+000 1.296207e-005 3.940889e+001 4.082733e-005 -1.295553e+002 1.002182e+000 -1.893680e+000
64048725 1.000975e+000 -1.117230e+000 1.094273e-005 4.955833e+001 2.204891e-005 -1.023545e+002 1.001437e+000 -1.817976e+000
64798710 1.000413e+000 -1.203352e+000 1.413391e-005 -8.367215e+001 5.394124e-005 -1.407549e+002 1.001271e+000 -2.075657e+000
65548695 1.001021e+000 -1.238607e+000 1.114133e-005 1.329935e+002 4.107642e-005 1.487302e+002 1.001976e+000 -1.895237e+000
66298680 1.001485e+000 -1.223501e+000 1.702288e-005 1.457628e+002 1.607644e-005 6.256254e+001 1.001517e+000 -2.008528e+000
67048665 1.001406e+000 -1.177183e+000 1.570145e-005 7.510105e+001 5.635861e-005 1.226719e+002 1.001892e+000 -2.043710e+000
67798650 1.000905e+000 -1.209692e+000 5.166001e-006 1.791586e+002 6.054048e-005 6.604374e+000 1.002216e+000 -2.048135e+000
68548635 1.000653e+000 -1.236100e+000 7.463314e-006 -1.706817e+002 5.993998e-005 8.765939e+001 1.003672e+000 -2.026468e+000
69298620 1.001720e+000 -1.255021e+000 1.717503e-005 -1.567091e+002 2.553163e-005 5.441425e+001 1.002830e+000 -2.019242e+000
70048605 1.001342e+000 -1.264623e+000 2.405283e-005 -9.447311e+001 9.642039e-005 7.812731e+001 1.003143e+000 -2.150650e+000
70798590 1.001633e+000 -1.239277e+000 1.359141e-005 1.622697e+002 2.571942e-005 8.301720e+001 1.001028e+000 -2.144270e+000
71548575 1.001405e+000 -1.261992e+000 2.207992e-005 -1.701492e+002 1.294228e-005 8.354096e+001 1.001281e+000 -2.233457e+000
72298560 1.001381e+000 -1.303131e+000 2.689956e-005 1.124199e+002 1.697728e-005 2.144146e+001 1.001386e+000 -2.305163e+000
73048545 1.001354e+000 -1.319640e+000 1.958826e-005 -1.564329e+002 3.785572e-005 2.266651e+001 1.003320e+000 -2.152963e+000
73798530 1.001191e+000 -1.266932e+000 7.186306e-006 4.130113e+001 3.865784e-005 -1.444400e+002 1.003393e+000 -2.300693e+000
74548515 1.001777e+000 -1.377694e+000 3.053895e-005 -1.257001e+002 3.839324e-005 2.965660e+001 1.002318e+000 -2.256656e+000
75298500 1.001772e+000 -1.365278e+000 2.984065e-005 -1.409420e+002 2.210447e-005 -1.380409e+002 1.001354e+000 -2.286799e+000
76048485 1.001842e+000 -1.342352e+000 1.888986e-005 4.637790e+001 1.065574e-005 -5.661561e+001 1.002823e+000 -2.304147e+000
76798470 1.001605e+000 -1.323631e+000 2.021799e-005 -9.905075e+001 4.583103e-005 5.266633e+001 1.001575e+000 -2.273431e+000
77548455 1.000958e+000 -1.387252e+000 2.002208e-005 9.903271e+001 1.563361e-005 1.755969e+001 1.004336e+000 -2.280341e+000
78298440 1.001849e+000 -1.394410e+000 2.760874e-005 1.193599e+002 4.225047e-005 -1.684528e+002 1.002022e+000 -2.361091e+000
79048425 1.002071e+000 -1.435170e+000 3.609173e-005 7.433520e+001 4.897151e-005 8.675706e+001 1.003792e+000 -2.366289e+000
79798410 1.002008e+000 -1.419671e+000 1.863979e-005 -1.678595e+002 1.083970e-005 6.784606e+001 1.001868e+000 -2.309936e+000
80548395 1.001964e+000 -1.413655e+000 2.017269e-005 -1.241035e+002 4.843040e-005 -9.830417e+001 1.001248e+000 -2.456109e+000
81298380 1.001573e+000 -1.473422e+000 4.753729e-006 -3.652592e+000 4.606052e-005 6.723276e+001 1.002708e+000 -2.334645e+000
82048365 1.001422e+000 -1.417324e+000 2.606249e-005 1.429278e+002 3.854208e-005 5.711113e+001 1.004436e+000 -2.410973e+000
82798350 1.002329e+000 -1.417707e+000 1.274929e-005 -9.538177e+001 3.673838e-005 -7.824346e+000 1.003638e+000 -2.443057e+000
83548335 1.001229e+000 -1.463837e+000 1.752576e-005 -2.307163e+001 2.655626e-005 8.086123e+000 1.002043e+000 -2.484144e+000
84298320 1.002311e+000 -1.517627e+000 7.385863e-006 -5.350951e+001 1.570667e-005 2.332660e+001 1.003166e+000 -2.444976e+000
85048305 1.001134e+000 -1.504971e+000 3.498661e-005 -1.486109e+002 1.400158e-005 1.359919e+002 1.003244e+000 -2.520555e+000
85798290 1.000981e+000 -1.538488e+000 3.329005e-006 -3.560023e+001 2.931591e-005 -1.506659e+002 1.003726e+000 -2.477260e+000
86548275 1.001776e+000 -1.530777e+000 2.203883e-005 -2.676695e-001 2.493929e-005 -3.989758e+001 1.002737e+000 -2.477968e+000
87298260 1.001202e+000 -1.529240e+000 8.363922e-006 6.470468e+001 3.310856e-005 1.021302e+002 1.004550e+000 -2.524908e+000
88048245 1.001425e+000 -1.503729e+000 3.627935e-006 -1.768899e+002 7.472459e-006 2.948029e+001 1.003425e+000 -2.617917e+000
88798230 1.002338e+000 -1.556967e+000 2.001227e-005 -1.298511e+002 1.836641e-005 1.278700e+002 1.004295e+000 -2.600982e+000
89548215 1.002405e+000 -1.557842e+000 2.554076e-005 -1.560758e+002 6.150395e-006 -3.535262e+001 1.001933e+000 -2.612946e+000
90298200 1.000921e+000 -1.589261e+000 1.857189e-005 8.402819e+001 1.523805e-005 -1.325460e+002 1.004058e+000 -2.471752e+000
91048185 1.001738e+000 -1.627990e+000 1.357036e-005 -5.628888e+001 3.104293e-005 1.329238e+002 1.002690e+000 -2.560898e+000
91798170 1.002104e+000 -1.590962e+000 2.031994e-005 9.828986e+001 4.372244e-005 1.500595e+001 1.003831e+000 -2.671153e+000
92548155 1.002839e+000 -1.614186e+000 2.562969e-005 -7.660581e+001 2.452079e-005 -2.832896e+001 1.004338e+000 -2.689413e+000
93298140 1.002723e+000 -1.629577e+000 4.039854e-006 1.013584e+002 2.955218e-005 1.646268e+002 1.003990e+000 -2.600351e+000
94048125 1.002226e+000 -1.672232e+000 1.847299e-005 1.241401e+002 1.259520e-005 3.537638e+001 1.005064e+000 -2.713432e+000
94798110 1.002490e+000 -1.622327e+000 5.500799e-006 4.047532e+001 6.571010e-005 7.843436e+001 1.003488e+000 -2.708735e+000
95548095 1.002229e+000 -1.641296e+000 1.923117e-005 1.549083e+001 2.034508e-005 -2.819304e+001 1.002408e+000 -2.685341e+000
96298080 1.002396e+000 -1.624473e+000 1.426752e-005 -1.657947e+002 3.654215e-005 -7.178941e+001 1.003084e+000 -2.748411e+000
97048065 1.001537e+000 -1.701285e+000 1.493673e-005 -7.845292e+001 2.869194e-005 1.654727e+001 1.003625e+000 -2.735132e+000
97798050 1.002016e+000 -1.621035e+000 7.529352e-006 -1.748534e+001 4.058572e-005 -3.346415e+001 1.004783e+000 -2.839190e+000
98548035 1.002644e+000 -1.691632e+000 2.407553e-005 1.109510e+002 2.829549e-005 -1.050951e+002 1.004136e+000 -2.812587e+000
99298020 1.002650e+000 -1.703050e+000 2.071275e-005 -1.253085e+002 3.934969e-005 5.725709e+001 1.004633e+000 -2.895588e+000
100048005 1.002734e+000 -1.713249e+000 7.066498e-006 -1.960663e+001 4.121500e-005 -5.261714e+000 1.003179e+000 -2.874101e+000
100797990 1.002687e+000 -1.706192e+000 2.411618e-005 -1.332610e+002 8.987871e-005 8.812328e+001 1.003925e+000 -2.788957e+000
101547975 1.001857e+000 -1.727715e+000 2.553137e-005 -5.802097e+001 2.104558e-005 1.279781e+002 1.002379e+000 -2.846235e+000
102297960 1.003762e+000 -1.719122e+000 1.106900e-005 1.620535e+000 1.560796e-005 2.675868e+001 1.004817e+000 -2.824387e+000
103047945 1.002537e+000 -1.725129e+000 6.794637e-006 -1.127139e+002 1.427767e-005 8.465769e+001 1.003147e+000 -2.857053e+000
103797930 1.002091e+000 -1.759391e+000 2.593693e-005 -1.277698e+002 4.992481e-005 1.598498e+002 1.005207e+000 -2.946426e+000
104547915 1.002469e+000 -1.724971e+000 2.060508e-005 -3.064864e+001 2.579422e-005 2.862547e+001 1.005526e+000 -2.839344e+000
105297900 1.001874e+000 -1.779153e+000 3.191271e-005 1.276655e+002 3.823745e-005 2.358350e+001 1.005603e+000 -2.816181e+000
106047885 1.003283e+000 -1.766207e+000 2.132271e-005 -5.345709e+001 1.106934e-005 1.229668e+002 1.004957e+000 -3.023160e+000
106797870 1.003211e+000 -1.790973e+000 9.200329e-006 -1.787181e+002 4.930764e-005 -1.399710e+002 1.005353e+000 -3.009527e+000
107547855 1.003403e+000 -1.832959e+000 1.568916e-005 1.790770e+002 3.649502e-005 -9.155313e+001 1.004786e+000 -2.875326e+000
108297840 1.002859e+000 -1.808803e+000 1.261745e-005 -1.186750e+002 6.407524e-006 1.726355e+002 1.004336e+000 -3.059558e+000
109047825 1.002787e+000 -1.855058e+000 1.270762e-005 -1.698719e+002 4.442137e-005 -1.548350e+002 1.006215e+000 -3.114030e+000
109797810 1.002378e+000 -1.889569e+000 1.222708e-005 -1.680225e+002 5.383117e-005 9.118008e+001 1.005624e+000 -3.007369e+000
110547795 1.002404e+000 -1.826051e+000 7.399466e-006 -2.326599e+001 2.304748e-005 6.401211e+001 1.005405e+000 -3.100337e+000
111297780 1.002895e+000 -1.842535e+000 2.505351e-005 -1.674222e+002 1.565484e-005 1.054686e+002 1.004523e+000 -2.960449e+000
112047765 1.002113e+000 -1.878513e+000 1.949382e-005 1.720794e+002 3.529644e-005 9.910263e+001 1.003999e+000 -3.019646e+000
112797750 1.002651e+000 -1.899762e+000 1.392940e-005 1.741729e+002 2.149527e-005 1.095667e+001 1.004522e+000 -3.099768e+000
113547735 1.003307e+000 -1.877954e+000 5.540872e-006 1.126514e+001 1.068014e-005 1.489352e+002 1.004507e+000 -3.073257e+000
114297720 1.001886e+000 -1.893076e+000 3.575928e-005 -1.004611e+002 3.859304e-005 -3.246064e+000 1.006964e+000 -3.172612e+000
115047705 1.003101e+000 -1.884569e+000 1.532011e-005 -1.088103e+002 3.866533e-005 3.514397e+001 1.005495e+000 -3.182616e+000
115797690 1.003391e+000 -1.908276e+000 1.050148e-006 -1.045112e+002 2.234554e-005 5.624771e+000 1.005767e+000 -3.266479e+000
116547675 1.003470e+000 -1.942816e+000 1.424869e-005 1.453715e+002 6.081924e-005 -1.821777e+001 1.005401e+000 -3.134769e+000
117297660 1.003433e+000 -1.903103e+000 1.437075e-005 1.328265e+001 4.089001e-005 1.271856e+001 1.005880e+000 -3.198001e+000
