!Agilent Technologies,N5230C,SG49000117,A.08.50.07
!Agilent N5230C: A.08.50.07
!Date: Tuesday, May 07, 2024 00:26:59
!Correction: S11(Full 2 Port(1,2)) 
!S21(Full 2 Port(1,2)) 
!S12(Full 2 Port(1,2)) 
!S22(Full 2 Port(1,2)) 
!S2P File: Measurements: S11, S21, S12, S22:
# Hz S  MA   R 50
2000000000 1.051789e+000 -2.360098e+001 1.047714e-003 1.995061e+001 1.902012e-003 1.434979e+000 1.126612e+000 -3.940580e+001
2000100000 1.051639e+000 -2.360550e+001 1.048067e-003 1.990184e+001 1.897749e-003 1.481642e+000 1.126931e+000 -3.939948e+001
2000200000 1.051456e+000 -2.361372e+001 1.036823e-003 2.012327e+001 1.883414e-003 1.290649e+000 1.127191e+000 -3.939711e+001
2000300000 1.051336e+000 -2.362161e+001 1.045664e-003 2.029993e+001 1.903303e-003 1.136743e+000 1.127398e+000 -3.940574e+001
2000400000 1.051218e+000 -2.362957e+001 1.045194e-003 1.990245e+001 1.877028e-003 8.687798e-001 1.127578e+000 -3.940735e+001
2000500000 1.051085e+000 -2.363627e+001 1.043356e-003 2.047638e+001 1.866296e-003 1.420160e+000 1.127766e+000 -3.941412e+001
2000600000 1.051113e+000 -2.362657e+001 1.051128e-003 2.054918e+001 1.849595e-003 1.470767e+000 1.127704e+000 -3.939798e+001
2000700000 1.051099e+000 -2.361940e+001 1.036313e-003 1.996459e+001 1.854867e-003 1.722050e+000 1.127672e+000 -3.938352e+001
2000800000 1.051131e+000 -2.361229e+001 1.042763e-003 2.016538e+001 1.865583e-003 1.539574e+000 1.127550e+000 -3.936631e+001
2000900000 1.051088e+000 -2.359897e+001 1.045173e-003 1.998119e+001 1.862137e-003 1.915174e+000 1.127595e+000 -3.935365e+001
2001000000 1.051060e+000 -2.359289e+001 1.031183e-003 2.021425e+001 1.866331e-003 2.359040e+000 1.127459e+000 -3.934544e+001
2001100000 1.051095e+000 -2.358597e+001 1.024582e-003 1.981379e+001 1.872563e-003 1.597245e+000 1.127269e+000 -3.933859e+001
2001200000 1.050989e+000 -2.357551e+001 1.021972e-003 2.035773e+001 1.859319e-003 1.294699e+000 1.127117e+000 -3.933266e+001
2001300000 1.051037e+000 -2.357907e+001 1.030995e-003 1.983231e+001 1.842656e-003 1.990170e+000 1.126912e+000 -3.934634e+001
2001400000 1.051152e+000 -2.359529e+001 1.026573e-003 2.083735e+001 1.840824e-003 2.050163e+000 1.126804e+000 -3.937462e+001
2001500000 1.051271e+000 -2.361012e+001 1.013207e-003 2.059191e+001 1.847876e-003 1.096580e+000 1.126508e+000 -3.940347e+001
2001600000 1.051503e+000 -2.362025e+001 1.020374e-003 2.095018e+001 1.843337e-003 2.337440e+000 1.126322e+000 -3.943564e+001
2001700000 1.051654e+000 -2.363312e+001 1.011333e-003 1.998197e+001 1.833098e-003 1.397920e+000 1.126101e+000 -3.946194e+001
2001800000 1.051829e+000 -2.364081e+001 1.010522e-003 2.090921e+001 1.829303e-003 1.621027e+000 1.125971e+000 -3.948200e+001
2001900000 1.051967e+000 -2.364716e+001 1.014293e-003 2.037612e+001 1.810821e-003 2.237404e+000 1.125828e+000 -3.950470e+001
2002000000 1.052183e+000 -2.365012e+001 1.021048e-003 2.031292e+001 1.813740e-003 2.308698e+000 1.125653e+000 -3.952206e+001
2002100000 1.052210e+000 -2.363724e+001 1.007310e-003 2.067287e+001 1.807809e-003 2.974209e+000 1.125852e+000 -3.950050e+001
2002200000 1.052152e+000 -2.362766e+001 1.011069e-003 2.134243e+001 1.806356e-003 2.856781e+000 1.126109e+000 -3.947329e+001
2002300000 1.052144e+000 -2.361764e+001 1.002077e-003 2.047975e+001 1.804915e-003 2.238271e+000 1.126295e+000 -3.944666e+001
2002400000 1.052113e+000 -2.360658e+001 9.991591e-004 2.189577e+001 1.829477e-003 2.788585e+000 1.126426e+000 -3.942688e+001
2002500000 1.051988e+000 -2.359800e+001 9.970253e-004 2.141722e+001 1.812252e-003 2.498019e+000 1.126584e+000 -3.940374e+001
2002600000 1.051950e+000 -2.359056e+001 9.951645e-004 2.180998e+001 1.801887e-003 2.253116e+000 1.126580e+000 -3.938226e+001
2002700000 1.051846e+000 -2.358365e+001 9.995128e-004 2.113595e+001 1.795545e-003 2.154217e+000 1.126768e+000 -3.936261e+001
2002800000 1.051699e+000 -2.358881e+001 9.997835e-004 2.184020e+001 1.801907e-003 2.131527e+000 1.126943e+000 -3.935688e+001
2002900000 1.051510e+000 -2.359620e+001 9.962497e-004 2.215360e+001 1.771670e-003 3.040013e+000 1.126908e+000 -3.937347e+001
2003000000 1.051474e+000 -2.360448e+001 9.886845e-004 2.149991e+001 1.792509e-003 3.260267e+000 1.126983e+000 -3.938864e+001
2003100000 1.051321e+000 -2.361078e+001 1.001484e-003 2.177899e+001 1.770312e-003 2.856198e+000 1.127091e+000 -3.940751e+001
2003200000 1.051302e+000 -2.361861e+001 1.001943e-003 2.243819e+001 1.785814e-003 3.218161e+000 1.127126e+000 -3.942187e+001
2003300000 1.051264e+000 -2.362669e+001 9.909100e-004 2.174522e+001 1.776060e-003 3.070767e+000 1.127193e+000 -3.943773e+001
2003400000 1.051300e+000 -2.363193e+001 9.978707e-004 2.113400e+001 1.776979e-003 3.015057e+000 1.127216e+000 -3.945280e+001
2003500000 1.051331e+000 -2.363779e+001 9.878691e-004 2.185733e+001 1.791877e-003 3.146514e+000 1.127325e+000 -3.947373e+001
2003600000 1.051308e+000 -2.364250e+001 9.875401e-004 2.138172e+001 1.770177e-003 3.285991e+000 1.127532e+000 -3.947174e+001
2003700000 1.051310e+000 -2.365151e+001 9.789352e-004 2.190658e+001 1.774498e-003 3.712370e+000 1.127695e+000 -3.946421e+001
2003800000 1.051376e+000 -2.366060e+001 9.874799e-004 2.141892e+001 1.775121e-003 3.105052e+000 1.127895e+000 -3.945387e+001
2003900000 1.051443e+000 -2.366633e+001 9.817093e-004 2.204417e+001 1.760640e-003 3.581254e+000 1.128019e+000 -3.945295e+001
2004000000 1.051436e+000 -2.367205e+001 9.847635e-004 2.222651e+001 1.756427e-003 3.148509e+000 1.128068e+000 -3.944810e+001
2004100000 1.051427e+000 -2.367673e+001 9.782469e-004 2.182953e+001 1.732897e-003 3.456339e+000 1.128095e+000 -3.944849e+001
2004200000 1.051439e+000 -2.368374e+001 9.731071e-004 2.168844e+001 1.736798e-003 3.738207e+000 1.128003e+000 -3.944902e+001
2004300000 1.051426e+000 -2.368459e+001 9.803359e-004 2.220277e+001 1.753837e-003 3.876593e+000 1.127856e+000 -3.944834e+001
2004400000 1.051533e+000 -2.368295e+001 9.650766e-004 2.225172e+001 1.745478e-003 3.802366e+000 1.127639e+000 -3.944950e+001
2004500000 1.051624e+000 -2.368170e+001 9.722054e-004 2.234507e+001 1.740556e-003 4.030659e+000 1.127287e+000 -3.944598e+001
2004600000 1.051700e+000 -2.367761e+001 9.722170e-004 2.274425e+001 1.756794e-003 3.903172e+000 1.127059e+000 -3.944302e+001
2004700000 1.051830e+000 -2.367889e+001 9.786937e-004 2.274345e+001 1.760531e-003 4.133205e+000 1.126907e+000 -3.944760e+001
2004800000 1.051866e+000 -2.367887e+001 9.635873e-004 2.290522e+001 1.755354e-003 4.378837e+000 1.126926e+000 -3.944915e+001
2004900000 1.051947e+000 -2.367893e+001 9.577255e-004 2.333008e+001 1.759736e-003 4.307037e+000 1.126722e+000 -3.945345e+001
2005000000 1.052025e+000 -2.368058e+001 9.626876e-004 2.227540e+001 1.746484e-003 4.505637e+000 1.126627e+000 -3.944671e+001
2005100000 1.051937e+000 -2.368843e+001 9.544469e-004 2.309837e+001 1.741732e-003 4.145430e+000 1.126812e+000 -3.944243e+001
2005200000 1.051974e+000 -2.369132e+001 9.647635e-004 2.325433e+001 1.729580e-003 4.245656e+000 1.126983e+000 -3.942953e+001
2005300000 1.051890e+000 -2.369625e+001 9.581370e-004 2.292330e+001 1.715018e-003 4.534243e+000 1.127159e+000 -3.942141e+001
2005400000 1.051831e+000 -2.369869e+001 9.653573e-004 2.312531e+001 1.725275e-003 4.744101e+000 1.127326e+000 -3.941674e+001
2005500000 1.051841e+000 -2.370309e+001 9.614081e-004 2.416039e+001 1.717626e-003 4.823803e+000 1.127471e+000 -3.941018e+001
2005600000 1.051843e+000 -2.370851e+001 9.488113e-004 2.359883e+001 1.729534e-003 4.941185e+000 1.127519e+000 -3.940567e+001
2005700000 1.051886e+000 -2.371066e+001 9.604019e-004 2.417848e+001 1.729540e-003 5.699347e+000 1.127761e+000 -3.940598e+001
2005800000 1.051914e+000 -2.371144e+001 9.603069e-004 2.355036e+001 1.719149e-003 5.414354e+000 1.127951e+000 -3.940298e+001
2005900000 1.051942e+000 -2.371085e+001 9.520150e-004 2.388911e+001 1.753349e-003 5.991263e+000 1.128205e+000 -3.940826e+001
2006000000 1.051994e+000 -2.371210e+001 9.616942e-004 2.389877e+001 1.738745e-003 5.815275e+000 1.128344e+000 -3.942064e+001
2006100000 1.052073e+000 -2.370944e+001 9.507929e-004 2.387801e+001 1.727607e-003 5.574513e+000 1.128561e+000 -3.943085e+001
2006200000 1.052066e+000 -2.370987e+001 9.544367e-004 2.360972e+001 1.724255e-003 5.139092e+000 1.128527e+000 -3.945256e+001
2006300000 1.052117e+000 -2.371287e+001 9.630317e-004 2.355527e+001 1.688429e-003 5.359542e+000 1.128642e+000 -3.945871e+001
2006400000 1.052125e+000 -2.371306e+001 9.596208e-004 2.441662e+001 1.697573e-003 5.555165e+000 1.128620e+000 -3.947373e+001
2006500000 1.052077e+000 -2.371560e+001 9.492168e-004 2.422576e+001 1.710787e-003 5.801565e+000 1.128601e+000 -3.948920e+001
2006600000 1.052028e+000 -2.372055e+001 9.573834e-004 2.375419e+001 1.707447e-003 6.091431e+000 1.128631e+000 -3.949910e+001
2006700000 1.052003e+000 -2.372187e+001 9.471634e-004 2.459585e+001 1.704253e-003 5.848185e+000 1.128623e+000 -3.949684e+001
2006800000 1.051907e+000 -2.372692e+001 9.529043e-004 2.446617e+001 1.707193e-003 5.790332e+000 1.128522e+000 -3.950314e+001
2006900000 1.051816e+000 -2.373072e+001 9.419755e-004 2.501916e+001 1.703275e-003 5.202581e+000 1.128467e+000 -3.950282e+001
2007000000 1.051842e+000 -2.373430e+001 9.612392e-004 2.496499e+001 1.689783e-003 5.854851e+000 1.128432e+000 -3.950788e+001
2007100000 1.051814e+000 -2.373279e+001 9.492278e-004 2.471005e+001 1.731104e-003 6.037017e+000 1.128285e+000 -3.951287e+001
2007200000 1.051750e+000 -2.373642e+001 9.508803e-004 2.487936e+001 1.688616e-003 7.033757e+000 1.128287e+000 -3.951857e+001
2007300000 1.051812e+000 -2.374125e+001 9.396132e-004 2.497419e+001 1.686221e-003 6.272354e+000 1.128134e+000 -3.951935e+001
2007400000 1.051867e+000 -2.374940e+001 9.466824e-004 2.497703e+001 1.692243e-003 7.288239e+000 1.127937e+000 -3.951113e+001
2007500000 1.051897e+000 -2.375839e+001 9.472913e-004 2.475719e+001 1.696015e-003 6.094960e+000 1.127706e+000 -3.950489e+001
2007600000 1.051866e+000 -2.376820e+001 9.530621e-004 2.430138e+001 1.689902e-003 6.814989e+000 1.127421e+000 -3.949891e+001
2007700000 1.051902e+000 -2.377120e+001 9.522145e-004 2.501062e+001 1.698721e-003 6.589886e+000 1.127347e+000 -3.949427e+001
2007800000 1.051956e+000 -2.377602e+001 9.409024e-004 2.429235e+001 1.686918e-003 6.947020e+000 1.127093e+000 -3.949553e+001
2007900000 1.051938e+000 -2.378399e+001 9.385541e-004 2.582142e+001 1.695670e-003 6.791158e+000 1.126896e+000 -3.948066e+001
2008000000 1.051890e+000 -2.378679e+001 9.556851e-004 2.591912e+001 1.673051e-003 6.953393e+000 1.126763e+000 -3.948043e+001
2008100000 1.051796e+000 -2.377396e+001 9.481740e-004 2.557546e+001 1.696960e-003 7.055717e+000 1.126707e+000 -3.947865e+001
2008200000 1.051756e+000 -2.376132e+001 9.429184e-004 2.605329e+001 1.705550e-003 7.066378e+000 1.126485e+000 -3.948176e+001
2008300000 1.051686e+000 -2.374845e+001 9.520645e-004 2.514233e+001 1.676146e-003 7.401538e+000 1.126371e+000 -3.948377e+001
2008400000 1.051677e+000 -2.373860e+001 9.451485e-004 2.596144e+001 1.679239e-003 7.514580e+000 1.126201e+000 -3.949239e+001
2008500000 1.051614e+000 -2.373198e+001 9.478707e-004 2.611205e+001 1.690635e-003 7.078951e+000 1.126114e+000 -3.949202e+001
2008600000 1.051586e+000 -2.372697e+001 9.397622e-004 2.619315e+001 1.688065e-003 7.717664e+000 1.126124e+000 -3.949736e+001
2008700000 1.051559e+000 -2.371709e+001 9.429037e-004 2.609834e+001 1.677242e-003 7.822495e+000 1.126095e+000 -3.950877e+001
2008800000 1.051569e+000 -2.371709e+001 9.394236e-004 2.583133e+001 1.687720e-003 7.720428e+000 1.126299e+000 -3.951582e+001
2008900000 1.051466e+000 -2.372658e+001 9.487215e-004 2.593200e+001 1.658241e-003 7.418781e+000 1.126658e+000 -3.953234e+001
2009000000 1.051483e+000 -2.373406e+001 9.426879e-004 2.639271e+001 1.682109e-003 7.696150e+000 1.126802e+000 -3.953901e+001
2009100000 1.051463e+000 -2.374393e+001 9.380165e-004 2.594607e+001 1.682118e-003 7.953980e+000 1.127061e+000 -3.955170e+001
2009200000 1.051479e+000 -2.375039e+001 9.402494e-004 2.586221e+001 1.678644e-003 7.060457e+000 1.127277e+000 -3.956438e+001
2009300000 1.051455e+000 -2.375762e+001 9.257942e-004 2.651371e+001 1.678178e-003 8.671119e+000 1.127513e+000 -3.957374e+001
2009400000 1.051525e+000 -2.376013e+001 9.302667e-004 2.614798e+001 1.650147e-003 8.156231e+000 1.127589e+000 -3.958294e+001
2009500000 1.051444e+000 -2.376502e+001 9.366018e-004 2.643126e+001 1.670575e-003 8.406350e+000 1.127666e+000 -3.959010e+001
2009600000 1.051602e+000 -2.376755e+001 9.284831e-004 2.656172e+001 1.666600e-003 8.812083e+000 1.127792e+000 -3.959554e+001
2009700000 1.051761e+000 -2.376579e+001 9.357392e-004 2.649139e+001 1.657384e-003 8.041694e+000 1.127808e+000 -3.960001e+001
2009800000 1.051882e+000 -2.376041e+001 9.422282e-004 2.629101e+001 1.664492e-003 8.414500e+000 1.127808e+000 -3.960746e+001
2009900000 1.051965e+000 -2.375863e+001 9.460628e-004 2.649648e+001 1.689643e-003 8.765269e+000 1.127887e+000 -3.961109e+001
2010000000 1.051999e+000 -2.375282e+001 9.342497e-004 2.712142e+001 1.651649e-003 8.737323e+000 1.127809e+000 -3.961664e+001
2010100000 1.052116e+000 -2.375657e+001 9.410353e-004 2.692703e+001 1.669077e-003 8.645102e+000 1.127740e+000 -3.961714e+001
2010200000 1.052094e+000 -2.375258e+001 9.368523e-004 2.706693e+001 1.673849e-003 8.480054e+000 1.127701e+000 -3.962499e+001
2010300000 1.052140e+000 -2.375216e+001 9.403178e-004 2.607751e+001 1.643543e-003 8.167768e+000 1.127494e+000 -3.962857e+001
2010400000 1.052164e+000 -2.374783e+001 9.337695e-004 2.706223e+001 1.675441e-003 9.220118e+000 1.127259e+000 -3.963008e+001
2010500000 1.052185e+000 -2.374416e+001 9.400063e-004 2.670793e+001 1.675965e-003 9.214495e+000 1.126931e+000 -3.963226e+001
2010600000 1.052140e+000 -2.374588e+001 9.324327e-004 2.756230e+001 1.674982e-003 8.954151e+000 1.126709e+000 -3.963324e+001
2010700000 1.052065e+000 -2.374573e+001 9.305300e-004 2.740924e+001 1.685187e-003 8.688909e+000 1.126486e+000 -3.963962e+001
2010800000 1.052059e+000 -2.374655e+001 9.252272e-004 2.752597e+001 1.651527e-003 9.684382e+000 1.126331e+000 -3.963778e+001
2010900000 1.052014e+000 -2.374838e+001 9.324208e-004 2.771735e+001 1.652888e-003 8.834292e+000 1.126202e+000 -3.964732e+001
2011000000 1.051906e+000 -2.374724e+001 9.368403e-004 2.775247e+001 1.660322e-003 9.589780e+000 1.125993e+000 -3.964803e+001
2011100000 1.051697e+000 -2.375103e+001 9.235581e-004 2.764143e+001 1.681632e-003 9.002080e+000 1.126194e+000 -3.963232e+001
2011200000 1.051449e+000 -2.375260e+001 9.320175e-004 2.761094e+001 1.661177e-003 9.732736e+000 1.126376e+000 -3.961094e+001
2011300000 1.051186e+000 -2.375675e+001 9.346277e-004 2.761402e+001 1.670241e-003 8.731120e+000 1.126634e+000 -3.959227e+001
2011400000 1.050975e+000 -2.375925e+001 9.342351e-004 2.746843e+001 1.661684e-003 9.526848e+000 1.126840e+000 -3.957711e+001
2011500000 1.050786e+000 -2.376151e+001 9.249597e-004 2.842293e+001 1.673402e-003 9.283135e+000 1.126919e+000 -3.956099e+001
2011600000 1.050647e+000 -2.376689e+001 9.451778e-004 2.781751e+001 1.649807e-003 9.734049e+000 1.127112e+000 -3.954786e+001
2011700000 1.050608e+000 -2.376884e+001 9.498709e-004 2.898312e+001 1.665982e-003 9.190041e+000 1.127295e+000 -3.953627e+001
2011800000 1.050565e+000 -2.377811e+001 9.285286e-004 2.804010e+001 1.663290e-003 1.000406e+001 1.127106e+000 -3.952937e+001
2011900000 1.050703e+000 -2.379456e+001 9.313087e-004 2.883731e+001 1.672488e-003 9.935982e+000 1.126687e+000 -3.954969e+001
2012000000 1.050900e+000 -2.380378e+001 9.352333e-004 2.770355e+001 1.667036e-003 9.870933e+000 1.126260e+000 -3.956664e+001
2012100000 1.051160e+000 -2.381659e+001 9.427226e-004 2.796114e+001 1.665674e-003 1.033177e+001 1.125882e+000 -3.958497e+001
2012200000 1.051340e+000 -2.382157e+001 9.341300e-004 2.833788e+001 1.667654e-003 9.614049e+000 1.125645e+000 -3.959947e+001
2012300000 1.051603e+000 -2.382539e+001 9.409645e-004 2.862967e+001 1.699873e-003 1.052349e+001 1.125410e+000 -3.961829e+001
2012400000 1.051881e+000 -2.382800e+001 9.306500e-004 2.878440e+001 1.648065e-003 9.510343e+000 1.125427e+000 -3.963353e+001
2012500000 1.052234e+000 -2.382666e+001 9.439338e-004 2.825079e+001 1.672238e-003 9.821816e+000 1.125242e+000 -3.965723e+001
2012600000 1.052472e+000 -2.379755e+001 9.302192e-004 2.788006e+001 1.689999e-003 9.651544e+000 1.126198e+000 -3.966131e+001
2012700000 1.052775e+000 -2.377393e+001 9.383364e-004 2.862615e+001 1.669236e-003 1.010997e+001 1.126949e+000 -3.965392e+001
2012800000 1.052997e+000 -2.374863e+001 9.409144e-004 2.910979e+001 1.692131e-003 1.072774e+001 1.127784e+000 -3.965398e+001
2012900000 1.053127e+000 -2.372910e+001 9.360337e-004 2.886569e+001 1.647783e-003 1.066175e+001 1.128423e+000 -3.964631e+001
2013000000 1.053274e+000 -2.371568e+001 9.349083e-004 2.914952e+001 1.640128e-003 1.061802e+001 1.129050e+000 -3.964224e+001
2013100000 1.053395e+000 -2.370620e+001 9.338587e-004 2.870763e+001 1.668721e-003 1.013073e+001 1.129519e+000 -3.962986e+001
2013200000 1.053438e+000 -2.369295e+001 9.401010e-004 2.924343e+001 1.665161e-003 1.007684e+001 1.130043e+000 -3.962219e+001
2013300000 1.053145e+000 -2.369972e+001 9.310126e-004 2.913376e+001 1.673057e-003 9.970529e+000 1.130142e+000 -3.961197e+001
2013400000 1.052473e+000 -2.371857e+001 9.444827e-004 2.890472e+001 1.672877e-003 1.104648e+001 1.129805e+000 -3.960182e+001
2013500000 1.051942e+000 -2.373896e+001 9.426017e-004 2.916023e+001 1.682019e-003 1.106294e+001 1.129516e+000 -3.959631e+001
2013600000 1.051493e+000 -2.376195e+001 9.433384e-004 2.936069e+001 1.666512e-003 1.032279e+001 1.129284e+000 -3.958738e+001
2013700000 1.051128e+000 -2.377583e+001 9.399231e-004 2.952314e+001 1.647166e-003 1.157165e+001 1.129184e+000 -3.958336e+001
2013800000 1.050769e+000 -2.379568e+001 9.353841e-004 2.865072e+001 1.681758e-003 1.185234e+001 1.128967e+000 -3.957664e+001
2013900000 1.050544e+000 -2.380926e+001 9.491500e-004 2.958516e+001 1.699116e-003 1.115828e+001 1.128719e+000 -3.957130e+001
2014000000 1.050390e+000 -2.382138e+001 9.357358e-004 2.968806e+001 1.677925e-003 1.162928e+001 1.128610e+000 -3.956321e+001
2014100000 1.050655e+000 -2.380803e+001 9.457759e-004 2.862933e+001 1.698494e-003 1.147466e+001 1.128452e+000 -3.958191e+001
2014200000 1.050933e+000 -2.379816e+001 9.442013e-004 3.014778e+001 1.684862e-003 1.092153e+001 1.128246e+000 -3.960392e+001
2014300000 1.051192e+000 -2.378855e+001 9.482492e-004 2.898156e+001 1.677871e-003 1.074707e+001 1.128085e+000 -3.961885e+001
2014400000 1.051350e+000 -2.377320e+001 9.407228e-004 2.941489e+001 1.672814e-003 1.047545e+001 1.127875e+000 -3.963540e+001
2014500000 1.051573e+000 -2.377282e+001 9.404745e-004 2.978884e+001 1.683475e-003 1.058933e+001 1.127575e+000 -3.964687e+001
2014600000 1.051673e+000 -2.376204e+001 9.405316e-004 2.966827e+001 1.670926e-003 1.156313e+001 1.127477e+000 -3.966311e+001
2014700000 1.051723e+000 -2.375776e+001 9.414689e-004 2.877260e+001 1.672901e-003 1.153357e+001 1.127274e+000 -3.967285e+001
2014800000 1.051672e+000 -2.376509e+001 9.386483e-004 2.996815e+001 1.669254e-003 1.196470e+001 1.127004e+000 -3.968414e+001
2014900000 1.051415e+000 -2.377542e+001 9.380227e-004 2.958424e+001 1.657006e-003 1.207193e+001 1.126749e+000 -3.966618e+001
2015000000 1.051172e+000 -2.379049e+001 9.400958e-004 2.954609e+001 1.671041e-003 1.115829e+001 1.126441e+000 -3.965820e+001
2015100000 1.051019e+000 -2.380278e+001 9.389693e-004 2.934352e+001 1.664611e-003 1.280612e+001 1.126193e+000 -3.964773e+001
2015200000 1.050861e+000 -2.381752e+001 9.402964e-004 2.971723e+001 1.689516e-003 1.151694e+001 1.126163e+000 -3.963673e+001
2015300000 1.050770e+000 -2.383010e+001 9.497069e-004 2.945901e+001 1.670934e-003 1.240196e+001 1.126048e+000 -3.962742e+001
2015400000 1.050722e+000 -2.384321e+001 9.535892e-004 2.964886e+001 1.692068e-003 1.119360e+001 1.125925e+000 -3.962329e+001
2015500000 1.050720e+000 -2.385564e+001 9.267003e-004 2.978026e+001 1.686499e-003 1.164408e+001 1.125908e+000 -3.961414e+001
