!Agilent Technologies,N5230C,SG49000117,A.08.50.07
!Agilent N5230C: A.08.50.07
!Date: Tuesday, May 07, 2024 03:03:35
!Correction: S11(Full 2 Port(1,2)) 
!S21(Full 2 Port(1,2)) 
!S12(Full 2 Port(1,2)) 
!S22(Full 2 Port(1,2)) 
!S2P File: Measurements: S11, S21, S12, S22:
# Hz S  MA   R 50
2000000000 1.051770e+000 -2.362850e+001 9.182421e-004 -3.894609e+000 1.678239e-003 -2.177851e+001 1.126401e+000 -3.915074e+001
2000100000 1.051592e+000 -2.363196e+001 9.112972e-004 -3.439497e+000 1.641248e-003 -2.188492e+001 1.126735e+000 -3.914157e+001
2000200000 1.051389e+000 -2.363828e+001 9.097500e-004 -3.051302e+000 1.643885e-003 -2.156800e+001 1.126992e+000 -3.914285e+001
2000300000 1.051339e+000 -2.364482e+001 8.993776e-004 -3.373991e+000 1.629587e-003 -2.221459e+001 1.127255e+000 -3.915104e+001
2000400000 1.051160e+000 -2.365451e+001 8.884151e-004 -2.609194e+000 1.656503e-003 -2.176678e+001 1.127433e+000 -3.915707e+001
2000500000 1.051051e+000 -2.366268e+001 9.037274e-004 -2.321621e+000 1.629692e-003 -2.266250e+001 1.127515e+000 -3.915945e+001
2000600000 1.051084e+000 -2.365595e+001 8.953381e-004 -3.224941e+000 1.626581e-003 -2.193653e+001 1.127522e+000 -3.914879e+001
2000700000 1.051106e+000 -2.364192e+001 8.950192e-004 -3.466668e+000 1.633414e-003 -2.229760e+001 1.127475e+000 -3.912742e+001
2000800000 1.051044e+000 -2.363553e+001 8.935899e-004 -3.486629e+000 1.631512e-003 -2.206073e+001 1.127455e+000 -3.910999e+001
2000900000 1.051138e+000 -2.362849e+001 8.833615e-004 -3.532126e+000 1.626583e-003 -2.245356e+001 1.127308e+000 -3.909963e+001
2001000000 1.051051e+000 -2.361923e+001 8.940363e-004 -3.683118e+000 1.586411e-003 -2.267586e+001 1.127210e+000 -3.908555e+001
2001100000 1.050959e+000 -2.360760e+001 8.830913e-004 -3.790785e+000 1.613136e-003 -2.265401e+001 1.127176e+000 -3.908270e+001
2001200000 1.050994e+000 -2.359803e+001 8.798375e-004 -4.328203e+000 1.601330e-003 -2.199585e+001 1.126913e+000 -3.907865e+001
2001300000 1.051033e+000 -2.360582e+001 8.754503e-004 -4.143223e+000 1.584192e-003 -2.233404e+001 1.126763e+000 -3.908970e+001
2001400000 1.051119e+000 -2.362035e+001 8.751554e-004 -4.123795e+000 1.588667e-003 -2.177520e+001 1.126626e+000 -3.912000e+001
2001500000 1.051242e+000 -2.363596e+001 8.671038e-004 -4.414974e+000 1.566091e-003 -2.256544e+001 1.126329e+000 -3.915218e+001
2001600000 1.051378e+000 -2.364995e+001 8.640309e-004 -4.208984e+000 1.564864e-003 -2.274092e+001 1.126130e+000 -3.917376e+001
2001700000 1.051588e+000 -2.365882e+001 8.607418e-004 -3.933594e+000 1.565073e-003 -2.238858e+001 1.125982e+000 -3.920088e+001
2001800000 1.051796e+000 -2.366932e+001 8.656136e-004 -4.100683e+000 1.567611e-003 -2.246925e+001 1.125710e+000 -3.922452e+001
2001900000 1.051988e+000 -2.367146e+001 8.676701e-004 -3.453820e+000 1.541018e-003 -2.348613e+001 1.125667e+000 -3.924808e+001
2002000000 1.052154e+000 -2.367705e+001 8.541947e-004 -4.169220e+000 1.565757e-003 -2.293958e+001 1.125546e+000 -3.926527e+001
2002100000 1.052194e+000 -2.366422e+001 8.596369e-004 -3.627160e+000 1.546871e-003 -2.209995e+001 1.125698e+000 -3.924396e+001
2002200000 1.052203e+000 -2.365097e+001 8.428895e-004 -3.693232e+000 1.516990e-003 -2.255819e+001 1.125865e+000 -3.921783e+001
2002300000 1.052117e+000 -2.363802e+001 8.411037e-004 -3.907027e+000 1.515774e-003 -2.221521e+001 1.126124e+000 -3.919109e+001
2002400000 1.052037e+000 -2.363284e+001 8.395548e-004 -4.326894e+000 1.515019e-003 -2.227062e+001 1.126280e+000 -3.917097e+001
2002500000 1.052005e+000 -2.362210e+001 8.506672e-004 -3.477865e+000 1.512480e-003 -2.255598e+001 1.126473e+000 -3.914683e+001
2002600000 1.051895e+000 -2.361824e+001 8.372172e-004 -4.504328e+000 1.502915e-003 -2.250627e+001 1.126534e+000 -3.912374e+001
2002700000 1.051778e+000 -2.360551e+001 8.309804e-004 -4.067501e+000 1.507664e-003 -2.221446e+001 1.126700e+000 -3.910089e+001
2002800000 1.051694e+000 -2.361251e+001 8.291888e-004 -3.546633e+000 1.496491e-003 -2.191543e+001 1.126783e+000 -3.910153e+001
2002900000 1.051482e+000 -2.361876e+001 8.240666e-004 -3.783608e+000 1.478940e-003 -2.141150e+001 1.126823e+000 -3.911716e+001
2003000000 1.051459e+000 -2.363037e+001 8.421463e-004 -3.698944e+000 1.476318e-003 -2.253372e+001 1.126845e+000 -3.913217e+001
2003100000 1.051363e+000 -2.363568e+001 8.239743e-004 -3.323360e+000 1.485512e-003 -2.349033e+001 1.126906e+000 -3.914738e+001
2003200000 1.051230e+000 -2.364381e+001 8.207976e-004 -4.085600e+000 1.452710e-003 -2.223440e+001 1.126996e+000 -3.916124e+001
2003300000 1.051279e+000 -2.365469e+001 8.228545e-004 -4.325553e+000 1.468381e-003 -2.233169e+001 1.127154e+000 -3.917788e+001
2003400000 1.051232e+000 -2.365713e+001 8.165251e-004 -3.750675e+000 1.472948e-003 -2.225513e+001 1.127192e+000 -3.919531e+001
2003500000 1.051218e+000 -2.366389e+001 8.162039e-004 -3.543762e+000 1.461657e-003 -2.331437e+001 1.127224e+000 -3.921359e+001
2003600000 1.051321e+000 -2.367034e+001 8.050974e-004 -2.711686e+000 1.454614e-003 -2.227936e+001 1.127425e+000 -3.921490e+001
2003700000 1.051310e+000 -2.367615e+001 8.014063e-004 -3.458351e+000 1.475329e-003 -2.241372e+001 1.127555e+000 -3.920244e+001
2003800000 1.051298e+000 -2.368328e+001 8.079968e-004 -3.449785e+000 1.433293e-003 -2.180933e+001 1.127781e+000 -3.919870e+001
2003900000 1.051365e+000 -2.368844e+001 8.010313e-004 -4.340614e+000 1.451934e-003 -2.158117e+001 1.127868e+000 -3.919320e+001
2004000000 1.051384e+000 -2.369453e+001 7.992483e-004 -3.482442e+000 1.448823e-003 -2.265363e+001 1.127926e+000 -3.918964e+001
2004100000 1.051384e+000 -2.369873e+001 7.876240e-004 -3.457092e+000 1.416511e-003 -2.226558e+001 1.127972e+000 -3.918752e+001
2004200000 1.051361e+000 -2.370936e+001 7.866214e-004 -3.719980e+000 1.443253e-003 -2.210405e+001 1.127862e+000 -3.918967e+001
2004300000 1.051434e+000 -2.370709e+001 7.804480e-004 -3.824228e+000 1.403114e-003 -2.220802e+001 1.127768e+000 -3.918840e+001
2004400000 1.051472e+000 -2.370831e+001 7.910888e-004 -3.163216e+000 1.399476e-003 -2.218114e+001 1.127536e+000 -3.918612e+001
2004500000 1.051640e+000 -2.370734e+001 7.832273e-004 -2.917697e+000 1.401206e-003 -2.148395e+001 1.127267e+000 -3.918790e+001
2004600000 1.051707e+000 -2.370455e+001 7.796497e-004 -3.826652e+000 1.398100e-003 -2.210472e+001 1.127020e+000 -3.918811e+001
2004700000 1.051767e+000 -2.370302e+001 7.791586e-004 -3.254569e+000 1.392331e-003 -2.188838e+001 1.126928e+000 -3.918636e+001
2004800000 1.051850e+000 -2.370111e+001 7.651774e-004 -3.074231e+000 1.397842e-003 -2.149890e+001 1.126753e+000 -3.918250e+001
2004900000 1.051933e+000 -2.370304e+001 7.765855e-004 -3.413030e+000 1.393828e-003 -2.238404e+001 1.126587e+000 -3.918846e+001
2005000000 1.051961e+000 -2.370177e+001 7.787294e-004 -3.343694e+000 1.384878e-003 -2.128887e+001 1.126597e+000 -3.919110e+001
2005100000 1.051974e+000 -2.370824e+001 7.672863e-004 -2.310343e+000 1.395866e-003 -2.211618e+001 1.126811e+000 -3.917963e+001
2005200000 1.051895e+000 -2.371162e+001 7.671047e-004 -3.652475e+000 1.363920e-003 -2.207799e+001 1.126882e+000 -3.917186e+001
2005300000 1.051889e+000 -2.371786e+001 7.672493e-004 -2.584998e+000 1.378258e-003 -2.206808e+001 1.127109e+000 -3.916492e+001
2005400000 1.051848e+000 -2.372231e+001 7.558455e-004 -3.685096e+000 1.378191e-003 -2.157303e+001 1.127238e+000 -3.915712e+001
2005500000 1.051862e+000 -2.372688e+001 7.533457e-004 -3.366806e+000 1.359977e-003 -2.156691e+001 1.127486e+000 -3.915276e+001
2005600000 1.051893e+000 -2.373050e+001 7.585376e-004 -2.804269e+000 1.328508e-003 -2.069726e+001 1.127639e+000 -3.914380e+001
2005700000 1.051844e+000 -2.373351e+001 7.576760e-004 -2.847765e+000 1.348196e-003 -2.167268e+001 1.127706e+000 -3.913752e+001
2005800000 1.051850e+000 -2.373402e+001 7.493370e-004 -3.423273e+000 1.312519e-003 -2.127154e+001 1.128000e+000 -3.914249e+001
2005900000 1.051967e+000 -2.373380e+001 7.494814e-004 -2.510133e+000 1.338888e-003 -2.072014e+001 1.128145e+000 -3.915250e+001
2006000000 1.051950e+000 -2.373175e+001 7.415548e-004 -3.238853e+000 1.359571e-003 -2.116821e+001 1.128325e+000 -3.916185e+001
2006100000 1.052048e+000 -2.373205e+001 7.321087e-004 -2.885026e+000 1.329501e-003 -2.101317e+001 1.128415e+000 -3.917762e+001
2006200000 1.052069e+000 -2.373136e+001 7.516104e-004 -2.313170e+000 1.333443e-003 -2.090714e+001 1.128467e+000 -3.918744e+001
2006300000 1.052069e+000 -2.373417e+001 7.293432e-004 -2.184622e+000 1.310027e-003 -2.065423e+001 1.128613e+000 -3.919906e+001
2006400000 1.052060e+000 -2.373684e+001 7.256725e-004 -1.883209e+000 1.317960e-003 -2.204244e+001 1.128602e+000 -3.921725e+001
2006500000 1.052099e+000 -2.374133e+001 7.335504e-004 -2.836748e+000 1.319461e-003 -2.141210e+001 1.128662e+000 -3.923072e+001
2006600000 1.051999e+000 -2.374433e+001 7.250846e-004 -2.337335e+000 1.293908e-003 -1.962172e+001 1.128542e+000 -3.923299e+001
2006700000 1.051973e+000 -2.374457e+001 7.287607e-004 -1.960430e+000 1.285991e-003 -2.010908e+001 1.128540e+000 -3.923792e+001
2006800000 1.051899e+000 -2.375079e+001 7.338550e-004 -2.050046e+000 1.292672e-003 -2.138831e+001 1.128541e+000 -3.924031e+001
2006900000 1.051797e+000 -2.375317e+001 7.264339e-004 -2.944599e+000 1.275555e-003 -2.054275e+001 1.128430e+000 -3.924527e+001
2007000000 1.051794e+000 -2.375321e+001 7.198115e-004 -1.689514e+000 1.280963e-003 -2.068605e+001 1.128412e+000 -3.925002e+001
2007100000 1.051742e+000 -2.375650e+001 7.212111e-004 -1.583530e+000 1.267880e-003 -1.878494e+001 1.128339e+000 -3.925483e+001
2007200000 1.051844e+000 -2.375735e+001 7.129020e-004 -1.366041e+000 1.271645e-003 -2.034362e+001 1.128263e+000 -3.925911e+001
2007300000 1.051811e+000 -2.376308e+001 7.225248e-004 -1.600136e+000 1.279863e-003 -2.151217e+001 1.128160e+000 -3.925984e+001
2007400000 1.051833e+000 -2.377572e+001 7.190008e-004 -1.842240e+000 1.265697e-003 -1.988714e+001 1.127897e+000 -3.925218e+001
2007500000 1.051867e+000 -2.378082e+001 7.137081e-004 -1.613740e+000 1.252868e-003 -1.997154e+001 1.127647e+000 -3.924372e+001
2007600000 1.051844e+000 -2.378742e+001 7.205946e-004 -1.997891e+000 1.286166e-003 -1.969818e+001 1.127459e+000 -3.924058e+001
2007700000 1.051877e+000 -2.379455e+001 7.153286e-004 -1.182341e+000 1.270180e-003 -2.051979e+001 1.127301e+000 -3.923136e+001
2007800000 1.051852e+000 -2.379819e+001 7.052371e-004 -8.733010e-001 1.250543e-003 -1.954245e+001 1.127102e+000 -3.922348e+001
2007900000 1.051842e+000 -2.380532e+001 6.994266e-004 -1.115769e+000 1.255193e-003 -1.975617e+001 1.126915e+000 -3.922318e+001
2008000000 1.051877e+000 -2.380945e+001 6.995525e-004 -1.003697e+000 1.253263e-003 -1.960180e+001 1.126770e+000 -3.921906e+001
2008100000 1.051814e+000 -2.379367e+001 7.030457e-004 -8.770859e-001 1.243398e-003 -1.888549e+001 1.126541e+000 -3.921840e+001
2008200000 1.051739e+000 -2.378431e+001 6.940544e-004 -1.235963e+000 1.228145e-003 -2.000049e+001 1.126414e+000 -3.922101e+001
2008300000 1.051712e+000 -2.377108e+001 6.935565e-004 -1.632125e+000 1.215057e-003 -1.871874e+001 1.126338e+000 -3.922403e+001
2008400000 1.051641e+000 -2.376232e+001 6.898250e-004 -6.684947e-002 1.220383e-003 -1.981825e+001 1.126164e+000 -3.923003e+001
2008500000 1.051633e+000 -2.375499e+001 6.914382e-004 3.021618e-001 1.216968e-003 -1.927189e+001 1.126185e+000 -3.923599e+001
2008600000 1.051612e+000 -2.374333e+001 6.999335e-004 -2.183501e-001 1.230155e-003 -1.817233e+001 1.126154e+000 -3.923845e+001
2008700000 1.051545e+000 -2.373739e+001 6.899494e-004 -2.685347e-002 1.229846e-003 -1.936759e+001 1.126174e+000 -3.924674e+001
2008800000 1.051598e+000 -2.374067e+001 6.839107e-004 1.141681e-001 1.224478e-003 -1.772173e+001 1.126305e+000 -3.925894e+001
2008900000 1.051463e+000 -2.374666e+001 6.819115e-004 -7.975703e-001 1.238400e-003 -1.904266e+001 1.126589e+000 -3.926970e+001
2009000000 1.051518e+000 -2.375688e+001 6.779911e-004 -8.161153e-002 1.233208e-003 -1.879904e+001 1.126806e+000 -3.928001e+001
2009100000 1.051467e+000 -2.376307e+001 6.868062e-004 1.079160e-001 1.224650e-003 -1.850700e+001 1.126998e+000 -3.929097e+001
2009200000 1.051471e+000 -2.377079e+001 6.727449e-004 -1.655170e+000 1.202455e-003 -1.819592e+001 1.127289e+000 -3.930185e+001
2009300000 1.051489e+000 -2.377754e+001 6.798318e-004 -5.113902e-001 1.215112e-003 -1.819743e+001 1.127495e+000 -3.931163e+001
2009400000 1.051483e+000 -2.377993e+001 6.758592e-004 8.157719e-001 1.201828e-003 -1.939196e+001 1.127536e+000 -3.932601e+001
2009500000 1.051507e+000 -2.378698e+001 6.653949e-004 -1.212997e-003 1.214191e-003 -1.771259e+001 1.127706e+000 -3.933399e+001
2009600000 1.051614e+000 -2.378679e+001 6.676964e-004 1.439476e-001 1.177725e-003 -1.649405e+001 1.127804e+000 -3.933997e+001
2009700000 1.051807e+000 -2.378532e+001 6.706416e-004 -1.237321e-001 1.185033e-003 -1.681084e+001 1.127876e+000 -3.933863e+001
2009800000 1.051862e+000 -2.378499e+001 6.809314e-004 1.029262e+000 1.203200e-003 -1.687782e+001 1.127834e+000 -3.934295e+001
2009900000 1.051979e+000 -2.377941e+001 6.707936e-004 1.059500e-001 1.197294e-003 -1.773850e+001 1.127778e+000 -3.935336e+001
2010000000 1.052058e+000 -2.377973e+001 6.618569e-004 1.608445e+000 1.202766e-003 -1.698011e+001 1.127848e+000 -3.935540e+001
2010100000 1.052066e+000 -2.377465e+001 6.624840e-004 1.504614e+000 1.188026e-003 -1.724187e+001 1.127816e+000 -3.936125e+001
2010200000 1.052136e+000 -2.377085e+001 6.685804e-004 1.292787e+000 1.191670e-003 -1.625774e+001 1.127689e+000 -3.936374e+001
2010300000 1.052150e+000 -2.376760e+001 6.669290e-004 1.119346e+000 1.203710e-003 -1.597248e+001 1.127492e+000 -3.937146e+001
2010400000 1.052210e+000 -2.377003e+001 6.595010e-004 1.755061e+000 1.190864e-003 -1.732509e+001 1.127307e+000 -3.937176e+001
2010500000 1.052142e+000 -2.376629e+001 6.706467e-004 2.166280e+000 1.169510e-003 -1.695916e+001 1.127023e+000 -3.937383e+001
2010600000 1.052062e+000 -2.376634e+001 6.494895e-004 2.628937e+000 1.179978e-003 -1.694847e+001 1.126661e+000 -3.937525e+001
2010700000 1.052094e+000 -2.376394e+001 6.445600e-004 6.159893e-001 1.172456e-003 -1.652672e+001 1.126592e+000 -3.937554e+001
2010800000 1.052101e+000 -2.376466e+001 6.568958e-004 2.169815e+000 1.166431e-003 -1.629413e+001 1.126285e+000 -3.937760e+001
2010900000 1.051979e+000 -2.377202e+001 6.635626e-004 2.011057e+000 1.144973e-003 -1.638960e+001 1.126164e+000 -3.938508e+001
2011000000 1.051973e+000 -2.376942e+001 6.632007e-004 1.879466e+000 1.165117e-003 -1.641982e+001 1.126048e+000 -3.938921e+001
2011100000 1.051657e+000 -2.377196e+001 6.559461e-004 1.668591e+000 1.177114e-003 -1.653066e+001 1.126290e+000 -3.937264e+001
2011200000 1.051400e+000 -2.377534e+001 6.489632e-004 2.947685e+000 1.152510e-003 -1.636868e+001 1.126415e+000 -3.934908e+001
2011300000 1.051123e+000 -2.377892e+001 6.501925e-004 2.036355e+000 1.188373e-003 -1.634250e+001 1.126678e+000 -3.933513e+001
2011400000 1.050956e+000 -2.378264e+001 6.423376e-004 2.266186e+000 1.153533e-003 -1.522528e+001 1.126887e+000 -3.931722e+001
2011500000 1.050738e+000 -2.378305e+001 6.437236e-004 3.383878e+000 1.158766e-003 -1.514141e+001 1.127067e+000 -3.930029e+001
2011600000 1.050648e+000 -2.378452e+001 6.527397e-004 3.519367e+000 1.145472e-003 -1.568873e+001 1.127196e+000 -3.928741e+001
2011700000 1.050538e+000 -2.378555e+001 6.486892e-004 1.964229e+000 1.138675e-003 -1.496501e+001 1.127417e+000 -3.927718e+001
2011800000 1.050550e+000 -2.379560e+001 6.380949e-004 2.203594e+000 1.134324e-003 -1.558966e+001 1.127179e+000 -3.927235e+001
2011900000 1.050762e+000 -2.381033e+001 6.513161e-004 2.318607e+000 1.134152e-003 -1.533148e+001 1.126723e+000 -3.929143e+001
2012000000 1.050882e+000 -2.382513e+001 6.417626e-004 3.427817e+000 1.141732e-003 -1.567811e+001 1.126284e+000 -3.930780e+001
2012100000 1.051043e+000 -2.383578e+001 6.441311e-004 3.586745e+000 1.125325e-003 -1.504150e+001 1.125880e+000 -3.932484e+001
2012200000 1.051297e+000 -2.384431e+001 6.617222e-004 2.648956e+000 1.137530e-003 -1.528814e+001 1.125663e+000 -3.934339e+001
2012300000 1.051584e+000 -2.384583e+001 6.362379e-004 3.106193e+000 1.131459e-003 -1.442749e+001 1.125442e+000 -3.935916e+001
2012400000 1.051862e+000 -2.384642e+001 6.424693e-004 4.116730e+000 1.150272e-003 -1.406269e+001 1.125366e+000 -3.937968e+001
2012500000 1.052157e+000 -2.384873e+001 6.411528e-004 3.072703e+000 1.136935e-003 -1.417068e+001 1.125255e+000 -3.939480e+001
2012600000 1.052493e+000 -2.381610e+001 6.445430e-004 4.383560e+000 1.126265e-003 -1.388538e+001 1.126130e+000 -3.939566e+001
2012700000 1.052744e+000 -2.378964e+001 6.422342e-004 4.416615e+000 1.121282e-003 -1.366992e+001 1.127017e+000 -3.939650e+001
2012800000 1.052924e+000 -2.376809e+001 6.457031e-004 3.895800e+000 1.135658e-003 -1.331832e+001 1.127830e+000 -3.939815e+001
2012900000 1.053146e+000 -2.375099e+001 6.319819e-004 3.757945e+000 1.147946e-003 -1.359845e+001 1.128475e+000 -3.938805e+001
2013000000 1.053324e+000 -2.373553e+001 6.353335e-004 4.160670e+000 1.111853e-003 -1.380749e+001 1.129197e+000 -3.938179e+001
2013100000 1.053362e+000 -2.372566e+001 6.346985e-004 3.888917e+000 1.125459e-003 -1.481900e+001 1.129624e+000 -3.937188e+001
2013200000 1.053436e+000 -2.371506e+001 6.230522e-004 4.741253e+000 1.109642e-003 -1.362090e+001 1.130062e+000 -3.936253e+001
2013300000 1.053113e+000 -2.371696e+001 6.389232e-004 3.700106e+000 1.149809e-003 -1.226955e+001 1.130196e+000 -3.935564e+001
2013400000 1.052535e+000 -2.374072e+001 6.238485e-004 5.737996e+000 1.133844e-003 -1.321737e+001 1.129876e+000 -3.934315e+001
2013500000 1.051975e+000 -2.375910e+001 6.366272e-004 3.616030e+000 1.121091e-003 -1.199137e+001 1.129617e+000 -3.933499e+001
2013600000 1.051539e+000 -2.378177e+001 6.271484e-004 4.552297e+000 1.144164e-003 -1.271190e+001 1.129388e+000 -3.932809e+001
2013700000 1.051045e+000 -2.379905e+001 6.306173e-004 4.554322e+000 1.138145e-003 -1.202419e+001 1.129189e+000 -3.932085e+001
2013800000 1.050741e+000 -2.381295e+001 6.295574e-004 4.869031e+000 1.111090e-003 -1.300492e+001 1.129018e+000 -3.931440e+001
2013900000 1.050489e+000 -2.382296e+001 6.296305e-004 5.210302e+000 1.143759e-003 -1.217775e+001 1.128792e+000 -3.930911e+001
2014000000 1.050377e+000 -2.383771e+001 6.293362e-004 5.931277e+000 1.104149e-003 -1.294994e+001 1.128649e+000 -3.930418e+001
2014100000 1.050676e+000 -2.383107e+001 6.258649e-004 5.201097e+000 1.123960e-003 -1.244300e+001 1.128470e+000 -3.932271e+001
2014200000 1.050889e+000 -2.381687e+001 6.376089e-004 5.796079e+000 1.099777e-003 -1.383105e+001 1.128244e+000 -3.934391e+001
2014300000 1.051167e+000 -2.380893e+001 6.177292e-004 6.284866e+000 1.099914e-003 -1.202354e+001 1.128087e+000 -3.935495e+001
2014400000 1.051352e+000 -2.379854e+001 6.285717e-004 4.753666e+000 1.110860e-003 -1.183369e+001 1.127955e+000 -3.937600e+001
2014500000 1.051566e+000 -2.378879e+001 6.241378e-004 5.470287e+000 1.118991e-003 -1.154590e+001 1.127703e+000 -3.939307e+001
2014600000 1.051564e+000 -2.378257e+001 6.334084e-004 6.169144e+000 1.113553e-003 -1.200812e+001 1.127612e+000 -3.940121e+001
2014700000 1.051697e+000 -2.377962e+001 6.287204e-004 5.978783e+000 1.117346e-003 -1.125454e+001 1.127360e+000 -3.942131e+001
2014800000 1.051618e+000 -2.377987e+001 6.232908e-004 5.790765e+000 1.130232e-003 -1.097177e+001 1.127076e+000 -3.942236e+001
2014900000 1.051404e+000 -2.379308e+001 6.264418e-004 6.259748e+000 1.127225e-003 -1.185047e+001 1.126727e+000 -3.940851e+001
2015000000 1.051106e+000 -2.381042e+001 6.148581e-004 6.120287e+000 1.096375e-003 -1.290703e+001 1.126431e+000 -3.939966e+001
2015100000 1.050950e+000 -2.382605e+001 6.091454e-004 6.929455e+000 1.107156e-003 -1.117843e+001 1.126442e+000 -3.938916e+001
2015200000 1.050888e+000 -2.383628e+001 6.239830e-004 7.004283e+000 1.094559e-003 -1.150794e+001 1.126239e+000 -3.937919e+001
2015300000 1.050757e+000 -2.384860e+001 6.305907e-004 7.983028e+000 1.087705e-003 -1.008382e+001 1.126087e+000 -3.937320e+001
