!Agilent Technologies,N5230C,SG49000117,A.08.50.07
!Agilent N5230C: A.08.50.07
!Date: Tuesday, May 07, 2024 23:56:19
!Correction: S11(Full 2 Port(1,2)) 
!S21(Full 2 Port(1,2)) 
!S12(Full 2 Port(1,2)) 
!S22(Full 2 Port(1,2)) 
!S2P File: Measurements: S11, S21, S12, S22:
# Hz S  MA   R 50
300000 1.002595e+000 -1.819163e-001 2.921683e-005 1.593059e+001 1.081244e-004 5.063566e-001 1.009407e+000 -5.049700e-001
1049985 1.000513e+000 -1.607718e-001 1.271142e-005 -1.473262e+002 2.352573e-005 1.711315e+002 1.000279e+000 -2.858822e-001
1799970 9.997217e-001 -9.962296e-002 2.145188e-005 8.347585e+001 4.586829e-005 -1.521718e+002 9.995027e-001 -2.318766e-001
2549955 9.993342e-001 -8.588059e-002 9.246545e-005 -1.135545e+002 1.773036e-004 -1.301283e+002 1.000034e+000 -1.637002e-001
3299940 1.000293e+000 -8.483887e-002 6.196320e-006 -1.368654e+002 1.252555e-005 -2.398319e+001 9.986296e-001 -1.961211e-001
4049925 9.998620e-001 -1.399760e-001 5.499152e-006 1.204370e+002 3.434334e-005 9.291132e+001 9.999675e-001 -1.837324e-001
4799910 1.000269e+000 -1.275333e-001 1.360107e-005 -1.565031e+002 1.885742e-005 -1.181736e+002 1.000430e+000 -1.989476e-001
5549895 1.000011e+000 -1.357826e-001 7.478637e-006 -1.346572e+002 1.442741e-005 -8.186033e+001 1.000264e+000 -1.769977e-001
6299880 9.998691e-001 -1.268762e-001 8.948628e-006 1.419914e+002 4.386547e-005 7.182998e+001 1.000672e+000 -2.294297e-001
7049865 9.996555e-001 -1.535673e-001 1.443052e-005 -9.848082e+001 7.714997e-006 -4.123982e+001 1.000287e+000 -2.629336e-001
7799850 1.000085e+000 -1.783532e-001 1.233795e-005 -1.120106e+002 3.143951e-005 -4.796372e+001 9.991635e-001 -2.895598e-001
8549835 9.998746e-001 -1.732692e-001 1.022141e-005 9.018500e+001 7.627668e-006 -7.742133e+001 9.998799e-001 -3.472952e-001
9299820 9.999413e-001 -1.863695e-001 6.030420e-006 4.725292e+001 2.157320e-005 -4.159688e+000 9.996483e-001 -3.331040e-001
10049805 1.000153e+000 -2.211077e-001 6.915478e-006 -9.939350e+001 1.878232e-005 9.845027e+001 9.997752e-001 -3.623579e-001
10799790 9.998986e-001 -2.037183e-001 3.900117e-006 -1.537061e+002 1.198508e-005 4.642646e+001 1.000207e+000 -3.584264e-001
11549775 1.000087e+000 -2.283949e-001 9.639026e-006 4.461180e+001 4.984076e-005 1.613552e+002 9.997149e-001 -3.547505e-001
12299760 9.999322e-001 -2.367827e-001 6.413014e-006 5.913366e+001 1.585127e-005 -1.244293e+002 1.001359e+000 -3.819833e-001
13049745 1.000271e+000 -2.899740e-001 6.676411e-006 -9.132497e+001 4.497138e-005 1.616967e+002 1.000143e+000 -4.336191e-001
13799730 1.000066e+000 -3.004270e-001 1.081629e-005 -1.576039e+002 1.273583e-005 -1.050025e+002 9.990856e-001 -4.686200e-001
14549715 1.000378e+000 -3.158916e-001 4.441498e-006 1.575866e+002 1.404248e-005 1.634063e+002 1.000970e+000 -4.539784e-001
15299700 9.995418e-001 -3.072641e-001 5.667898e-006 7.302487e+001 2.048774e-005 -1.606511e+002 9.999175e-001 -5.278006e-001
16049685 1.000407e+000 -3.108266e-001 9.868389e-006 -4.112796e+001 2.601387e-005 9.404393e+001 1.000952e+000 -5.111569e-001
16799670 9.999967e-001 -3.258208e-001 9.599828e-006 -1.173385e+002 1.985260e-005 -1.775347e+002 1.001956e+000 -5.538421e-001
17549655 1.000212e+000 -3.792551e-001 9.708450e-006 7.712166e+001 3.596089e-006 3.040402e+001 1.001082e+000 -5.491248e-001
18299640 1.000050e+000 -3.537842e-001 2.205339e-005 -6.483136e+001 2.118682e-005 1.666385e+002 1.000499e+000 -6.475016e-001
19049625 1.000278e+000 -3.977791e-001 9.771333e-006 5.963411e+001 2.862595e-005 -4.386572e+001 1.000310e+000 -5.768070e-001
19799610 1.000722e+000 -3.860978e-001 8.556218e-006 5.699096e+000 4.253041e-005 6.947791e+001 9.997764e-001 -6.035116e-001
20549595 9.996943e-001 -3.910621e-001 6.746329e-006 3.134773e+000 1.478791e-005 7.375581e+001 9.995800e-001 -6.980664e-001
21299580 9.996123e-001 -3.983637e-001 1.417549e-005 2.462582e+001 1.183405e-005 -2.929786e+001 9.994224e-001 -6.260534e-001
22049565 9.997479e-001 -4.542796e-001 2.224318e-005 1.540179e+002 1.921153e-005 1.383421e+002 9.995053e-001 -6.902884e-001
22799550 1.000572e+000 -4.218186e-001 5.932655e-006 9.776112e+001 2.336088e-005 1.970663e+001 1.001149e+000 -7.461187e-001
23549535 1.000486e+000 -4.735914e-001 1.131663e-005 1.203439e+002 2.860819e-005 -7.149615e+000 1.000190e+000 -7.487113e-001
24299520 1.000233e+000 -4.919037e-001 1.473811e-005 1.370006e+002 3.273511e-005 -3.770449e+001 9.988353e-001 -7.815063e-001
25049505 1.000403e+000 -5.161327e-001 7.422323e-006 -8.707900e+001 1.868769e-005 1.090054e+002 1.000589e+000 -8.233722e-001
25799490 1.000035e+000 -5.144872e-001 8.393878e-006 -2.290714e+001 2.134371e-005 7.579246e+001 1.000169e+000 -8.891935e-001
26549475 1.000876e+000 -5.144814e-001 1.238731e-005 -8.923972e+001 2.965011e-005 1.414488e+002 1.000927e+000 -8.736035e-001
27299460 1.000461e+000 -5.222083e-001 5.401650e-006 -3.530463e+001 7.686153e-006 1.146638e+000 1.000323e+000 -8.882487e-001
28049445 1.000104e+000 -5.280561e-001 1.697106e-005 -1.739725e+002 1.953227e-005 1.796226e+002 1.001849e+000 -9.232770e-001
28799430 1.000037e+000 -5.999625e-001 1.189874e-005 1.419742e+002 3.328471e-005 -7.794984e+001 9.996770e-001 -9.952273e-001
29549415 1.000143e+000 -5.438583e-001 1.346664e-005 -7.362301e+001 3.801183e-005 5.084938e+001 1.001291e+000 -9.382089e-001
30299400 1.000177e+000 -5.836613e-001 1.045448e-005 1.677311e+002 2.465969e-005 -2.218488e+000 1.001755e+000 -1.002095e+000
31049385 1.000472e+000 -5.563930e-001 1.159027e-005 7.386684e+001 1.679134e-005 1.292048e+001 1.000024e+000 -1.048432e+000
31799370 1.000387e+000 -6.496009e-001 3.315292e-005 1.069366e+002 1.767517e-005 4.689246e+001 1.001144e+000 -1.008980e+000
32549355 1.000843e+000 -6.399103e-001 4.142067e-006 1.312538e+002 1.376381e-005 -2.428854e+001 1.001149e+000 -1.029783e+000
33299340 1.000499e+000 -6.340790e-001 5.642165e-006 -1.197249e+002 2.687943e-005 -7.764067e+000 1.000493e+000 -1.069493e+000
34049325 9.998505e-001 -6.785579e-001 5.875822e-006 -5.572553e+000 6.888476e-005 6.310592e+001 1.000466e+000 -1.090094e+000
34799310 1.000103e+000 -6.994719e-001 6.719331e-006 -7.955619e+001 2.800634e-005 -1.365067e+002 9.992763e-001 -1.106839e+000
35549295 1.000222e+000 -7.409176e-001 6.312440e-006 -3.029241e+001 2.642116e-005 4.715451e+001 1.001558e+000 -1.105318e+000
36299280 1.000278e+000 -7.248650e-001 5.523355e-006 -1.290467e+002 4.380551e-005 1.125104e+002 1.000618e+000 -1.182955e+000
37049265 1.000829e+000 -7.265612e-001 6.763269e-006 1.219188e+002 9.370813e-006 1.039835e+002 1.000299e+000 -1.184291e+000
37799250 1.000337e+000 -7.310271e-001 4.772133e-006 9.595862e+001 2.014167e-005 1.254658e+002 1.000682e+000 -1.187383e+000
38549235 9.998015e-001 -7.454926e-001 9.731334e-006 -2.429289e+001 3.128306e-005 -1.116470e+002 9.998466e-001 -1.273199e+000
39299220 1.000611e+000 -7.627291e-001 1.285544e-005 -4.195343e+001 3.359314e-005 -4.106759e+001 1.000038e+000 -1.216776e+000
40049205 1.000349e+000 -7.293557e-001 3.657568e-005 -1.265927e+002 3.185711e-005 1.233154e+002 1.001696e+000 -1.282301e+000
40799190 1.000761e+000 -8.018193e-001 2.330003e-005 8.418642e+001 4.756431e-005 1.721847e+002 1.001709e+000 -1.335583e+000
41549175 9.995897e-001 -7.695460e-001 1.893931e-005 -1.317947e+002 3.356105e-005 -1.580329e+002 1.000545e+000 -1.344623e+000
42299160 1.000062e+000 -8.005103e-001 1.744124e-005 1.572787e+002 1.666869e-005 5.407994e+001 1.000204e+000 -1.288746e+000
43049145 1.000727e+000 -7.931605e-001 1.333005e-005 -1.729624e+002 4.928239e-005 1.551207e+002 1.000439e+000 -1.389439e+000
43799130 1.000228e+000 -8.264104e-001 2.679085e-005 6.464345e+001 2.196405e-005 1.033814e+002 9.997837e-001 -1.383746e+000
44549115 1.000517e+000 -8.123941e-001 2.180742e-006 -1.550877e+002 2.378237e-005 7.954478e+001 1.000867e+000 -1.410926e+000
45299100 1.001210e+000 -8.911126e-001 5.706707e-006 6.998421e+001 3.796237e-005 7.286427e+001 1.001960e+000 -1.412002e+000
46049085 1.001163e+000 -8.630294e-001 5.532344e-006 -3.392854e+001 2.895775e-005 1.252993e+002 1.001934e+000 -1.382011e+000
46799070 1.000925e+000 -8.788988e-001 1.301610e-005 1.198520e+002 4.002564e-005 1.185547e+002 1.001133e+000 -1.449633e+000
47549055 1.000626e+000 -9.213108e-001 2.075870e-005 9.616534e+001 5.550844e-005 3.154014e+001 9.999474e-001 -1.535595e+000
48299040 1.001233e+000 -9.017909e-001 5.106704e-006 3.519401e+001 4.603532e-005 2.836158e+001 9.999401e-001 -1.480764e+000
49049025 1.001344e+000 -9.251131e-001 5.571503e-006 -1.289682e+002 1.809311e-005 2.978543e+001 1.002219e+000 -1.460138e+000
49799010 9.999321e-001 -9.628327e-001 3.379689e-005 -1.395698e+002 3.733654e-005 -8.166589e+001 1.000933e+000 -1.501829e+000
50548995 9.998325e-001 -9.782071e-001 3.269748e-006 -7.085279e+001 6.732844e-005 -1.605425e+002 1.001796e+000 -1.595686e+000
51298980 1.001410e+000 -9.897446e-001 5.544357e-006 -1.658938e+002 2.141991e-005 -7.435459e+001 9.998242e-001 -1.580312e+000
52048965 1.000208e+000 -9.811516e-001 2.703035e-006 1.449450e+002 2.963921e-005 1.496373e+002 1.000687e+000 -1.488858e+000
52798950 1.000478e+000 -9.629854e-001 8.817005e-006 -1.235035e+002 4.554787e-005 1.778174e+002 1.001853e+000 -1.648432e+000
53548935 1.001978e+000 -1.050433e+000 1.543498e-005 -3.028180e+001 2.355557e-005 9.856729e+001 1.001422e+000 -1.634745e+000
54298920 1.000538e+000 -1.020357e+000 1.093834e-005 6.947107e+001 1.946288e-005 -6.863482e-001 9.999436e-001 -1.691986e+000
55048905 1.000632e+000 -1.002495e+000 3.595078e-006 5.875651e+001 2.622648e-005 -1.635640e+002 9.989135e-001 -1.729942e+000
55798890 1.000303e+000 -1.038841e+000 1.249571e-005 -9.705721e+001 3.804146e-005 1.682346e+002 1.001074e+000 -1.864025e+000
56548875 1.000778e+000 -1.070592e+000 9.184824e-006 1.440298e+002 3.993524e-005 9.845321e+001 9.996586e-001 -1.722391e+000
57298860 1.001537e+000 -1.099625e+000 5.863201e-006 6.401795e+000 2.849975e-005 -2.655105e+001 1.001981e+000 -1.676613e+000
58048845 1.000249e+000 -1.118227e+000 1.972610e-005 -1.776716e+002 2.161913e-005 1.630379e+002 1.001046e+000 -1.664835e+000
58798830 1.000213e+000 -1.049003e+000 1.436565e-005 -7.820898e+001 6.860527e-005 1.520413e+002 1.001157e+000 -1.700193e+000
59548815 1.000836e+000 -1.153056e+000 4.391089e-006 1.168411e+002 5.743091e-005 1.126417e+002 1.001460e+000 -1.802100e+000
60298800 1.000965e+000 -1.119664e+000 1.840269e-005 -1.027789e+002 2.332149e-005 7.319312e+001 1.001706e+000 -1.878095e+000
61048785 1.001888e+000 -1.120442e+000 7.729517e-006 1.671168e+002 2.614494e-005 1.309405e+002 1.002223e+000 -1.733335e+000
61798770 1.000646e+000 -1.159498e+000 5.081210e-006 -6.488967e+001 5.828628e-005 1.459661e+002 1.002811e+000 -1.961001e+000
62548755 1.001282e+000 -1.113162e+000 7.130822e-006 -9.448552e+001 1.359216e-005 -8.971468e+001 1.001465e+000 -1.906093e+000
63298740 1.001407e+000 -1.148491e+000 1.401718e-005 1.000526e+002 5.023244e-005 -1.293370e+002 1.002138e+000 -1.905244e+000
64048725 1.001017e+000 -1.112404e+000 2.193056e-005 4.624417e+001 8.492102e-005 3.164283e+001 1.001137e+000 -1.815221e+000
64798710 1.000428e+000 -1.210988e+000 6.390164e-006 -7.525633e+001 3.375910e-005 -4.905655e+001 1.001302e+000 -2.079468e+000
65548695 1.001152e+000 -1.243230e+000 2.748406e-005 -5.548213e+000 6.487101e-006 -5.274826e+001 1.002224e+000 -1.891477e+000
66298680 1.001612e+000 -1.228922e+000 1.667984e-005 -1.411006e+002 5.884388e-005 -1.649317e+002 1.001358e+000 -1.975915e+000
67048665 1.001665e+000 -1.179804e+000 2.555029e-005 1.042625e+002 1.154276e-005 -1.666399e+002 1.002319e+000 -2.044570e+000
67798650 1.000888e+000 -1.208625e+000 1.351948e-005 -1.253724e+000 4.486950e-005 1.744895e+002 1.002073e+000 -2.057514e+000
68548635 1.000618e+000 -1.232289e+000 2.092575e-005 -1.708944e+002 5.689199e-005 1.592376e+002 1.003534e+000 -2.013348e+000
69298620 1.001691e+000 -1.253186e+000 1.809697e-005 -1.587459e+002 7.608762e-005 -1.447485e+002 1.003012e+000 -2.024821e+000
70048605 1.001311e+000 -1.266627e+000 5.630370e-006 1.515562e+002 3.482286e-005 9.051295e+001 1.003221e+000 -2.147899e+000
70798590 1.001551e+000 -1.240938e+000 2.269788e-005 1.058547e+002 6.641041e-005 1.289023e+002 1.001335e+000 -2.150548e+000
71548575 1.001548e+000 -1.258174e+000 1.142736e-005 -1.276122e+002 1.041400e-005 4.485034e+001 1.001362e+000 -2.242524e+000
72298560 1.001375e+000 -1.300312e+000 1.976821e-005 -1.104931e+002 2.239263e-005 7.678203e+000 1.001629e+000 -2.308111e+000
73048545 1.001358e+000 -1.330237e+000 2.478034e-005 -3.855780e+001 2.152803e-005 1.769288e+002 1.003309e+000 -2.140787e+000
73798530 1.001207e+000 -1.264850e+000 1.342656e-005 -7.744608e+000 6.069811e-005 6.289503e+001 1.003138e+000 -2.293847e+000
74548515 1.001931e+000 -1.374508e+000 2.102814e-005 -1.578951e+002 5.341668e-005 -5.977271e+001 1.002560e+000 -2.262382e+000
75298500 1.001766e+000 -1.360112e+000 3.025304e-005 1.681315e+002 2.743670e-005 -1.373564e+002 1.001416e+000 -2.289886e+000
76048485 1.001678e+000 -1.343828e+000 2.400214e-005 -1.664403e+002 2.586334e-005 -1.564412e+001 1.002634e+000 -2.305783e+000
76798470 1.001583e+000 -1.324396e+000 2.289992e-005 1.103147e+002 3.622107e-005 -5.004486e+001 1.001619e+000 -2.269269e+000
77548455 1.001222e+000 -1.395272e+000 2.813391e-005 9.877755e+001 4.834591e-006 -4.977637e+001 1.004366e+000 -2.290343e+000
78298440 1.001865e+000 -1.392081e+000 2.088683e-005 2.109925e+001 5.182843e-005 -1.272521e+002 1.002184e+000 -2.355418e+000
79048425 1.002025e+000 -1.431780e+000 3.191597e-005 -8.196377e+001 7.302024e-006 5.827048e+001 1.003708e+000 -2.375659e+000
79798410 1.002092e+000 -1.415684e+000 8.902778e-006 5.517808e+001 1.868751e-005 1.176566e+002 1.001993e+000 -2.311067e+000
80548395 1.002023e+000 -1.407566e+000 1.179302e-005 3.060147e+001 1.663461e-005 1.736840e+002 1.001283e+000 -2.455993e+000
81298380 1.001629e+000 -1.480487e+000 1.038996e-005 -1.286590e+002 4.840715e-005 1.672649e+002 1.002723e+000 -2.349629e+000
82048365 1.001398e+000 -1.418293e+000 2.502603e-005 -1.475852e+002 2.813367e-005 -3.974694e+001 1.004528e+000 -2.405287e+000
82798350 1.002567e+000 -1.418916e+000 3.795517e-006 1.750207e+002 3.564232e-005 7.645926e+001 1.003591e+000 -2.436815e+000
83548335 1.001357e+000 -1.464571e+000 7.074549e-006 1.334160e+002 1.986903e-005 5.493095e+001 1.002006e+000 -2.477610e+000
84298320 1.002312e+000 -1.512510e+000 7.857511e-006 -1.683235e+001 3.259777e-005 -1.571595e+002 1.003220e+000 -2.433306e+000
85048305 1.000924e+000 -1.510462e+000 1.067972e-005 -1.605251e+002 4.171263e-005 -7.717162e+001 1.003101e+000 -2.518963e+000
85798290 1.000824e+000 -1.541637e+000 3.646821e-005 1.197768e+002 3.669771e-005 -9.054118e+001 1.003579e+000 -2.476469e+000
86548275 1.001912e+000 -1.536388e+000 1.032442e-005 -1.533560e+002 5.177218e-005 -1.755384e+002 1.002904e+000 -2.484564e+000
87298260 1.001165e+000 -1.533870e+000 2.133857e-005 -1.499505e+002 3.112293e-005 -1.436026e+002 1.004456e+000 -2.530479e+000
88048245 1.001322e+000 -1.496897e+000 1.429977e-005 5.283012e+001 2.316751e-005 -1.381557e+002 1.003430e+000 -2.620956e+000
88798230 1.002320e+000 -1.566903e+000 2.381567e-005 -1.714685e+002 2.875218e-005 -8.589198e+001 1.004262e+000 -2.605986e+000
89548215 1.002228e+000 -1.558842e+000 1.765933e-005 1.240855e+002 1.896152e-005 1.091803e+002 1.002016e+000 -2.622763e+000
90298200 1.001026e+000 -1.598627e+000 1.674572e-005 1.635860e+002 6.408601e-005 -1.737105e+002 1.004152e+000 -2.460675e+000
91048185 1.001642e+000 -1.619781e+000 3.717301e-006 1.226868e+002 1.225151e-005 8.234304e+001 1.002760e+000 -2.572148e+000
91798170 1.002051e+000 -1.598983e+000 2.850970e-005 -1.062582e+001 2.834228e-005 5.977924e+001 1.003891e+000 -2.683040e+000
92548155 1.002751e+000 -1.613259e+000 2.022007e-005 9.326723e+001 4.874976e-005 9.490388e+001 1.004421e+000 -2.715174e+000
93298140 1.003005e+000 -1.632972e+000 4.290793e-005 6.996105e+001 3.371098e-005 8.147725e+001 1.004432e+000 -2.634307e+000
94048125 1.002206e+000 -1.676827e+000 1.837975e-005 6.447799e+001 2.322450e-005 -6.010120e+001 1.004987e+000 -2.721231e+000
94798110 1.002522e+000 -1.613581e+000 1.688799e-005 1.790759e+002 9.101811e-005 -3.219855e+001 1.003416e+000 -2.714254e+000
95548095 1.002387e+000 -1.650201e+000 2.434083e-006 1.254527e+002 4.354600e-005 -6.511975e+001 1.002439e+000 -2.689367e+000
96298080 1.002307e+000 -1.624969e+000 9.556295e-006 -6.324904e+001 1.724853e-005 3.670579e+001 1.002926e+000 -2.749290e+000
97048065 1.001638e+000 -1.694582e+000 1.059275e-005 -4.911026e+001 4.092285e-005 -1.171946e+002 1.003092e+000 -2.749939e+000
97798050 1.001996e+000 -1.618282e+000 2.007811e-005 1.059491e+002 5.587680e-005 3.595004e+000 1.005053e+000 -2.843263e+000
98548035 1.002837e+000 -1.687154e+000 1.372797e-005 -8.480177e+001 6.733112e-006 -1.533997e+002 1.004054e+000 -2.824460e+000
99298020 1.002859e+000 -1.694307e+000 1.511951e-005 6.611366e+001 2.804066e-005 8.619379e+001 1.004509e+000 -2.907991e+000
100048005 1.002814e+000 -1.716722e+000 1.091780e-005 1.280124e+002 5.263343e-005 6.335054e+001 1.003129e+000 -2.884951e+000
100797990 1.002698e+000 -1.703197e+000 2.116717e-005 1.589954e+002 5.232725e-005 1.663803e+002 1.004368e+000 -2.797973e+000
101547975 1.001926e+000 -1.728124e+000 1.393924e-005 -4.149170e+001 2.863707e-005 -5.744403e+001 1.002431e+000 -2.847009e+000
102297960 1.003733e+000 -1.714467e+000 2.445619e-005 -1.410850e+002 1.154077e-004 6.803108e+001 1.004835e+000 -2.826855e+000
103047945 1.002480e+000 -1.734521e+000 6.274920e-006 1.618786e+002 2.052254e-005 9.017786e+001 1.003035e+000 -2.862845e+000
103797930 1.002105e+000 -1.758421e+000 1.793308e-005 -8.685889e-001 1.041157e-004 -4.103495e+001 1.005091e+000 -2.940927e+000
104547915 1.002480e+000 -1.720224e+000 1.371568e-005 2.968671e+001 5.683050e-005 -5.494417e+001 1.005489e+000 -2.864007e+000
105297900 1.002129e+000 -1.786473e+000 2.013258e-005 8.587708e+001 3.365782e-005 1.569944e+002 1.005668e+000 -2.821963e+000
106047885 1.003160e+000 -1.763866e+000 1.639388e-005 1.772602e+002 7.061716e-005 -3.280582e+001 1.005190e+000 -3.038677e+000
106797870 1.003255e+000 -1.790120e+000 1.022384e-005 1.410391e+001 5.220791e-005 -1.400478e+002 1.005104e+000 -3.018684e+000
107547855 1.003376e+000 -1.838709e+000 3.154899e-006 1.448138e+002 2.007701e-005 4.655343e+001 1.004948e+000 -2.888349e+000
108297840 1.002811e+000 -1.809756e+000 1.041574e-005 -1.044030e+002 3.574719e-005 7.831249e+001 1.004106e+000 -3.069656e+000
109047825 1.002892e+000 -1.851035e+000 2.971500e-005 -5.754657e+001 4.162314e-005 3.350874e+001 1.006289e+000 -3.138059e+000
109797810 1.002452e+000 -1.898764e+000 1.199273e-005 -9.299775e+000 2.699207e-005 2.581942e+000 1.005820e+000 -3.012609e+000
110547795 1.002518e+000 -1.823380e+000 6.613438e-006 1.104244e+002 4.654900e-005 3.178225e+000 1.005267e+000 -3.106362e+000
111297780 1.003096e+000 -1.838346e+000 2.435303e-006 1.712281e+002 8.951037e-005 -1.120730e+001 1.004492e+000 -2.974931e+000
112047765 1.002030e+000 -1.882563e+000 1.628347e-005 -1.084073e+002 3.047852e-005 -3.203259e+001 1.004166e+000 -3.035309e+000
112797750 1.002926e+000 -1.904384e+000 1.892191e-005 -1.024103e+002 2.442491e-005 -3.491518e+001 1.004912e+000 -3.094631e+000
113547735 1.003275e+000 -1.874139e+000 3.109104e-006 2.045859e+001 6.131962e-005 -7.709642e+001 1.004320e+000 -3.091699e+000
114297720 1.002032e+000 -1.890496e+000 1.800027e-005 1.045876e+002 5.423349e-005 -1.410531e+002 1.007096e+000 -3.184023e+000
115047705 1.003002e+000 -1.885682e+000 9.648416e-006 1.698520e+001 6.651573e-006 -7.840369e+001 1.005273e+000 -3.192515e+000
115797690 1.003369e+000 -1.901331e+000 6.776224e-006 -1.440719e+002 1.994163e-005 3.501245e+001 1.005734e+000 -3.279994e+000
116547675 1.003672e+000 -1.946927e+000 1.325286e-005 -6.871442e+001 2.504810e-005 -7.630878e+001 1.005515e+000 -3.166622e+000
117297660 1.003478e+000 -1.910911e+000 8.694147e-006 1.715435e+002 4.805656e-005 1.563107e+002 1.005525e+000 -3.210497e+000
