!Agilent Technologies,N5230C,SG49000117,A.08.50.07
!Agilent N5230C: A.08.50.07
!Date: Wednesday, May 08, 2024 00:07:49
!Correction: S11(Full 2 Port(1,2)) 
!S21(Full 2 Port(1,2)) 
!S12(Full 2 Port(1,2)) 
!S22(Full 2 Port(1,2)) 
!S2P File: Measurements: S11, S21, S12, S22:
# Hz S  MA   R 50
300000 1.002902e+000 -2.079536e-001 1.235468e-005 -7.691116e+001 3.900558e-005 -7.149909e-001 1.010147e+000 -5.286756e-001
1049985 1.000551e+000 -1.664497e-001 2.274717e-006 -9.890849e+001 2.579535e-005 1.612038e+002 1.000230e+000 -3.037743e-001
1799970 9.996154e-001 -1.028725e-001 1.596306e-005 1.309974e+002 6.691105e-006 1.753703e+002 9.994058e-001 -2.606353e-001
2549955 9.994784e-001 -8.826352e-002 8.486883e-005 -1.069996e+002 1.476154e-004 -1.337055e+002 1.000118e+000 -1.719372e-001
3299940 1.000288e+000 -9.053272e-002 8.180617e-006 1.155823e+002 3.406772e-005 -1.457236e+002 9.987115e-001 -1.970361e-001
4049925 9.999625e-001 -1.392374e-001 7.251249e-006 -1.658654e+002 2.789362e-005 1.484164e+002 1.000007e+000 -1.847911e-001
4799910 1.000168e+000 -1.278766e-001 1.043681e-005 1.694093e+002 6.892184e-006 -1.691398e+002 1.000454e+000 -1.953515e-001
5549895 1.000047e+000 -1.382298e-001 5.331975e-006 -1.152903e+002 1.386063e-005 1.327486e+002 1.000387e+000 -1.733478e-001
6299880 9.998804e-001 -1.290675e-001 1.058615e-005 -1.790568e+002 1.467602e-005 1.799244e+002 1.000796e+000 -2.233832e-001
7049865 9.997333e-001 -1.542983e-001 4.469337e-006 1.527935e+002 3.379055e-005 5.717136e+001 1.000503e+000 -2.559369e-001
7799850 1.000141e+000 -1.762764e-001 5.422496e-006 -1.096759e+002 1.111009e-005 3.999621e+001 9.993770e-001 -2.820773e-001
8549835 9.998561e-001 -1.726518e-001 6.596170e-006 -1.424878e+002 1.221455e-005 1.403597e+002 1.000088e+000 -3.508073e-001
9299820 9.999666e-001 -1.882403e-001 1.126881e-006 -1.294984e+002 6.339413e-006 7.333208e+001 9.998329e-001 -3.330703e-001
10049805 1.000158e+000 -2.225336e-001 9.924395e-006 -9.802045e+001 1.979916e-005 4.295639e+001 9.999185e-001 -3.709051e-001
10799790 9.997914e-001 -2.006627e-001 1.992970e-005 -1.348053e+002 1.865622e-005 1.456084e+002 1.000035e+000 -3.571990e-001
11549775 1.000176e+000 -2.277545e-001 8.502226e-006 6.504900e+001 3.714130e-006 -4.139827e+001 1.000063e+000 -3.604068e-001
12299760 9.999319e-001 -2.360984e-001 8.214482e-006 5.958870e+001 7.741774e-006 -8.512699e+001 1.001401e+000 -3.884103e-001
13049745 1.000274e+000 -2.907257e-001 6.849020e-007 5.217237e+001 2.523348e-005 -7.215514e+001 1.000051e+000 -4.184609e-001
13799730 1.000109e+000 -2.964418e-001 7.831425e-006 -2.886124e+001 1.134584e-005 -1.012919e+002 9.993922e-001 -4.580356e-001
14549715 1.000399e+000 -3.166900e-001 5.918880e-006 1.542616e+002 6.673961e-006 5.129149e+001 1.001136e+000 -4.478423e-001
15299700 9.996607e-001 -3.077874e-001 5.353807e-006 -1.591207e+001 9.364327e-006 2.831723e+000 9.999276e-001 -5.274798e-001
16049685 1.000438e+000 -3.065192e-001 3.535482e-006 -1.522785e+002 2.836356e-005 -1.274052e+002 1.001132e+000 -5.010003e-001
16799670 1.000060e+000 -3.179365e-001 7.579831e-007 -1.385304e+002 3.876696e-005 4.050714e+001 1.001871e+000 -5.470578e-001
17549655 1.000277e+000 -3.730560e-001 1.287966e-005 -8.785474e+000 3.295351e-005 -1.505728e+002 1.001175e+000 -5.455366e-001
18299640 1.000080e+000 -3.515219e-001 9.306675e-006 -1.568523e+002 1.895211e-005 1.666916e+002 1.000822e+000 -6.377881e-001
19049625 1.000288e+000 -3.985555e-001 1.563776e-005 1.505167e+002 3.345218e-005 5.515242e+001 1.000185e+000 -5.699001e-001
19799610 1.000756e+000 -3.853250e-001 4.527314e-006 4.078019e+001 5.795594e-007 6.794238e+001 9.999746e-001 -6.061902e-001
20549595 9.997732e-001 -3.876099e-001 4.894946e-006 -1.278530e+002 3.318113e-006 1.074247e+002 9.997841e-001 -6.883529e-001
21299580 9.996411e-001 -3.994489e-001 1.282504e-005 1.211993e+002 2.289962e-005 9.212854e+001 9.996620e-001 -6.203698e-001
22049565 9.998320e-001 -4.504822e-001 1.170920e-005 -1.033779e+002 1.818450e-005 1.428797e+002 9.996362e-001 -6.864327e-001
22799550 1.000582e+000 -4.160859e-001 4.678314e-006 1.392403e+002 2.322567e-005 8.231328e+001 1.001326e+000 -7.453852e-001
23549535 1.000645e+000 -4.685249e-001 1.641934e-005 -4.478101e+001 1.457834e-005 1.523640e+002 1.000381e+000 -7.468252e-001
24299520 1.000146e+000 -4.925214e-001 8.012003e-006 1.491919e+002 1.544921e-005 1.128974e+002 9.991465e-001 -7.783662e-001
25049505 1.000418e+000 -5.135010e-001 5.348148e-006 -1.592152e+002 2.748723e-005 7.658304e+001 1.000557e+000 -8.237632e-001
25799490 1.000220e+000 -5.088059e-001 1.096414e-005 1.173127e+002 3.485180e-005 6.170918e+001 1.000120e+000 -8.870299e-001
26549475 1.000992e+000 -5.166753e-001 1.006011e-005 1.046947e+002 7.330761e-006 -3.278078e+001 1.001098e+000 -8.783554e-001
27299460 1.000457e+000 -5.228050e-001 1.348517e-005 1.459147e+002 2.613349e-005 8.604672e+001 1.000413e+000 -8.995891e-001
28049445 1.000304e+000 -5.238906e-001 7.029970e-006 1.259087e+002 2.214166e-005 8.402602e+001 1.001883e+000 -9.298449e-001
28799430 9.999624e-001 -5.943711e-001 6.840952e-006 -9.573280e+001 1.254342e-005 -1.474328e+002 9.999267e-001 -9.972095e-001
29549415 1.000257e+000 -5.452441e-001 1.022942e-005 -1.274782e+002 3.784533e-005 7.592152e+001 1.001274e+000 -9.338033e-001
30299400 1.000197e+000 -5.799879e-001 1.553388e-005 -1.422938e+001 4.342687e-005 1.132997e+002 1.001639e+000 -1.013476e+000
31049385 1.000502e+000 -5.499069e-001 6.946434e-006 -4.503236e-001 7.192306e-006 1.420231e+002 1.000097e+000 -1.042581e+000
31799370 1.000463e+000 -6.466978e-001 1.717611e-005 6.376447e+001 2.446856e-005 1.092539e+001 1.001230e+000 -1.008179e+000
32549355 1.000978e+000 -6.346480e-001 1.196019e-005 6.034341e+001 6.059381e-006 -1.679828e+002 1.001227e+000 -1.027250e+000
33299340 1.000517e+000 -6.330949e-001 1.983055e-006 2.533264e+001 2.214322e-005 -3.969823e+001 1.000560e+000 -1.065629e+000
34049325 9.999474e-001 -6.698068e-001 3.733235e-006 -1.307169e+001 1.957313e-005 1.443027e+002 1.000430e+000 -1.098722e+000
34799310 1.000120e+000 -6.938617e-001 5.582564e-006 6.233723e+001 2.283303e-005 -6.842657e+001 9.994683e-001 -1.108122e+000
35549295 1.000244e+000 -7.375692e-001 4.904003e-006 -4.004935e+001 2.940786e-005 4.817584e+001 1.001664e+000 -1.091394e+000
36299280 1.000228e+000 -7.174265e-001 5.981719e-007 -2.478457e+001 2.062851e-005 1.104279e+002 1.000760e+000 -1.182399e+000
37049265 1.000929e+000 -7.252697e-001 1.178814e-005 -1.355723e+002 1.837529e-005 -1.178074e+001 1.000346e+000 -1.186575e+000
37799250 1.000355e+000 -7.256423e-001 1.224083e-005 -7.332288e+000 2.007674e-005 8.441974e+001 1.000925e+000 -1.193563e+000
38549235 9.999717e-001 -7.465793e-001 1.046835e-006 -9.892831e+001 4.123706e-005 -5.364736e+001 9.998247e-001 -1.283282e+000
39299220 1.000589e+000 -7.506729e-001 7.165610e-006 7.594149e+001 2.555972e-005 2.292902e+001 1.000180e+000 -1.222305e+000
40049205 1.000306e+000 -7.346391e-001 2.536033e-005 1.082325e+002 2.236497e-005 5.386772e+001 1.001798e+000 -1.288315e+000
40799190 1.000863e+000 -7.956997e-001 2.380934e-005 3.525513e+001 3.028076e-005 3.195593e+001 1.001748e+000 -1.337141e+000
41549175 9.996043e-001 -7.658282e-001 2.432672e-005 -3.045775e+000 4.670131e-005 3.794542e+001 1.000257e+000 -1.353693e+000
42299160 1.000078e+000 -8.035528e-001 1.150333e-005 -1.332355e+001 8.909526e-006 -6.503259e+001 1.000382e+000 -1.304083e+000
43049145 1.000680e+000 -8.009971e-001 1.554107e-005 1.648818e+002 5.363795e-006 -1.125185e+002 1.000859e+000 -1.392777e+000
43799130 1.000144e+000 -8.331481e-001 3.125226e-006 -1.686326e+002 4.181717e-005 5.442421e+001 9.997624e-001 -1.396553e+000
44549115 1.000800e+000 -8.055432e-001 4.481666e-006 1.090639e+002 4.372528e-005 9.155627e+000 1.000862e+000 -1.420129e+000
45299100 1.001123e+000 -8.965638e-001 9.835700e-006 -1.335273e+002 3.226878e-005 2.620713e+001 1.002017e+000 -1.422087e+000
46049085 1.001052e+000 -8.747100e-001 2.642918e-005 -1.759026e+002 1.597551e-005 6.220279e+001 1.002287e+000 -1.386178e+000
46799070 1.000936e+000 -8.756457e-001 1.060313e-005 9.186207e+001 4.367623e-005 6.458672e+001 1.000985e+000 -1.452881e+000
47549055 1.000795e+000 -9.190611e-001 2.528457e-005 -1.130580e+002 2.167357e-005 7.539407e+001 1.000312e+000 -1.547917e+000
48299040 1.001103e+000 -9.063129e-001 1.664510e-005 1.695694e+002 1.531751e-005 -1.193021e+002 1.000198e+000 -1.498725e+000
49049025 1.001271e+000 -9.316301e-001 8.438782e-006 -2.500824e+001 1.165757e-005 1.786506e+002 1.002330e+000 -1.455956e+000
49799010 1.000030e+000 -9.593608e-001 5.199318e-006 -1.166403e+002 1.897629e-005 1.734731e+002 1.000905e+000 -1.495039e+000
50548995 9.997921e-001 -9.779127e-001 2.147310e-005 -2.143504e+001 1.383882e-005 1.575368e+002 1.002068e+000 -1.598523e+000
51298980 1.001325e+000 -9.849299e-001 2.178427e-005 1.374859e+002 5.381852e-005 1.137561e+002 9.999310e-001 -1.582077e+000
52048965 1.000280e+000 -9.820985e-001 1.634901e-005 9.382638e+001 3.103641e-005 1.232543e+002 1.000748e+000 -1.515094e+000
52798950 1.000488e+000 -9.571432e-001 3.159626e-006 1.639673e+002 4.566332e-005 6.789852e+001 1.001894e+000 -1.668334e+000
53548935 1.002028e+000 -1.049686e+000 2.644980e-005 -3.726491e+001 1.489010e-005 8.630534e+001 1.001627e+000 -1.647078e+000
54298920 1.000538e+000 -1.015547e+000 2.831487e-006 1.198259e+002 5.579805e-005 5.774482e+001 9.999652e-001 -1.702780e+000
55048905 1.000615e+000 -9.978096e-001 1.634606e-005 -9.518151e+001 2.305653e-005 9.970856e+001 9.987981e-001 -1.726632e+000
55798890 1.000316e+000 -1.035501e+000 8.206557e-006 1.523067e+002 4.021789e-005 -4.610579e+001 1.001400e+000 -1.889237e+000
56548875 1.000759e+000 -1.073478e+000 9.870586e-006 -1.226745e+002 1.225299e-005 -4.817895e+001 9.999589e-001 -1.721042e+000
57298860 1.001576e+000 -1.100600e+000 8.711098e-006 -1.477308e+002 3.900395e-005 -1.362580e+002 1.001866e+000 -1.689928e+000
58048845 1.000316e+000 -1.119606e+000 6.682555e-006 -6.255728e+001 1.525261e-005 1.433643e+002 1.001112e+000 -1.686234e+000
58798830 1.000314e+000 -1.047368e+000 1.269977e-005 1.399912e+002 6.119163e-005 -8.569164e+001 1.001486e+000 -1.726490e+000
59548815 1.000866e+000 -1.156566e+000 6.387478e-006 1.639316e+002 1.915895e-005 4.974342e+001 1.001528e+000 -1.799079e+000
60298800 1.000922e+000 -1.126019e+000 9.206929e-006 1.397319e+002 1.904412e-005 -1.358884e+002 1.001699e+000 -1.877860e+000
61048785 1.002092e+000 -1.120315e+000 1.276230e-005 9.649107e+001 5.231554e-005 2.146943e+001 1.002534e+000 -1.755479e+000
61798770 1.000818e+000 -1.155897e+000 8.833877e-006 -1.609622e+002 4.870876e-005 6.764280e+001 1.002945e+000 -1.948017e+000
62548755 1.001286e+000 -1.117009e+000 1.537243e-005 -2.961669e+001 3.302151e-005 1.201133e+002 1.001963e+000 -1.917777e+000
63298740 1.001442e+000 -1.155762e+000 9.268189e-006 1.209688e+002 7.085379e-005 1.309896e+002 1.002200e+000 -1.893909e+000
64048725 1.001105e+000 -1.119336e+000 2.425188e-005 5.612965e+001 2.209693e-005 8.320631e+001 1.001236e+000 -1.835092e+000
64798710 1.000507e+000 -1.202420e+000 1.004891e-005 1.578493e+002 2.534934e-005 2.734225e+001 1.001221e+000 -2.070167e+000
65548695 1.001143e+000 -1.237511e+000 1.798916e-005 1.593331e+002 1.456418e-005 -1.715894e+002 1.002350e+000 -1.887463e+000
66298680 1.001563e+000 -1.227867e+000 7.629117e-006 -1.228077e+002 2.461558e-005 3.412225e+001 1.001428e+000 -2.025469e+000
67048665 1.001487e+000 -1.176904e+000 1.365480e-005 -1.033400e+002 5.216776e-005 -1.385806e+002 1.002239e+000 -2.060167e+000
67798650 1.000856e+000 -1.210386e+000 2.713670e-005 1.510540e+002 6.776476e-005 1.764948e+002 1.002132e+000 -2.072882e+000
68548635 1.000640e+000 -1.232184e+000 8.382009e-006 -1.795940e+002 2.680576e-005 6.157621e+001 1.003888e+000 -2.027182e+000
69298620 1.001655e+000 -1.257322e+000 9.944863e-006 -2.759554e+001 1.403182e-005 -1.357913e+002 1.002901e+000 -2.041656e+000
70048605 1.001392e+000 -1.255637e+000 1.122133e-005 -1.423265e+002 1.756749e-005 -1.003505e+002 1.003186e+000 -2.158643e+000
70798590 1.001512e+000 -1.238478e+000 5.502396e-006 1.684955e+002 8.528825e-006 7.943670e+001 1.001212e+000 -2.160241e+000
71548575 1.001491e+000 -1.265854e+000 1.127872e-006 -3.923966e+001 2.928244e-005 -1.740982e+002 1.001413e+000 -2.246500e+000
72298560 1.001492e+000 -1.301880e+000 1.077555e-005 1.437636e+002 2.292571e-005 -1.134212e+002 1.001636e+000 -2.323855e+000
73048545 1.001314e+000 -1.325641e+000 1.085402e-005 8.322953e+001 6.355823e-005 -7.571095e+001 1.003288e+000 -2.141372e+000
73798530 1.001311e+000 -1.261932e+000 1.577319e-005 5.598512e+001 4.932403e-005 1.012813e+002 1.003426e+000 -2.314557e+000
74548515 1.001916e+000 -1.378876e+000 2.318016e-005 7.833248e+001 3.168775e-005 -1.381658e+002 1.002569e+000 -2.281075e+000
75298500 1.001854e+000 -1.358454e+000 1.522050e-005 1.790267e+002 1.318119e-005 8.504843e+001 1.001321e+000 -2.299525e+000
76048485 1.001908e+000 -1.345198e+000 6.866373e-006 -1.273939e+002 7.405101e-005 2.524960e+001 1.002875e+000 -2.330765e+000
76798470 1.001631e+000 -1.320964e+000 1.862057e-005 -5.256216e+001 2.631477e-005 -1.389134e+002 1.001670e+000 -2.295340e+000
77548455 1.001082e+000 -1.392223e+000 3.051119e-005 -1.445912e+002 4.745182e-005 -1.799414e+002 1.004477e+000 -2.295883e+000
78298440 1.001841e+000 -1.389854e+000 4.327686e-005 1.451449e+001 2.526587e-005 1.125756e+002 1.002230e+000 -2.369491e+000
79048425 1.001992e+000 -1.420697e+000 1.811887e-005 -1.778875e+002 3.223177e-005 9.817892e+001 1.003867e+000 -2.381607e+000
79798410 1.002082e+000 -1.405304e+000 8.571950e-006 -1.319296e+001 1.229145e-005 -9.502808e+001 1.001967e+000 -2.326483e+000
80548395 1.001981e+000 -1.418395e+000 6.177119e-006 -5.939747e+001 3.194492e-005 -4.315189e-001 1.001403e+000 -2.452505e+000
81298380 1.001589e+000 -1.475135e+000 2.247570e-005 -1.987333e+001 2.519532e-005 9.718697e+001 1.002745e+000 -2.342328e+000
82048365 1.001443e+000 -1.418853e+000 3.273806e-005 1.570011e+002 1.457407e-005 -4.798464e+001 1.004692e+000 -2.414182e+000
82798350 1.002515e+000 -1.419760e+000 3.139745e-005 1.435891e+002 1.111151e-005 -1.107158e+002 1.003738e+000 -2.450144e+000
83548335 1.001307e+000 -1.466006e+000 1.542036e-005 -3.715390e+001 3.207794e-005 5.588373e+000 1.002114e+000 -2.491080e+000
84298320 1.002188e+000 -1.512216e+000 2.947805e-006 1.567600e+002 1.010542e-006 6.881860e+001 1.003135e+000 -2.453241e+000
85048305 1.001108e+000 -1.511903e+000 2.487426e-005 1.452302e+002 2.933797e-005 -1.386158e+002 1.003227e+000 -2.524570e+000
85798290 1.001073e+000 -1.540152e+000 2.908569e-005 -1.435868e+002 3.083219e-005 -1.381958e+002 1.003752e+000 -2.504382e+000
86548275 1.001790e+000 -1.531031e+000 1.578027e-005 -6.405273e+001 2.208171e-005 -3.777552e+001 1.002732e+000 -2.485969e+000
87298260 1.001363e+000 -1.526174e+000 2.109167e-005 -1.513599e+002 4.061030e-005 1.187878e+002 1.004619e+000 -2.542490e+000
88048245 1.001317e+000 -1.496627e+000 2.108124e-005 1.397034e+002 2.577851e-005 -1.066238e+002 1.003805e+000 -2.616197e+000
88798230 1.002390e+000 -1.554788e+000 4.918734e-006 -1.134749e+002 4.285931e-005 -1.282561e+002 1.004387e+000 -2.622182e+000
89548215 1.002391e+000 -1.557186e+000 1.969446e-005 -4.060088e+001 2.188310e-005 6.384503e+001 1.001980e+000 -2.639536e+000
90298200 1.001156e+000 -1.589734e+000 2.529696e-005 1.271522e+002 5.291915e-005 -9.726800e+001 1.004388e+000 -2.469790e+000
91048185 1.001712e+000 -1.627649e+000 3.893570e-005 1.212871e+002 2.382514e-005 1.523961e+002 1.002726e+000 -2.577103e+000
91798170 1.002057e+000 -1.586780e+000 4.962870e-006 -4.817687e+001 2.922713e-005 1.237633e+002 1.003936e+000 -2.696323e+000
92548155 1.002837e+000 -1.611640e+000 1.314692e-005 -6.443130e+001 3.595840e-005 4.311094e+001 1.004386e+000 -2.714545e+000
93298140 1.002855e+000 -1.631903e+000 1.756193e-005 -1.717494e+002 1.994672e-005 4.128420e+001 1.004133e+000 -2.620216e+000
94048125 1.002309e+000 -1.676758e+000 2.110324e-005 8.105911e+001 4.254840e-005 -1.044541e+002 1.005270e+000 -2.736769e+000
94798110 1.002419e+000 -1.608636e+000 1.299479e-005 -1.000793e+001 1.449434e-005 1.644490e+002 1.003536e+000 -2.735740e+000
95548095 1.002247e+000 -1.642411e+000 1.228647e-005 1.308513e+002 5.208758e-005 -9.747993e+000 1.002674e+000 -2.697304e+000
96298080 1.002339e+000 -1.623123e+000 7.070686e-006 1.126313e+002 1.608236e-005 1.339361e+002 1.003188e+000 -2.771852e+000
97048065 1.001640e+000 -1.698273e+000 6.600619e-006 7.443331e+001 1.508991e-005 -1.472559e+002 1.003603e+000 -2.750957e+000
97798050 1.001942e+000 -1.609871e+000 6.672337e-006 -1.760508e+002 3.124264e-005 -4.192022e+001 1.004817e+000 -2.868305e+000
98548035 1.002679e+000 -1.686038e+000 8.514615e-006 -1.058227e+002 5.230183e-005 -7.792509e+001 1.004190e+000 -2.838964e+000
99298020 1.002863e+000 -1.700349e+000 6.631075e-006 -2.479762e+001 3.580109e-005 1.179448e+002 1.004910e+000 -2.924386e+000
100048005 1.002923e+000 -1.710438e+000 1.144902e-005 7.972982e+001 5.783172e-005 -4.631830e+000 1.003198e+000 -2.909381e+000
100797990 1.002822e+000 -1.701098e+000 5.545778e-006 3.064422e+001 5.203399e-005 1.608329e+001 1.004161e+000 -2.795246e+000
101547975 1.002067e+000 -1.726336e+000 3.271892e-005 -1.696125e+002 1.303912e-005 -1.378903e+002 1.002742e+000 -2.849898e+000
102297960 1.003759e+000 -1.711239e+000 2.517830e-005 1.738912e+002 4.491183e-005 -1.645970e+002 1.004823e+000 -2.831192e+000
103047945 1.002537e+000 -1.734440e+000 1.486575e-005 -6.851929e+001 8.044847e-006 1.747796e+002 1.003454e+000 -2.885689e+000
103797930 1.002159e+000 -1.747145e+000 1.524640e-005 -1.074686e+002 1.039673e-005 -1.613672e+002 1.005487e+000 -2.974221e+000
104547915 1.002549e+000 -1.719378e+000 3.779555e-006 1.235473e+002 3.312623e-005 9.129981e+000 1.005637e+000 -2.866626e+000
105297900 1.002221e+000 -1.780203e+000 2.632220e-005 -8.354513e+001 5.682654e-005 -8.690954e+000 1.005854e+000 -2.840098e+000
106047885 1.003332e+000 -1.765431e+000 9.696584e-006 -9.934935e+000 5.278489e-005 -3.306927e+001 1.005113e+000 -3.046715e+000
106797870 1.003319e+000 -1.780855e+000 2.923943e-005 -1.405803e+002 3.729762e-005 -1.532052e+001 1.005584e+000 -3.036463e+000
107547855 1.003381e+000 -1.827938e+000 7.796720e-006 1.522508e+002 7.543126e-005 1.792939e+002 1.005169e+000 -2.893417e+000
108297840 1.002867e+000 -1.810228e+000 1.934611e-005 1.266375e+002 3.879185e-005 -1.462644e+002 1.004427e+000 -3.095911e+000
109047825 1.002984e+000 -1.842585e+000 1.333363e-005 4.498373e+001 6.726343e-005 -9.471550e+001 1.006591e+000 -3.148477e+000
109797810 1.002506e+000 -1.881506e+000 9.812472e-006 2.783586e+001 3.428649e-005 1.503897e+002 1.006031e+000 -3.035042e+000
110547795 1.002415e+000 -1.825973e+000 1.545226e-005 -1.179211e+001 4.438875e-005 -1.029856e+002 1.005637e+000 -3.115855e+000
111297780 1.003119e+000 -1.830126e+000 9.386727e-006 9.581381e+001 5.833934e-006 -2.371104e+001 1.004504e+000 -2.976031e+000
112047765 1.002114e+000 -1.876063e+000 9.363797e-006 3.376700e+001 4.609221e-005 5.322885e+001 1.003977e+000 -3.036201e+000
112797750 1.002765e+000 -1.895195e+000 1.654643e-005 1.370577e+002 4.115342e-005 -3.781142e+001 1.004646e+000 -3.090556e+000
113547735 1.003339e+000 -1.876485e+000 1.450013e-005 -2.645875e+001 7.211638e-005 3.400775e+001 1.004306e+000 -3.106092e+000
114297720 1.002000e+000 -1.885874e+000 8.396455e-006 -1.542818e+002 4.443033e-005 -5.003213e+001 1.006914e+000 -3.192621e+000
115047705 1.003070e+000 -1.872997e+000 2.449980e-005 1.069514e+002 4.003926e-005 1.118558e+002 1.005377e+000 -3.200797e+000
115797690 1.003446e+000 -1.898794e+000 1.411325e-005 -5.579448e+001 2.384606e-005 -4.578653e+001 1.005798e+000 -3.294254e+000
116547675 1.003577e+000 -1.943550e+000 1.559793e-005 9.225344e+001 3.104270e-005 1.786432e+002 1.005295e+000 -3.178793e+000
117297660 1.003333e+000 -1.911301e+000 1.495745e-006 -1.240618e+002 2.951636e-005 -1.370822e+002 1.006011e+000 -3.224283e+000
