!Agilent Technologies,N5230C,SG49000117,A.08.50.07
!Agilent N5230C: A.08.50.07
!Date: Tuesday, May 07, 2024 03:06:20
!Correction: S11(Full 2 Port(1,2)) 
!S21(Full 2 Port(1,2)) 
!S12(Full 2 Port(1,2)) 
!S22(Full 2 Port(1,2)) 
!S2P File: Measurements: S11, S21, S12, S22:
# Hz S  MA   R 50
2000000000 1.052084e+000 -2.357157e+001 5.428304e-004 -1.407066e+001 9.960168e-004 -3.272418e+001 1.127610e+000 -3.913234e+001
2000100000 1.051916e+000 -2.357551e+001 5.449932e-004 -1.421108e+001 9.860544e-004 -3.250431e+001 1.127883e+000 -3.912339e+001
2000200000 1.051794e+000 -2.358750e+001 5.420489e-004 -1.300099e+001 9.731821e-004 -3.249167e+001 1.128168e+000 -3.912680e+001
2000300000 1.051633e+000 -2.359266e+001 5.461476e-004 -1.284529e+001 9.585298e-004 -3.333201e+001 1.128396e+000 -3.912767e+001
2000400000 1.051499e+000 -2.359635e+001 5.323921e-004 -1.289725e+001 9.542360e-004 -3.206846e+001 1.128541e+000 -3.913458e+001
2000500000 1.051392e+000 -2.360652e+001 5.350572e-004 -1.445659e+001 9.531060e-004 -3.223376e+001 1.128713e+000 -3.914417e+001
2000600000 1.051359e+000 -2.359850e+001 5.219638e-004 -1.286397e+001 9.630822e-004 -3.245065e+001 1.128716e+000 -3.912671e+001
2000700000 1.051411e+000 -2.358961e+001 5.293373e-004 -1.460643e+001 9.642256e-004 -3.075031e+001 1.128699e+000 -3.910691e+001
2000800000 1.051400e+000 -2.358431e+001 5.330833e-004 -1.167625e+001 9.534699e-004 -3.171902e+001 1.128593e+000 -3.909663e+001
2000900000 1.051415e+000 -2.357000e+001 5.263310e-004 -1.255128e+001 9.480204e-004 -3.086622e+001 1.128483e+000 -3.908622e+001
2001000000 1.051379e+000 -2.356452e+001 5.161715e-004 -1.264561e+001 9.526506e-004 -3.088324e+001 1.128366e+000 -3.907365e+001
2001100000 1.051288e+000 -2.355489e+001 5.283817e-004 -1.262133e+001 9.603940e-004 -3.309261e+001 1.128270e+000 -3.906604e+001
2001200000 1.051258e+000 -2.354683e+001 5.191769e-004 -1.361441e+001 9.473064e-004 -3.189534e+001 1.128151e+000 -3.906140e+001
2001300000 1.051310e+000 -2.355032e+001 5.246886e-004 -1.279183e+001 9.465377e-004 -3.178667e+001 1.127991e+000 -3.907404e+001
2001400000 1.051448e+000 -2.356690e+001 5.221082e-004 -1.199526e+001 9.284700e-004 -3.207260e+001 1.127709e+000 -3.910637e+001
2001500000 1.051607e+000 -2.358009e+001 5.122568e-004 -1.238880e+001 9.341283e-004 -3.052744e+001 1.127524e+000 -3.913797e+001
2001600000 1.051731e+000 -2.359255e+001 5.051065e-004 -1.251640e+001 8.959867e-004 -3.179547e+001 1.127237e+000 -3.916626e+001
2001700000 1.051906e+000 -2.360571e+001 5.045460e-004 -1.252769e+001 9.233432e-004 -3.086764e+001 1.126991e+000 -3.919156e+001
2001800000 1.052062e+000 -2.361355e+001 5.053153e-004 -1.266629e+001 9.142451e-004 -3.068798e+001 1.126785e+000 -3.921359e+001
2001900000 1.052315e+000 -2.361644e+001 5.128433e-004 -1.349060e+001 9.115295e-004 -3.063061e+001 1.126771e+000 -3.923291e+001
2002000000 1.052496e+000 -2.362078e+001 5.015834e-004 -1.306409e+001 9.389849e-004 -3.158312e+001 1.126614e+000 -3.925529e+001
2002100000 1.052438e+000 -2.361135e+001 5.071449e-004 -1.311039e+001 9.101970e-004 -2.973746e+001 1.126784e+000 -3.923349e+001
2002200000 1.052490e+000 -2.359690e+001 4.977265e-004 -1.233918e+001 9.138676e-004 -3.067621e+001 1.127049e+000 -3.920582e+001
2002300000 1.052409e+000 -2.358723e+001 4.947514e-004 -1.242310e+001 8.980565e-004 -3.226589e+001 1.127239e+000 -3.918200e+001
2002400000 1.052430e+000 -2.357726e+001 4.949034e-004 -1.131809e+001 8.928322e-004 -3.101758e+001 1.127367e+000 -3.915563e+001
2002500000 1.052363e+000 -2.357034e+001 4.990976e-004 -1.247884e+001 8.936885e-004 -3.009536e+001 1.127488e+000 -3.913785e+001
2002600000 1.052240e+000 -2.356354e+001 5.024500e-004 -1.175249e+001 8.953004e-004 -3.256842e+001 1.127628e+000 -3.911241e+001
2002700000 1.052158e+000 -2.355693e+001 4.878362e-004 -1.256178e+001 8.728115e-004 -3.104597e+001 1.127636e+000 -3.909124e+001
2002800000 1.051971e+000 -2.355632e+001 4.900490e-004 -1.188133e+001 9.000631e-004 -3.025700e+001 1.127807e+000 -3.909234e+001
2002900000 1.051830e+000 -2.356677e+001 4.851125e-004 -1.196045e+001 8.956146e-004 -3.036257e+001 1.127836e+000 -3.910619e+001
2003000000 1.051753e+000 -2.357649e+001 4.849967e-004 -1.179477e+001 8.817489e-004 -3.128004e+001 1.127861e+000 -3.912219e+001
2003100000 1.051683e+000 -2.358457e+001 4.862709e-004 -1.219895e+001 8.818639e-004 -2.975525e+001 1.127984e+000 -3.913879e+001
2003200000 1.051610e+000 -2.358999e+001 5.012575e-004 -1.069093e+001 8.722029e-004 -2.952821e+001 1.128006e+000 -3.915438e+001
2003300000 1.051594e+000 -2.359997e+001 4.848468e-004 -1.129241e+001 8.589783e-004 -2.980219e+001 1.128098e+000 -3.917194e+001
2003400000 1.051536e+000 -2.360518e+001 4.797099e-004 -1.067166e+001 8.618388e-004 -2.925459e+001 1.128113e+000 -3.918571e+001
2003500000 1.051595e+000 -2.360991e+001 4.919053e-004 -1.136125e+001 8.511529e-004 -3.053554e+001 1.128235e+000 -3.920785e+001
2003600000 1.051589e+000 -2.361526e+001 4.696577e-004 -1.107034e+001 8.661972e-004 -2.975861e+001 1.128459e+000 -3.919860e+001
2003700000 1.051619e+000 -2.362309e+001 4.723649e-004 -1.137402e+001 8.652371e-004 -2.865419e+001 1.128594e+000 -3.918895e+001
2003800000 1.051730e+000 -2.362807e+001 4.692178e-004 -1.166639e+001 8.657555e-004 -2.950907e+001 1.128769e+000 -3.918623e+001
2003900000 1.051708e+000 -2.363736e+001 4.805759e-004 -1.092467e+001 8.649350e-004 -2.951507e+001 1.128851e+000 -3.918420e+001
2004000000 1.051672e+000 -2.364428e+001 4.682344e-004 -9.474250e+000 8.353844e-004 -2.960335e+001 1.128890e+000 -3.918312e+001
2004100000 1.051749e+000 -2.364651e+001 4.768493e-004 -1.153575e+001 8.569474e-004 -2.878613e+001 1.128926e+000 -3.917984e+001
2004200000 1.051712e+000 -2.365292e+001 4.695727e-004 -1.116416e+001 8.422071e-004 -2.948921e+001 1.128988e+000 -3.918230e+001
2004300000 1.051705e+000 -2.365792e+001 4.671839e-004 -1.014754e+001 8.399026e-004 -2.725988e+001 1.128763e+000 -3.918403e+001
2004400000 1.051862e+000 -2.365591e+001 4.620817e-004 -1.000104e+001 8.402203e-004 -2.883553e+001 1.128434e+000 -3.917826e+001
2004500000 1.051951e+000 -2.365148e+001 4.729034e-004 -9.473385e+000 8.293790e-004 -2.925031e+001 1.128172e+000 -3.918237e+001
2004600000 1.052020e+000 -2.365232e+001 4.633566e-004 -9.434574e+000 8.321507e-004 -2.868194e+001 1.128007e+000 -3.917806e+001
2004700000 1.052105e+000 -2.365029e+001 4.633968e-004 -1.137615e+001 8.366060e-004 -2.752872e+001 1.127773e+000 -3.918027e+001
2004800000 1.052108e+000 -2.364901e+001 4.642580e-004 -1.008149e+001 8.432139e-004 -2.885154e+001 1.127612e+000 -3.918056e+001
2004900000 1.052274e+000 -2.365000e+001 4.580025e-004 -8.763510e+000 8.524991e-004 -2.942979e+001 1.127606e+000 -3.918427e+001
2005000000 1.052256e+000 -2.364821e+001 4.513216e-004 -1.017499e+001 8.237265e-004 -2.949985e+001 1.127519e+000 -3.918579e+001
2005100000 1.052260e+000 -2.365411e+001 4.604918e-004 -1.127975e+001 8.335322e-004 -2.955588e+001 1.127646e+000 -3.917434e+001
2005200000 1.052239e+000 -2.366224e+001 4.647833e-004 -9.286816e+000 8.192906e-004 -2.975427e+001 1.127816e+000 -3.916733e+001
2005300000 1.052158e+000 -2.366468e+001 4.530715e-004 -9.242425e+000 8.026720e-004 -2.847793e+001 1.127926e+000 -3.916160e+001
2005400000 1.052200e+000 -2.366971e+001 4.527728e-004 -8.640379e+000 8.069148e-004 -2.758065e+001 1.128208e+000 -3.914588e+001
2005500000 1.052128e+000 -2.367143e+001 4.617277e-004 -8.146688e+000 7.831478e-004 -2.688509e+001 1.128354e+000 -3.914790e+001
2005600000 1.052153e+000 -2.367550e+001 4.594167e-004 -8.349256e+000 8.239278e-004 -2.697454e+001 1.128482e+000 -3.913814e+001
2005700000 1.052209e+000 -2.367883e+001 4.473747e-004 -8.518291e+000 8.081945e-004 -2.672608e+001 1.128726e+000 -3.913920e+001
2005800000 1.052226e+000 -2.367942e+001 4.510294e-004 -9.099998e+000 7.864573e-004 -2.720442e+001 1.128837e+000 -3.914067e+001
2005900000 1.052294e+000 -2.367757e+001 4.566505e-004 -8.838124e+000 7.821400e-004 -2.668815e+001 1.128999e+000 -3.914780e+001
2006000000 1.052304e+000 -2.368133e+001 4.526155e-004 -7.898233e+000 7.793267e-004 -2.717591e+001 1.129042e+000 -3.915801e+001
2006100000 1.052310e+000 -2.367814e+001 4.426240e-004 -9.239059e+000 8.062211e-004 -2.751530e+001 1.129315e+000 -3.917055e+001
2006200000 1.052360e+000 -2.368274e+001 4.423325e-004 -1.100309e+001 7.926734e-004 -2.601045e+001 1.129405e+000 -3.918859e+001
2006300000 1.052418e+000 -2.367859e+001 4.465616e-004 -7.648798e+000 7.892976e-004 -2.633186e+001 1.129406e+000 -3.920163e+001
2006400000 1.052467e+000 -2.368256e+001 4.442242e-004 -8.103801e+000 7.868599e-004 -2.561669e+001 1.129494e+000 -3.920888e+001
2006500000 1.052437e+000 -2.368530e+001 4.502885e-004 -9.460239e+000 7.860317e-004 -2.691306e+001 1.129491e+000 -3.922745e+001
2006600000 1.052357e+000 -2.368950e+001 4.305042e-004 -8.052598e+000 7.947087e-004 -2.664758e+001 1.129359e+000 -3.923289e+001
2006700000 1.052301e+000 -2.369682e+001 4.387787e-004 -7.962538e+000 7.820459e-004 -2.564783e+001 1.129409e+000 -3.923724e+001
2006800000 1.052179e+000 -2.369510e+001 4.371539e-004 -5.999000e+000 7.839409e-004 -2.754197e+001 1.129330e+000 -3.923977e+001
2006900000 1.052136e+000 -2.369784e+001 4.329233e-004 -8.629477e+000 7.987652e-004 -2.530484e+001 1.129308e+000 -3.924202e+001
2007000000 1.052081e+000 -2.369898e+001 4.377180e-004 -7.793745e+000 7.802789e-004 -2.548200e+001 1.129169e+000 -3.924846e+001
2007100000 1.052034e+000 -2.370162e+001 4.446852e-004 -7.034859e+000 7.811207e-004 -2.594967e+001 1.129146e+000 -3.925497e+001
2007200000 1.052096e+000 -2.370834e+001 4.361410e-004 -7.752024e+000 7.833244e-004 -2.431455e+001 1.129152e+000 -3.925823e+001
2007300000 1.052090e+000 -2.371328e+001 4.298317e-004 -5.937634e+000 8.011680e-004 -2.496460e+001 1.128918e+000 -3.925641e+001
2007400000 1.052177e+000 -2.371918e+001 4.384988e-004 -6.885753e+000 7.782381e-004 -2.402310e+001 1.128614e+000 -3.925041e+001
2007500000 1.052154e+000 -2.372618e+001 4.235033e-004 -6.742405e+000 7.809962e-004 -2.428119e+001 1.128451e+000 -3.924570e+001
2007600000 1.052199e+000 -2.373747e+001 4.350483e-004 -6.717855e+000 7.705865e-004 -2.439051e+001 1.128299e+000 -3.924273e+001
2007700000 1.052208e+000 -2.373816e+001 4.305755e-004 -7.013018e+000 7.782340e-004 -2.374567e+001 1.128077e+000 -3.923380e+001
2007800000 1.052220e+000 -2.374374e+001 4.272009e-004 -5.950175e+000 7.819858e-004 -2.300818e+001 1.127961e+000 -3.922654e+001
2007900000 1.052198e+000 -2.375108e+001 4.247480e-004 -4.901489e+000 7.592155e-004 -2.440841e+001 1.127758e+000 -3.922436e+001
2008000000 1.052191e+000 -2.375626e+001 4.318702e-004 -5.630534e+000 7.468052e-004 -2.365006e+001 1.127609e+000 -3.921671e+001
2008100000 1.052118e+000 -2.374262e+001 4.253344e-004 -5.880163e+000 7.401352e-004 -2.366216e+001 1.127381e+000 -3.922602e+001
2008200000 1.052064e+000 -2.372962e+001 4.282064e-004 -6.454836e+000 7.707335e-004 -2.389086e+001 1.127122e+000 -3.922529e+001
2008300000 1.052047e+000 -2.371787e+001 4.240343e-004 -6.667010e+000 7.393111e-004 -2.467672e+001 1.127037e+000 -3.922726e+001
2008400000 1.051977e+000 -2.370909e+001 4.191108e-004 -5.491611e+000 7.673553e-004 -2.433442e+001 1.127008e+000 -3.923000e+001
2008500000 1.051927e+000 -2.370191e+001 4.225078e-004 -5.235015e+000 7.488598e-004 -2.153952e+001 1.126824e+000 -3.923461e+001
2008600000 1.051869e+000 -2.368964e+001 4.238547e-004 -6.631546e+000 7.457563e-004 -2.211926e+001 1.126858e+000 -3.924094e+001
2008700000 1.051872e+000 -2.368512e+001 4.206689e-004 -5.131241e+000 7.492403e-004 -2.253829e+001 1.126912e+000 -3.924921e+001
2008800000 1.051844e+000 -2.368373e+001 4.244684e-004 -4.982635e+000 7.474445e-004 -2.293853e+001 1.127033e+000 -3.925709e+001
2008900000 1.051805e+000 -2.369083e+001 4.220063e-004 -5.069701e+000 7.649975e-004 -2.245459e+001 1.127258e+000 -3.927232e+001
2009000000 1.051837e+000 -2.370349e+001 4.134928e-004 -4.641406e+000 7.420579e-004 -2.065610e+001 1.127533e+000 -3.928247e+001
2009100000 1.051765e+000 -2.371103e+001 4.026504e-004 -3.752763e+000 7.671928e-004 -2.332099e+001 1.127791e+000 -3.929310e+001
2009200000 1.051804e+000 -2.371444e+001 4.158765e-004 -4.787154e+000 7.560141e-004 -2.325230e+001 1.127942e+000 -3.930138e+001
2009300000 1.051796e+000 -2.372242e+001 4.128969e-004 -3.454732e+000 7.669232e-004 -2.172769e+001 1.128145e+000 -3.931380e+001
2009400000 1.051787e+000 -2.373036e+001 3.996952e-004 -3.741182e+000 7.494217e-004 -2.219500e+001 1.128404e+000 -3.932579e+001
2009500000 1.051801e+000 -2.373266e+001 4.157863e-004 -3.788421e+000 7.425094e-004 -2.126141e+001 1.128546e+000 -3.933649e+001
2009600000 1.051979e+000 -2.373647e+001 4.027019e-004 -3.550295e+000 7.218838e-004 -2.199788e+001 1.128500e+000 -3.934235e+001
2009700000 1.052079e+000 -2.373181e+001 4.068037e-004 -4.044362e+000 7.194241e-004 -2.155686e+001 1.128540e+000 -3.934232e+001
2009800000 1.052172e+000 -2.373208e+001 4.094055e-004 -4.213182e+000 7.287004e-004 -2.317436e+001 1.128458e+000 -3.934891e+001
2009900000 1.052239e+000 -2.372831e+001 4.170594e-004 -2.572240e+000 7.282930e-004 -2.239383e+001 1.128528e+000 -3.935230e+001
2010000000 1.052338e+000 -2.372300e+001 4.085270e-004 -1.134573e+000 7.268275e-004 -2.085793e+001 1.128537e+000 -3.936052e+001
2010100000 1.052378e+000 -2.372378e+001 4.096727e-004 -2.623332e+000 7.123447e-004 -2.201570e+001 1.128451e+000 -3.935713e+001
2010200000 1.052407e+000 -2.371895e+001 4.153959e-004 -2.063275e+000 7.509568e-004 -1.984608e+001 1.128352e+000 -3.936667e+001
2010300000 1.052444e+000 -2.371786e+001 4.186444e-004 -2.671101e+000 7.359675e-004 -1.878956e+001 1.128143e+000 -3.937707e+001
2010400000 1.052426e+000 -2.371331e+001 4.188560e-004 -2.990998e+000 7.380471e-004 -2.169646e+001 1.127895e+000 -3.937090e+001
2010500000 1.052463e+000 -2.371255e+001 4.086835e-004 -2.088551e+000 7.197793e-004 -2.044395e+001 1.127571e+000 -3.937442e+001
2010600000 1.052488e+000 -2.371382e+001 4.140785e-004 -2.420234e+000 7.153322e-004 -2.123296e+001 1.127357e+000 -3.937912e+001
2010700000 1.052425e+000 -2.371301e+001 4.089517e-004 -1.044994e+000 7.177928e-004 -2.080397e+001 1.127168e+000 -3.937438e+001
2010800000 1.052409e+000 -2.371234e+001 4.070611e-004 -1.199565e+000 7.413750e-004 -2.008079e+001 1.126989e+000 -3.938194e+001
2010900000 1.052342e+000 -2.371316e+001 4.035930e-004 -1.002480e+000 7.261792e-004 -1.962745e+001 1.126804e+000 -3.938562e+001
2011000000 1.052300e+000 -2.371653e+001 4.056416e-004 -1.641640e+000 7.187485e-004 -1.968307e+001 1.126682e+000 -3.939180e+001
2011100000 1.052007e+000 -2.371959e+001 4.082491e-004 -7.271029e-001 7.116509e-004 -1.863382e+001 1.126958e+000 -3.937025e+001
2011200000 1.051702e+000 -2.371930e+001 4.075966e-004 -3.233298e-001 7.320216e-004 -1.982919e+001 1.127127e+000 -3.935656e+001
2011300000 1.051460e+000 -2.372276e+001 4.113468e-004 -2.113462e+000 7.235828e-004 -1.831105e+001 1.127377e+000 -3.933823e+001
2011400000 1.051279e+000 -2.372636e+001 4.017658e-004 -2.306316e-001 7.036634e-004 -1.907049e+001 1.127515e+000 -3.931716e+001
2011500000 1.051146e+000 -2.372880e+001 4.009488e-004 -6.069015e-001 7.214884e-004 -2.013094e+001 1.127642e+000 -3.930542e+001
2011600000 1.050902e+000 -2.372943e+001 3.972904e-004 8.333141e-002 7.301882e-004 -1.863882e+001 1.127795e+000 -3.929205e+001
2011700000 1.050872e+000 -2.373561e+001 4.085969e-004 -4.226725e-001 7.405397e-004 -2.024266e+001 1.127907e+000 -3.927985e+001
2011800000 1.050955e+000 -2.374420e+001 4.048806e-004 3.618155e-001 7.154052e-004 -1.982581e+001 1.127796e+000 -3.927437e+001
2011900000 1.051068e+000 -2.376053e+001 3.963453e-004 -2.758766e-001 7.191207e-004 -1.923093e+001 1.127279e+000 -3.929873e+001
2012000000 1.051205e+000 -2.377212e+001 4.116915e-004 -8.305661e-001 6.959435e-004 -1.709132e+001 1.126924e+000 -3.931198e+001
2012100000 1.051464e+000 -2.378006e+001 4.036916e-004 8.796321e-001 7.216588e-004 -1.878474e+001 1.126512e+000 -3.932727e+001
2012200000 1.051707e+000 -2.378782e+001 4.129284e-004 -1.127294e+000 7.068215e-004 -1.972345e+001 1.126317e+000 -3.934169e+001
2012300000 1.051933e+000 -2.379296e+001 4.063955e-004 2.442413e-001 7.339346e-004 -1.837951e+001 1.126034e+000 -3.936333e+001
2012400000 1.052239e+000 -2.379285e+001 4.001053e-004 -4.909128e-001 7.092264e-004 -1.844069e+001 1.125966e+000 -3.937948e+001
2012500000 1.052526e+000 -2.379262e+001 4.024255e-004 1.011726e-001 7.200172e-004 -1.614164e+001 1.125952e+000 -3.939635e+001
2012600000 1.052859e+000 -2.376419e+001 4.001147e-004 1.061349e+000 7.217934e-004 -1.779074e+001 1.126760e+000 -3.940639e+001
2012700000 1.053009e+000 -2.373863e+001 3.921681e-004 2.067641e+000 7.306281e-004 -1.812649e+001 1.127584e+000 -3.939819e+001
2012800000 1.053271e+000 -2.371352e+001 4.019776e-004 4.592224e-001 7.022825e-004 -1.639871e+001 1.128423e+000 -3.939495e+001
2012900000 1.053454e+000 -2.369596e+001 4.019299e-004 1.280856e+000 7.230181e-004 -1.675214e+001 1.129145e+000 -3.939461e+001
2013000000 1.053607e+000 -2.368075e+001 3.956200e-004 -5.726950e-001 7.141306e-004 -1.685908e+001 1.129677e+000 -3.938655e+001
2013100000 1.053738e+000 -2.367078e+001 4.011510e-004 1.099588e+000 7.297571e-004 -1.756027e+001 1.130109e+000 -3.937527e+001
2013200000 1.053725e+000 -2.366168e+001 4.156849e-004 1.071983e+000 7.246366e-004 -1.731055e+001 1.130619e+000 -3.936620e+001
2013300000 1.053456e+000 -2.366695e+001 3.992697e-004 3.145157e+000 7.363463e-004 -1.672434e+001 1.130650e+000 -3.935746e+001
2013400000 1.052846e+000 -2.368523e+001 4.033386e-004 1.837037e+000 7.251955e-004 -1.687127e+001 1.130447e+000 -3.934512e+001
2013500000 1.052282e+000 -2.370366e+001 4.012143e-004 2.349849e+000 7.102524e-004 -1.598545e+001 1.130170e+000 -3.933854e+001
2013600000 1.051782e+000 -2.372601e+001 4.099389e-004 1.497959e+000 7.052079e-004 -1.719141e+001 1.129947e+000 -3.932869e+001
2013700000 1.051401e+000 -2.374067e+001 4.021073e-004 8.948078e-001 7.236226e-004 -1.643683e+001 1.129681e+000 -3.932720e+001
2013800000 1.051104e+000 -2.375653e+001 4.085527e-004 3.523858e+000 7.181875e-004 -1.392149e+001 1.129468e+000 -3.931555e+001
2013900000 1.050868e+000 -2.377168e+001 4.032502e-004 2.197532e+000 7.235105e-004 -1.583180e+001 1.129357e+000 -3.931266e+001
2014000000 1.050730e+000 -2.378602e+001 4.014277e-004 2.879318e+000 7.184400e-004 -1.359156e+001 1.129194e+000 -3.931133e+001
2014100000 1.050962e+000 -2.377100e+001 4.043836e-004 2.220891e+000 7.354847e-004 -1.473282e+001 1.128978e+000 -3.932798e+001
2014200000 1.051228e+000 -2.376279e+001 4.095651e-004 3.084140e+000 7.260311e-004 -1.499499e+001 1.128840e+000 -3.934293e+001
2014300000 1.051497e+000 -2.375014e+001 4.000664e-004 2.285358e+000 7.074815e-004 -1.673970e+001 1.128631e+000 -3.936194e+001
2014400000 1.051684e+000 -2.374560e+001 4.100227e-004 3.313506e+000 7.240084e-004 -1.513361e+001 1.128426e+000 -3.938121e+001
2014500000 1.051853e+000 -2.373627e+001 4.035610e-004 2.303025e+000 7.384758e-004 -1.343289e+001 1.128198e+000 -3.939199e+001
2014600000 1.052004e+000 -2.373220e+001 4.051256e-004 2.862131e+000 7.177051e-004 -1.643418e+001 1.127994e+000 -3.940984e+001
2014700000 1.052028e+000 -2.372276e+001 4.005776e-004 3.362196e+000 7.246932e-004 -1.602835e+001 1.127794e+000 -3.942245e+001
2014800000 1.051976e+000 -2.372721e+001 4.137735e-004 3.080745e+000 6.903404e-004 -1.545775e+001 1.127516e+000 -3.942774e+001
2014900000 1.051704e+000 -2.374241e+001 4.175398e-004 4.759872e+000 7.009422e-004 -1.393319e+001 1.127247e+000 -3.941092e+001
2015000000 1.051495e+000 -2.375292e+001 4.127679e-004 3.640097e+000 7.367296e-004 -1.399340e+001 1.127058e+000 -3.940070e+001
2015100000 1.051330e+000 -2.376801e+001 4.085791e-004 3.613906e+000 7.337549e-004 -1.452168e+001 1.126862e+000 -3.939246e+001
2015200000 1.051271e+000 -2.378249e+001 4.123917e-004 2.058168e+000 7.228275e-004 -1.420327e+001 1.126690e+000 -3.938137e+001
2015300000 1.051145e+000 -2.379567e+001 4.035238e-004 2.420857e+000 7.301354e-004 -1.411189e+001 1.126481e+000 -3.937992e+001
