!Agilent Technologies,N5230C,SG49000117,A.08.50.07
!Agilent N5230C: A.08.50.07
!Date: Tuesday, May 07, 2024 00:20:11
!Correction: S11(Full 2 Port(1,2)) 
!S21(Full 2 Port(1,2)) 
!S12(Full 2 Port(1,2)) 
!S22(Full 2 Port(1,2)) 
!S2P File: Measurements: S11, S21, S12, S22:
# Hz S  MA   R 50
2000000000 1.051854e+000 -2.365960e+001 1.179890e-003 1.309393e+001 2.110450e-003 -4.634529e+000 1.126628e+000 -3.930299e+001
2000100000 1.051651e+000 -2.366097e+001 1.172023e-003 1.336631e+001 2.122201e-003 -5.257955e+000 1.126822e+000 -3.929857e+001
2000200000 1.051510e+000 -2.366845e+001 1.163347e-003 1.304890e+001 2.114986e-003 -5.882481e+000 1.127202e+000 -3.929790e+001
2000300000 1.051323e+000 -2.367661e+001 1.156776e-003 1.330037e+001 2.107079e-003 -5.412970e+000 1.127424e+000 -3.930185e+001
2000400000 1.051244e+000 -2.368384e+001 1.161647e-003 1.329988e+001 2.106136e-003 -5.225625e+000 1.127581e+000 -3.930676e+001
2000500000 1.051130e+000 -2.369000e+001 1.160507e-003 1.345656e+001 2.097263e-003 -5.513202e+000 1.127815e+000 -3.932032e+001
2000600000 1.051112e+000 -2.368515e+001 1.155942e-003 1.383426e+001 2.082740e-003 -4.891178e+000 1.127654e+000 -3.929696e+001
2000700000 1.051087e+000 -2.367349e+001 1.153435e-003 1.322447e+001 2.086875e-003 -5.188802e+000 1.127645e+000 -3.927729e+001
2000800000 1.051121e+000 -2.366608e+001 1.153743e-003 1.349782e+001 2.073111e-003 -5.339108e+000 1.127588e+000 -3.926496e+001
2000900000 1.051099e+000 -2.365656e+001 1.130191e-003 1.347385e+001 2.089428e-003 -4.863640e+000 1.127441e+000 -3.925437e+001
2001000000 1.051120e+000 -2.364884e+001 1.131677e-003 1.392203e+001 2.069520e-003 -5.841060e+000 1.127275e+000 -3.924218e+001
2001100000 1.051064e+000 -2.363801e+001 1.131663e-003 1.330077e+001 2.063185e-003 -5.246716e+000 1.127305e+000 -3.923764e+001
2001200000 1.051042e+000 -2.363170e+001 1.137374e-003 1.348954e+001 2.055722e-003 -5.189875e+000 1.127085e+000 -3.923132e+001
2001300000 1.051045e+000 -2.363479e+001 1.133057e-003 1.305166e+001 2.077363e-003 -5.391161e+000 1.126968e+000 -3.924559e+001
2001400000 1.051119e+000 -2.365112e+001 1.126944e-003 1.322790e+001 2.059687e-003 -5.224586e+000 1.126722e+000 -3.927488e+001
2001500000 1.051299e+000 -2.366521e+001 1.127455e-003 1.325896e+001 2.053591e-003 -4.887400e+000 1.126572e+000 -3.930357e+001
2001600000 1.051449e+000 -2.367906e+001 1.126553e-003 1.351831e+001 2.024781e-003 -5.223619e+000 1.126318e+000 -3.932928e+001
2001700000 1.051628e+000 -2.368690e+001 1.130206e-003 1.334805e+001 2.023430e-003 -5.129130e+000 1.126084e+000 -3.935769e+001
2001800000 1.051799e+000 -2.369593e+001 1.126973e-003 1.338301e+001 2.011971e-003 -4.860508e+000 1.125889e+000 -3.937800e+001
2001900000 1.051957e+000 -2.370124e+001 1.122826e-003 1.385810e+001 2.010643e-003 -5.230934e+000 1.125805e+000 -3.939946e+001
2002000000 1.052242e+000 -2.370652e+001 1.127384e-003 1.358988e+001 2.008014e-003 -5.261357e+000 1.125627e+000 -3.942287e+001
2002100000 1.052202e+000 -2.369456e+001 1.111298e-003 1.352939e+001 2.010077e-003 -5.005421e+000 1.125846e+000 -3.939623e+001
2002200000 1.052199e+000 -2.368240e+001 1.115803e-003 1.349905e+001 1.996199e-003 -5.220820e+000 1.126102e+000 -3.937255e+001
2002300000 1.052122e+000 -2.366977e+001 1.113334e-003 1.349599e+001 2.002292e-003 -4.874975e+000 1.126218e+000 -3.934392e+001
2002400000 1.052091e+000 -2.365946e+001 1.099067e-003 1.387751e+001 1.985260e-003 -5.348008e+000 1.126413e+000 -3.932413e+001
2002500000 1.052009e+000 -2.365300e+001 1.107018e-003 1.369528e+001 1.982495e-003 -5.592658e+000 1.126584e+000 -3.930299e+001
2002600000 1.051901e+000 -2.364602e+001 1.111260e-003 1.327723e+001 1.972550e-003 -5.446374e+000 1.126716e+000 -3.927844e+001
2002700000 1.051884e+000 -2.364068e+001 1.098459e-003 1.389793e+001 1.985082e-003 -5.095046e+000 1.126827e+000 -3.925789e+001
2002800000 1.051677e+000 -2.364178e+001 1.101464e-003 1.336044e+001 1.985064e-003 -5.192055e+000 1.126927e+000 -3.925443e+001
2002900000 1.051620e+000 -2.365194e+001 1.093393e-003 1.371408e+001 1.949510e-003 -4.618398e+000 1.126918e+000 -3.927387e+001
2003000000 1.051494e+000 -2.365814e+001 1.087629e-003 1.377304e+001 1.993214e-003 -4.387316e+000 1.126941e+000 -3.928571e+001
2003100000 1.051376e+000 -2.366489e+001 1.093629e-003 1.362427e+001 1.962133e-003 -5.046124e+000 1.127093e+000 -3.930110e+001
2003200000 1.051381e+000 -2.367260e+001 1.083516e-003 1.401086e+001 1.957016e-003 -4.846165e+000 1.127166e+000 -3.932089e+001
2003300000 1.051312e+000 -2.368170e+001 1.090988e-003 1.348331e+001 1.964403e-003 -4.214564e+000 1.127216e+000 -3.933434e+001
2003400000 1.051301e+000 -2.368862e+001 1.077080e-003 1.386670e+001 1.978996e-003 -4.747610e+000 1.127256e+000 -3.935027e+001
2003500000 1.051310e+000 -2.369215e+001 1.073787e-003 1.429317e+001 1.965522e-003 -5.077714e+000 1.127347e+000 -3.936924e+001
2003600000 1.051328e+000 -2.370318e+001 1.066899e-003 1.406236e+001 1.934831e-003 -5.296928e+000 1.127543e+000 -3.936444e+001
2003700000 1.051405e+000 -2.370529e+001 1.076744e-003 1.394734e+001 1.924033e-003 -5.082724e+000 1.127711e+000 -3.935826e+001
2003800000 1.051407e+000 -2.371449e+001 1.071035e-003 1.334990e+001 1.916467e-003 -4.702462e+000 1.127943e+000 -3.935329e+001
2003900000 1.051407e+000 -2.371807e+001 1.076982e-003 1.430647e+001 1.905730e-003 -4.829963e+000 1.128008e+000 -3.934944e+001
2004000000 1.051457e+000 -2.372566e+001 1.057224e-003 1.474257e+001 1.911356e-003 -4.734804e+000 1.128088e+000 -3.934311e+001
2004100000 1.051435e+000 -2.373283e+001 1.061987e-003 1.458581e+001 1.898140e-003 -4.329587e+000 1.128125e+000 -3.934783e+001
2004200000 1.051421e+000 -2.373801e+001 1.057404e-003 1.398704e+001 1.906554e-003 -4.481405e+000 1.128066e+000 -3.934459e+001
2004300000 1.051484e+000 -2.373766e+001 1.065995e-003 1.439028e+001 1.906432e-003 -4.728848e+000 1.127967e+000 -3.934729e+001
2004400000 1.051534e+000 -2.373431e+001 1.060621e-003 1.413140e+001 1.892794e-003 -4.258259e+000 1.127693e+000 -3.934508e+001
2004500000 1.051690e+000 -2.373652e+001 1.053403e-003 1.430104e+001 1.900834e-003 -4.545410e+000 1.127495e+000 -3.934218e+001
2004600000 1.051794e+000 -2.373227e+001 1.049133e-003 1.415447e+001 1.917105e-003 -4.132203e+000 1.127210e+000 -3.934156e+001
2004700000 1.051761e+000 -2.373450e+001 1.039129e-003 1.497130e+001 1.885118e-003 -4.936169e+000 1.127106e+000 -3.934293e+001
2004800000 1.051930e+000 -2.373512e+001 1.033933e-003 1.435240e+001 1.870809e-003 -3.995160e+000 1.126956e+000 -3.933941e+001
2004900000 1.051943e+000 -2.373199e+001 1.040386e-003 1.496353e+001 1.895549e-003 -4.413585e+000 1.126771e+000 -3.934464e+001
2005000000 1.052001e+000 -2.373488e+001 1.048399e-003 1.416162e+001 1.868487e-003 -4.182857e+000 1.126708e+000 -3.934725e+001
2005100000 1.052012e+000 -2.373579e+001 1.046553e-003 1.448873e+001 1.881161e-003 -3.877280e+000 1.126988e+000 -3.933676e+001
2005200000 1.051917e+000 -2.374177e+001 1.041992e-003 1.459566e+001 1.849468e-003 -4.058568e+000 1.127013e+000 -3.932306e+001
2005300000 1.051899e+000 -2.375061e+001 1.043754e-003 1.505116e+001 1.842979e-003 -3.950799e+000 1.127288e+000 -3.932381e+001
2005400000 1.051922e+000 -2.375144e+001 1.042475e-003 1.463839e+001 1.858796e-003 -4.052673e+000 1.127438e+000 -3.931656e+001
2005500000 1.051895e+000 -2.375788e+001 1.030609e-003 1.476131e+001 1.847260e-003 -3.505527e+000 1.127601e+000 -3.930893e+001
2005600000 1.051889e+000 -2.376078e+001 1.039623e-003 1.487853e+001 1.853290e-003 -3.685355e+000 1.127822e+000 -3.930656e+001
2005700000 1.051870e+000 -2.376236e+001 1.037754e-003 1.516869e+001 1.873373e-003 -3.359060e+000 1.127917e+000 -3.929799e+001
2005800000 1.051947e+000 -2.376476e+001 1.035153e-003 1.463615e+001 1.833459e-003 -3.196582e+000 1.128134e+000 -3.930058e+001
2005900000 1.051979e+000 -2.376255e+001 1.039766e-003 1.502872e+001 1.853292e-003 -3.363213e+000 1.128295e+000 -3.931073e+001
2006000000 1.052014e+000 -2.376482e+001 1.020448e-003 1.521960e+001 1.835210e-003 -3.665834e+000 1.128534e+000 -3.932203e+001
2006100000 1.052119e+000 -2.376181e+001 1.031963e-003 1.499754e+001 1.848257e-003 -3.711389e+000 1.128556e+000 -3.933158e+001
2006200000 1.052118e+000 -2.376137e+001 1.025462e-003 1.454960e+001 1.819021e-003 -3.243855e+000 1.128613e+000 -3.934627e+001
2006300000 1.052116e+000 -2.376362e+001 1.016242e-003 1.548783e+001 1.832560e-003 -2.840603e+000 1.128770e+000 -3.936233e+001
2006400000 1.052177e+000 -2.376534e+001 1.014880e-003 1.525488e+001 1.832526e-003 -3.307867e+000 1.128721e+000 -3.937254e+001
2006500000 1.052177e+000 -2.376910e+001 1.010934e-003 1.558825e+001 1.801592e-003 -3.045917e+000 1.128747e+000 -3.938688e+001
2006600000 1.052067e+000 -2.377421e+001 1.017988e-003 1.530107e+001 1.836994e-003 -2.784410e+000 1.128699e+000 -3.939235e+001
2006700000 1.051964e+000 -2.377658e+001 1.010945e-003 1.538845e+001 1.825332e-003 -3.062552e+000 1.128718e+000 -3.939722e+001
2006800000 1.051928e+000 -2.378143e+001 1.006738e-003 1.558510e+001 1.818058e-003 -2.964749e+000 1.128709e+000 -3.940143e+001
2006900000 1.051871e+000 -2.378303e+001 1.005183e-003 1.486354e+001 1.806837e-003 -3.108245e+000 1.128626e+000 -3.940605e+001
2007000000 1.051845e+000 -2.378415e+001 1.012189e-003 1.561346e+001 1.795859e-003 -2.854901e+000 1.128576e+000 -3.940996e+001
2007100000 1.051814e+000 -2.378594e+001 1.018025e-003 1.603333e+001 1.825016e-003 -2.456912e+000 1.128534e+000 -3.941303e+001
2007200000 1.051809e+000 -2.378828e+001 1.007420e-003 1.580986e+001 1.811941e-003 -2.924560e+000 1.128450e+000 -3.941442e+001
2007300000 1.051828e+000 -2.379726e+001 1.012323e-003 1.578865e+001 1.807239e-003 -2.315185e+000 1.128268e+000 -3.941835e+001
2007400000 1.051870e+000 -2.380458e+001 9.995925e-004 1.568579e+001 1.801559e-003 -2.467675e+000 1.128034e+000 -3.941249e+001
2007500000 1.051878e+000 -2.381275e+001 1.009775e-003 1.558584e+001 1.796691e-003 -2.445355e+000 1.127835e+000 -3.940564e+001
2007600000 1.051881e+000 -2.381755e+001 1.003077e-003 1.592655e+001 1.792503e-003 -2.381139e+000 1.127667e+000 -3.940121e+001
2007700000 1.051944e+000 -2.382534e+001 1.009476e-003 1.592962e+001 1.774572e-003 -1.800615e+000 1.127534e+000 -3.939308e+001
2007800000 1.051950e+000 -2.383205e+001 9.984772e-004 1.541713e+001 1.767938e-003 -2.296268e+000 1.127308e+000 -3.938502e+001
2007900000 1.051907e+000 -2.383690e+001 1.009038e-003 1.577600e+001 1.774719e-003 -2.415080e+000 1.127041e+000 -3.938328e+001
2008000000 1.051945e+000 -2.383914e+001 1.006934e-003 1.623009e+001 1.781919e-003 -1.135839e+000 1.127039e+000 -3.937873e+001
2008100000 1.051847e+000 -2.382892e+001 9.947781e-004 1.651937e+001 1.784640e-003 -1.949961e+000 1.126816e+000 -3.937696e+001
2008200000 1.051747e+000 -2.381706e+001 9.954255e-004 1.600559e+001 1.788984e-003 -1.518995e+000 1.126632e+000 -3.938313e+001
2008300000 1.051684e+000 -2.380433e+001 9.882968e-004 1.636510e+001 1.785032e-003 -1.751125e+000 1.126511e+000 -3.938532e+001
2008400000 1.051690e+000 -2.379554e+001 9.933411e-004 1.606887e+001 1.774415e-003 -1.988785e+000 1.126432e+000 -3.938787e+001
2008500000 1.051630e+000 -2.378687e+001 9.863413e-004 1.704020e+001 1.787394e-003 -1.985643e+000 1.126326e+000 -3.939493e+001
2008600000 1.051669e+000 -2.377812e+001 9.774921e-004 1.656942e+001 1.771000e-003 -2.158354e+000 1.126361e+000 -3.939901e+001
2008700000 1.051598e+000 -2.376966e+001 9.816641e-004 1.673411e+001 1.759994e-003 -2.250340e+000 1.126320e+000 -3.940757e+001
2008800000 1.051575e+000 -2.377071e+001 9.918429e-004 1.729448e+001 1.755142e-003 -1.174147e+000 1.126500e+000 -3.941930e+001
2008900000 1.051574e+000 -2.377948e+001 9.888778e-004 1.645299e+001 1.750029e-003 -9.325565e-001 1.126776e+000 -3.943006e+001
2009000000 1.051482e+000 -2.378603e+001 9.863764e-004 1.656978e+001 1.748826e-003 -1.547096e+000 1.126979e+000 -3.944296e+001
2009100000 1.051515e+000 -2.379740e+001 9.833947e-004 1.732530e+001 1.754575e-003 -4.882486e-001 1.127244e+000 -3.945289e+001
2009200000 1.051468e+000 -2.380399e+001 9.854952e-004 1.767568e+001 1.784067e-003 -7.957361e-001 1.127426e+000 -3.946789e+001
2009300000 1.051435e+000 -2.381052e+001 9.767095e-004 1.682785e+001 1.781169e-003 -2.226643e-003 1.127639e+000 -3.947350e+001
2009400000 1.051539e+000 -2.381388e+001 9.751722e-004 1.774587e+001 1.772403e-003 -7.307916e-002 1.127752e+000 -3.948832e+001
2009500000 1.051558e+000 -2.382098e+001 9.769502e-004 1.738605e+001 1.765895e-003 -2.603894e-001 1.127905e+000 -3.949643e+001
2009600000 1.051667e+000 -2.381818e+001 9.690125e-004 1.770142e+001 1.759195e-003 -6.134891e-001 1.127961e+000 -3.949738e+001
2009700000 1.051795e+000 -2.381784e+001 9.741429e-004 1.750978e+001 1.753531e-003 2.877083e-002 1.127987e+000 -3.950441e+001
2009800000 1.051919e+000 -2.381283e+001 9.728622e-004 1.760154e+001 1.770700e-003 -1.598288e+000 1.128053e+000 -3.950883e+001
2009900000 1.052034e+000 -2.381225e+001 9.700379e-004 1.758626e+001 1.763852e-003 -5.143183e-001 1.128038e+000 -3.951474e+001
2010000000 1.052090e+000 -2.381169e+001 9.831195e-004 1.773255e+001 1.750381e-003 -1.041114e+000 1.127991e+000 -3.951371e+001
2010100000 1.052113e+000 -2.380586e+001 9.729381e-004 1.830903e+001 1.745085e-003 -1.238799e+000 1.127896e+000 -3.952280e+001
2010200000 1.052172e+000 -2.380654e+001 9.653184e-004 1.839291e+001 1.751556e-003 -6.657196e-002 1.127903e+000 -3.953113e+001
2010300000 1.052178e+000 -2.380530e+001 9.747636e-004 1.821965e+001 1.741816e-003 -3.866977e-001 1.127735e+000 -3.953327e+001
2010400000 1.052202e+000 -2.380016e+001 9.791824e-004 1.816657e+001 1.738544e-003 -7.178452e-001 1.127357e+000 -3.953330e+001
2010500000 1.052100e+000 -2.380205e+001 9.728839e-004 1.807862e+001 1.732929e-003 -2.397539e-001 1.127155e+000 -3.953343e+001
2010600000 1.052161e+000 -2.379853e+001 9.734826e-004 1.816190e+001 1.732054e-003 4.202804e-001 1.126931e+000 -3.954007e+001
2010700000 1.052171e+000 -2.379765e+001 9.710027e-004 1.759897e+001 1.754691e-003 -3.968852e-001 1.126750e+000 -3.954089e+001
2010800000 1.052091e+000 -2.379747e+001 9.746749e-004 1.829259e+001 1.758390e-003 6.255497e-002 1.126478e+000 -3.954322e+001
2010900000 1.052070e+000 -2.379732e+001 9.676372e-004 1.813040e+001 1.727464e-003 2.438507e-001 1.126398e+000 -3.954722e+001
2011000000 1.051999e+000 -2.380066e+001 9.736710e-004 1.856241e+001 1.738388e-003 4.086694e-001 1.126238e+000 -3.955540e+001
2011100000 1.051735e+000 -2.380431e+001 9.724673e-004 1.894518e+001 1.721402e-003 -4.769210e-002 1.126455e+000 -3.953563e+001
2011200000 1.051453e+000 -2.380699e+001 9.760268e-004 1.858901e+001 1.732998e-003 6.266668e-002 1.126752e+000 -3.951373e+001
2011300000 1.051217e+000 -2.380741e+001 9.666074e-004 1.887391e+001 1.715778e-003 -1.182282e-001 1.126794e+000 -3.949987e+001
2011400000 1.050959e+000 -2.381156e+001 9.739447e-004 1.839960e+001 1.719722e-003 4.232047e-001 1.127044e+000 -3.947931e+001
2011500000 1.050799e+000 -2.381619e+001 9.722868e-004 1.883646e+001 1.707294e-003 2.886692e-001 1.127234e+000 -3.946238e+001
2011600000 1.050689e+000 -2.382116e+001 9.630728e-004 1.869303e+001 1.731043e-003 3.514680e-001 1.127382e+000 -3.945141e+001
2011700000 1.050629e+000 -2.382047e+001 9.620446e-004 1.913408e+001 1.698986e-003 9.769466e-001 1.127519e+000 -3.944119e+001
2011800000 1.050641e+000 -2.382684e+001 9.651855e-004 1.872590e+001 1.714386e-003 9.113821e-001 1.127457e+000 -3.943651e+001
2011900000 1.050732e+000 -2.384778e+001 9.674006e-004 1.901944e+001 1.731363e-003 1.520014e+000 1.126894e+000 -3.945427e+001
2012000000 1.050977e+000 -2.386041e+001 9.629468e-004 1.918437e+001 1.715982e-003 5.240408e-001 1.126591e+000 -3.946852e+001
2012100000 1.051132e+000 -2.386719e+001 9.690387e-004 1.940269e+001 1.708483e-003 9.242843e-001 1.126118e+000 -3.948919e+001
2012200000 1.051438e+000 -2.387506e+001 9.697423e-004 1.961969e+001 1.721353e-003 4.888219e-001 1.125881e+000 -3.950414e+001
2012300000 1.051665e+000 -2.388312e+001 9.686974e-004 1.975375e+001 1.709175e-003 7.891131e-001 1.125629e+000 -3.952280e+001
2012400000 1.051957e+000 -2.388309e+001 9.669842e-004 1.908453e+001 1.720243e-003 7.420291e-001 1.125582e+000 -3.954151e+001
2012500000 1.052249e+000 -2.387901e+001 9.616382e-004 1.879755e+001 1.698830e-003 9.680379e-001 1.125526e+000 -3.955725e+001
2012600000 1.052526e+000 -2.385189e+001 9.652496e-004 1.936306e+001 1.721886e-003 1.351156e+000 1.126443e+000 -3.955741e+001
2012700000 1.052767e+000 -2.382485e+001 9.605877e-004 1.940009e+001 1.735936e-003 1.261181e+000 1.127218e+000 -3.955724e+001
2012800000 1.053010e+000 -2.380262e+001 9.673429e-004 1.955197e+001 1.722725e-003 1.387384e+000 1.127967e+000 -3.956052e+001
2012900000 1.053175e+000 -2.378525e+001 9.697551e-004 1.983482e+001 1.721121e-003 1.067997e+000 1.128677e+000 -3.955416e+001
2013000000 1.053339e+000 -2.376811e+001 9.633211e-004 1.996126e+001 1.726178e-003 1.149661e+000 1.129263e+000 -3.954640e+001
2013100000 1.053410e+000 -2.375647e+001 9.710451e-004 1.979766e+001 1.728747e-003 2.430780e+000 1.129812e+000 -3.953801e+001
2013200000 1.053486e+000 -2.374817e+001 9.698485e-004 1.987928e+001 1.733389e-003 1.604405e+000 1.130242e+000 -3.952623e+001
2013300000 1.053123e+000 -2.375513e+001 9.584744e-004 2.006750e+001 1.735391e-003 9.639148e-001 1.130348e+000 -3.951779e+001
2013400000 1.052539e+000 -2.377202e+001 9.685664e-004 1.966245e+001 1.733704e-003 1.839815e+000 1.130031e+000 -3.951392e+001
2013500000 1.051940e+000 -2.379227e+001 9.580929e-004 2.039222e+001 1.715853e-003 1.817888e+000 1.129770e+000 -3.950129e+001
2013600000 1.051487e+000 -2.381092e+001 9.602374e-004 2.035545e+001 1.740719e-003 1.488616e+000 1.129648e+000 -3.949342e+001
2013700000 1.051144e+000 -2.382677e+001 9.549411e-004 1.971010e+001 1.731899e-003 1.770011e+000 1.129326e+000 -3.948730e+001
2013800000 1.050852e+000 -2.384281e+001 9.617292e-004 1.992757e+001 1.734303e-003 1.508471e+000 1.129139e+000 -3.947905e+001
2013900000 1.050569e+000 -2.385945e+001 9.667563e-004 1.966633e+001 1.731769e-003 2.522392e+000 1.128991e+000 -3.947405e+001
2014000000 1.050431e+000 -2.387200e+001 9.665416e-004 1.963706e+001 1.711009e-003 2.541475e+000 1.128924e+000 -3.947067e+001
2014100000 1.050713e+000 -2.386412e+001 9.660333e-004 1.992381e+001 1.702010e-003 2.205659e+000 1.128550e+000 -3.948510e+001
2014200000 1.050945e+000 -2.384868e+001 9.703880e-004 2.040380e+001 1.727934e-003 2.388669e+000 1.128422e+000 -3.950362e+001
2014300000 1.051213e+000 -2.383986e+001 9.649651e-004 2.048816e+001 1.722271e-003 2.136439e+000 1.128275e+000 -3.951936e+001
2014400000 1.051414e+000 -2.383116e+001 9.665326e-004 2.000674e+001 1.714992e-003 1.720410e+000 1.128112e+000 -3.954008e+001
2014500000 1.051585e+000 -2.382189e+001 9.661456e-004 2.036256e+001 1.710628e-003 2.589835e+000 1.127961e+000 -3.955593e+001
2014600000 1.051636e+000 -2.381625e+001 9.677699e-004 2.022148e+001 1.724201e-003 2.832969e+000 1.127707e+000 -3.957259e+001
2014700000 1.051761e+000 -2.380968e+001 9.671945e-004 2.054840e+001 1.708257e-003 1.533339e+000 1.127465e+000 -3.958405e+001
2014800000 1.051657e+000 -2.381604e+001 9.694825e-004 2.035395e+001 1.734145e-003 2.651054e+000 1.127198e+000 -3.958902e+001
2014900000 1.051417e+000 -2.382867e+001 9.673161e-004 2.077618e+001 1.731381e-003 2.748657e+000 1.126979e+000 -3.957478e+001
2015000000 1.051198e+000 -2.384344e+001 9.601121e-004 2.044960e+001 1.723279e-003 2.190030e+000 1.126734e+000 -3.956158e+001
2015100000 1.051042e+000 -2.385621e+001 9.661427e-004 2.025384e+001 1.723794e-003 2.676557e+000 1.126513e+000 -3.955270e+001
2015200000 1.050986e+000 -2.387206e+001 9.633901e-004 2.048110e+001 1.710438e-003 1.634773e+000 1.126307e+000 -3.954485e+001
2015300000 1.050827e+000 -2.388679e+001 9.667731e-004 1.974839e+001 1.711478e-003 2.871328e+000 1.126270e+000 -3.953775e+001
2015400000 1.050767e+000 -2.389578e+001 9.628381e-004 2.058898e+001 1.724508e-003 2.922441e+000 1.126176e+000 -3.952908e+001
