!Agilent Technologies,N5230C,SG49000117,A.08.50.07
!Agilent N5230C: A.08.50.07
!Date: Thursday, May 16, 2024 18:04:21
!Correction: S11(Full 2 Port(1,2)) 
!S21(Full 2 Port(1,2)) 
!S12(Full 2 Port(1,2)) 
!S22(Full 2 Port(1,2)) 
!S2P File: Measurements: S11, S21, S12, S22:
# Hz S  MA   R 50
300000 1.007832e+000 -4.404098e-001 1.333899e-004 5.712399e+001 4.501509e-004 -1.117103e+002 1.015907e+000 -7.903417e-001
599985 9.826733e-001 3.311621e-001 5.162488e-005 -1.765726e+002 6.077793e-005 -1.668136e+002 9.644525e-001 3.983662e-001
899970 9.970724e-001 -9.684724e-002 4.532779e-005 1.072627e+002 2.780095e-005 5.162965e+001 9.836502e-001 -3.890861e-001
1199955 9.977904e-001 -5.563349e-002 4.797820e-005 2.416308e+001 1.179132e-004 1.372603e+002 9.946472e-001 -1.295423e-001
1499940 9.942715e-001 1.205246e-001 4.847877e-005 1.154869e+002 2.800270e-004 8.719846e+001 9.922583e-001 1.022762e-001
1799925 9.916892e-001 2.304899e-001 5.376597e-005 -1.716069e+002 9.189267e-005 -5.206059e+001 9.910320e-001 6.076718e-002
2099910 9.992020e-001 -2.871558e-002 3.870877e-005 -1.047878e+001 1.987454e-004 -5.561008e+001 9.967461e-001 9.332151e-002
2399895 9.995447e-001 -1.574874e-001 1.417304e-004 5.052646e+001 1.506913e-004 4.633839e+001 1.002461e+000 -9.106199e-002
2699880 9.999470e-001 -2.148349e-001 7.173314e-005 1.457875e+002 1.872915e-004 -2.570902e+001 9.944162e-001 -2.121131e-001
2999865 9.998239e-001 -1.317371e-001 5.140156e-005 -1.648357e+002 2.536188e-004 1.690608e+002 9.978080e-001 -1.965414e-001
3299850 1.000438e+000 -1.101394e-001 4.797554e-005 -7.193582e+001 1.609281e-004 -5.329573e+001 9.975863e-001 -2.148340e-001
3599835 1.000106e+000 -1.194329e-001 6.251288e-005 -1.569425e+002 8.862549e-005 -1.731033e+002 9.974180e-001 -2.267018e-001
3899820 9.993263e-001 -1.517882e-001 8.425720e-005 8.985370e+001 1.410677e-004 -2.784695e+001 9.972825e-001 -2.625917e-001
4199805 1.000410e+000 -1.788511e-001 2.460108e-005 -1.610876e+002 7.727961e-005 9.678174e+000 9.990455e-001 -2.838531e-001
4499790 1.000650e+000 -1.475517e-001 3.364502e-005 1.491623e+002 1.261025e-004 -1.483213e+002 9.988540e-001 -2.575717e-001
4799775 1.000014e+000 -1.421157e-001 1.592160e-005 4.449618e+000 9.757733e-005 -1.497912e+002 9.994142e-001 -1.928309e-001
5099760 9.999722e-001 -1.170065e-001 5.462147e-005 1.531209e+002 2.087927e-004 1.726696e+002 9.989305e-001 -2.326803e-001
5399745 1.000136e+000 -1.196238e-001 1.107329e-004 3.030089e+000 1.925663e-004 1.210043e+002 9.996886e-001 -1.690749e-001
5699730 1.000905e+000 -9.284107e-002 3.155065e-005 -3.558891e+001 1.175719e-004 1.457895e+002 1.000321e+000 -1.506019e-001
5999715 9.995510e-001 -8.750104e-002 6.527322e-005 9.461590e+000 1.661921e-004 -1.384717e+002 9.997332e-001 -1.993622e-001
6299700 1.000253e+000 -1.016523e-001 3.722830e-005 -1.775060e+002 1.408425e-004 -1.024168e+002 9.987525e-001 -2.075650e-001
6599685 9.999197e-001 -1.264853e-001 8.370818e-005 6.109160e+000 8.320504e-005 -1.062899e+002 9.990035e-001 -2.975112e-001
6899670 9.999164e-001 -1.355440e-001 6.578078e-005 1.500117e+001 1.152312e-004 -1.121939e+002 9.998055e-001 -3.144654e-001
7199655 9.996907e-001 -1.335522e-001 3.755384e-005 5.651508e+001 1.122312e-004 1.006938e+002 9.991400e-001 -2.481613e-001
7499640 1.000291e+000 -1.787591e-001 6.400308e-005 1.382903e+001 1.421391e-004 -1.662495e+002 9.989614e-001 -3.402380e-001
7799625 1.000378e+000 -1.532157e-001 3.009710e-005 1.129939e+002 8.099115e-005 -6.600117e+001 9.975584e-001 -2.898242e-001
8099610 1.000422e+000 -1.420491e-001 4.066993e-006 -1.026916e+002 9.754274e-005 1.399395e+002 9.982212e-001 -3.654470e-001
8399595 1.000363e+000 -1.408440e-001 2.894234e-005 1.483479e+002 1.011042e-004 1.036525e+002 9.984521e-001 -3.140871e-001
8699580 1.000026e+000 -1.351388e-001 1.306217e-004 -1.598301e+002 3.035697e-004 -1.644155e+002 9.982120e-001 -3.016775e-001
8999565 1.000215e+000 -1.261378e-001 8.101429e-005 -1.295364e+002 7.039216e-005 3.582592e+001 9.990473e-001 -3.426061e-001
9299550 1.000095e+000 -1.284059e-001 1.812950e-005 7.861013e+001 2.367037e-006 1.062817e+002 9.972430e-001 -3.103169e-001
9599535 9.999002e-001 -1.986920e-001 2.470427e-005 1.746820e+002 7.590048e-005 -3.953469e+001 9.971694e-001 -4.117506e-001
9899520 9.997322e-001 -2.377656e-001 1.428065e-004 -3.379049e+000 1.814603e-004 1.011995e+002 9.960896e-001 -5.468213e-001
10199505 9.992073e-001 -1.757237e-001 7.478131e-005 -1.786243e+002 5.107073e-005 -3.617273e+001 9.987410e-001 -3.428639e-001
10499490 1.000536e+000 -1.302820e-001 8.611671e-005 1.545876e+002 2.409060e-004 1.670567e+002 9.970569e-001 -2.652253e-001
10799475 9.994231e-001 -1.139459e-001 1.870553e-005 -1.436702e+002 1.944494e-004 -1.364779e+002 9.980357e-001 -2.459572e-001
11099460 9.997505e-001 -1.087379e-001 1.423606e-005 -1.517045e+001 1.086540e-004 1.380776e+002 9.974532e-001 -2.811758e-001
11399445 1.000484e+000 -1.266057e-001 8.068712e-005 7.568929e+001 3.220173e-004 6.732588e+001 9.981425e-001 -2.752233e-001
11699430 9.997095e-001 -1.356633e-001 2.988433e-005 -9.084763e+001 1.876992e-004 1.720314e+002 9.987456e-001 -2.262069e-001
11999415 9.996445e-001 -1.722987e-001 6.010468e-005 9.459371e+001 2.085685e-004 3.225982e+000 9.990253e-001 -2.731944e-001
12299400 1.000138e+000 -1.264926e-001 2.653937e-005 6.598174e+001 3.009816e-004 -1.669205e+001 9.992825e-001 -3.471306e-001
12599385 9.999006e-001 -1.552857e-001 4.996626e-006 1.776563e+002 2.251489e-004 -1.481281e+002 9.991757e-001 -4.368764e-001
12899370 1.000702e+000 -2.159232e-001 6.908004e-005 -2.939034e+001 1.861935e-004 -1.509026e+002 9.985189e-001 -4.083560e-001
13199355 1.000151e+000 -2.074251e-001 9.478202e-005 9.426649e+001 1.652392e-004 -8.239642e+001 9.974804e-001 -3.634170e-001
13499340 1.000072e+000 -1.997638e-001 1.235661e-004 1.734855e+002 3.312420e-004 9.166744e+000 9.980067e-001 -3.744390e-001
13799325 1.000840e+000 -1.966913e-001 2.052975e-005 6.993030e-001 9.530172e-005 -5.857281e+001 9.986649e-001 -3.171436e-001
14099310 1.000478e+000 -2.122210e-001 1.520238e-004 6.918632e+001 9.272213e-005 -7.540636e+000 9.989144e-001 -3.746836e-001
14399295 1.000254e+000 -2.156923e-001 4.771303e-005 1.131939e+002 2.690143e-004 -1.703469e+002 9.995253e-001 -3.817348e-001
14699280 1.000122e+000 -2.073722e-001 8.399686e-005 -6.254614e+001 3.100022e-004 3.848795e+001 9.975754e-001 -3.853061e-001
14999265 9.998997e-001 -1.730837e-001 5.453731e-005 1.559020e+001 1.022037e-004 -1.248812e+002 9.989933e-001 -3.387442e-001
15299250 9.998511e-001 -1.803254e-001 2.244018e-005 2.238093e+001 3.054795e-004 4.039283e+001 9.984598e-001 -4.271604e-001
15599235 9.994441e-001 -1.711403e-001 1.327475e-004 1.060532e+002 6.185334e-005 -1.162455e+000 9.981303e-001 -3.683695e-001
15899220 1.000338e+000 -1.764107e-001 8.796990e-005 1.086369e+002 1.225618e-004 -3.497959e+001 1.000109e+000 -4.385036e-001
16199205 9.999358e-001 -2.048015e-001 1.306318e-004 7.926749e+001 1.850381e-004 -1.752924e+002 9.995387e-001 -4.305030e-001
16499190 1.000111e+000 -1.961309e-001 9.217868e-005 -1.380685e+002 1.907999e-004 1.795225e+002 9.991999e-001 -4.405414e-001
16799175 9.997808e-001 -1.959302e-001 6.072433e-005 -5.243414e+000 2.400276e-004 1.331672e+002 1.000798e+000 -3.958412e-001
17099160 9.999319e-001 -2.275569e-001 6.286708e-005 1.243509e+001 9.999771e-005 -9.350437e+001 9.983920e-001 -3.642594e-001
17399145 9.996150e-001 -2.347047e-001 9.678817e-005 -1.626430e+002 1.728920e-004 9.355265e+001 9.994211e-001 -4.527296e-001
17699130 1.000686e+000 -2.367651e-001 8.311389e-005 4.755608e+000 1.793268e-004 -9.709138e+001 9.993058e-001 -4.378118e-001
17999115 9.999422e-001 -2.031799e-001 1.708000e-005 -7.370531e+001 2.304758e-004 1.172593e+002 9.979891e-001 -5.134508e-001
18299100 9.996700e-001 -2.048009e-001 5.608548e-005 8.987183e+001 1.902027e-004 -1.136255e+002 9.997391e-001 -4.870773e-001
18599085 1.000100e+000 -2.219749e-001 1.482735e-004 4.401864e+000 2.380744e-004 1.251442e+001 9.994825e-001 -4.629629e-001
18899070 1.000550e+000 -2.264896e-001 1.526818e-004 8.488744e+001 3.162398e-004 -1.582258e+002 9.989702e-001 -4.399766e-001
19199055 1.000274e+000 -2.498211e-001 8.403134e-005 -1.542449e+002 4.721346e-005 -1.704259e+002 9.980832e-001 -4.230001e-001
19499040 1.000606e+000 -1.993906e-001 4.429023e-005 -6.573364e+001 3.255703e-004 -1.580079e+002 9.984463e-001 -4.386507e-001
19799025 1.000371e+000 -1.812928e-001 8.527774e-005 1.534448e+002 2.063632e-004 1.946393e+001 9.984506e-001 -4.901448e-001
20099010 1.000485e+000 -2.290426e-001 4.498788e-005 8.885912e+001 3.761862e-005 -6.153273e+001 9.976362e-001 -3.999565e-001
20398995 9.997547e-001 -2.497752e-001 5.178791e-005 1.342376e+002 8.747503e-005 7.777185e+001 9.981645e-001 -4.597120e-001
20698980 9.990221e-001 -2.204259e-001 7.752231e-005 -8.251341e+001 2.242603e-004 -1.661443e+002 9.977124e-001 -4.369372e-001
20998965 9.991799e-001 -2.151384e-001 1.134144e-004 -9.962556e+001 2.703749e-004 -1.205940e+001 9.991387e-001 -4.198502e-001
21298950 9.998866e-001 -2.055088e-001 1.104765e-004 5.229244e+001 1.900652e-004 3.161008e+001 9.980597e-001 -3.590898e-001
21598935 9.996412e-001 -2.762990e-001 8.353210e-005 -1.651986e+002 3.922542e-004 -3.709809e+000 9.973692e-001 -4.540312e-001
21898920 9.998920e-001 -2.623985e-001 5.083045e-005 1.213926e+002 2.769981e-004 1.236725e+002 9.977313e-001 -4.833975e-001
22198905 1.000094e+000 -2.778238e-001 9.391789e-005 -1.735586e+001 1.959388e-004 -2.731916e+001 9.989529e-001 -4.103948e-001
22498890 9.998223e-001 -2.314572e-001 5.627940e-005 2.286398e+000 2.913139e-004 1.640632e+002 1.000344e+000 -4.980926e-001
22798875 1.000287e+000 -2.098946e-001 4.913813e-005 7.449435e+001 7.700904e-005 -9.044640e+001 9.991337e-001 -5.604308e-001
23098860 1.000648e+000 -3.015177e-001 5.318990e-005 -1.511470e+002 2.169612e-004 7.959677e+001 9.994363e-001 -5.878743e-001
23398845 9.998389e-001 -2.584923e-001 1.732424e-005 5.683022e+001 1.769872e-004 -8.356081e+001 9.988021e-001 -5.068291e-001
23698830 1.000090e+000 -2.634931e-001 6.854501e-005 -1.010620e+002 1.952719e-004 1.477886e+002 9.999067e-001 -4.745724e-001
23998815 1.000309e+000 -2.647422e-001 8.735937e-005 1.277111e+001 1.883899e-004 -1.050126e+002 9.968203e-001 -5.499277e-001
24298800 9.999400e-001 -2.700720e-001 5.057636e-005 -1.221651e+002 2.924256e-004 6.827470e+001 9.977557e-001 -5.205938e-001
24598785 1.000128e+000 -2.683456e-001 1.020975e-004 2.888898e+001 2.498590e-004 -8.238889e+001 9.982092e-001 -5.542615e-001
24898770 1.000642e+000 -2.663458e-001 6.606938e-005 -5.297404e+001 7.919651e-005 5.287973e+001 9.981850e-001 -4.998001e-001
25198755 1.000206e+000 -3.226418e-001 5.353520e-005 -7.084155e+001 2.955879e-004 -1.395971e+002 9.981776e-001 -6.182728e-001
25498740 1.000106e+000 -2.883228e-001 1.286805e-004 -1.033853e+000 1.313440e-004 -2.683709e+001 9.978917e-001 -6.318648e-001
25798725 9.997318e-001 -2.834797e-001 5.229242e-005 -1.338127e+002 2.066367e-004 -1.645170e+002 9.969461e-001 -6.752105e-001
26098710 1.000674e+000 -2.636656e-001 1.263222e-004 7.259444e+001 2.054691e-004 -3.163102e+001 1.000411e+000 -6.582017e-001
26398695 1.000953e+000 -3.357964e-001 8.262319e-005 -1.193443e+002 6.737591e-005 -1.742096e+002 9.993728e-001 -5.978010e-001
26698680 1.000723e+000 -2.977608e-001 1.313682e-004 4.716593e+001 1.938034e-004 1.168863e+001 1.000147e+000 -6.233939e-001
26998665 1.000571e+000 -2.680781e-001 7.251214e-005 -1.256084e+002 1.351122e-004 -1.723973e+002 9.996647e-001 -6.109031e-001
27298650 1.000511e+000 -3.016263e-001 5.558600e-005 -1.251019e+002 1.029360e-004 -5.637945e+000 9.973801e-001 -6.662347e-001
27598635 9.999890e-001 -2.760633e-001 7.626630e-005 1.725359e+002 3.297394e-004 1.533466e+002 9.989988e-001 -5.745327e-001
27898620 1.000420e+000 -2.486462e-001 4.497110e-005 1.621895e+002 1.383625e-004 -6.458894e+001 1.001057e+000 -6.525895e-001
28198605 9.997275e-001 -3.143216e-001 4.889178e-005 -1.765224e+002 2.096483e-004 1.162824e+002 9.993526e-001 -6.567690e-001
28498590 9.994463e-001 -3.347235e-001 1.240782e-004 3.542405e+001 2.262832e-004 -5.761181e+001 9.977983e-001 -7.318126e-001
28798575 9.998059e-001 -3.168408e-001 1.327134e-004 -4.058707e-001 2.683416e-004 5.795115e+001 9.991089e-001 -7.363886e-001
29098560 1.000157e+000 -3.071770e-001 9.042029e-005 1.792483e+002 1.126185e-004 -1.193820e+002 9.990997e-001 -6.543950e-001
29398545 1.000094e+000 -2.915986e-001 1.573354e-005 1.358445e+002 3.117926e-005 -1.146886e+001 9.993223e-001 -6.376222e-001
29698530 1.000043e+000 -3.176771e-001 1.151451e-004 -2.319764e+001 1.374910e-004 -1.498017e+002 9.992274e-001 -6.643474e-001
29998515 9.996818e-001 -2.977571e-001 7.719960e-005 1.129031e+002 1.016429e-004 7.870767e+001 1.000734e+000 -7.217173e-001
30298500 9.994126e-001 -3.335681e-001 5.936669e-005 1.488085e+002 1.251492e-005 1.040811e+002 1.000100e+000 -7.446573e-001
30598485 1.001058e+000 -2.939612e-001 1.008898e-004 6.767287e+001 1.051999e-004 -3.165155e+001 9.996728e-001 -7.041119e-001
30898470 1.000569e+000 -3.213856e-001 8.767813e-005 -1.768197e+002 1.457333e-004 1.010857e+002 9.990789e-001 -7.152085e-001
31198455 1.000184e+000 -2.903881e-001 3.623767e-005 -1.767635e+002 1.721521e-004 1.232035e+001 9.987118e-001 -7.075398e-001
31498440 1.000279e+000 -3.051644e-001 2.293479e-005 -1.085215e+002 1.806551e-004 8.056520e+001 9.984493e-001 -7.491184e-001
31798425 1.000551e+000 -3.727085e-001 4.444366e-005 1.305356e+002 6.807160e-005 1.446740e+002 9.995217e-001 -6.490328e-001
32098410 1.000600e+000 -3.879694e-001 6.708369e-005 1.483770e+002 2.690428e-004 1.354762e+002 1.000151e+000 -6.522882e-001
32398395 1.000967e+000 -3.271787e-001 2.049141e-005 -8.068620e+001 1.364432e-004 -4.229984e+000 9.999102e-001 -6.958231e-001
32698380 1.000786e+000 -3.330353e-001 1.677040e-005 1.174880e+002 1.022629e-004 7.989254e+000 9.987506e-001 -6.786392e-001
32998365 1.000427e+000 -3.169801e-001 1.090185e-004 2.317988e+001 2.088441e-004 -5.045760e+001 9.988617e-001 -6.871182e-001
33298350 1.000613e+000 -3.113069e-001 1.542922e-004 1.405583e+001 3.202365e-004 7.241660e+001 9.984071e-001 -7.271504e-001
33598335 1.000331e+000 -3.719995e-001 9.559435e-005 1.789325e+002 1.834890e-004 -8.210510e+001 9.987230e-001 -7.246294e-001
33898320 9.996550e-001 -3.861520e-001 7.263381e-005 8.193696e+001 1.212286e-004 1.605367e+002 9.977075e-001 -6.959667e-001
34198305 9.998814e-001 -3.747060e-001 1.889852e-005 -1.389825e+002 1.369329e-004 -1.310371e+002 9.984576e-001 -7.480139e-001
34498290 9.993831e-001 -3.461003e-001 1.185528e-004 6.599331e+001 1.008034e-004 1.226978e+002 9.975560e-001 -7.226079e-001
34798275 1.000673e+000 -3.623326e-001 1.212993e-004 7.309542e+001 3.154406e-004 -1.495202e+002 9.984817e-001 -7.388465e-001
35098260 1.000607e+000 -3.936296e-001 9.069604e-005 6.890269e+001 1.526027e-004 7.738358e+001 9.993680e-001 -6.971478e-001
35398245 1.000724e+000 -4.016317e-001 1.670359e-004 -5.594541e+001 3.328978e-004 1.697178e+002 9.994162e-001 -7.346504e-001
35698230 1.000251e+000 -4.184652e-001 7.442895e-005 -6.277510e+001 2.646703e-004 2.394101e+001 1.000059e+000 -8.344239e-001
35998215 1.000275e+000 -4.118486e-001 6.221412e-005 -1.534768e+002 1.863060e-004 -1.077924e+002 9.991706e-001 -7.856802e-001
36298200 1.000019e+000 -3.560470e-001 1.122092e-005 1.253167e+002 9.120159e-005 1.103192e+001 9.987701e-001 -8.521069e-001
36598185 9.999948e-001 -4.263483e-001 6.959103e-005 -1.622215e+002 2.077410e-004 -1.386227e+002 9.982902e-001 -8.012894e-001
36898170 1.000834e+000 -4.269184e-001 1.340668e-004 3.454921e+001 1.358701e-004 2.969764e+001 9.987760e-001 -8.195441e-001
37198155 1.000541e+000 -3.819707e-001 1.021499e-004 5.499427e+001 1.608320e-004 1.097142e+002 9.995165e-001 -7.676449e-001
37498140 9.997888e-001 -4.095807e-001 9.215343e-005 1.345424e+002 7.897906e-005 -6.839130e+001 9.996561e-001 -7.523683e-001
37798125 1.000624e+000 -3.596589e-001 4.158134e-005 -1.355478e+002 2.168652e-004 1.167902e+002 9.994209e-001 -7.789471e-001
38098110 1.000305e+000 -4.006426e-001 2.694686e-005 4.972301e+001 1.900361e-004 -4.408711e+001 9.987853e-001 -8.046438e-001
38398095 9.995060e-001 -3.991567e-001 8.371368e-005 8.873549e+000 1.636416e-004 1.662272e+002 9.976289e-001 -8.554171e-001
38698080 9.995472e-001 -3.786070e-001 6.073639e-005 -1.273907e+002 1.067738e-004 -2.873140e+001 9.985393e-001 -8.737720e-001
38998065 9.994139e-001 -3.723772e-001 2.960565e-005 -1.581904e+002 1.586948e-004 -1.602056e+002 9.974930e-001 -7.739111e-001
39298050 1.001013e+000 -3.980774e-001 1.373752e-005 6.286798e+000 1.879764e-004 -7.730953e+001 9.990941e-001 -7.669603e-001
39598035 1.001009e+000 -3.804262e-001 8.506849e-005 5.619022e+000 3.501350e-004 7.642934e+001 9.997324e-001 -7.856305e-001
39898020 1.001191e+000 -3.752077e-001 6.138190e-005 1.358085e+002 2.264993e-004 -8.113674e+001 1.000249e+000 -7.205108e-001
40198005 1.000646e+000 -4.489858e-001 2.016888e-004 5.477364e+001 1.985899e-004 -1.397053e+002 9.999017e-001 -9.484780e-001
40497990 1.000482e+000 -3.932455e-001 8.103949e-005 4.004093e+001 2.139917e-004 -3.233728e+001 9.997594e-001 -9.102215e-001
40797975 1.000476e+000 -4.172000e-001 1.455846e-004 -1.485786e+002 5.642101e-005 4.057636e+001 9.999802e-001 -1.010564e+000
41097960 1.000860e+000 -3.510215e-001 1.835482e-004 6.930772e+001 4.334126e-004 3.324313e+001 9.971585e-001 -8.818988e-001
41397945 9.992205e-001 -3.700221e-001 4.853726e-005 1.283149e+002 1.574830e-004 6.114519e+001 1.000371e+000 -8.706825e-001
41697930 1.000137e+000 -3.161394e-001 1.695321e-004 1.138719e+002 1.615160e-004 -8.663178e+001 9.995027e-001 -7.592489e-001
41997915 9.999262e-001 -3.718888e-001 2.353719e-004 5.362838e+001 2.656217e-004 -1.633506e+002 9.984416e-001 -8.315071e-001
42297900 1.001205e+000 -4.158264e-001 1.447423e-004 3.878348e+001 9.764997e-005 -2.164352e+001 9.987547e-001 -8.572786e-001
42597885 9.996511e-001 -3.528614e-001 1.184805e-004 3.468727e+001 1.217317e-004 -5.505956e+001 9.994855e-001 -9.915757e-001
42897870 1.000938e+000 -4.523919e-001 1.185329e-004 -1.190932e+002 1.133218e-004 -1.748189e+002 9.986517e-001 -9.720563e-001
43197855 1.001078e+000 -4.474373e-001 2.364486e-004 -1.297479e+002 4.478909e-004 1.394845e+002 9.994724e-001 -9.141375e-001
43497840 1.000428e+000 -3.942772e-001 1.441360e-004 7.433775e+001 9.611458e-005 -7.786172e+001 9.988312e-001 -8.964052e-001
43797825 1.000544e+000 -4.063422e-001 3.752378e-005 1.185461e+002 2.730874e-004 7.578373e+001 9.979292e-001 -9.499549e-001
44097810 1.000488e+000 -4.750516e-001 5.105047e-005 1.606662e+002 3.632405e-004 6.789770e+001 9.984980e-001 -9.997390e-001
44397795 1.000260e+000 -4.610340e-001 1.576017e-004 5.809061e+001 1.618752e-004 9.670191e+001 9.990916e-001 -9.727086e-001
44697780 1.001066e+000 -3.781757e-001 1.281545e-004 -1.149558e+002 1.325059e-004 -3.621542e+001 1.001916e+000 -1.026058e+000
44997765 1.001013e+000 -4.825852e-001 1.394497e-004 1.314466e+002 3.402205e-004 3.119781e+001 1.000699e+000 -1.123313e+000
45297750 1.001336e+000 -4.831451e-001 8.086210e-005 -6.529041e+001 1.530163e-004 8.253870e+001 1.002131e+000 -1.027185e+000
45597735 1.000822e+000 -4.852152e-001 5.335368e-005 3.662795e+001 1.677419e-004 -1.599995e+002 9.993005e-001 -9.986217e-001
45897720 1.001595e+000 -4.572614e-001 2.618144e-005 -5.562924e+001 3.537238e-004 -1.525802e+002 1.000929e+000 -9.691791e-001
46197705 1.001850e+000 -4.761814e-001 7.859864e-005 1.337329e+002 3.888400e-004 -1.380675e+002 1.000616e+000 -1.065888e+000
46497690 1.001197e+000 -4.373283e-001 1.277429e-004 8.103902e+001 5.123099e-004 -1.759687e+002 1.000365e+000 -1.083031e+000
46797675 1.001786e+000 -4.668196e-001 5.319250e-005 -1.465345e+002 1.450450e-004 -1.219449e+002 1.001060e+000 -1.013989e+000
47097660 1.000224e+000 -5.395232e-001 4.936126e-006 1.713502e+002 3.267592e-004 1.531836e+002 9.995921e-001 -1.041850e+000
47397645 1.001103e+000 -4.727558e-001 3.877180e-005 1.501929e+002 4.069007e-004 1.343372e+002 9.999788e-001 -1.075163e+000
