!Agilent Technologies,N5230C,SG49000117,A.08.50.07
!Agilent N5230C: A.08.50.07
!Date: Thursday, May 16, 2024 18:05:36
!Correction: S11(Full 2 Port(1,2)) 
!S21(Full 2 Port(1,2)) 
!S12(Full 2 Port(1,2)) 
!S22(Full 2 Port(1,2)) 
!S2P File: Measurements: S11, S21, S12, S22:
# Hz S  MA   R 50
300000 1.009062e+000 -6.089822e-001 2.035848e-004 1.428581e+002 4.318374e-004 -1.339438e+002 1.016747e+000 -7.421941e-001
599985 9.830825e-001 3.159444e-001 1.239618e-004 -1.575936e+002 1.923615e-004 -1.491358e+002 9.645347e-001 3.590162e-001
899970 9.971047e-001 -5.967898e-002 8.389765e-005 -1.750241e+002 2.763266e-004 1.488468e+002 9.855863e-001 -3.767233e-001
1199955 9.977452e-001 -9.447736e-002 1.909204e-005 1.768006e+002 9.713953e-005 1.592073e+002 9.956895e-001 -1.995944e-001
1499940 9.942983e-001 1.519075e-001 3.757802e-005 1.293496e+002 7.486508e-005 1.707594e+002 9.928111e-001 2.522387e-002
1799925 9.922794e-001 2.292429e-001 5.690985e-005 1.301037e+002 2.142088e-004 -5.031804e+001 9.898222e-001 6.349038e-004
2099910 9.986395e-001 -1.462835e-002 3.355913e-005 5.914067e+000 7.185741e-005 1.192458e+002 9.992921e-001 1.433952e-002
2399895 9.987581e-001 -1.479072e-001 7.963048e-005 7.961491e+001 1.341647e-004 1.449223e+002 1.003261e+000 -8.711497e-002
2699880 9.992287e-001 -2.639810e-001 8.164361e-005 -1.156568e+002 1.601424e-004 -8.193338e+001 9.943855e-001 -2.212934e-001
2999865 1.000410e+000 -1.314354e-001 3.916421e-005 -1.345664e+002 4.611265e-006 -6.491458e+001 9.977185e-001 -1.675286e-001
3299850 1.000464e+000 -1.239397e-001 6.896155e-005 -7.116538e+000 2.202072e-004 7.306228e+001 9.967911e-001 -2.859435e-001
3599835 9.997479e-001 -1.140476e-001 6.459670e-005 -6.302873e+001 6.625497e-005 1.559167e+002 9.973436e-001 -2.865984e-001
3899820 9.998148e-001 -1.441677e-001 5.019682e-005 1.669923e+002 1.672994e-004 -5.754117e+001 9.977113e-001 -1.980390e-001
4199805 1.000164e+000 -1.915875e-001 7.016812e-005 1.184760e+002 1.807697e-004 -6.648034e+001 9.992564e-001 -2.914485e-001
4499790 1.000970e+000 -1.662315e-001 2.967326e-005 -8.842063e+001 2.504330e-004 -1.773868e+002 9.994949e-001 -2.742330e-001
4799775 1.000446e+000 -1.545628e-001 7.051886e-005 1.105163e+002 7.282131e-005 -1.563587e+002 9.993028e-001 -2.067878e-001
5099760 1.000372e+000 -1.267020e-001 8.064743e-005 5.918534e+001 1.647695e-004 9.873988e+001 9.998285e-001 -2.187110e-001
5399745 1.000990e+000 -1.311285e-001 4.750073e-005 -6.131235e+001 1.116284e-004 -1.142207e+002 9.995117e-001 -1.665891e-001
5699730 1.000450e+000 -1.260962e-001 4.508165e-005 -3.060707e+000 1.446012e-004 1.294474e+002 1.001155e+000 -1.497705e-001
5999715 9.989707e-001 -8.251766e-002 4.914088e-005 1.774349e+002 2.142288e-004 -1.298295e+002 9.999469e-001 -1.128612e-001
6299700 9.997340e-001 -1.194075e-001 5.586448e-005 -4.018460e+001 2.236120e-004 1.023738e+002 9.993457e-001 -2.072759e-001
6599685 9.996830e-001 -1.414798e-001 2.908875e-005 7.410666e+001 1.436012e-004 -5.123301e+001 1.000075e+000 -2.118643e-001
6899670 9.997478e-001 -1.225111e-001 1.953471e-005 3.647847e+001 9.913072e-005 -9.612441e+001 9.993772e-001 -2.929384e-001
7199655 1.000166e+000 -1.750794e-001 9.179981e-005 -1.220787e+002 1.899740e-004 -1.129878e+002 9.993923e-001 -2.969746e-001
7499640 1.000137e+000 -1.753160e-001 5.264289e-005 -6.917171e+001 1.037957e-004 2.327588e+001 9.997756e-001 -3.401686e-001
7799625 1.000187e+000 -1.325537e-001 8.020439e-005 -1.009083e+002 6.940187e-005 -1.411149e+002 9.986461e-001 -2.737581e-001
8099610 1.000106e+000 -1.411646e-001 2.823506e-005 -1.162058e+002 1.832952e-004 9.789224e+001 9.985579e-001 -3.570360e-001
8399595 1.000610e+000 -1.321802e-001 5.272399e-005 8.770132e+001 1.399448e-004 -2.882126e+001 9.988552e-001 -3.659850e-001
8699580 1.000247e+000 -1.286344e-001 7.595957e-005 -6.649368e+001 6.886839e-005 -1.395845e+002 9.984450e-001 -3.558754e-001
8999565 9.999452e-001 -2.003330e-001 5.591704e-005 8.519279e+001 8.964345e-005 -1.764249e+002 9.996957e-001 -3.517147e-001
9299550 1.000002e+000 -1.212563e-001 4.030234e-005 -2.334570e+001 6.425232e-005 -9.690429e+000 9.978638e-001 -3.425438e-001
9599535 1.000206e+000 -2.086615e-001 8.937173e-005 1.508907e+002 4.336298e-005 -6.132788e+001 9.975967e-001 -4.535846e-001
9899520 1.000340e+000 -2.429817e-001 8.721596e-005 -1.877730e+001 1.895299e-004 -6.502914e+001 9.970554e-001 -6.163201e-001
10199505 9.997473e-001 -1.587728e-001 4.594016e-005 8.834751e+001 4.523269e-005 -5.878648e+001 9.987820e-001 -3.272615e-001
10499490 9.999753e-001 -1.375841e-001 1.123697e-004 8.165118e+001 1.842447e-004 1.320594e+002 9.985669e-001 -3.512306e-001
10799475 9.999112e-001 -1.379713e-001 6.744126e-005 -8.075781e+001 4.977137e-005 9.970677e+001 9.981420e-001 -2.658563e-001
11099460 1.000022e+000 -1.359046e-001 8.891102e-005 1.133790e+000 1.111858e-005 -1.628004e+002 9.991472e-001 -2.378806e-001
11399445 1.000392e+000 -1.270091e-001 8.898882e-005 -6.217740e+001 7.291585e-005 -1.744198e+002 9.979028e-001 -3.269941e-001
11699430 9.999116e-001 -1.638176e-001 8.933066e-005 -1.771030e+002 2.239136e-004 2.093507e+001 9.989132e-001 -3.280904e-001
11999415 1.000259e+000 -1.292791e-001 1.044071e-004 -1.471761e+002 1.928529e-004 1.428804e+002 9.998102e-001 -3.859911e-001
12299400 1.000085e+000 -1.204232e-001 7.720312e-005 -1.335654e+002 1.965582e-004 2.916974e+001 1.000587e+000 -2.947697e-001
12599385 9.999564e-001 -1.590312e-001 3.989171e-005 1.666608e+001 2.319145e-004 -1.193524e+002 9.998143e-001 -4.591683e-001
12899370 1.000206e+000 -1.705874e-001 4.703728e-005 1.352862e+002 1.164244e-004 1.304162e+002 9.993395e-001 -5.456268e-001
13199355 9.999465e-001 -1.862761e-001 3.674389e-005 1.085992e+002 1.121092e-004 1.654830e+002 9.982756e-001 -4.163036e-001
13499340 9.996849e-001 -2.038323e-001 5.596546e-005 -1.555339e+002 1.582422e-004 3.621385e+001 9.979157e-001 -4.264039e-001
13799325 1.000084e+000 -2.052258e-001 5.907114e-005 1.555442e+002 3.102300e-004 5.349740e+001 9.967623e-001 -3.950865e-001
14099310 1.000632e+000 -1.664812e-001 6.439094e-005 -1.318779e+002 1.652858e-004 1.218020e+002 9.995115e-001 -3.655847e-001
14399295 1.000060e+000 -2.266404e-001 1.601724e-004 1.634683e+002 2.179584e-004 1.819040e+001 9.995035e-001 -3.476717e-001
14699280 1.000069e+000 -2.040556e-001 3.718219e-005 1.006004e+002 4.469985e-004 1.757876e+002 9.998401e-001 -3.606409e-001
14999265 1.000096e+000 -2.097039e-001 4.113941e-005 1.822573e+001 2.858654e-004 -5.066005e+001 9.996325e-001 -4.824164e-001
15299250 1.000288e+000 -1.823491e-001 7.468176e-005 6.938929e+001 3.238326e-004 1.406212e+002 9.980319e-001 -4.938424e-001
15599235 9.998633e-001 -2.155817e-001 6.749557e-005 -1.292036e+002 1.949217e-004 -1.039013e+002 9.989474e-001 -4.222969e-001
15899220 1.000342e+000 -1.529005e-001 2.101667e-005 -1.412647e+001 2.104455e-004 1.731167e+002 9.990001e-001 -4.289948e-001
16199205 1.000440e+000 -1.572672e-001 1.263552e-004 -8.066161e+001 2.199339e-004 -1.548699e+002 9.998535e-001 -4.428411e-001
16499190 1.000132e+000 -1.763150e-001 3.736940e-005 1.977181e+001 6.945777e-005 -4.428060e+001 1.000475e+000 -3.935208e-001
16799175 1.000128e+000 -1.690549e-001 3.616216e-005 -5.952565e+001 6.818017e-005 1.251777e+002 1.000896e+000 -4.673362e-001
17099160 9.999627e-001 -1.874652e-001 6.482103e-005 1.404807e+002 2.621872e-004 -1.014125e+002 1.000256e+000 -3.946021e-001
17399145 9.998683e-001 -2.398841e-001 5.206799e-005 -3.121728e+001 2.338103e-004 -3.030053e+001 1.000389e+000 -4.249080e-001
17699130 1.000993e+000 -2.016295e-001 2.651392e-005 1.191510e+002 2.182241e-004 1.399210e+002 9.996558e-001 -4.513049e-001
17999115 1.000019e+000 -2.295986e-001 1.789952e-004 -9.439503e+001 2.085868e-004 7.264100e+001 9.994527e-001 -4.793891e-001
18299100 1.000106e+000 -1.991745e-001 1.152089e-004 -5.931290e+001 3.260439e-004 -6.538526e+001 9.992234e-001 -5.265731e-001
18599085 9.997357e-001 -2.067858e-001 1.526741e-005 1.693404e+002 1.468878e-004 8.338682e+001 9.995625e-001 -4.799227e-001
18899070 1.000239e+000 -2.309868e-001 5.153083e-005 6.615736e+001 3.272485e-004 -1.620311e+002 9.992102e-001 -4.158536e-001
19199055 1.000600e+000 -1.838671e-001 2.484365e-005 -8.927130e+001 3.336750e-004 -6.319467e+001 9.991379e-001 -4.594401e-001
19499040 1.000859e+000 -1.927090e-001 9.579687e-005 -3.952354e+001 9.201174e-005 1.043857e+002 9.987810e-001 -4.859384e-001
19799025 1.000685e+000 -2.354416e-001 6.481700e-005 1.210107e+002 1.330439e-004 -5.285290e+001 9.992468e-001 -4.847694e-001
20099010 1.000213e+000 -2.218680e-001 7.707639e-005 5.351369e+001 2.755993e-004 5.450510e+001 9.982320e-001 -4.431226e-001
20398995 9.994708e-001 -2.093896e-001 1.204656e-004 5.524535e+001 1.790369e-004 -7.989486e+001 9.979863e-001 -5.179093e-001
20698980 9.994690e-001 -2.208451e-001 1.007855e-004 -1.376072e+002 3.229658e-004 2.396596e+001 9.982650e-001 -4.781010e-001
20998965 1.000429e+000 -1.816329e-001 5.955044e-005 1.380990e+002 1.947161e-004 -1.596815e+002 9.978921e-001 -5.065194e-001
21298950 9.989974e-001 -2.352174e-001 5.872419e-005 -1.404034e+002 2.151623e-004 -2.927419e+001 9.983373e-001 -4.259828e-001
21598935 9.997501e-001 -2.558251e-001 6.627993e-005 -6.307647e+001 2.236750e-004 -1.646866e+002 9.992154e-001 -5.176840e-001
21898920 9.993703e-001 -2.777253e-001 7.461043e-005 -3.559544e+001 1.015078e-004 -1.655444e+002 9.981790e-001 -4.709135e-001
22198905 1.000105e+000 -2.371450e-001 6.468283e-005 1.104454e+002 2.047371e-004 4.175510e+001 9.981855e-001 -5.163450e-001
22498890 1.000241e+000 -2.392926e-001 5.359344e-005 -3.814113e+001 1.189919e-004 -1.199934e+001 1.000028e+000 -5.797068e-001
22798875 1.000108e+000 -1.806172e-001 8.368293e-005 1.532041e+002 1.304791e-004 7.521405e+001 9.995709e-001 -6.327633e-001
23098860 1.000663e+000 -2.756200e-001 1.507746e-004 -1.362762e+002 9.405151e-005 5.995945e+001 9.996501e-001 -5.780219e-001
23398845 1.000017e+000 -2.267329e-001 5.230200e-005 -4.095307e+001 1.349088e-004 1.550552e+002 1.000537e+000 -5.001037e-001
23698830 9.998243e-001 -2.961520e-001 9.346082e-005 -1.551671e+002 1.788679e-004 7.749425e+001 9.990039e-001 -5.602753e-001
23998815 9.999408e-001 -2.919038e-001 5.611583e-005 1.143035e+002 1.978097e-004 -7.948042e+001 9.982820e-001 -5.282155e-001
24298800 1.000308e+000 -3.130740e-001 2.312564e-005 9.264931e+001 3.484198e-004 4.870079e+001 9.980611e-001 -5.356320e-001
24598785 1.000049e+000 -2.724248e-001 8.492841e-005 -7.469357e+001 3.325951e-004 -3.715656e+001 9.973834e-001 -5.627168e-001
24898770 1.000215e+000 -3.045031e-001 2.049777e-005 1.455788e+002 2.876911e-004 1.075608e+002 9.987567e-001 -6.103435e-001
25198755 1.000183e+000 -2.887210e-001 6.534656e-005 1.263389e+002 1.679893e-004 -1.044796e+002 9.978532e-001 -6.277623e-001
25498740 9.994661e-001 -3.082430e-001 4.626776e-005 -1.785780e+002 1.463331e-004 5.823129e+001 1.000264e+000 -6.371350e-001
25798725 9.998003e-001 -2.776290e-001 9.834702e-005 1.209811e+002 1.697512e-004 1.379639e+002 9.991341e-001 -6.973494e-001
26098710 1.000594e+000 -2.849396e-001 9.358079e-005 -1.504004e+002 2.073737e-004 -4.250555e+001 9.996161e-001 -6.354713e-001
26398695 1.000933e+000 -2.447660e-001 1.476691e-004 -1.123024e+002 2.212537e-004 1.596487e+002 9.998336e-001 -6.999856e-001
26698680 1.001153e+000 -2.836701e-001 9.970062e-005 -5.041289e+001 5.554232e-005 1.062775e+002 9.992234e-001 -6.866190e-001
26998665 1.001418e+000 -2.606275e-001 5.885727e-005 6.654883e+001 2.402586e-004 1.623509e+002 9.993904e-001 -6.737601e-001
27298650 1.000321e+000 -2.977490e-001 4.426879e-005 -1.764949e+002 1.050059e-004 -1.471422e+002 9.992909e-001 -6.489738e-001
27598635 1.000797e+000 -2.760114e-001 3.233397e-005 1.450819e+002 1.046116e-004 -2.134228e+001 9.995531e-001 -6.003883e-001
27898620 9.999236e-001 -2.843527e-001 7.736046e-005 3.815549e+001 1.738516e-004 1.652748e+002 1.001365e+000 -6.375189e-001
28198605 9.999227e-001 -3.041989e-001 8.823507e-005 1.687865e+002 1.092419e-004 -2.710621e+001 1.000591e+000 -6.738243e-001
28498590 1.000187e+000 -2.634394e-001 5.899087e-005 -6.349879e+001 1.574909e-004 -1.527624e+002 9.991717e-001 -7.689999e-001
28798575 1.000358e+000 -3.888384e-001 7.874050e-005 -6.737899e+001 3.447758e-004 5.437544e+001 9.989589e-001 -7.807384e-001
29098560 9.999601e-001 -2.965428e-001 1.026235e-005 2.708534e+001 2.390753e-004 -1.283288e+002 9.988242e-001 -7.259880e-001
29398545 9.998059e-001 -2.788054e-001 3.567143e-005 -1.144181e+002 1.105472e-004 -6.051429e+001 9.999598e-001 -6.976671e-001
29698530 1.000632e+000 -2.848231e-001 8.376061e-005 -5.101260e+001 1.379611e-004 -1.025276e+002 1.000025e+000 -6.402256e-001
29998515 1.000407e+000 -3.306884e-001 1.348682e-005 -5.522910e+001 7.039316e-005 -3.540693e+001 1.000155e+000 -7.143000e-001
30298500 1.000345e+000 -3.263097e-001 1.036258e-004 1.533093e+002 2.820845e-005 1.496944e+002 1.000185e+000 -7.440204e-001
30598485 9.999714e-001 -2.804130e-001 1.235232e-004 1.121375e+002 1.666129e-004 -5.098177e+001 9.988921e-001 -6.909997e-001
30898470 1.000081e+000 -2.577032e-001 7.196439e-005 -1.155591e+002 8.490084e-005 1.545782e+002 9.983022e-001 -7.203338e-001
31198455 9.999444e-001 -2.975639e-001 5.637873e-005 9.471329e+001 1.080923e-004 -5.149675e+001 9.993990e-001 -8.159665e-001
31498440 1.000117e+000 -3.343638e-001 8.656357e-005 3.870074e+001 2.852670e-004 -1.768865e+002 9.992729e-001 -7.588491e-001
31798425 1.000439e+000 -3.924950e-001 6.992664e-005 -3.864174e+001 2.679277e-004 -2.154621e+001 1.000746e+000 -7.438005e-001
32098410 1.000873e+000 -3.340011e-001 4.758301e-005 6.501702e+001 1.924735e-004 1.009703e+002 9.998241e-001 -7.468793e-001
32398395 1.000085e+000 -3.514511e-001 1.628206e-005 -6.027787e+001 2.613058e-004 -1.145552e+002 1.000289e+000 -7.565852e-001
32698380 1.001006e+000 -4.001085e-001 2.230062e-005 9.917710e+001 3.898572e-005 1.417533e+001 1.000040e+000 -8.024705e-001
32998365 1.001185e+000 -3.153879e-001 1.264697e-004 1.536412e+002 2.080656e-004 7.934638e+001 9.993880e-001 -6.754023e-001
33298350 1.000216e+000 -3.480517e-001 4.595602e-005 -1.505437e+002 5.406475e-005 1.530874e+002 9.993013e-001 -8.031876e-001
33598335 1.000121e+000 -3.088655e-001 4.942263e-005 -3.028851e+001 3.787386e-004 -1.691377e+002 9.994408e-001 -7.916063e-001
33898320 9.996464e-001 -3.610283e-001 1.377402e-004 -2.935948e+000 2.090617e-004 2.409785e+001 9.989902e-001 -7.543038e-001
34198305 1.000235e+000 -3.533813e-001 2.980682e-005 4.260518e+001 3.061344e-004 1.784341e+002 9.976968e-001 -8.142270e-001
34498290 9.998251e-001 -3.792805e-001 3.511577e-005 3.614707e+001 1.449624e-004 6.362683e+000 9.986126e-001 -7.566811e-001
34798275 1.000402e+000 -3.862858e-001 9.449167e-005 -9.893511e+001 2.199221e-004 1.257409e+002 9.979691e-001 -8.163679e-001
35098260 9.994462e-001 -3.918705e-001 9.567259e-005 -2.482353e+001 1.269405e-004 4.365279e+001 9.993320e-001 -7.733889e-001
35398245 1.000045e+000 -4.136795e-001 9.790547e-005 -1.193141e+002 1.927349e-004 5.649469e+001 9.991076e-001 -7.760936e-001
35698230 1.000245e+000 -4.194677e-001 4.485076e-005 1.612033e+002 1.661863e-004 -1.596841e+002 1.000543e+000 -7.928688e-001
35998215 9.999639e-001 -3.829510e-001 2.794742e-005 -2.446802e+001 1.527127e-004 6.364338e+001 9.999503e-001 -8.522562e-001
36298200 1.000033e+000 -4.279098e-001 4.825663e-005 2.945424e+001 4.796249e-005 7.466136e+001 9.986519e-001 -9.164195e-001
36598185 1.000856e+000 -3.762825e-001 6.124630e-005 1.061832e+002 1.520893e-004 5.640031e+001 9.990780e-001 -8.543443e-001
36898170 1.001167e+000 -4.070218e-001 9.010785e-005 1.390168e+002 1.962800e-004 1.322716e+002 9.987967e-001 -8.356300e-001
37198155 1.001208e+000 -3.720751e-001 4.967127e-005 -1.675550e+002 1.444595e-004 1.148219e+001 1.000169e+000 -8.701935e-001
37498140 1.000476e+000 -3.861986e-001 4.869239e-005 2.627340e+001 1.734404e-004 -1.699999e+002 9.993840e-001 -8.655202e-001
37798125 9.999490e-001 -3.574456e-001 6.115895e-005 -3.710518e+001 2.740398e-004 3.061959e+001 9.989254e-001 -8.585560e-001
38098110 9.995050e-001 -3.787737e-001 5.770230e-005 -1.541927e+002 2.130768e-004 -1.401733e+002 9.983102e-001 -8.633904e-001
38398095 9.995400e-001 -3.768804e-001 4.949123e-005 -1.577449e+002 1.744763e-004 -3.121131e+001 9.981522e-001 -9.456263e-001
38698080 1.000640e+000 -4.091586e-001 7.034744e-005 -1.667675e+002 2.220151e-004 7.219820e+001 9.990929e-001 -9.460956e-001
38998065 1.000494e+000 -3.748305e-001 8.325663e-005 2.710314e+001 1.901720e-004 -2.168710e+000 9.981310e-001 -9.539994e-001
39298050 1.000314e+000 -4.116583e-001 1.237905e-004 -1.012989e+002 1.082352e-004 6.545712e+001 9.985360e-001 -8.789170e-001
39598035 1.000826e+000 -3.902841e-001 6.338435e-005 4.327771e+001 1.109406e-004 -3.094516e+001 9.995666e-001 -8.116812e-001
39898020 1.001154e+000 -3.821435e-001 9.091971e-005 -1.181147e+002 6.902077e-005 1.959250e+001 1.001063e+000 -7.926573e-001
40198005 1.001268e+000 -4.441086e-001 1.099203e-004 -6.886775e+001 9.462389e-005 1.367624e+002 9.978953e-001 -1.066257e+000
40497990 1.000072e+000 -4.555085e-001 9.783581e-005 1.775042e+002 8.091384e-005 1.672165e+002 9.999514e-001 -9.844561e-001
40797975 1.000310e+000 -4.634475e-001 9.527909e-005 -2.338687e+001 2.807314e-004 -1.770855e+002 9.992546e-001 -9.854717e-001
41097960 1.000328e+000 -3.605130e-001 1.802735e-004 -1.471489e+002 2.140638e-004 1.443733e+002 1.000373e+000 -1.008961e+000
41397945 1.000318e+000 -2.789434e-001 7.703131e-005 7.810630e+001 2.027511e-004 9.466751e+001 1.000400e+000 -8.726363e-001
41697930 1.000747e+000 -3.851964e-001 1.240190e-004 1.598038e+002 1.250448e-004 -1.475952e+002 1.000812e+000 -8.365653e-001
41997915 9.995804e-001 -4.421983e-001 5.552868e-005 -6.922869e+001 2.003505e-004 9.886357e+001 9.998177e-001 -9.039618e-001
42297900 1.001060e+000 -4.094152e-001 8.508121e-005 1.643840e+001 1.667394e-004 1.651246e+002 9.982268e-001 -9.486830e-001
42597885 1.001171e+000 -3.261003e-001 7.638813e-005 -1.587709e+001 2.615806e-004 -2.114343e+001 9.982744e-001 -9.389961e-001
42897870 1.000989e+000 -4.328084e-001 9.065315e-005 -1.226223e+002 2.515645e-004 5.208057e+001 9.998894e-001 -9.615062e-001
43197855 1.000283e+000 -4.256828e-001 1.836344e-004 1.221842e+002 1.172933e-004 4.653433e+001 9.988798e-001 -9.838082e-001
43497840 1.001269e+000 -4.283901e-001 8.768581e-005 -1.119333e+002 1.554395e-004 6.923312e+001 9.980556e-001 -1.113525e+000
43797825 1.000084e+000 -4.572605e-001 1.107021e-004 -7.021857e+001 3.134720e-004 8.870523e+000 9.988461e-001 -1.107489e+000
44097810 1.000712e+000 -4.296679e-001 6.713606e-005 -1.148956e+002 1.240049e-004 2.563446e+001 9.993435e-001 -1.064164e+000
44397795 1.001006e+000 -4.705491e-001 3.052038e-004 1.603533e+002 3.227455e-004 -1.202092e+002 9.993003e-001 -1.018497e+000
44697780 1.001988e+000 -3.842783e-001 6.003817e-005 -4.186095e+001 2.408911e-004 -1.227849e+002 1.001378e+000 -1.048840e+000
44997765 1.001059e+000 -4.928308e-001 2.621079e-004 -7.535107e+001 3.834240e-005 7.084688e+001 1.001938e+000 -1.150155e+000
45297750 1.001300e+000 -4.930108e-001 1.952948e-004 1.676649e+002 2.859212e-004 -1.539069e+002 1.000890e+000 -1.033541e+000
45597735 1.001359e+000 -4.730163e-001 6.368462e-005 -6.084875e+001 6.461015e-005 1.369481e+002 1.001418e+000 -9.652914e-001
45897720 1.001607e+000 -4.670960e-001 6.111254e-005 -3.403782e+001 1.428424e-004 -7.022990e+001 1.001479e+000 -1.033104e+000
46197705 1.002332e+000 -4.992131e-001 1.707194e-004 -5.518956e+001 1.204503e-004 1.246612e+002 1.000581e+000 -1.085946e+000
46497690 1.001983e+000 -4.428227e-001 7.326089e-005 -1.579001e+002 1.252749e-004 9.348958e+001 1.000894e+000 -1.144403e+000
46797675 1.000937e+000 -4.655665e-001 2.035980e-004 7.894177e+000 2.405787e-004 9.899406e+001 1.001169e+000 -1.090073e+000
47097660 1.000644e+000 -5.178117e-001 1.265294e-004 -2.908802e+001 1.424020e-004 9.702954e+001 9.993659e-001 -1.090741e+000
