!Agilent Technologies,N5230C,SG49000117,A.08.50.07
!Agilent N5230C: A.08.50.07
!Date: Thursday, May 16, 2024 18:14:17
!Correction: S11(Full 2 Port(1,2)) 
!S21(Full 2 Port(1,2)) 
!S12(Full 2 Port(1,2)) 
!S22(Full 2 Port(1,2)) 
!S2P File: Measurements: S11, S21, S12, S22:
# Hz S  MA   R 50
300000 1.006891e+000 -6.406196e-001 1.864737e-004 4.067598e+001 7.752431e-004 9.956544e+001 1.010897e+000 -8.256558e-001
599985 9.824857e-001 3.114228e-001 4.671795e-005 -1.264707e+002 2.396989e-004 -1.335780e+002 9.643830e-001 3.277443e-001
899970 9.976460e-001 -1.366455e-001 3.164050e-005 -1.035090e+002 1.174686e-004 1.319161e+002 9.843843e-001 -3.634578e-001
1199955 9.981141e-001 -7.617953e-002 7.995341e-005 -2.089618e+001 2.229072e-004 -1.340859e+002 9.940354e-001 -1.328185e-001
1499940 9.939362e-001 1.579194e-001 1.101130e-004 1.179813e+002 1.859216e-004 6.373822e+001 9.922630e-001 5.520329e-002
1799925 9.915171e-001 2.476265e-001 9.420839e-005 -1.409916e+001 1.173504e-004 1.433910e+002 9.888414e-001 -3.450993e-003
2099910 9.987495e-001 -5.278718e-003 5.978988e-005 -8.055879e+001 1.866384e-004 -9.422537e+001 9.982228e-001 2.186732e-002
2399895 9.991956e-001 -1.427761e-001 1.167970e-004 1.152057e+002 1.026905e-004 -1.015140e+002 1.003233e+000 -9.224339e-002
2699880 9.999191e-001 -2.331444e-001 5.519150e-005 -1.013673e+001 1.029326e-004 -1.712347e+002 9.949526e-001 -2.776558e-001
2999865 9.998104e-001 -1.281889e-001 2.433410e-005 1.156491e+002 9.813732e-005 -1.128532e+002 9.971277e-001 -2.214282e-001
3299850 1.000222e+000 -9.259512e-002 5.292685e-005 -1.950672e+001 1.489740e-004 1.396893e+002 9.975004e-001 -2.692800e-001
3599835 9.997697e-001 -1.070831e-001 1.241598e-004 1.650708e+002 1.810721e-004 1.353156e+002 9.974114e-001 -2.742324e-001
3899820 9.993296e-001 -1.346481e-001 1.370172e-004 -6.580002e+001 5.878232e-005 -1.167386e+002 9.980696e-001 -2.710330e-001
4199805 1.000399e+000 -1.613571e-001 1.724354e-005 -4.929212e+000 9.653819e-005 -3.360247e+000 9.988816e-001 -3.503976e-001
4499790 1.000455e+000 -1.490892e-001 6.668290e-005 -6.162003e+001 8.286024e-005 -3.892957e+001 9.989291e-001 -3.235296e-001
4799775 1.000071e+000 -1.829247e-001 6.399916e-005 -8.594982e+001 1.690911e-004 -6.506674e+000 9.993905e-001 -2.903212e-001
5099760 1.000964e+000 -1.278673e-001 8.400530e-005 -4.692116e+001 1.396037e-004 1.076819e+001 9.988490e-001 -3.022875e-001
5399745 1.000730e+000 -1.537665e-001 6.023393e-005 -1.336920e+002 2.444037e-004 -7.790198e+001 9.994487e-001 -2.622848e-001
5699730 1.000262e+000 -1.143731e-001 6.553545e-005 1.089134e+002 1.458722e-004 -1.514843e+002 1.000348e+000 -2.897222e-001
5999715 9.997260e-001 -9.430683e-002 5.630269e-005 1.507976e+002 1.228401e-004 1.157351e+002 9.998533e-001 -2.551650e-001
6299700 9.995035e-001 -1.093962e-001 3.891373e-005 -1.479960e+002 1.669110e-004 1.417980e+002 9.996473e-001 -3.813454e-001
6599685 9.999977e-001 -1.079146e-001 5.856967e-005 1.458023e+002 1.674133e-004 -1.773351e+002 9.983211e-001 -3.620555e-001
6899670 9.993912e-001 -1.178554e-001 3.591802e-005 -1.076625e+002 2.597805e-004 2.895205e+001 9.991071e-001 -3.695225e-001
7199655 9.999323e-001 -1.531270e-001 7.642304e-005 3.424371e+001 1.000788e-004 2.418689e+001 9.985684e-001 -4.415556e-001
7499640 1.000340e+000 -1.935188e-001 6.177496e-005 -1.102687e+002 2.089805e-004 1.489606e+002 9.980450e-001 -4.204436e-001
7799625 9.999274e-001 -1.577359e-001 5.858754e-005 -1.566755e+001 1.305811e-004 -1.226902e+002 9.987103e-001 -4.436155e-001
8099610 1.000255e+000 -1.571654e-001 1.266531e-005 -7.108305e+001 8.092234e-005 -1.244663e+002 9.985926e-001 -4.762329e-001
8399595 9.998471e-001 -1.298309e-001 3.895274e-005 -1.563948e+002 1.699369e-004 -1.423723e+002 9.990242e-001 -4.821257e-001
8699580 9.998061e-001 -1.492437e-001 8.179800e-005 1.267723e+002 1.661084e-004 7.652505e+001 9.994476e-001 -5.281645e-001
8999565 9.999930e-001 -1.258147e-001 3.198133e-005 6.466699e+001 1.592454e-005 1.541587e+001 9.983624e-001 -4.944209e-001
9299550 1.000147e+000 -1.378000e-001 5.187800e-005 -1.748040e+002 4.048429e-005 -3.609866e+001 9.989660e-001 -4.506396e-001
9599535 1.000004e+000 -1.919684e-001 8.936454e-005 3.929388e+001 1.394837e-004 -1.228767e+002 9.978072e-001 -6.656638e-001
9899520 9.996355e-001 -2.727858e-001 6.265392e-005 -1.071156e+002 8.880127e-005 -7.520339e+001 9.964588e-001 -7.493609e-001
10199505 1.000391e+000 -1.388431e-001 4.133050e-005 -1.517227e+002 1.104378e-004 2.190607e+001 9.983081e-001 -5.674683e-001
10499490 1.000424e+000 -1.450942e-001 1.911221e-005 -1.328261e+002 3.832989e-004 1.250328e+002 9.987616e-001 -5.184938e-001
10799475 9.999121e-001 -1.196504e-001 3.793579e-005 1.524667e+002 6.039999e-005 1.510898e+001 9.985022e-001 -4.602567e-001
11099460 9.998878e-001 -1.166544e-001 3.916102e-005 5.087704e+001 2.520059e-004 -1.182196e+002 9.992281e-001 -5.015837e-001
11399445 1.000157e+000 -1.556110e-001 5.934694e-005 -2.811764e+001 2.957559e-005 1.635827e+002 9.988284e-001 -5.050785e-001
11699430 1.000339e+000 -1.564714e-001 9.827250e-005 9.757882e+001 4.598618e-005 2.845061e+000 9.984721e-001 -5.521356e-001
11999415 9.999522e-001 -1.484616e-001 6.871203e-005 -1.191335e+002 1.004941e-004 1.106922e+002 9.990107e-001 -5.280309e-001
12299400 9.997860e-001 -1.525317e-001 9.094512e-005 9.283589e+000 1.230156e-004 -5.769424e+001 1.000409e+000 -5.206880e-001
12599385 1.000145e+000 -1.741959e-001 7.584915e-005 4.055412e+001 1.844304e-004 1.216599e+002 9.992880e-001 -6.563818e-001
12899370 9.998528e-001 -1.859580e-001 4.524797e-005 5.485026e+001 2.399458e-004 -1.174319e+002 9.989249e-001 -7.193890e-001
13199355 1.000749e+000 -1.753585e-001 9.624168e-005 -1.536585e+002 1.546821e-005 -1.502268e+002 9.991617e-001 -5.767739e-001
13499340 1.000248e+000 -1.953894e-001 1.012912e-004 -1.681046e+002 2.154826e-004 7.376656e+001 9.982698e-001 -6.421936e-001
13799325 1.000133e+000 -1.917554e-001 7.970125e-005 1.270358e+002 1.584729e-004 1.626179e+002 9.986113e-001 -6.190484e-001
14099310 9.999571e-001 -2.123991e-001 5.996666e-005 -1.189912e+001 1.342442e-004 -2.890771e+001 9.980182e-001 -6.214817e-001
14399295 1.000140e+000 -2.215739e-001 9.581228e-005 -7.054655e+001 9.680176e-005 1.278680e+002 9.984453e-001 -6.338598e-001
14699280 1.000024e+000 -2.137749e-001 3.370511e-005 6.663813e+001 7.714535e-005 -9.265190e+001 9.979112e-001 -6.409701e-001
14999265 9.999737e-001 -1.794506e-001 4.856498e-005 -1.103896e+002 1.793070e-004 1.074897e+002 9.994681e-001 -6.520513e-001
15299250 1.000032e+000 -1.869096e-001 1.338036e-004 -8.994022e+001 2.346678e-004 -1.144585e+002 9.984884e-001 -6.358884e-001
15599235 1.000010e+000 -1.680318e-001 4.693370e-005 1.169463e+002 6.617636e-005 7.239669e+001 9.991178e-001 -7.050475e-001
15899220 9.997855e-001 -1.658911e-001 3.693587e-005 1.159010e+002 1.070262e-004 -1.658133e+002 9.999942e-001 -7.032521e-001
16199205 1.000374e+000 -1.930585e-001 8.070050e-005 -8.543150e+001 1.487991e-004 -5.902820e+000 9.995689e-001 -7.104563e-001
16499190 9.997496e-001 -1.947641e-001 1.687755e-004 5.481714e+001 1.811745e-004 7.952505e+001 1.000159e+000 -7.698765e-001
16799175 9.999788e-001 -2.061622e-001 8.517268e-005 -7.278719e+001 3.158293e-004 -1.330795e+002 1.000883e+000 -6.898121e-001
17099160 1.000028e+000 -2.101076e-001 1.036297e-004 -5.130366e+001 2.952309e-004 1.331311e+002 9.995533e-001 -7.120669e-001
17399145 1.000623e+000 -2.423070e-001 2.473265e-006 7.808724e+001 2.451710e-004 -1.732026e+002 9.995000e-001 -7.215319e-001
17699130 1.000081e+000 -2.000632e-001 4.325775e-005 7.797517e+001 1.519647e-004 -5.901683e+001 9.990293e-001 -7.533007e-001
17999115 9.997272e-001 -2.350366e-001 6.771835e-005 -8.202552e+001 3.102144e-004 8.037558e+001 9.984103e-001 -7.824999e-001
18299100 9.999192e-001 -2.263353e-001 1.042154e-004 1.253615e+002 1.666465e-004 -1.322772e+002 9.992006e-001 -8.743581e-001
18599085 9.997327e-001 -2.275908e-001 8.152409e-005 -8.825261e+001 2.880012e-004 4.240250e+001 9.983470e-001 -8.536404e-001
18899070 9.998231e-001 -2.197452e-001 1.186807e-004 -7.212923e+001 7.586515e-005 1.568665e+002 9.988348e-001 -7.754168e-001
19199055 9.996251e-001 -2.320036e-001 8.492952e-005 1.315996e+002 2.025801e-004 -1.116392e+000 9.983487e-001 -7.737561e-001
19499040 1.000416e+000 -2.132826e-001 5.914590e-005 -2.136069e+001 8.283441e-005 -1.662384e+002 9.981881e-001 -7.894949e-001
19799025 1.000936e+000 -2.363211e-001 2.905569e-005 1.603131e+001 1.244453e-004 -7.633838e+001 9.978215e-001 -8.393396e-001
20099010 1.000374e+000 -2.169227e-001 8.419817e-005 -8.486922e+001 2.326865e-004 -7.044930e+001 9.978788e-001 -8.798146e-001
20398995 9.996833e-001 -2.261064e-001 7.720435e-005 -1.662991e+002 3.094924e-004 -8.126282e+001 9.980011e-001 -8.405265e-001
20698980 9.997061e-001 -2.443999e-001 8.313128e-005 -1.450407e+001 2.516607e-004 5.188018e+001 9.980288e-001 -8.125911e-001
20998965 9.992613e-001 -2.201270e-001 4.719117e-005 -1.727692e+002 4.622506e-005 1.369042e+002 9.974065e-001 -8.852496e-001
21298950 9.994429e-001 -2.194325e-001 1.217024e-004 4.335396e+001 3.233969e-004 -7.897581e+001 9.975677e-001 -7.970299e-001
21598935 1.000262e+000 -2.305867e-001 5.579567e-005 -4.215290e+001 2.818385e-004 1.058656e+002 9.965270e-001 -8.813885e-001
21898920 9.996800e-001 -2.759467e-001 1.466874e-004 1.380878e+002 2.092185e-004 1.411460e+002 9.972707e-001 -8.422810e-001
22198905 9.995589e-001 -2.637884e-001 5.089780e-005 -1.417654e+002 3.138902e-004 -1.604847e+001 9.984223e-001 -8.512311e-001
22498890 1.000507e+000 -2.435361e-001 5.734502e-005 1.643900e+002 2.452063e-004 1.743290e+002 9.993808e-001 -9.231600e-001
22798875 1.001124e+000 -2.325111e-001 4.603513e-005 6.646748e+001 2.869788e-004 -1.300563e+002 9.984742e-001 -9.069352e-001
23098860 1.000815e+000 -2.980744e-001 4.449097e-005 -9.092096e+001 2.993947e-004 1.121652e+002 9.991687e-001 -9.219514e-001
23398845 1.000261e+000 -2.920707e-001 5.608995e-005 -1.004585e+002 2.254181e-004 -7.392276e+001 9.989058e-001 -9.559106e-001
23698830 1.000378e+000 -2.887118e-001 8.801320e-005 1.026618e+002 1.689130e-004 3.689158e+001 9.977983e-001 -1.078959e+000
23998815 1.000699e+000 -2.555449e-001 5.257182e-005 8.253056e+001 3.331580e-004 1.368112e+002 9.976212e-001 -9.526474e-001
24298800 1.000437e+000 -2.988375e-001 7.651079e-005 -3.717849e+001 1.124121e-004 -1.754246e+002 9.972795e-001 -9.651784e-001
24598785 1.000711e+000 -3.268751e-001 5.983176e-005 5.466476e+001 1.811676e-004 1.366045e+001 9.978386e-001 -1.031972e+000
24898770 1.000166e+000 -2.953106e-001 4.662885e-005 1.189269e+002 1.141142e-004 7.419191e+001 9.986028e-001 -1.059610e+000
25198755 9.995084e-001 -3.017678e-001 4.174432e-005 -1.163446e+002 1.148769e-004 -3.822254e+001 9.991444e-001 -1.053828e+000
25498740 1.000270e+000 -3.096882e-001 2.020219e-005 5.399234e+001 1.255812e-004 1.272813e+002 9.982542e-001 -1.044099e+000
25798725 1.000252e+000 -2.593654e-001 8.693829e-005 -6.991077e+001 2.527238e-004 -7.317059e+001 9.986994e-001 -1.076457e+000
26098710 1.000840e+000 -2.955944e-001 9.298449e-005 -8.510638e+001 5.060940e-005 3.557301e+001 9.987650e-001 -1.064581e+000
26398695 1.000641e+000 -2.952859e-001 2.460324e-005 -1.202054e+002 4.052176e-005 -1.424404e+002 9.998598e-001 -1.096775e+000
26698680 1.000734e+000 -2.681576e-001 3.618494e-005 1.790305e+002 1.761739e-004 2.671992e+001 9.996935e-001 -1.055349e+000
26998665 1.000910e+000 -3.034843e-001 6.048354e-005 -4.199377e+001 1.086948e-004 -1.474392e+002 9.977354e-001 -1.051731e+000
27298650 1.000354e+000 -2.860337e-001 9.964577e-005 1.757762e+002 7.478063e-005 -6.651588e+001 9.987406e-001 -1.144122e+000
27598635 1.000297e+000 -2.985640e-001 5.297023e-005 -8.711749e+001 2.886815e-004 1.726559e+002 9.999919e-001 -1.146306e+000
27898620 9.999364e-001 -2.594020e-001 2.166764e-005 8.776749e+001 2.789342e-004 -8.988074e+001 1.000469e+000 -1.110493e+000
28198605 9.993727e-001 -2.794709e-001 4.042994e-005 5.570299e+001 1.355491e-004 1.429104e+002 9.995667e-001 -1.187720e+000
28498590 1.000301e+000 -3.450003e-001 4.513778e-005 -3.280016e+001 2.877950e-004 -1.626224e+002 9.988766e-001 -1.156323e+000
28798575 9.996240e-001 -3.360955e-001 2.205837e-004 5.940187e+001 1.185781e-004 -2.124396e+001 9.979324e-001 -1.200389e+000
29098560 9.997727e-001 -2.898289e-001 1.280471e-004 -1.331090e+002 1.126089e-004 -1.143513e+002 9.987519e-001 -1.190438e+000
29398545 9.997296e-001 -3.113604e-001 8.656682e-005 -1.360151e+002 1.763008e-004 -5.610164e+001 9.996610e-001 -1.203642e+000
29698530 1.000080e+000 -3.095523e-001 9.077197e-005 1.743404e+002 2.805126e-004 8.151949e+001 9.995822e-001 -1.145780e+000
29998515 1.000185e+000 -2.910693e-001 7.163044e-005 -2.264717e+001 2.000507e-004 -1.177141e+002 9.991965e-001 -1.195238e+000
30298500 1.000243e+000 -2.863910e-001 8.893143e-006 -1.600125e+002 4.094755e-005 6.138761e+001 9.986500e-001 -1.278147e+000
30598485 1.000843e+000 -3.167014e-001 5.651973e-005 1.588873e+002 3.882964e-004 -1.799123e+002 9.988050e-001 -1.217577e+000
30898470 1.000286e+000 -2.822497e-001 6.276535e-005 -1.397548e+002 1.261000e-004 -1.847396e+001 9.980205e-001 -1.283065e+000
31198455 1.000872e+000 -2.836874e-001 1.280318e-005 -5.075563e+001 2.661400e-004 1.297806e+002 9.987687e-001 -1.177652e+000
31498440 9.999675e-001 -2.897286e-001 7.325576e-005 -1.195125e+001 2.765479e-004 -2.887260e+001 9.986466e-001 -1.205872e+000
31798425 1.001032e+000 -3.669781e-001 6.967064e-005 -1.660160e+002 2.999271e-004 7.455502e+001 9.995179e-001 -1.247635e+000
32098410 1.000176e+000 -3.737027e-001 5.308061e-005 1.529041e+002 1.344887e-004 1.499903e+002 9.996996e-001 -1.282796e+000
32398395 1.000943e+000 -3.600938e-001 1.010325e-004 2.672672e+001 2.464573e-004 6.876127e+001 9.997699e-001 -1.236166e+000
32698380 1.000625e+000 -3.398127e-001 5.298446e-005 -1.413772e+002 2.205411e-004 -1.707898e+002 9.989297e-001 -1.224358e+000
32998365 9.999523e-001 -3.082368e-001 8.188706e-005 1.057274e+002 2.039094e-004 -4.146257e+001 9.991148e-001 -1.312754e+000
33298350 1.000371e+000 -3.238986e-001 3.624462e-005 -1.283680e+002 2.004922e-004 1.796578e+002 9.992452e-001 -1.353713e+000
33598335 1.000714e+000 -3.503232e-001 1.342732e-004 -1.154107e+001 1.373985e-004 -9.541444e+001 9.983177e-001 -1.351022e+000
33898320 1.000868e+000 -3.747296e-001 9.572350e-005 1.072345e+002 1.711480e-004 -2.989145e+001 9.990292e-001 -1.305768e+000
34198305 1.000192e+000 -3.609621e-001 7.859047e-005 1.330354e+002 1.796690e-004 1.340811e+002 9.969624e-001 -1.392567e+000
34498290 1.000328e+000 -3.698758e-001 1.813361e-004 -6.313045e+001 2.440200e-004 -2.164337e+001 9.975381e-001 -1.382825e+000
34798275 9.994683e-001 -3.872569e-001 1.626837e-004 3.466242e+001 1.941024e-004 1.535169e+002 9.984177e-001 -1.370069e+000
35098260 1.000174e+000 -4.066036e-001 2.470175e-005 -2.494415e+001 1.020859e-004 -1.313566e+002 9.990129e-001 -1.346860e+000
35398245 1.000300e+000 -3.931964e-001 9.952318e-005 4.868410e+001 7.991429e-005 9.969960e+001 9.993177e-001 -1.369658e+000
35698230 1.000992e+000 -4.085277e-001 8.156673e-005 -3.764111e+001 1.084716e-004 1.700796e+002 9.996009e-001 -1.438424e+000
35998215 9.992223e-001 -3.743857e-001 3.338161e-005 1.288631e+002 7.711921e-005 6.007586e+001 9.986510e-001 -1.479541e+000
36298200 1.000376e+000 -4.102918e-001 1.231425e-004 -9.095544e+001 3.007971e-004 4.466920e+001 9.991037e-001 -1.504254e+000
36598185 1.000988e+000 -4.187942e-001 3.846615e-005 1.775607e+002 2.279840e-004 -1.104719e+002 9.977384e-001 -1.402511e+000
36898170 1.000642e+000 -3.650543e-001 3.974276e-005 -9.818769e+001 2.135988e-004 -2.648330e+001 9.981962e-001 -1.494532e+000
37198155 1.000325e+000 -3.932744e-001 5.602709e-005 1.431995e+002 1.947690e-004 1.707868e+002 9.981974e-001 -1.469272e+000
37498140 1.000521e+000 -3.783676e-001 1.565411e-005 -1.074110e+002 1.811736e-004 8.191393e+001 9.987484e-001 -1.372200e+000
37798125 1.000301e+000 -4.082799e-001 6.112528e-005 1.160299e+002 2.273965e-004 -1.333926e+002 9.986337e-001 -1.484314e+000
38098110 1.001192e+000 -3.780538e-001 2.975175e-005 -9.098677e+001 2.332143e-004 -6.759675e+000 9.990651e-001 -1.480156e+000
38398095 9.997234e-001 -4.045926e-001 9.250514e-005 5.128851e+001 5.119569e-005 1.242804e+002 9.971222e-001 -1.527872e+000
38698080 1.000005e+000 -4.133950e-001 1.355864e-004 -1.497571e+002 1.192960e-004 -6.194284e+001 9.982303e-001 -1.546177e+000
38998065 1.000316e+000 -4.077760e-001 8.750835e-005 2.238546e+001 1.429667e-004 2.405980e+001 9.975405e-001 -1.528200e+000
39298050 1.000859e+000 -3.956306e-001 3.358435e-005 -1.307638e+002 3.201820e-004 -1.622588e+002 9.982982e-001 -1.497483e+000
39598035 1.000784e+000 -3.867882e-001 6.885097e-005 -1.165933e+001 1.338146e-004 -1.496834e+001 9.984160e-001 -1.479916e+000
39898020 1.000906e+000 -3.922681e-001 4.837458e-005 -8.529131e+001 7.615205e-005 1.148145e+002 1.000049e+000 -1.444437e+000
40198005 9.990621e-001 -3.865940e-001 1.378631e-004 8.179737e+001 2.330339e-004 1.478962e+002 9.981212e-001 -1.665759e+000
40497990 1.000258e+000 -4.328547e-001 4.840255e-005 -1.708842e+002 1.518858e-004 -9.122642e+001 9.998971e-001 -1.669091e+000
40797975 1.000726e+000 -3.641566e-001 6.606450e-005 1.047382e+002 2.013406e-004 1.463176e+002 9.992894e-001 -1.602834e+000
41097960 9.998611e-001 -3.960767e-001 2.936611e-005 -1.129273e+002 3.232406e-004 1.724614e+002 9.999986e-001 -1.585312e+000
41397945 1.000593e+000 -3.291860e-001 3.867044e-005 1.204304e+001 2.161698e-004 -1.482674e+002 9.999785e-001 -1.523929e+000
41697930 1.000904e+000 -3.682557e-001 1.041575e-004 5.276272e+001 1.750852e-004 3.494604e+001 1.000136e+000 -1.472602e+000
41997915 9.994614e-001 -4.245855e-001 5.002745e-005 -4.196582e+000 1.961945e-004 -5.609612e+000 9.992787e-001 -1.512169e+000
42297900 9.994636e-001 -3.672644e-001 1.788459e-004 -8.356363e+001 1.005429e-004 -6.771245e+000 1.000089e+000 -1.558575e+000
42597885 1.000195e+000 -3.752924e-001 1.312922e-004 1.005528e+002 2.833995e-004 3.470945e+001 9.996035e-001 -1.649255e+000
42897870 1.001815e+000 -4.233631e-001 8.817054e-005 1.186080e+002 2.206821e-004 2.799299e+000 9.992192e-001 -1.714955e+000
43197855 1.000320e+000 -3.964100e-001 1.848378e-004 1.491416e+002 2.615563e-004 -2.039212e+001 9.990861e-001 -1.736595e+000
43497840 1.000667e+000 -3.943677e-001 1.228902e-004 8.149489e+001 2.228945e-004 3.129841e+000 9.996848e-001 -1.727584e+000
43797825 1.000610e+000 -4.760108e-001 1.645150e-004 4.371066e+001 2.453941e-004 -6.325181e+000 9.982821e-001 -1.816957e+000
44097810 1.000759e+000 -4.196169e-001 1.855159e-004 -1.583092e+002 2.382867e-004 -8.632921e+001 9.995754e-001 -1.749766e+000
44397795 1.001266e+000 -4.301168e-001 1.030309e-004 -1.717259e+002 1.234022e-004 -6.594607e+001 1.000337e+000 -1.729292e+000
44697780 1.001134e+000 -4.008034e-001 1.217471e-004 -8.358799e+001 2.997492e-004 1.739403e+002 9.992110e-001 -1.810406e+000
44997765 1.001392e+000 -3.892262e-001 6.035624e-005 -5.641716e+001 2.309069e-004 2.296750e+001 1.003085e+000 -1.846579e+000
45297750 1.002415e+000 -4.647133e-001 3.364888e-005 -9.614113e+001 4.014758e-005 -1.070893e+002 1.001508e+000 -1.872461e+000
45597735 1.000994e+000 -4.871396e-001 9.327818e-005 -1.659872e+002 4.609023e-004 2.465261e+001 1.001357e+000 -1.889413e+000
45897720 1.000830e+000 -4.356905e-001 9.472313e-005 4.198108e+000 1.033248e-004 -7.279493e+001 9.998720e-001 -1.811134e+000
46197705 1.002177e+000 -4.456640e-001 6.247988e-005 -8.007185e+000 2.284811e-004 2.128679e+001 1.000137e+000 -1.807484e+000
46497690 1.001356e+000 -4.734052e-001 3.850844e-005 -9.778889e+001 2.996831e-005 9.487213e+001 1.000327e+000 -1.811043e+000
46797675 1.000754e+000 -5.154011e-001 8.908352e-005 -1.646642e+002 1.691347e-004 1.011234e+001 9.999349e-001 -1.799888e+000
47097660 1.000569e+000 -4.596099e-001 8.668881e-005 -1.140420e+002 7.791653e-005 -8.915225e+001 9.988410e-001 -1.876043e+000
