!Agilent Technologies,N5230C,SG49000117,A.08.50.07
!Agilent N5230C: A.08.50.07
!Date: Thursday, May 16, 2024 18:15:12
!Correction: S11(Full 2 Port(1,2)) 
!S21(Full 2 Port(1,2)) 
!S12(Full 2 Port(1,2)) 
!S22(Full 2 Port(1,2)) 
!S2P File: Measurements: S11, S21, S12, S22:
# Hz S  MA   R 50
300000 1.008519e+000 -4.961141e-001 2.468996e-004 7.478976e+001 3.688117e-004 -1.031897e+002 1.018203e+000 -6.661783e-001
599985 9.826161e-001 3.016847e-001 3.256990e-005 1.930957e+001 2.871908e-004 -9.406672e+001 9.641229e-001 3.397439e-001
899970 9.971707e-001 -8.340956e-002 5.225646e-005 1.013212e+002 2.175442e-004 -1.494281e+002 9.847755e-001 -3.626144e-001
1199955 9.981102e-001 -8.953159e-002 4.974059e-005 -1.033691e+002 6.702570e-005 5.436397e+001 9.933736e-001 -2.310871e-001
1499940 9.939556e-001 1.410572e-001 9.605700e-005 7.710796e+001 2.108846e-004 -9.250064e+000 9.921175e-001 3.462800e-002
1799925 9.916754e-001 2.349015e-001 3.785540e-005 -1.123860e+002 1.337611e-004 -6.084634e+001 9.881591e-001 -3.260788e-003
2099910 9.987782e-001 4.637730e-003 3.640418e-005 1.390306e+002 1.989369e-004 -5.583442e+001 9.970173e-001 9.724295e-003
2399895 9.991367e-001 -1.383393e-001 8.152247e-005 6.364476e+001 7.336250e-005 -1.275806e+002 1.001598e+000 -8.721188e-002
2699880 9.996977e-001 -2.485154e-001 1.010865e-004 -1.492553e+002 1.382189e-004 9.725763e+000 9.929629e-001 -2.904263e-001
2999865 9.994128e-001 -1.351935e-001 2.967284e-005 -6.421077e+001 1.972683e-004 -1.166677e+002 9.975803e-001 -2.171123e-001
3299850 1.000501e+000 -1.132878e-001 3.626765e-005 1.379780e+001 8.137367e-005 4.542331e+000 9.963985e-001 -3.162497e-001
3599835 1.000450e+000 -1.341679e-001 6.523250e-005 -5.180543e+001 2.183773e-004 1.501356e+002 9.965876e-001 -3.412178e-001
3899820 9.997028e-001 -1.622473e-001 6.342566e-005 1.172725e+002 1.740420e-005 -2.054627e+001 9.961789e-001 -2.774206e-001
4199805 1.000814e+000 -1.505321e-001 7.151378e-005 3.551564e+001 5.037826e-005 9.757774e+001 9.980709e-001 -3.839643e-001
4499790 1.000717e+000 -1.350765e-001 4.427236e-005 1.003695e+002 5.264344e-005 1.051088e+002 9.982576e-001 -3.431113e-001
4799775 1.000233e+000 -1.477682e-001 9.282993e-005 -1.190796e+001 1.622544e-004 5.798498e+000 9.985964e-001 -3.211223e-001
5099760 1.000858e+000 -1.471549e-001 4.434173e-005 2.927972e+001 2.342104e-004 9.501228e+000 9.990333e-001 -3.134174e-001
5399745 1.000880e+000 -1.249148e-001 4.202923e-005 -3.613961e+001 1.620259e-004 1.133155e+002 9.986939e-001 -3.107382e-001
5699730 1.000987e+000 -1.140742e-001 6.378081e-005 -6.639070e+001 2.932234e-005 -7.670365e+001 1.000301e+000 -3.171045e-001
5999715 9.995180e-001 -8.976708e-002 4.909230e-005 -4.990123e+001 6.836008e-005 1.182951e+002 9.993182e-001 -2.846035e-001
6299700 1.000539e+000 -1.233900e-001 9.825968e-005 -9.605016e+001 7.952167e-005 1.635498e+002 9.976435e-001 -3.781974e-001
6599685 9.997010e-001 -1.171588e-001 8.358325e-005 -1.789133e+002 4.174820e-005 1.290977e+002 9.984776e-001 -4.142208e-001
6899670 1.000107e+000 -1.576505e-001 7.082056e-005 -1.446652e+002 1.829899e-004 1.723966e+002 9.985946e-001 -3.822623e-001
7199655 1.000139e+000 -1.379864e-001 6.463114e-005 1.084221e+002 1.754211e-004 -1.506513e+002 9.996562e-001 -4.206683e-001
7499640 9.998223e-001 -1.819839e-001 4.702959e-005 1.762269e+002 1.002558e-004 9.494539e+001 9.984618e-001 -4.838401e-001
7799625 1.000173e+000 -1.698281e-001 5.621293e-005 1.313157e+002 1.742782e-004 1.355729e+002 9.973320e-001 -4.290085e-001
8099610 1.000367e+000 -1.393666e-001 1.105898e-004 -7.861919e+001 1.855115e-004 -1.177561e+002 9.972998e-001 -5.321140e-001
8399595 9.998468e-001 -1.368441e-001 2.284494e-005 1.575914e+002 1.841648e-004 -1.351681e+002 9.975378e-001 -5.092341e-001
8699580 1.000060e+000 -1.480157e-001 5.226707e-005 1.100354e+002 1.158432e-004 1.722381e+002 9.983358e-001 -5.569159e-001
8999565 1.000350e+000 -1.467900e-001 7.148037e-006 1.265411e+002 2.588603e-005 -5.057230e+001 9.982442e-001 -5.628763e-001
9299550 9.999188e-001 -1.344502e-001 1.033403e-005 -7.807524e+001 1.625544e-004 6.441779e+001 9.972039e-001 -4.714025e-001
9599535 9.996509e-001 -2.015358e-001 3.317689e-005 -3.078068e+001 5.996167e-005 3.593561e+001 9.966815e-001 -6.228715e-001
9899520 1.000054e+000 -2.599181e-001 6.526339e-005 -5.220907e+001 2.868173e-005 3.755429e+001 9.958018e-001 -7.482340e-001
10199505 9.998962e-001 -1.921980e-001 8.068595e-005 1.605748e+002 6.269143e-005 9.751440e+001 9.973695e-001 -5.366957e-001
10499490 9.998707e-001 -1.527122e-001 5.781431e-005 2.104557e+001 1.176428e-004 -7.474710e+001 9.968922e-001 -5.088841e-001
10799475 9.994670e-001 -1.227696e-001 3.054503e-005 8.631581e+001 7.718766e-005 -6.809393e+000 9.975790e-001 -4.870296e-001
11099460 1.000410e+000 -1.213969e-001 3.244880e-005 -6.604384e+001 1.894726e-004 -1.728590e+002 9.975114e-001 -5.539355e-001
11399445 1.000277e+000 -1.601408e-001 6.489492e-005 -3.079367e+000 7.694448e-005 8.706277e+000 9.983296e-001 -5.879644e-001
11699430 1.000180e+000 -1.248933e-001 1.243264e-004 -1.691678e+002 9.840392e-005 4.307754e+001 9.984312e-001 -4.459329e-001
11999415 9.994113e-001 -1.644537e-001 6.416121e-005 1.419560e+002 3.095166e-004 -2.495929e+001 9.989635e-001 -5.841785e-001
12299400 1.000273e+000 -1.615274e-001 1.159904e-004 1.092892e+002 1.397317e-004 -3.228691e+001 9.998347e-001 -5.494624e-001
12599385 9.996403e-001 -1.531014e-001 5.367856e-005 -1.099586e+001 1.301405e-004 -4.156913e+001 9.985975e-001 -6.223305e-001
12899370 1.000250e+000 -1.943176e-001 1.392951e-005 6.843832e+001 1.226357e-004 1.065487e+002 9.972960e-001 -8.024866e-001
13199355 1.000324e+000 -2.315887e-001 2.659013e-005 -1.740017e+001 1.381243e-004 -1.601044e+002 9.981828e-001 -7.149366e-001
13499340 9.996506e-001 -2.291748e-001 6.921342e-005 1.525146e+002 2.903141e-004 1.690600e+002 9.966981e-001 -6.408741e-001
13799325 1.000486e+000 -1.650873e-001 3.614214e-006 -1.568535e+002 4.529975e-005 9.649353e+000 9.960932e-001 -6.371234e-001
14099310 1.000504e+000 -2.047103e-001 2.627683e-005 1.553367e+001 1.185336e-004 8.018708e+001 9.985041e-001 -7.170345e-001
14399295 1.000122e+000 -1.888996e-001 4.736218e-005 8.714812e+001 3.014989e-005 -1.239873e+002 9.989991e-001 -6.239362e-001
14699280 1.000379e+000 -1.905759e-001 5.969888e-005 1.202581e+002 2.342488e-004 9.483507e+001 9.977043e-001 -7.451320e-001
14999265 9.999801e-001 -1.833708e-001 8.735458e-005 -3.609123e+001 1.961265e-004 8.381004e+001 9.971226e-001 -6.823930e-001
15299250 9.995818e-001 -2.003340e-001 3.059809e-005 -6.678046e+001 1.392922e-005 -2.488482e-001 9.966863e-001 -7.531791e-001
15599235 1.000345e+000 -1.892662e-001 5.636929e-005 -3.019382e+001 1.534937e-004 1.238613e+002 9.980236e-001 -7.688306e-001
15899220 1.000269e+000 -2.170172e-001 2.949228e-005 -1.717487e+002 2.215355e-004 -6.921651e+001 9.991083e-001 -7.604998e-001
16199205 1.000151e+000 -1.787909e-001 4.182999e-005 7.344762e+001 9.579395e-005 4.250713e+000 9.988236e-001 -7.276402e-001
16499190 1.000080e+000 -1.927386e-001 1.432495e-005 -7.115614e+001 1.111403e-004 1.093746e+002 9.992014e-001 -6.364924e-001
16799175 1.000091e+000 -1.835493e-001 1.007797e-004 1.590954e+002 2.163317e-004 -7.204858e+001 9.988820e-001 -7.087914e-001
17099160 1.000132e+000 -2.278660e-001 8.338847e-005 -1.795643e+002 3.858116e-004 1.310001e+002 9.984685e-001 -8.068052e-001
17399145 1.000299e+000 -2.046919e-001 1.153101e-004 1.112087e+002 1.130511e-004 -2.589712e+001 9.986240e-001 -7.627138e-001
17699130 9.995541e-001 -1.860318e-001 4.229320e-005 -5.936169e+001 9.738465e-005 2.797090e+001 9.993997e-001 -7.727233e-001
17999115 1.000166e+000 -2.339732e-001 1.614759e-005 1.000524e+002 1.647231e-004 1.685061e+002 9.974512e-001 -8.404342e-001
18299100 1.000324e+000 -1.881604e-001 4.618694e-005 7.835445e+001 3.170493e-004 2.353280e+001 9.983147e-001 -8.986840e-001
18599085 9.999166e-001 -2.231424e-001 2.500710e-005 1.162441e+001 8.032515e-005 -1.079190e+002 9.978250e-001 -8.422800e-001
18899070 1.000518e+000 -2.432895e-001 1.457612e-005 -6.300028e+001 8.195162e-005 1.779371e+002 9.985722e-001 -8.552120e-001
19199055 1.000969e+000 -2.218440e-001 3.110159e-005 -7.716888e+001 2.357582e-004 8.198836e+001 9.981993e-001 -8.699169e-001
19499040 1.000526e+000 -2.179091e-001 1.884661e-004 4.377253e+001 9.657871e-005 -7.476331e+001 9.980353e-001 -8.394883e-001
19799025 1.000522e+000 -2.133850e-001 1.207176e-005 1.508137e+002 2.744723e-004 7.446863e+001 9.972720e-001 -9.095140e-001
20099010 1.000796e+000 -2.210510e-001 5.801909e-005 -1.762145e+002 1.656515e-004 -1.387515e+002 9.969020e-001 -9.105228e-001
20398995 9.995306e-001 -2.328643e-001 5.429171e-005 -5.089231e+000 2.190145e-004 -3.348491e+001 9.976109e-001 -9.839305e-001
20698980 9.999557e-001 -2.308049e-001 2.667809e-005 1.647146e+001 9.409196e-005 -7.361771e+000 9.969226e-001 -9.925224e-001
20998965 9.998853e-001 -2.414026e-001 3.720032e-005 -7.277776e+001 3.078557e-004 -1.237970e+002 9.964683e-001 -8.855699e-001
21298950 9.996208e-001 -2.396504e-001 8.217140e-005 -1.237234e+001 2.968503e-004 4.142406e+001 9.962554e-001 -8.225980e-001
21598935 9.992982e-001 -2.939686e-001 6.130637e-005 1.651361e+002 2.314734e-004 1.422980e+002 9.964890e-001 -9.383094e-001
21898920 1.000003e+000 -2.643323e-001 8.049846e-005 6.805693e+001 1.452478e-004 -9.264541e+001 9.965857e-001 -9.465933e-001
22198905 9.996826e-001 -2.196486e-001 8.544426e-005 1.316925e+002 7.205529e-005 1.415073e+001 9.965860e-001 -9.570752e-001
22498890 1.000369e+000 -2.230747e-001 1.342624e-004 1.783597e+002 1.378493e-004 1.506154e+002 9.985712e-001 -9.624799e-001
22798875 1.001011e+000 -2.519047e-001 8.137303e-005 -1.686015e+002 2.232682e-004 2.450337e+000 9.985181e-001 -1.121300e+000
23098860 1.000184e+000 -2.477899e-001 9.428882e-005 1.320131e+001 5.163542e-005 -1.513723e+002 9.993441e-001 -1.026028e+000
23398845 1.000284e+000 -2.783760e-001 5.423749e-005 1.134344e-001 1.070328e-004 1.342188e+002 9.988168e-001 -1.053834e+000
23698830 1.000388e+000 -2.870539e-001 5.197596e-005 -4.762676e+001 1.237564e-004 1.092650e+002 9.980235e-001 -9.875273e-001
23998815 1.000091e+000 -2.948820e-001 4.082519e-005 2.920196e+001 1.412128e-004 -1.075936e+002 9.971138e-001 -9.895005e-001
24298800 1.000231e+000 -3.178340e-001 4.942863e-005 -1.768194e+002 1.529488e-004 1.285746e+002 9.965116e-001 -1.084817e+000
24598785 9.999338e-001 -2.924155e-001 2.551173e-005 1.376148e+002 3.556890e-005 -1.777455e+002 9.976292e-001 -1.028770e+000
24898770 1.000248e+000 -3.070302e-001 7.176455e-005 -9.553667e+001 2.171972e-004 -5.385282e+000 9.965546e-001 -1.096875e+000
25198755 1.001076e+000 -3.181913e-001 6.033991e-005 -1.449495e+002 2.358045e-004 1.194176e+002 9.973937e-001 -1.105271e+000
25498740 1.000315e+000 -2.937745e-001 9.001566e-005 8.058227e+001 3.351865e-004 -8.159106e+001 9.982281e-001 -1.127276e+000
25798725 1.000133e+000 -3.111762e-001 1.205038e-004 -9.012520e+001 4.257491e-004 1.354629e+002 9.973759e-001 -1.180645e+000
26098710 1.001054e+000 -2.723250e-001 7.036908e-005 -6.574787e+001 5.796647e-004 1.597686e+002 9.972761e-001 -1.166071e+000
26398695 1.000686e+000 -3.234240e-001 1.096946e-004 9.331698e+001 1.755876e-005 1.606805e+002 9.990482e-001 -1.094398e+000
26698680 1.000691e+000 -2.829100e-001 4.998144e-005 -7.133025e+001 2.746251e-004 6.975731e+001 9.978520e-001 -1.165226e+000
26998665 1.000649e+000 -2.752695e-001 5.782008e-005 -7.428053e+001 1.552539e-004 1.740009e+002 9.961755e-001 -1.171227e+000
27298650 1.000396e+000 -3.030809e-001 6.984356e-005 -8.752912e+001 2.436856e-004 -2.751893e+001 9.987393e-001 -1.238446e+000
27598635 1.000191e+000 -2.725465e-001 6.006747e-005 1.323360e+002 1.287771e-004 1.263575e+002 9.982820e-001 -1.195052e+000
27898620 1.000062e+000 -2.839520e-001 6.173806e-005 1.674481e+002 3.163291e-004 -5.928829e+001 1.000263e+000 -1.247709e+000
28198605 1.000277e+000 -2.850421e-001 5.530758e-005 -3.819074e+001 2.132729e-004 8.132654e+001 9.979933e-001 -1.304659e+000
28498590 1.000155e+000 -2.818920e-001 2.172852e-005 -4.851896e+000 7.486913e-005 -1.440857e+002 9.977727e-001 -1.296779e+000
28798575 9.994643e-001 -3.441099e-001 9.295223e-005 -7.786936e+001 8.514956e-005 6.570736e+001 9.972335e-001 -1.350941e+000
29098560 1.000190e+000 -3.203910e-001 1.360454e-004 1.297489e+001 3.727073e-005 8.335134e+001 9.967895e-001 -1.232677e+000
29398545 9.998965e-001 -2.644781e-001 6.483157e-005 1.541376e+002 8.401361e-005 -2.085891e+001 9.978555e-001 -1.247959e+000
29698530 1.000270e+000 -2.919506e-001 1.662662e-004 -3.094354e+001 1.291431e-004 8.284531e+001 9.997788e-001 -1.325536e+000
29998515 1.000939e+000 -3.053614e-001 6.296071e-005 1.653137e+002 2.583076e-004 -8.844696e+001 9.984157e-001 -1.278187e+000
30298500 1.000090e+000 -2.959734e-001 3.591607e-005 -4.156122e+001 1.598791e-004 1.455932e+001 9.995756e-001 -1.379675e+000
30598485 1.000397e+000 -3.234556e-001 8.789909e-005 9.258873e+001 1.047434e-004 -1.473865e+002 9.984230e-001 -1.405298e+000
30898470 1.000447e+000 -2.579783e-001 8.564498e-005 1.598668e+002 2.717610e-004 -9.219349e+001 9.979170e-001 -1.342065e+000
31198455 1.000516e+000 -3.183204e-001 2.987726e-005 -2.032034e+001 2.053140e-004 1.211723e+001 9.976707e-001 -1.377133e+000
31498440 1.000821e+000 -3.307009e-001 2.063644e-005 1.513221e+002 7.467058e-005 -6.092158e+001 9.988633e-001 -1.293625e+000
31798425 1.000008e+000 -3.670317e-001 1.385787e-004 3.156281e+001 1.530779e-004 4.784055e+001 9.981639e-001 -1.373113e+000
32098410 1.000892e+000 -3.961769e-001 9.726142e-005 -6.416563e+001 1.398262e-004 5.430012e+001 9.982462e-001 -1.325987e+000
32398395 1.000748e+000 -3.186581e-001 4.301663e-005 -9.618810e+001 7.652694e-005 -3.414105e+001 9.980665e-001 -1.329495e+000
32698380 1.000812e+000 -3.333480e-001 8.556432e-005 8.023630e+001 2.209167e-004 4.565595e+001 9.978216e-001 -1.371689e+000
32998365 1.000519e+000 -2.958868e-001 9.706698e-005 9.912034e+001 6.392395e-005 -1.731294e+002 9.971925e-001 -1.443998e+000
33298350 1.000430e+000 -3.327497e-001 1.283569e-004 -1.620660e+002 6.892715e-005 -7.958826e+001 9.978317e-001 -1.401863e+000
33598335 9.998946e-001 -3.081538e-001 4.638583e-005 1.076547e+002 1.283505e-004 1.527832e+002 9.981025e-001 -1.429790e+000
33898320 9.999825e-001 -3.281306e-001 9.196928e-005 1.662436e+002 5.697615e-005 -1.275267e+002 9.969471e-001 -1.470700e+000
34198305 1.000384e+000 -3.924082e-001 1.279371e-004 -4.523779e+001 2.505494e-004 1.239808e+002 9.967829e-001 -1.421259e+000
34498290 1.000013e+000 -4.026122e-001 4.081899e-005 -1.283369e+002 2.039106e-004 -1.444227e+002 9.959860e-001 -1.460419e+000
34798275 1.000489e+000 -3.551841e-001 1.455442e-004 -1.689622e+002 2.038622e-004 2.105966e+001 9.965245e-001 -1.477679e+000
35098260 1.000888e+000 -4.184687e-001 1.455434e-005 -9.168230e+001 3.211655e-004 1.568901e+002 9.973391e-001 -1.464736e+000
35398245 9.997841e-001 -4.004511e-001 6.027469e-005 -3.997099e+001 1.582110e-004 -7.827390e+001 9.988234e-001 -1.486819e+000
35698230 1.000164e+000 -4.296247e-001 3.814249e-005 -5.043806e+001 1.593987e-004 9.840761e+001 9.981743e-001 -1.489924e+000
35998215 1.000462e+000 -3.978030e-001 1.186736e-004 4.277359e+001 1.838936e-004 -5.219874e+001 9.990765e-001 -1.493621e+000
36298200 1.000506e+000 -3.657309e-001 4.030333e-005 1.259729e+002 1.916867e-004 7.372778e+001 9.987984e-001 -1.567394e+000
36598185 1.000564e+000 -3.901775e-001 1.061329e-004 7.700551e+001 6.805523e-005 -1.588669e+002 9.978639e-001 -1.550657e+000
36898170 1.000844e+000 -3.834237e-001 7.602897e-005 -6.763850e+001 1.243454e-004 -3.034113e+001 9.977173e-001 -1.636079e+000
37198155 1.000569e+000 -3.742222e-001 1.087304e-004 1.675391e+002 1.370642e-004 8.767332e+001 9.976511e-001 -1.579844e+000
37498140 1.000715e+000 -3.611032e-001 3.333044e-005 1.649727e+001 7.947893e-005 -1.241294e+002 9.982085e-001 -1.556773e+000
37798125 1.000084e+000 -3.912005e-001 1.333179e-004 2.093514e+001 1.124066e-004 9.086941e+001 9.981461e-001 -1.555107e+000
38098110 9.999270e-001 -3.820184e-001 5.134906e-005 6.137091e+001 1.696355e-004 -1.137091e+002 9.972276e-001 -1.651921e+000
38398095 9.997124e-001 -3.854930e-001 4.223352e-005 -8.962175e+001 2.021975e-004 -6.346655e+001 9.970558e-001 -1.688495e+000
38698080 1.000572e+000 -4.119816e-001 9.330293e-006 1.461167e+002 7.722187e-005 7.971204e+001 9.974105e-001 -1.724815e+000
38998065 1.000633e+000 -4.164568e-001 7.300240e-005 -9.807703e+001 1.547557e-005 -1.005738e+002 9.968932e-001 -1.639197e+000
39298050 1.000776e+000 -4.263762e-001 4.520338e-005 5.324434e+001 6.719795e-005 1.355489e+002 9.972306e-001 -1.649281e+000
39598035 1.000801e+000 -4.005956e-001 7.876130e-005 1.224177e+002 1.373882e-004 9.390309e+001 9.988225e-001 -1.624961e+000
39898020 1.001348e+000 -3.545836e-001 1.628251e-004 1.150597e+002 2.257262e-005 -5.041486e+001 9.990338e-001 -1.539161e+000
40198005 1.000223e+000 -4.395108e-001 2.258926e-004 -8.661327e+001 2.719959e-004 -7.774818e+001 9.986376e-001 -1.822161e+000
40497990 1.000696e+000 -4.256699e-001 1.154038e-004 -7.537540e+001 2.069450e-004 -3.633545e+001 9.993653e-001 -1.775775e+000
40797975 1.000933e+000 -4.034925e-001 1.121787e-004 -5.763788e+001 2.294550e-004 -9.463615e+001 9.991040e-001 -1.749333e+000
41097960 9.998273e-001 -3.456276e-001 1.349653e-004 -1.556067e+002 9.711678e-005 -7.534995e+001 9.989469e-001 -1.743794e+000
41397945 1.000034e+000 -3.861736e-001 1.656913e-004 1.534241e+002 3.960954e-005 1.263204e+002 9.973035e-001 -1.654670e+000
41697930 9.993082e-001 -3.421284e-001 2.141478e-004 1.197374e+002 1.991729e-004 -1.150564e+002 9.983103e-001 -1.718363e+000
41997915 9.993526e-001 -4.349804e-001 1.709227e-004 2.426101e+000 3.665805e-004 1.486511e+002 9.979723e-001 -1.677502e+000
42297900 1.000845e+000 -3.561416e-001 1.602540e-004 1.146982e+002 2.239740e-004 4.972943e+001 9.987699e-001 -1.702158e+000
42597885 1.000778e+000 -3.300360e-001 9.590926e-005 9.581158e+001 6.959746e-005 3.338219e+001 9.991895e-001 -1.761765e+000
42897870 1.000253e+000 -3.641835e-001 2.871362e-004 -1.495423e+002 3.299631e-004 2.245602e+001 9.977078e-001 -1.841537e+000
43197855 1.000866e+000 -4.354695e-001 2.918127e-005 7.405262e+001 3.453069e-004 1.436102e+002 9.972026e-001 -1.901011e+000
43497840 1.000488e+000 -4.389880e-001 6.203775e-005 -1.780472e+002 3.899598e-005 1.550514e+002 9.982275e-001 -1.957911e+000
43797825 1.000373e+000 -4.349841e-001 1.156467e-004 1.320226e+002 3.235978e-004 -9.344697e+001 9.970963e-001 -1.841752e+000
44097810 1.001113e+000 -4.203191e-001 5.988099e-005 -7.684298e+000 3.206783e-004 -1.515835e+002 9.966804e-001 -1.892836e+000
44397795 1.000884e+000 -3.574318e-001 1.966613e-004 -1.652777e+001 2.664742e-004 6.749871e+001 9.972206e-001 -1.970419e+000
44697780 1.001026e+000 -3.867152e-001 1.160298e-004 8.383642e+001 8.416913e-005 1.568285e+002 9.981489e-001 -1.937034e+000
44997765 1.001607e+000 -4.300672e-001 8.491009e-005 1.790371e+002 1.317138e-004 -5.659554e+001 9.994671e-001 -1.975011e+000
45297750 1.000663e+000 -4.489825e-001 1.461170e-004 -1.507670e+002 3.130297e-004 -1.191490e+001 9.998507e-001 -1.946521e+000
45597735 1.001538e+000 -4.042792e-001 1.498551e-004 -1.149351e+002 4.397813e-004 -1.559016e+000 9.991537e-001 -1.984795e+000
45897720 1.001380e+000 -4.401268e-001 5.389977e-005 1.593315e+002 2.514346e-004 -1.082739e+002 9.992861e-001 -1.967381e+000
46197705 1.001275e+000 -4.660011e-001 9.248737e-005 -1.170443e+002 1.967108e-004 9.668095e+001 9.982585e-001 -1.929949e+000
46497690 1.001342e+000 -4.436492e-001 8.378192e-005 1.015318e+002 4.774511e-004 -1.671036e+002 9.986277e-001 -1.900267e+000
46797675 1.000986e+000 -4.211520e-001 2.094524e-004 -1.733032e+002 2.305823e-004 -1.595667e+002 9.983690e-001 -1.991487e+000
47097660 1.001155e+000 -4.951912e-001 7.559544e-005 9.220835e+001 2.325848e-004 -7.180257e+000 9.976497e-001 -2.088767e+000
47397645 1.000965e+000 -5.007885e-001 1.465170e-004 8.508248e+001 3.571574e-005 9.392717e+001 9.965545e-001 -2.097945e+000
