!Agilent Technologies,N5230C,SG49000117,A.08.50.07
!Agilent N5230C: A.08.50.07
!Date: Thursday, May 16, 2024 18:16:06
!Correction: S11(Full 2 Port(1,2)) 
!S21(Full 2 Port(1,2)) 
!S12(Full 2 Port(1,2)) 
!S22(Full 2 Port(1,2)) 
!S2P File: Measurements: S11, S21, S12, S22:
# Hz S  MA   R 50
300000 1.006691e+000 -4.870800e-001 1.925487e-004 1.118672e+002 1.718799e-004 -1.080141e+002 1.011584e+000 -8.695028e-001
599985 9.828645e-001 3.038386e-001 5.260425e-005 9.089588e+001 1.801854e-004 -3.815504e+001 9.641021e-001 3.464905e-001
899970 9.974535e-001 -7.213672e-002 2.527079e-005 1.507874e+001 1.886243e-004 3.588972e+001 9.848101e-001 -4.722102e-001
1199955 9.982620e-001 -2.750299e-002 1.302705e-004 1.206578e+002 2.482461e-004 -6.594357e+000 9.941577e-001 -2.313631e-001
1499940 9.938241e-001 1.335312e-001 5.175386e-005 8.512743e+001 1.230933e-004 4.935252e+001 9.918820e-001 3.700474e-002
1799925 9.919146e-001 2.145991e-001 1.208677e-004 3.024815e+001 2.737506e-004 -3.799990e+001 9.892135e-001 -7.202034e-002
2099910 9.993178e-001 -3.804924e-002 7.718713e-005 -6.570445e+000 2.134338e-004 -8.371709e+001 9.983949e-001 -1.865264e-002
2399895 9.993890e-001 -1.239587e-001 5.445634e-005 8.516411e+001 1.904257e-004 1.487825e+002 1.002153e+000 -8.806430e-002
2699880 9.995077e-001 -2.638744e-001 3.819740e-005 -1.466217e+002 2.422505e-004 -1.272995e+002 9.948597e-001 -3.022341e-001
2999865 9.995687e-001 -1.270873e-001 7.501523e-005 9.327480e+001 1.891209e-004 -8.677377e+001 9.984511e-001 -2.837022e-001
3299850 1.000429e+000 -1.169137e-001 6.443400e-005 -7.993514e+001 8.780080e-005 -1.304739e+002 9.970058e-001 -3.020644e-001
3599835 1.000148e+000 -1.122835e-001 7.323281e-005 -7.877616e+001 1.033347e-004 1.597083e+002 9.975910e-001 -3.086550e-001
3899820 9.996005e-001 -1.521756e-001 2.096717e-005 -9.920174e+000 1.516177e-004 -7.740401e+000 9.979765e-001 -3.213804e-001
4199805 1.000308e+000 -1.780264e-001 9.526874e-005 1.631240e+002 2.722098e-004 -1.535281e+002 9.993050e-001 -3.090215e-001
4499790 1.000263e+000 -1.483102e-001 5.412527e-005 1.121555e+002 1.149389e-004 7.436066e+001 9.985110e-001 -3.512350e-001
4799775 1.000353e+000 -1.377169e-001 1.134304e-004 5.927377e+000 1.151836e-004 -4.908243e+001 9.985445e-001 -3.496079e-001
5099760 1.000956e+000 -1.254854e-001 5.149769e-005 1.706185e+002 2.231287e-004 1.764509e+002 9.995457e-001 -3.159586e-001
5399745 1.000229e+000 -1.101180e-001 7.305838e-005 -5.346323e+001 1.844847e-004 -1.129858e+002 9.992686e-001 -2.907502e-001
5699730 1.000198e+000 -1.124633e-001 8.933148e-005 2.350697e+001 9.488028e-005 -6.784090e+001 9.994004e-001 -3.442664e-001
5999715 9.991444e-001 -9.018217e-002 5.036204e-005 -1.262873e+001 1.867573e-004 -1.707871e+002 9.998223e-001 -3.148072e-001
6299700 9.998619e-001 -1.513092e-001 7.726555e-005 -1.383169e+002 1.553004e-004 1.087777e+002 9.998087e-001 -3.738260e-001
6599685 9.995853e-001 -1.319908e-001 7.032180e-005 3.431119e+001 2.211487e-004 -1.631423e+002 9.993848e-001 -4.160565e-001
6899670 9.995772e-001 -1.175741e-001 9.748697e-005 -2.268361e+001 6.434715e-005 -2.684393e+001 9.991078e-001 -3.866588e-001
7199655 1.000226e+000 -1.487912e-001 5.046726e-005 1.591053e+002 4.519135e-005 1.384197e+002 9.992842e-001 -4.699700e-001
7499640 9.998662e-001 -1.526949e-001 7.960654e-005 1.619060e+002 2.065540e-004 -1.780692e+001 9.994802e-001 -4.952388e-001
7799625 1.000329e+000 -1.460888e-001 4.894713e-005 -1.435272e+002 1.315045e-004 -1.686291e+002 9.987735e-001 -4.235561e-001
8099610 9.997233e-001 -1.580740e-001 2.120370e-005 6.436564e+000 1.530403e-004 -1.004253e+002 9.981561e-001 -5.353863e-001
8399595 1.000433e+000 -1.520290e-001 2.608751e-005 1.608753e+002 3.963754e-005 1.233323e+002 9.981158e-001 -5.382431e-001
8699580 1.000177e+000 -1.337155e-001 7.103516e-005 -1.200516e+002 6.676643e-005 4.572988e+001 9.998777e-001 -5.149717e-001
8999565 1.000484e+000 -1.166203e-001 1.023163e-004 9.396729e+001 2.053794e-004 -1.230975e+002 9.980660e-001 -5.117260e-001
9299550 1.000178e+000 -1.374964e-001 4.360625e-005 -7.581606e+001 1.084047e-004 -1.423825e+002 9.987321e-001 -5.238745e-001
9599535 1.000185e+000 -2.091413e-001 3.205736e-005 -1.661234e+002 7.191235e-005 2.719949e+000 9.977196e-001 -6.126253e-001
9899520 1.000222e+000 -2.491655e-001 4.984290e-005 3.141796e+000 6.871037e-006 -7.581908e+001 9.962263e-001 -8.263255e-001
10199505 9.996933e-001 -1.209458e-001 3.373170e-005 1.236795e+002 9.593610e-005 -4.659167e+001 9.984584e-001 -6.186687e-001
10499490 1.000064e+000 -1.291403e-001 6.078200e-005 1.780728e+002 2.753445e-004 -9.752807e+001 9.975057e-001 -5.849791e-001
10799475 1.000073e+000 -1.190740e-001 1.886934e-005 1.395322e+002 4.629580e-005 -3.154004e+000 9.986082e-001 -5.946665e-001
11099460 1.000185e+000 -1.315297e-001 5.686041e-005 3.803817e+001 1.413790e-004 1.270065e+002 9.984674e-001 -5.583827e-001
11399445 9.997718e-001 -1.469573e-001 5.605403e-005 7.815339e+001 2.709257e-004 1.592363e+002 9.973788e-001 -6.306005e-001
11699430 1.000335e+000 -1.315573e-001 1.116853e-004 -6.427182e+001 2.486160e-004 1.340303e+002 9.979161e-001 -5.427014e-001
11999415 9.995420e-001 -1.324870e-001 8.248570e-005 1.130277e+002 2.437277e-004 -2.854286e+001 9.993687e-001 -5.708331e-001
12299400 9.993947e-001 -1.349761e-001 2.422347e-005 1.571304e+002 1.542261e-004 -8.212666e+001 9.993341e-001 -5.295519e-001
12599385 1.000218e+000 -1.784594e-001 9.785641e-005 -4.007816e+001 2.363858e-004 -1.052847e+002 9.997360e-001 -7.261799e-001
12899370 1.000780e+000 -2.098047e-001 7.794666e-005 9.093962e+001 8.707221e-005 3.218467e+001 9.986134e-001 -7.584150e-001
13199355 9.996186e-001 -1.871450e-001 8.028869e-005 1.582346e+002 2.938801e-004 5.934414e+001 9.990981e-001 -7.003663e-001
13499340 9.998472e-001 -2.163802e-001 6.671487e-005 3.884119e+001 2.097449e-004 -1.176400e+002 9.973850e-001 -7.057841e-001
13799325 1.000260e+000 -1.974775e-001 5.112860e-005 1.627835e+001 3.501202e-004 3.925009e+001 9.988235e-001 -6.734331e-001
14099310 1.000464e+000 -1.939610e-001 7.500106e-005 1.443256e+002 2.364184e-004 -1.762156e+002 9.986137e-001 -7.035764e-001
14399295 1.000096e+000 -1.915647e-001 5.274083e-005 -1.791822e+002 1.018745e-004 -1.554919e+002 9.995114e-001 -6.866353e-001
14699280 1.000588e+000 -1.902032e-001 8.325109e-005 1.008332e+002 1.600894e-004 -4.735992e+001 9.981821e-001 -7.025203e-001
14999265 1.000020e+000 -1.890961e-001 1.481150e-005 -1.448211e+002 1.114728e-004 -1.027997e+002 9.994270e-001 -7.613881e-001
15299250 9.994873e-001 -1.707302e-001 5.345790e-005 1.547577e+002 2.413035e-004 -5.252013e+001 9.979082e-001 -7.210720e-001
15599235 1.000311e+000 -2.102391e-001 1.073646e-004 1.708531e+002 1.795024e-004 5.765205e+001 9.996393e-001 -7.796987e-001
15899220 1.000066e+000 -1.881756e-001 3.583916e-005 -8.038247e+001 1.517837e-004 -3.044638e+001 9.995019e-001 -8.102022e-001
16199205 1.000243e+000 -1.809853e-001 7.588998e-005 3.988945e+000 1.267403e-004 6.269987e+001 1.000046e+000 -7.407444e-001
16499190 1.000236e+000 -2.138903e-001 5.251217e-006 -1.160172e+002 4.043892e-005 -1.519473e+002 1.000558e+000 -8.074799e-001
16799175 9.992413e-001 -1.859930e-001 2.151887e-005 7.652397e+001 1.446884e-004 -8.052869e+000 9.995188e-001 -7.867067e-001
17099160 1.000367e+000 -1.990509e-001 4.009699e-005 -1.148643e+002 2.617468e-004 7.887615e+001 9.992888e-001 -9.025050e-001
17399145 9.999442e-001 -2.355419e-001 1.287940e-004 -1.138360e+001 1.052644e-004 -1.160733e+002 9.999658e-001 -8.739048e-001
17699130 1.000272e+000 -2.099665e-001 4.690841e-005 -6.050574e+001 3.694976e-004 4.743373e+001 9.994435e-001 -8.281096e-001
17999115 9.998289e-001 -1.927865e-001 3.907384e-005 1.130313e+002 4.079294e-004 -1.320769e+002 9.987520e-001 -8.690243e-001
18299100 9.999233e-001 -1.886786e-001 1.240391e-004 1.519793e+002 3.121216e-004 -5.352014e+001 9.985728e-001 -9.488369e-001
18599085 1.000265e+000 -2.392037e-001 7.066313e-005 1.513383e+002 8.366890e-005 1.308320e+002 9.972445e-001 -9.643949e-001
18899070 9.997708e-001 -2.356762e-001 1.524055e-005 1.528188e+002 1.797963e-004 -3.334665e+001 9.986749e-001 -8.678909e-001
19199055 1.000531e+000 -2.521564e-001 4.885165e-005 4.735761e+001 3.031879e-004 6.881022e+001 9.978175e-001 -8.777465e-001
19499040 1.000524e+000 -2.004337e-001 6.917314e-005 1.798161e+002 7.725424e-005 -1.411410e+002 9.986020e-001 -9.156983e-001
19799025 1.000419e+000 -2.246451e-001 4.939944e-005 -1.555982e+002 2.208709e-004 -3.025627e+001 9.981644e-001 -9.000925e-001
20099010 1.000141e+000 -2.412276e-001 6.355043e-005 -2.033825e+001 3.991169e-004 -1.764083e+002 9.982927e-001 -9.592230e-001
20398995 9.994985e-001 -2.182743e-001 2.491477e-005 -1.204422e+002 2.469426e-004 -7.817888e+001 9.977469e-001 -9.576378e-001
20698980 9.995700e-001 -2.250650e-001 1.280472e-004 -1.314622e+002 1.349057e-004 3.579467e+001 9.985468e-001 -1.000157e+000
20998965 9.990935e-001 -2.296456e-001 1.242766e-004 -6.889396e+001 4.111330e-004 1.688925e+002 9.977823e-001 -9.682897e-001
21298950 9.999624e-001 -2.050399e-001 6.992906e-005 -1.222919e+002 2.655518e-004 5.362382e+001 9.978988e-001 -8.627524e-001
21598935 9.996765e-001 -2.188802e-001 1.371865e-004 -1.332532e+002 2.117755e-004 1.773351e+002 9.970264e-001 -9.648461e-001
21898920 1.000081e+000 -2.498043e-001 2.396199e-005 7.662834e+001 2.379033e-004 3.044079e+000 9.972768e-001 -9.957577e-001
22198905 1.000016e+000 -2.632747e-001 8.540484e-005 8.202187e+001 1.110792e-004 1.645999e+002 9.990807e-001 -1.093863e+000
22498890 1.000127e+000 -2.122666e-001 5.276677e-005 1.419251e+002 1.484334e-004 -1.573218e+002 9.982597e-001 -1.071805e+000
22798875 1.000432e+000 -2.325321e-001 4.667606e-005 1.398191e+002 1.903159e-004 -5.441236e+001 9.994702e-001 -1.107877e+000
23098860 1.000088e+000 -2.332092e-001 3.151355e-005 -3.944943e+001 1.355201e-004 -6.451299e+001 1.000152e+000 -1.120288e+000
23398845 1.000290e+000 -2.546142e-001 5.729428e-005 -9.685588e+001 1.170346e-004 1.401758e+002 9.978570e-001 -1.080126e+000
23698830 1.000347e+000 -2.964973e-001 1.248429e-005 -8.172916e-001 4.121198e-004 1.186553e+002 9.976676e-001 -1.077303e+000
23998815 1.000874e+000 -2.774652e-001 7.647335e-005 -6.561919e+001 3.567820e-005 2.961116e+001 9.978480e-001 -1.146205e+000
24298800 1.000576e+000 -2.903144e-001 4.756028e-005 -8.041569e+001 3.005275e-004 8.368729e+001 9.968995e-001 -1.109966e+000
24598785 9.996035e-001 -2.772087e-001 2.425434e-005 6.316618e+001 3.286988e-005 9.955104e+001 9.985228e-001 -1.059737e+000
24898770 1.000198e+000 -2.996619e-001 5.122142e-005 2.893243e+001 2.722611e-004 2.574582e+001 9.983683e-001 -1.151637e+000
25198755 1.000510e+000 -2.491004e-001 3.677119e-005 -1.424519e+002 2.312883e-004 4.033685e+001 9.980483e-001 -1.221260e+000
25498740 1.000461e+000 -2.988554e-001 4.463753e-005 1.582478e+002 2.013542e-004 -1.028286e+002 9.986425e-001 -1.198622e+000
25798725 1.000192e+000 -3.003944e-001 8.774747e-005 7.934152e+001 2.556981e-004 2.962661e+001 9.981960e-001 -1.221591e+000
26098710 1.000234e+000 -2.993163e-001 7.660632e-005 -7.096090e+001 1.533941e-004 -1.528911e+002 9.988342e-001 -1.301936e+000
26398695 1.000463e+000 -2.958889e-001 4.751906e-005 2.401386e+000 2.273717e-005 4.734124e+001 9.989237e-001 -1.274637e+000
26698680 1.000873e+000 -2.933692e-001 8.988359e-005 6.560676e-002 2.713961e-004 1.327473e+002 9.995689e-001 -1.236556e+000
26998665 1.000887e+000 -2.877020e-001 1.591460e-004 9.148866e+001 1.755684e-005 -9.362793e+001 9.976847e-001 -1.180646e+000
27298650 1.000300e+000 -3.100629e-001 1.056806e-004 -4.486593e+001 2.206144e-004 5.657672e+001 9.991235e-001 -1.268768e+000
27598635 1.000459e+000 -2.908203e-001 9.840033e-005 -1.041364e+002 2.462064e-004 1.605153e+002 9.999293e-001 -1.217918e+000
27898620 1.000452e+000 -2.959846e-001 1.398427e-005 -1.440679e+002 1.322267e-004 -1.779774e+002 9.993695e-001 -1.296319e+000
28198605 9.998121e-001 -2.834723e-001 7.173850e-005 9.097280e+001 2.689497e-004 6.964973e+001 1.000143e+000 -1.292620e+000
28498590 9.995487e-001 -3.300474e-001 6.868067e-005 -1.137046e+002 2.598434e-004 -3.882692e+001 9.983575e-001 -1.334016e+000
28798575 9.996015e-001 -3.362206e-001 7.830915e-005 -7.078308e+001 2.106340e-004 4.960567e+001 9.978262e-001 -1.398298e+000
29098560 1.000008e+000 -3.179775e-001 7.606374e-005 9.212415e+001 2.379290e-004 -1.727128e+002 9.989102e-001 -1.310307e+000
29398545 9.996513e-001 -2.716941e-001 1.568414e-004 -2.551398e+001 1.061289e-004 -7.464754e+001 9.986359e-001 -1.297530e+000
29698530 1.000769e+000 -3.112786e-001 2.312676e-005 -7.687200e+001 5.322160e-005 -8.075399e+001 9.994674e-001 -1.353662e+000
29998515 1.000426e+000 -3.274121e-001 2.814627e-005 -1.605290e+002 1.772359e-004 1.525711e+002 9.996642e-001 -1.360328e+000
30298500 1.000314e+000 -3.099138e-001 5.397869e-005 1.432921e+002 6.894948e-005 7.168141e+001 1.000396e+000 -1.388744e+000
30598485 1.000605e+000 -2.588259e-001 1.121614e-004 1.088758e+002 1.910070e-004 1.618866e+002 9.987159e-001 -1.408448e+000
30898470 1.000362e+000 -2.801643e-001 9.740106e-005 9.268048e+000 1.348810e-004 7.315466e+001 9.987888e-001 -1.400123e+000
31198455 1.000632e+000 -3.176028e-001 9.761538e-005 1.163292e+002 2.500363e-004 7.217604e+001 9.988559e-001 -1.472304e+000
31498440 1.000776e+000 -3.189747e-001 1.425863e-004 -1.400729e+001 3.639109e-004 -1.689950e+002 9.979126e-001 -1.465142e+000
31798425 1.000637e+000 -3.705293e-001 1.519728e-004 -2.813404e+001 1.241743e-004 7.251288e+000 9.988831e-001 -1.416954e+000
32098410 1.000287e+000 -3.542928e-001 4.822631e-005 5.181667e+001 1.220867e-004 1.591027e+002 9.993650e-001 -1.397026e+000
32398395 1.000985e+000 -3.636160e-001 1.461415e-005 -5.992159e+001 1.394455e-004 -6.148521e+001 9.998422e-001 -1.404284e+000
32698380 1.000984e+000 -3.449588e-001 5.113411e-005 -1.055232e+002 9.586389e-005 3.173018e+001 9.991437e-001 -1.455298e+000
32998365 1.000911e+000 -3.136494e-001 7.339497e-005 6.101072e+001 3.407348e-004 -1.316898e+002 9.983943e-001 -1.529475e+000
33298350 1.001029e+000 -3.362246e-001 8.759595e-005 -1.361152e+002 2.488642e-004 8.471745e+000 9.986213e-001 -1.540199e+000
33598335 1.000111e+000 -3.216068e-001 1.015598e-004 -1.762936e+002 2.388084e-004 1.203672e+002 9.986391e-001 -1.499107e+000
33898320 9.996722e-001 -3.696676e-001 9.633320e-005 -6.759992e+001 1.388934e-004 -9.329630e+001 9.983357e-001 -1.515223e+000
34198305 9.994795e-001 -3.584323e-001 9.415575e-005 2.445801e+001 3.316937e-004 6.755093e+001 9.974479e-001 -1.570391e+000
34498290 9.999732e-001 -3.658778e-001 2.599864e-005 1.255382e+002 8.559223e-005 1.692877e+002 9.975891e-001 -1.467236e+000
34798275 1.000211e+000 -3.731105e-001 1.407158e-004 -5.272707e+000 2.161998e-004 5.308727e+001 9.966240e-001 -1.633025e+000
35098260 1.000269e+000 -3.705267e-001 3.391041e-005 4.195973e+001 9.147449e-005 -1.612481e+002 9.975375e-001 -1.480224e+000
35398245 1.000645e+000 -3.993100e-001 8.992372e-005 -7.020804e+001 5.123099e-005 4.951458e+001 9.983816e-001 -1.570359e+000
35698230 1.000374e+000 -3.789414e-001 6.421498e-005 -3.580481e+001 2.187874e-004 9.844793e+001 1.000345e+000 -1.594780e+000
35998215 9.997454e-001 -4.058644e-001 7.964204e-005 3.684212e+001 1.183398e-005 6.195728e+001 9.993426e-001 -1.630280e+000
36298200 1.000072e+000 -3.885546e-001 8.343589e-005 -6.946051e+001 3.116484e-004 1.557831e+001 9.981353e-001 -1.630973e+000
36598185 1.000427e+000 -3.556922e-001 6.447516e-005 1.695030e+002 2.590634e-004 -1.666146e+002 9.983498e-001 -1.751692e+000
36898170 1.000730e+000 -4.228386e-001 1.284884e-004 -1.037165e+002 9.884297e-005 -1.688077e+001 9.989529e-001 -1.655216e+000
37198155 1.001108e+000 -3.616766e-001 6.763923e-005 -9.967708e+000 2.798934e-004 1.223213e+002 9.985401e-001 -1.641558e+000
37498140 1.000504e+000 -4.088433e-001 1.718666e-005 1.239887e+002 1.076585e-004 -7.270948e+001 9.980399e-001 -1.681386e+000
37798125 1.000013e+000 -4.059510e-001 4.717001e-005 9.548277e+001 1.723406e-004 4.169289e+001 9.986032e-001 -1.683163e+000
38098110 9.994726e-001 -4.172085e-001 9.340655e-005 3.655808e+001 1.320905e-004 -1.717181e+002 9.983463e-001 -1.698570e+000
38398095 1.000165e+000 -3.716665e-001 3.545949e-005 -7.864727e+001 2.656846e-004 -2.184531e+001 9.975671e-001 -1.731186e+000
38698080 1.000398e+000 -3.972610e-001 1.592546e-005 8.646304e+001 1.403416e-004 -1.626714e+002 9.965506e-001 -1.753599e+000
38998065 1.000679e+000 -4.166508e-001 1.403342e-004 8.834776e+001 1.267572e-004 -5.639711e+001 9.986023e-001 -1.736775e+000
39298050 1.001595e+000 -4.151877e-001 1.253122e-004 5.257933e+001 3.275492e-005 -4.898539e+001 9.979663e-001 -1.747203e+000
39598035 1.000425e+000 -3.484203e-001 4.607733e-005 7.430062e+001 2.277202e-004 1.776278e+002 1.000042e+000 -1.713924e+000
39898020 1.000879e+000 -3.968562e-001 6.718193e-005 9.340329e+001 8.753352e-005 -5.585248e+001 9.998048e-001 -1.654937e+000
40198005 1.000089e+000 -4.258725e-001 2.810682e-005 8.329806e+001 1.648462e-004 1.564771e+002 9.998105e-001 -1.869323e+000
40497990 1.001159e+000 -4.217619e-001 1.974139e-004 -1.198846e+002 1.190407e-004 4.792200e+001 9.997420e-001 -1.877419e+000
40797975 1.000722e+000 -4.415597e-001 8.268359e-005 -4.500331e+001 2.462721e-004 -1.324839e+002 9.998130e-001 -1.889912e+000
41097960 1.000709e+000 -3.730319e-001 2.522211e-005 -8.283361e+001 2.067430e-004 7.085081e+001 9.997814e-001 -1.868922e+000
41397945 9.989800e-001 -3.852685e-001 1.104370e-004 -1.458397e+002 2.957246e-004 1.728154e+002 9.983984e-001 -1.714747e+000
41697930 9.995727e-001 -4.049736e-001 2.031588e-004 -1.238856e+002 2.643306e-004 8.752635e+001 9.993027e-001 -1.766775e+000
41997915 1.000898e+000 -3.877918e-001 1.810120e-004 3.001281e+001 2.075186e-004 -4.840253e+001 9.979904e-001 -1.896704e+000
42297900 1.001199e+000 -4.101305e-001 1.080200e-004 -1.572249e+002 1.136799e-004 -4.428118e+001 9.981578e-001 -1.816527e+000
42597885 1.001271e+000 -3.622422e-001 1.291214e-004 1.764920e+001 8.351034e-005 5.118121e+001 1.000020e+000 -1.888286e+000
42897870 1.000916e+000 -3.247489e-001 8.333782e-005 1.701572e+002 4.247359e-004 7.180813e+001 9.988142e-001 -1.911602e+000
43197855 1.001360e+000 -4.114656e-001 2.722894e-004 -1.282190e+002 1.359280e-004 7.522361e+001 9.989248e-001 -2.015296e+000
43497840 9.997963e-001 -4.226155e-001 3.787606e-005 -8.465076e+001 2.290189e-004 8.686709e+001 9.975725e-001 -1.980850e+000
43797825 1.000589e+000 -4.134847e-001 2.475203e-004 1.635143e+002 3.235757e-004 -1.614527e+002 9.980088e-001 -1.980394e+000
44097810 1.000827e+000 -4.427633e-001 9.880541e-005 -1.504984e+002 1.497173e-004 1.350473e+002 9.999722e-001 -2.002717e+000
44397795 1.001095e+000 -4.493059e-001 4.877723e-005 1.725945e+002 4.690297e-004 1.491621e+002 1.000847e+000 -2.025276e+000
44697780 1.001278e+000 -4.327913e-001 2.256554e-005 1.753253e+002 1.974665e-004 4.666250e+001 9.990111e-001 -1.978848e+000
44997765 1.001165e+000 -4.484162e-001 1.779242e-004 -1.309111e+002 1.456457e-004 5.979360e+001 9.998500e-001 -2.000281e+000
45297750 1.000054e+000 -4.543920e-001 5.378390e-005 -1.050702e+002 3.517313e-004 -1.049411e+002 1.000770e+000 -2.024588e+000
45597735 1.000946e+000 -5.095999e-001 6.650916e-005 -1.512700e+001 4.840315e-005 1.535198e+002 1.001763e+000 -2.092956e+000
45897720 1.001741e+000 -4.011144e-001 6.813016e-005 -1.319133e+002 7.691603e-005 -4.873073e+001 1.000208e+000 -2.167737e+000
46197705 1.001214e+000 -4.647079e-001 1.442130e-004 -5.085540e+001 1.400267e-004 1.770061e+002 1.000157e+000 -2.068948e+000
46497690 1.001500e+000 -4.948257e-001 1.309094e-004 2.754685e+001 3.310853e-004 1.337250e+002 9.986514e-001 -2.086392e+000
46797675 1.000703e+000 -4.654443e-001 1.853868e-004 -1.048728e+002 2.123749e-004 -1.534921e+002 9.992585e-001 -2.044013e+000
47097660 1.000344e+000 -5.154682e-001 6.539113e-005 1.244132e+002 2.354288e-004 6.791268e+001 9.981505e-001 -2.118922e+000
