!Agilent Technologies,N5230C,SG49000117,A.08.50.07
!Agilent N5230C: A.08.50.07
!Date: Thursday, May 16, 2024 18:16:51
!Correction: S11(Full 2 Port(1,2)) 
!S21(Full 2 Port(1,2)) 
!S12(Full 2 Port(1,2)) 
!S22(Full 2 Port(1,2)) 
!S2P File: Measurements: S11, S21, S12, S22:
# Hz S  MA   R 50
300000 1.006927e+000 -4.563833e-001 9.567591e-005 -3.474025e+001 2.415309e-004 4.011735e+001 1.012555e+000 -7.470384e-001
599985 9.831793e-001 3.611202e-001 6.476511e-005 -1.582116e+002 1.526188e-004 -1.738556e+002 9.651502e-001 4.029044e-001
899970 9.971557e-001 -6.800816e-002 3.779660e-005 -4.595934e+001 9.116367e-005 -7.800189e+001 9.830616e-001 -3.568012e-001
1199955 9.976124e-001 -5.088250e-002 8.041327e-005 1.538612e+002 7.997278e-005 -2.679510e+001 9.950713e-001 -2.883548e-001
1499940 9.939774e-001 1.810832e-001 2.415502e-005 2.005494e+001 1.755050e-004 1.399261e+002 9.906920e-001 4.045876e-002
1799925 9.919227e-001 2.323590e-001 1.299549e-004 -1.275546e+002 1.353357e-004 6.897372e+001 9.892758e-001 -2.347071e-002
2099910 9.993212e-001 1.053624e-003 9.554379e-005 6.463885e+001 3.990703e-004 -2.633889e+001 9.970113e-001 -5.991015e-003
2399895 9.988520e-001 -1.248204e-001 1.330334e-004 1.210273e+002 1.436100e-004 4.839042e+000 1.003048e+000 -1.414679e-001
2699880 9.994860e-001 -2.328421e-001 7.634829e-005 -1.603753e+002 3.464366e-006 3.690585e+001 9.945443e-001 -3.594168e-001
2999865 9.998930e-001 -1.441527e-001 6.527496e-005 -6.349073e+001 7.935508e-005 9.810637e+001 9.977950e-001 -3.308949e-001
3299850 1.000329e+000 -1.318736e-001 4.564516e-005 5.953345e+001 9.024524e-005 -4.021592e+001 9.981834e-001 -2.968912e-001
3599835 1.000016e+000 -1.034995e-001 6.883476e-005 4.330888e+001 6.922820e-005 -1.328743e+002 9.978963e-001 -3.011680e-001
3899820 9.997219e-001 -1.406927e-001 9.916302e-005 1.537173e+002 6.129602e-005 -1.307833e+002 9.975045e-001 -2.996301e-001
4199805 1.000510e+000 -1.656659e-001 4.724840e-005 -1.752683e+002 1.733347e-004 -1.574480e+002 9.989694e-001 -4.259899e-001
4499790 1.000561e+000 -1.646940e-001 9.974972e-005 1.545334e+002 2.922573e-004 2.638989e+001 9.989330e-001 -4.184844e-001
4799775 1.000701e+000 -1.306671e-001 4.326197e-005 4.955809e+001 1.040076e-004 -1.137269e+002 9.995605e-001 -3.233578e-001
5099760 1.000744e+000 -1.451260e-001 8.432988e-005 4.480914e+001 6.350969e-005 4.818955e+001 1.000024e+000 -3.942263e-001
5399745 1.000463e+000 -1.268340e-001 8.568572e-005 -1.363409e+002 3.752625e-005 6.902412e+001 9.985547e-001 -3.008169e-001
5699730 1.000047e+000 -1.445273e-001 9.984296e-005 1.999939e+001 7.321939e-005 -8.349424e+001 1.000898e+000 -3.699013e-001
5999715 9.991386e-001 -1.007718e-001 8.768361e-005 -5.126443e+001 1.562151e-004 1.333504e+002 9.998167e-001 -3.654984e-001
6299700 1.000215e+000 -1.189189e-001 1.399684e-004 1.256794e+002 2.098624e-004 -5.453062e+001 9.994678e-001 -4.033711e-001
6599685 9.997444e-001 -1.244929e-001 7.431154e-005 1.021646e+001 2.020649e-004 -1.769271e+002 1.000105e+000 -4.552639e-001
6899670 9.996930e-001 -1.244423e-001 2.307919e-005 1.206535e+002 6.788070e-005 6.988708e+001 9.991421e-001 -4.299207e-001
7199655 1.000184e+000 -1.490350e-001 9.276591e-005 1.450699e+001 1.975824e-004 4.839482e+001 9.988948e-001 -4.647023e-001
7499640 1.000193e+000 -1.919781e-001 5.329119e-005 1.228344e+002 4.100164e-005 1.506894e+002 9.993630e-001 -5.816976e-001
7799625 1.000715e+000 -1.660862e-001 2.068183e-005 7.736120e+001 1.392907e-004 9.886433e+001 9.976584e-001 -4.617553e-001
8099610 1.000153e+000 -1.187523e-001 1.069413e-004 -6.383715e+001 5.875306e-005 -1.667903e+002 9.990417e-001 -5.656554e-001
8399595 1.000053e+000 -1.456053e-001 5.554035e-005 1.766954e+001 5.547683e-005 3.132885e+001 9.989970e-001 -6.006628e-001
8699580 9.998471e-001 -1.507107e-001 5.058404e-005 -1.362989e+002 2.193721e-004 3.455066e+001 9.982341e-001 -6.117473e-001
8999565 1.000450e+000 -1.527890e-001 7.335041e-005 1.274692e+002 4.379090e-005 1.727489e+002 9.990693e-001 -5.899459e-001
9299550 1.000193e+000 -1.464401e-001 7.696720e-005 1.419231e+002 1.690798e-004 1.214768e+002 9.987050e-001 -5.036901e-001
9599535 9.998401e-001 -2.036819e-001 2.180634e-005 9.242060e+000 7.684261e-005 -1.271304e+002 9.973296e-001 -6.913695e-001
9899520 9.998048e-001 -2.287739e-001 7.316794e-005 6.189520e+000 9.437776e-005 9.816624e+001 9.964103e-001 -8.528565e-001
10199505 1.000385e+000 -1.553644e-001 1.106519e-005 -2.870492e+001 8.157107e-005 9.096814e+001 9.980583e-001 -5.509347e-001
10499490 1.000024e+000 -1.307461e-001 1.276747e-005 4.983768e+000 2.247047e-004 -1.772583e+002 9.987158e-001 -5.735546e-001
10799475 1.000138e+000 -1.038201e-001 3.485813e-005 4.913080e+001 2.726079e-005 -1.319389e+002 9.981249e-001 -5.087929e-001
11099460 9.999561e-001 -1.375445e-001 2.704372e-005 -9.512296e+001 1.942926e-004 1.015459e+002 9.984753e-001 -6.120510e-001
11399445 1.000079e+000 -1.362260e-001 3.504160e-005 -9.016172e+001 1.342565e-004 -1.386726e+002 9.981939e-001 -6.436868e-001
11699430 1.000252e+000 -1.511997e-001 7.242595e-005 1.757602e+002 1.208240e-004 -1.027917e+000 9.990574e-001 -6.043373e-001
11999415 9.999728e-001 -1.701098e-001 5.036225e-005 8.589434e+001 2.685049e-005 -1.439850e+002 9.996732e-001 -6.400504e-001
12299400 9.999159e-001 -1.416984e-001 1.186332e-004 1.546206e+002 2.082117e-004 -8.510017e+000 9.994890e-001 -6.466975e-001
12599385 9.999468e-001 -1.795137e-001 4.701271e-005 9.668627e+001 1.080289e-004 -3.888897e+001 9.973556e-001 -8.147200e-001
12899370 1.000000e+000 -2.216751e-001 4.551768e-005 1.451216e+002 7.170555e-005 8.095169e+001 9.971738e-001 -8.564442e-001
13199355 1.000471e+000 -2.061726e-001 8.152637e-005 1.452782e+002 2.525096e-004 -6.393181e+001 9.975398e-001 -6.425700e-001
13499340 9.999745e-001 -1.762873e-001 7.359249e-005 -1.789903e+002 7.227610e-005 -1.209652e+002 9.976574e-001 -6.838900e-001
13799325 9.996339e-001 -2.211525e-001 6.356603e-005 4.619480e+001 6.393222e-005 -2.617237e+001 9.975336e-001 -7.136310e-001
14099310 1.000051e+000 -2.194301e-001 4.827909e-005 1.434742e+002 3.235684e-004 3.723420e+001 9.991357e-001 -7.664824e-001
14399295 1.000188e+000 -1.656513e-001 1.580819e-004 -5.334239e+001 1.705304e-004 1.297415e+002 9.983068e-001 -7.131575e-001
14699280 1.000219e+000 -2.112158e-001 1.072868e-005 -1.303261e+002 2.485329e-004 -4.392977e+001 9.993084e-001 -7.795583e-001
14999265 1.000371e+000 -1.822538e-001 5.103992e-005 -1.746758e+001 2.145672e-004 3.537107e+001 9.973227e-001 -7.487848e-001
15299250 1.000062e+000 -2.010400e-001 5.434321e-005 1.362037e+002 1.039843e-004 -7.369461e+001 9.982222e-001 -7.502123e-001
15599235 9.999588e-001 -1.673140e-001 5.615497e-005 -4.994400e+000 2.015778e-004 -1.617941e+001 9.998636e-001 -8.291776e-001
15899220 1.000541e+000 -1.688202e-001 5.681145e-005 1.702662e+002 2.032168e-004 -9.606532e+001 9.987002e-001 -7.950366e-001
16199205 1.000171e+000 -2.186142e-001 1.230119e-004 -5.128270e+001 1.399288e-004 -1.262315e+002 9.989623e-001 -7.619929e-001
16499190 1.000103e+000 -1.722699e-001 4.277329e-005 -1.579507e+002 1.400037e-004 6.036570e+001 1.000373e+000 -8.303487e-001
16799175 9.996061e-001 -1.628296e-001 2.078757e-005 -1.634122e+002 7.009142e-005 1.438134e+002 1.000314e+000 -8.453273e-001
17099160 1.000530e+000 -2.146733e-001 1.001984e-004 1.134521e+002 1.230986e-004 -5.167727e+001 9.992740e-001 -9.051347e-001
17399145 9.998841e-001 -2.557723e-001 7.950104e-005 -8.304056e+001 2.374078e-004 8.675507e+001 9.998811e-001 -8.031691e-001
17699130 1.000498e+000 -2.326159e-001 3.683645e-005 1.320162e+002 1.640905e-004 -1.337905e+002 9.982794e-001 -8.793164e-001
17999115 9.996323e-001 -2.104279e-001 1.039856e-004 1.296573e+002 1.644408e-004 4.535522e+001 9.987713e-001 -9.128841e-001
18299100 1.000653e+000 -1.957548e-001 1.389826e-004 -2.941602e+001 2.909032e-004 -1.695744e+002 9.990193e-001 -1.016192e+000
18599085 1.000102e+000 -2.056171e-001 1.113304e-004 -1.795436e+002 2.452434e-004 -1.943651e+001 9.995707e-001 -1.008409e+000
18899070 1.000203e+000 -2.201337e-001 6.820834e-005 1.492134e+002 2.180961e-004 1.250422e+002 9.988872e-001 -8.647472e-001
19199055 1.000596e+000 -2.119421e-001 6.886249e-005 -1.150541e+002 1.395509e-004 -2.577559e+001 9.983129e-001 -9.330480e-001
19499040 1.000682e+000 -2.143949e-001 4.566696e-005 -1.639570e+002 5.243628e-004 6.349346e+001 9.988794e-001 -8.855813e-001
19799025 1.000882e+000 -2.175288e-001 9.390282e-005 1.354495e+002 2.118766e-004 -7.196466e+001 9.986578e-001 -1.080655e+000
20099010 1.000511e+000 -1.949411e-001 1.034207e-004 -1.092899e+002 1.210347e-004 1.234667e+002 9.971050e-001 -9.898916e-001
20398995 9.995230e-001 -2.346364e-001 8.015513e-005 1.707502e+002 3.892953e-005 1.295125e+002 9.991528e-001 -9.923052e-001
20698980 1.000109e+000 -2.041595e-001 3.114538e-005 -5.059385e+001 1.685348e-004 -9.775658e+001 9.981317e-001 -1.062626e+000
20998965 9.996836e-001 -2.132994e-001 6.704573e-005 1.128747e+002 2.183714e-004 9.226942e+001 9.977445e-001 -1.017183e+000
21298950 9.996172e-001 -2.194912e-001 1.132066e-004 -1.535476e+001 2.662546e-004 1.733457e+002 9.976277e-001 -9.577269e-001
21598935 9.996175e-001 -2.555487e-001 1.665631e-004 -1.276687e+002 5.167193e-005 5.101772e+001 9.972666e-001 -9.974545e-001
21898920 9.991387e-001 -2.882436e-001 1.090806e-004 9.875623e+001 2.969159e-004 -1.680896e+002 9.984706e-001 -1.042450e+000
22198905 9.998792e-001 -2.763805e-001 2.982177e-005 5.060748e+001 2.394201e-004 -6.306662e+001 9.974595e-001 -1.062732e+000
22498890 1.000398e+000 -2.462331e-001 4.680984e-005 1.788827e+002 8.991153e-005 1.045764e+002 9.998106e-001 -1.139631e+000
22798875 1.000129e+000 -2.476267e-001 7.417393e-005 -1.546944e+002 1.944990e-004 -5.215039e+001 9.994513e-001 -1.176347e+000
23098860 1.000673e+000 -2.814817e-001 6.632543e-005 1.303786e+002 2.182812e-004 2.699219e+001 9.983653e-001 -1.141300e+000
23398845 1.000503e+000 -2.808557e-001 3.297111e-005 -1.767606e+002 1.738318e-004 1.390808e+002 9.985636e-001 -1.107504e+000
23698830 9.998041e-001 -3.000125e-001 6.015995e-005 -6.024080e+001 3.099965e-004 -6.107168e+001 9.983808e-001 -1.168251e+000
23998815 1.000444e+000 -2.670763e-001 1.297870e-004 3.510358e+001 9.048355e-005 -8.222204e+001 9.966192e-001 -1.190795e+000
24298800 1.000213e+000 -2.849631e-001 7.602953e-005 9.886145e+001 3.580419e-004 -9.720259e+001 9.966092e-001 -1.203243e+000
24598785 9.998941e-001 -2.569620e-001 3.072089e-005 1.117403e+002 1.235698e-004 6.549974e+001 9.987041e-001 -1.177687e+000
24898770 1.000245e+000 -2.736160e-001 6.301855e-005 3.410294e+001 1.205685e-004 1.747886e+002 9.988290e-001 -1.254095e+000
25198755 1.000522e+000 -3.183903e-001 1.346719e-005 -1.288721e+002 2.160149e-005 -1.014725e+001 9.976578e-001 -1.286522e+000
25498740 1.000215e+000 -2.792243e-001 5.924577e-005 -6.651287e+000 3.227247e-004 1.302047e+002 9.987023e-001 -1.258832e+000
25798725 1.000064e+000 -2.598443e-001 2.798813e-005 -2.441790e+001 1.956081e-004 -4.382520e+000 9.992965e-001 -1.330077e+000
26098710 9.996529e-001 -2.934171e-001 9.107045e-005 -2.892906e+001 1.441798e-004 2.769517e+001 9.988573e-001 -1.331915e+000
26398695 1.000447e+000 -2.846299e-001 3.295494e-005 3.058193e+001 2.107589e-004 9.760043e+001 9.990976e-001 -1.317660e+000
26698680 1.000808e+000 -2.615317e-001 3.170059e-005 -4.528407e+001 2.460522e-004 -4.694399e+000 9.985403e-001 -1.270181e+000
26998665 1.000731e+000 -2.408603e-001 8.691159e-005 1.013542e+002 1.612523e-004 3.782425e+001 9.988244e-001 -1.303656e+000
27298650 1.000204e+000 -2.850201e-001 4.783349e-005 1.497395e+002 1.813624e-004 -1.350835e+002 9.982197e-001 -1.380750e+000
27598635 1.000695e+000 -2.596085e-001 5.615136e-005 -3.015197e+001 2.612840e-004 5.730716e+001 9.991228e-001 -1.347312e+000
27898620 9.997975e-001 -2.860467e-001 1.882099e-004 -1.769327e+002 1.443954e-004 6.310866e+001 9.999194e-001 -1.335107e+000
28198605 9.994761e-001 -3.383676e-001 7.785301e-005 -5.129458e+001 3.898743e-004 -2.619340e+001 9.994638e-001 -1.381145e+000
28498590 9.999819e-001 -3.106030e-001 7.052637e-005 -1.716958e+002 2.724690e-004 1.341731e+002 9.981626e-001 -1.427655e+000
28798575 1.000039e+000 -3.644156e-001 3.316916e-005 7.064076e+000 6.033781e-006 6.417358e+001 9.972836e-001 -1.499498e+000
29098560 9.993724e-001 -3.369692e-001 8.987700e-005 2.764787e+001 1.233758e-004 1.260298e+002 9.986649e-001 -1.462969e+000
29398545 1.000142e+000 -2.921982e-001 8.763742e-005 -4.893618e+001 2.269128e-004 -1.319630e+002 9.987131e-001 -1.410575e+000
29698530 1.000201e+000 -2.833769e-001 1.306155e-004 -4.022247e+001 1.359195e-004 1.360511e+002 9.995729e-001 -1.437808e+000
29998515 1.000338e+000 -2.759548e-001 7.814768e-005 -3.559026e+001 3.735752e-004 1.435015e+002 9.996358e-001 -1.472420e+000
30298500 1.000117e+000 -3.431628e-001 1.100692e-004 1.175445e+002 1.716969e-004 -4.399446e+001 9.993765e-001 -1.470671e+000
30598485 1.000157e+000 -3.114408e-001 1.278156e-004 1.517886e+002 1.379539e-004 1.018208e+002 9.994841e-001 -1.538572e+000
30898470 9.998999e-001 -3.119121e-001 5.428568e-005 1.327083e+002 8.859270e-005 -8.844048e+001 9.992281e-001 -1.545384e+000
31198455 1.000619e+000 -2.937298e-001 9.177695e-005 1.265151e+002 1.218378e-004 2.969766e+001 9.988451e-001 -1.516225e+000
31498440 9.998133e-001 -3.219504e-001 3.457667e-005 4.004848e+000 7.413787e-005 1.656021e+002 9.991258e-001 -1.535456e+000
31798425 1.000640e+000 -3.695829e-001 6.360080e-005 -3.017970e+000 5.449709e-005 -6.365017e+001 9.997321e-001 -1.530774e+000
32098410 1.000649e+000 -3.401273e-001 4.182149e-005 1.750551e+002 8.848476e-005 7.329399e+001 9.988649e-001 -1.514364e+000
32398395 1.000586e+000 -3.670950e-001 6.134654e-006 -4.229232e+001 1.970892e-004 8.105949e+001 9.988132e-001 -1.513476e+000
32698380 1.000910e+000 -3.529780e-001 5.760512e-005 -1.383583e+002 1.250277e-004 1.155270e+001 9.997560e-001 -1.575567e+000
32998365 1.000744e+000 -3.099812e-001 9.028255e-005 1.405924e+002 9.029923e-005 -1.440198e+002 9.981769e-001 -1.558879e+000
33298350 1.000643e+000 -3.451039e-001 5.954112e-005 1.591799e+002 2.435594e-004 1.927707e+001 9.977887e-001 -1.590703e+000
33598335 1.000021e+000 -3.685155e-001 1.078846e-005 -7.633842e+001 1.567149e-004 1.437375e+002 9.989022e-001 -1.575025e+000
33898320 9.999315e-001 -3.675422e-001 9.439867e-005 -1.402563e+002 9.789567e-005 -7.064624e+001 9.973817e-001 -1.669090e+000
34198305 9.997477e-001 -3.882302e-001 2.443500e-005 -1.378091e+002 2.696905e-004 4.715957e+001 9.983405e-001 -1.644118e+000
34498290 9.996953e-001 -4.113765e-001 6.393556e-005 3.918312e+001 2.417757e-004 -1.258886e+002 9.966727e-001 -1.601636e+000
34798275 1.000623e+000 -3.916357e-001 1.792445e-005 -4.915449e+001 1.685013e-004 7.349215e+000 9.972805e-001 -1.646727e+000
35098260 1.000295e+000 -4.013687e-001 1.639423e-005 -1.254039e+002 1.256443e-004 -1.518032e+002 9.989550e-001 -1.616172e+000
35398245 1.000710e+000 -4.034340e-001 6.074263e-005 -4.665886e+001 2.861455e-004 -5.976685e+001 9.997841e-001 -1.668348e+000
35698230 1.000323e+000 -3.867787e-001 5.521838e-005 -9.945586e+001 9.096831e-005 4.169082e+001 1.000209e+000 -1.678644e+000
35998215 1.000090e+000 -3.694385e-001 6.481505e-005 3.708549e+001 1.632330e-004 -1.581732e+002 9.991009e-001 -1.737801e+000
36298200 1.000841e+000 -3.923002e-001 7.943653e-005 -1.737428e+002 2.859036e-004 8.977545e+000 9.978913e-001 -1.768852e+000
36598185 1.000638e+000 -3.634370e-001 7.625379e-005 -1.765462e+002 3.110478e-004 1.047381e+002 9.977902e-001 -1.803452e+000
36898170 1.000760e+000 -3.811600e-001 4.083190e-005 -1.524989e+002 8.872757e-005 5.721234e+000 9.982262e-001 -1.803034e+000
37198155 1.000655e+000 -4.188538e-001 8.313363e-005 -8.086447e+001 1.167914e-004 7.335992e+001 9.985064e-001 -1.785181e+000
37498140 1.000652e+000 -4.199172e-001 6.087741e-005 -1.162767e+002 2.146789e-004 1.164841e+002 9.986708e-001 -1.755950e+000
37798125 9.999743e-001 -4.172144e-001 1.076610e-004 -1.072759e+002 2.421274e-004 3.325643e+001 9.979971e-001 -1.804947e+000
38098110 1.000366e+000 -4.054359e-001 5.812831e-005 4.324461e+001 1.170681e-004 1.218052e+002 9.982992e-001 -1.890008e+000
38398095 9.998898e-001 -4.167169e-001 5.961109e-005 -1.034368e+001 2.011927e-004 -6.610049e+001 9.980262e-001 -1.932298e+000
38698080 1.000180e+000 -4.141421e-001 4.887111e-005 1.374309e+002 9.245185e-005 9.436422e+001 9.971384e-001 -1.896079e+000
38998065 1.000607e+000 -4.004878e-001 7.161515e-005 -9.531004e+001 7.357079e-005 1.465151e+002 9.978480e-001 -1.859403e+000
39298050 1.000438e+000 -4.352847e-001 6.401457e-005 4.496358e+001 1.466000e-004 -6.842144e+000 9.982865e-001 -1.885909e+000
39598035 1.000432e+000 -4.197722e-001 1.806788e-005 -7.325320e+001 1.432060e-004 9.867149e+001 9.994597e-001 -1.811796e+000
39898020 1.000898e+000 -3.885859e-001 5.169740e-005 -3.956778e+001 1.848915e-004 -9.147627e+001 9.991880e-001 -1.839377e+000
40198005 9.996766e-001 -4.165467e-001 8.230261e-005 9.859428e+001 1.165969e-004 1.594148e+002 9.998326e-001 -1.965188e+000
40497990 9.996231e-001 -3.393054e-001 1.326038e-004 1.426353e+002 2.397567e-004 9.041006e+001 9.999774e-001 -1.907013e+000
40797975 1.000746e+000 -4.490575e-001 8.875928e-005 -1.766469e+002 4.030883e-004 8.122209e+001 9.994940e-001 -1.970863e+000
41097960 1.000574e+000 -3.875114e-001 8.583014e-005 -5.455562e+001 2.153753e-004 1.106488e+002 9.994622e-001 -1.881821e+000
41397945 9.996198e-001 -3.853601e-001 1.332224e-004 -1.030174e+002 2.554162e-004 6.394989e+001 9.998733e-001 -1.818038e+000
41697930 9.997179e-001 -3.518893e-001 1.218504e-004 -7.230096e+001 4.029441e-004 5.208159e+001 9.995925e-001 -1.877543e+000
41997915 9.995013e-001 -3.939874e-001 7.302027e-005 -1.023990e+002 1.372231e-004 3.729325e+001 9.983165e-001 -1.908236e+000
42297900 1.001458e+000 -4.753401e-001 1.021840e-004 -2.520159e+000 4.162291e-004 -1.564756e+000 9.974990e-001 -1.944533e+000
42597885 1.000728e+000 -3.994980e-001 2.344958e-004 9.461356e+001 1.302271e-004 -8.906445e+001 9.989050e-001 -1.927833e+000
42897870 1.000971e+000 -4.003418e-001 1.170890e-004 2.322785e+001 1.317318e-004 -3.554969e+001 9.969746e-001 -2.074913e+000
43197855 1.001357e+000 -3.996001e-001 2.120246e-004 1.254794e+002 7.309410e-005 -1.675430e+002 9.982644e-001 -2.115049e+000
43497840 1.000284e+000 -4.283836e-001 4.156069e-005 -3.995117e+001 2.237701e-005 -1.749296e+002 9.978102e-001 -2.080250e+000
43797825 1.000900e+000 -4.797592e-001 8.775431e-005 -1.285437e+002 2.724463e-004 -1.210476e+002 9.987071e-001 -2.119768e+000
44097810 1.000788e+000 -4.368299e-001 2.357807e-004 1.162371e+002 1.331239e-004 4.120542e+001 9.987815e-001 -2.159341e+000
44397795 1.001661e+000 -3.980747e-001 1.684162e-004 1.320546e+002 9.335052e-005 9.034657e+001 1.001632e+000 -2.206666e+000
44697780 1.001112e+000 -4.060552e-001 7.072101e-005 -1.017008e+002 3.945172e-004 6.096336e+001 9.997661e-001 -2.224136e+000
44997765 1.000983e+000 -4.673407e-001 9.532445e-005 -1.614242e+002 2.779253e-004 -4.306980e+001 9.998876e-001 -2.219129e+000
45297750 1.001119e+000 -4.714963e-001 2.377900e-004 1.605181e+002 1.219893e-004 8.827424e+000 9.987285e-001 -2.215933e+000
45597735 1.001693e+000 -4.778797e-001 1.598027e-004 -7.648602e+001 3.583468e-004 -3.066733e-001 9.996547e-001 -2.225107e+000
45897720 1.001392e+000 -4.417153e-001 2.670503e-004 9.645359e+001 3.824135e-004 1.170341e+001 1.001934e+000 -2.116655e+000
46197705 1.001150e+000 -4.392739e-001 2.108393e-004 -6.408173e+001 3.236599e-004 -8.263316e+001 9.998578e-001 -2.218554e+000
46497690 1.001119e+000 -5.037601e-001 1.617597e-004 -1.074520e+002 2.001557e-004 -1.076749e+002 9.993269e-001 -2.179037e+000
46797675 1.000877e+000 -4.783595e-001 2.596262e-004 -1.080612e+002 2.022940e-004 -1.455215e+002 9.995521e-001 -2.260324e+000
47097660 1.000448e+000 -5.147473e-001 1.621642e-004 -6.491715e+001 1.915865e-004 -4.671131e+001 9.989256e-001 -2.278161e+000
