!Agilent Technologies,N5230C,SG49000117,A.08.50.07
!Agilent N5230C: A.08.50.07
!Date: Thursday, May 16, 2024 18:09:29
!Correction: S11(Full 2 Port(1,2)) 
!S21(Full 2 Port(1,2)) 
!S12(Full 2 Port(1,2)) 
!S22(Full 2 Port(1,2)) 
!S2P File: Measurements: S11, S21, S12, S22:
# Hz S  MA   R 50
300000 1.008052e+000 -4.886319e-001 1.518503e-004 -4.347875e+001 7.369567e-004 -9.833486e+001 1.015994e+000 -6.770270e-001
599985 9.832184e-001 3.119960e-001 2.496795e-005 5.283199e+001 2.539448e-004 -1.505272e+002 9.649296e-001 3.116198e-001
899970 9.983814e-001 -1.031178e-001 5.072234e-005 3.521861e+001 1.354976e-004 -9.635037e+001 9.845720e-001 -3.772106e-001
1199955 9.976282e-001 -1.238388e-001 9.520428e-005 7.567166e+000 1.750867e-004 -1.780648e+002 9.950499e-001 -1.796294e-001
1499940 9.943286e-001 1.279902e-001 5.677019e-005 -1.611734e+002 1.628685e-004 1.236717e+002 9.923001e-001 2.173793e-002
1799925 9.915968e-001 2.052901e-001 1.035911e-004 -1.244105e+002 2.069939e-004 -1.294793e+002 9.897690e-001 2.918481e-002
2099910 9.990850e-001 -3.327522e-002 5.541686e-005 -6.302451e+001 1.943888e-004 -1.393765e+002 9.980679e-001 6.209760e-002
2399895 9.996144e-001 -1.450965e-001 7.348435e-005 6.049608e+001 1.111562e-004 1.651397e+002 1.003759e+000 -6.559969e-002
2699880 9.991832e-001 -2.283804e-001 6.752320e-005 -8.939648e+001 3.455281e-004 -1.177588e+002 9.953640e-001 -2.488050e-001
2999865 9.997613e-001 -1.494067e-001 5.828531e-005 -3.907689e+001 9.383696e-005 -3.289821e+000 9.975672e-001 -1.753984e-001
3299850 1.000265e+000 -1.145080e-001 3.719980e-005 1.480337e+002 1.366338e-004 -9.540170e-001 9.981383e-001 -2.245701e-001
3599835 1.000693e+000 -1.158131e-001 4.991019e-005 -1.344962e+002 9.479922e-006 7.461161e+001 9.990694e-001 -2.461276e-001
3899820 9.992427e-001 -1.516998e-001 3.113555e-005 -1.618480e+001 7.122284e-005 1.003082e+002 9.980215e-001 -2.208326e-001
4199805 1.000130e+000 -1.951636e-001 1.360268e-004 1.020252e+002 1.699676e-004 -3.419242e+001 1.000103e+000 -3.399208e-001
4499790 1.000512e+000 -1.761475e-001 6.402750e-005 -4.901781e+001 1.211427e-004 5.461984e+000 9.999451e-001 -2.768567e-001
4799775 1.000541e+000 -1.552834e-001 3.828787e-005 3.167738e-001 1.504359e-004 1.302898e+001 9.997543e-001 -2.123903e-001
5099760 1.000359e+000 -1.415033e-001 7.707131e-005 6.346813e+001 2.017108e-004 -5.241082e+001 1.000539e+000 -2.572428e-001
5399745 1.000584e+000 -1.298029e-001 3.509677e-005 -7.066067e+001 2.645805e-005 1.553754e+002 9.995470e-001 -1.590890e-001
5699730 9.997987e-001 -1.278472e-001 1.094393e-004 -1.450406e+001 1.697335e-004 7.058482e+001 1.002094e+000 -2.351505e-001
5999715 9.996874e-001 -9.336877e-002 3.428390e-005 -1.680173e+002 4.359545e-005 -6.615307e+001 9.998534e-001 -1.959571e-001
6299700 9.998263e-001 -1.284151e-001 5.407737e-005 -1.408438e+002 3.287048e-004 -8.671648e+000 9.996330e-001 -3.298120e-001
6599685 9.996586e-001 -1.031949e-001 4.006563e-005 1.362131e+001 2.498875e-004 -7.866955e+001 9.994223e-001 -3.382084e-001
6899670 1.000355e+000 -1.279961e-001 6.318848e-005 -1.235374e+001 1.385264e-004 1.461701e+002 1.001090e+000 -2.312685e-001
7199655 1.000053e+000 -1.574936e-001 2.092961e-005 -1.216002e+002 8.659721e-005 7.583770e+001 9.988587e-001 -3.232735e-001
7499640 1.000322e+000 -1.991797e-001 1.146533e-004 9.764662e+001 1.515564e-004 1.386355e+001 1.000445e+000 -3.961195e-001
7799625 9.998375e-001 -1.240615e-001 2.703723e-005 -6.657903e+001 2.455894e-004 -1.616651e+000 9.981980e-001 -2.878435e-001
8099610 1.000473e+000 -1.552697e-001 4.771202e-005 1.172931e+002 1.100537e-004 1.282061e+002 9.990821e-001 -4.092387e-001
8399595 9.999955e-001 -1.367879e-001 5.728348e-005 -1.612759e+002 9.967384e-005 1.008234e+001 9.990007e-001 -4.479144e-001
8699580 1.000059e+000 -1.485243e-001 5.462422e-005 1.118067e+002 1.228706e-004 1.749917e+002 9.985843e-001 -3.912304e-001
8999565 1.000473e+000 -1.009181e-001 9.286912e-005 -1.474881e+002 1.000846e-004 -1.246008e+002 9.997182e-001 -3.850565e-001
9299550 9.997297e-001 -1.173208e-001 2.733369e-005 -1.117177e+002 1.221395e-004 -5.500174e+001 9.987680e-001 -3.461314e-001
9599535 1.000005e+000 -1.848484e-001 2.465747e-005 1.027797e+002 1.871953e-004 1.046960e+002 9.987389e-001 -4.921482e-001
9899520 1.000231e+000 -2.649923e-001 6.571982e-005 8.143739e+001 1.338375e-004 -1.059228e+002 9.970671e-001 -6.110719e-001
10199505 9.996393e-001 -1.311568e-001 9.985813e-006 -6.618946e+001 5.444101e-005 1.287744e+002 9.991919e-001 -3.761367e-001
10499490 1.000023e+000 -1.416007e-001 5.166913e-005 1.412092e+002 1.401753e-004 4.761012e+000 9.971716e-001 -3.787422e-001
10799475 9.997859e-001 -1.506650e-001 2.675215e-005 2.254728e+001 3.342858e-004 3.350109e+001 9.993142e-001 -3.837761e-001
11099460 9.999442e-001 -1.224405e-001 1.252418e-004 3.842960e+001 1.392372e-004 -4.870065e+001 1.000049e+000 -4.257551e-001
11399445 1.000461e+000 -1.554447e-001 6.875468e-005 1.285577e+002 2.834581e-004 7.083687e+001 9.996052e-001 -4.062735e-001
11699430 9.997484e-001 -1.281706e-001 7.463444e-005 1.795085e+002 5.077787e-005 1.596936e+002 9.992417e-001 -4.230833e-001
11999415 9.998191e-001 -1.525278e-001 9.114400e-005 5.274632e+001 4.911625e-005 -9.000490e+001 9.995738e-001 -3.859673e-001
12299400 9.996756e-001 -1.630635e-001 3.862172e-005 -1.621360e+002 1.455586e-004 1.050593e+002 9.996169e-001 -4.129548e-001
12599385 1.000125e+000 -1.781860e-001 5.622732e-005 -9.161376e+001 5.322122e-005 1.641184e+002 9.993788e-001 -5.518158e-001
12899370 1.000608e+000 -2.014397e-001 2.628949e-005 -8.161633e+001 1.159726e-004 7.843176e+001 9.983028e-001 -5.553921e-001
13199355 9.996102e-001 -1.748604e-001 2.329344e-005 1.158806e+002 1.522774e-004 -8.101842e+001 9.987444e-001 -4.665301e-001
13499340 1.000597e+000 -2.102444e-001 9.965367e-005 -4.277272e+001 1.707015e-004 -1.288509e+002 9.982943e-001 -4.710863e-001
13799325 9.999295e-001 -1.922688e-001 8.306401e-005 -1.502448e+002 1.520988e-004 -5.941786e+001 9.982083e-001 -4.139832e-001
14099310 1.000483e+000 -2.287795e-001 3.386134e-005 3.853363e+001 2.757254e-004 -1.712432e+002 9.994804e-001 -4.361340e-001
14399295 1.000361e+000 -2.041307e-001 6.294911e-005 1.382758e+002 3.230349e-004 -9.721446e+001 1.000140e+000 -4.095229e-001
14699280 1.000287e+000 -1.891966e-001 2.533622e-005 1.429223e+002 1.155265e-004 -4.595046e+001 9.996979e-001 -4.785070e-001
14999265 1.000032e+000 -1.937080e-001 3.408815e-005 -2.203222e+001 1.477809e-004 -4.299897e+000 9.987422e-001 -5.855563e-001
15299250 9.997579e-001 -1.866322e-001 1.030012e-004 -1.738567e+002 2.257355e-004 1.721664e+001 9.989949e-001 -5.212664e-001
15599235 9.998246e-001 -1.865011e-001 3.625998e-005 1.333513e+002 1.451574e-004 1.601350e+002 9.986089e-001 -5.564778e-001
15899220 1.000839e+000 -2.084375e-001 7.736284e-005 1.236499e+002 1.160534e-004 -1.120325e+002 9.999182e-001 -4.974766e-001
16199205 1.000773e+000 -1.827566e-001 9.142852e-005 1.720320e+002 2.287773e-004 9.563377e+001 1.000658e+000 -4.820151e-001
16499190 1.000049e+000 -1.686694e-001 1.053137e-004 -1.549141e+002 3.112423e-004 1.538637e+002 1.001574e+000 -6.082193e-001
16799175 9.994820e-001 -2.001394e-001 6.722737e-005 9.077565e+001 9.050332e-005 1.291489e+002 1.000056e+000 -5.108770e-001
17099160 1.000191e+000 -2.409465e-001 7.554797e-006 9.468058e+001 1.584979e-004 -1.391696e+002 1.000909e+000 -5.277663e-001
17399145 1.000351e+000 -2.036264e-001 4.011648e-005 6.187986e+001 2.452337e-004 3.267758e+001 9.993328e-001 -5.352032e-001
17699130 1.000409e+000 -2.367571e-001 1.762462e-005 1.195322e+002 2.521611e-004 -1.016420e+002 9.997533e-001 -5.808512e-001
17999115 9.998293e-001 -2.325083e-001 7.713549e-005 -1.453918e+002 2.908363e-004 -4.143761e+001 9.989155e-001 -6.327872e-001
18299100 9.999200e-001 -2.220054e-001 9.666459e-005 1.067552e+002 1.352722e-004 1.787516e+002 9.993879e-001 -5.956792e-001
18599085 1.000011e+000 -2.323111e-001 8.282789e-005 9.935405e+001 1.174398e-004 8.416595e+001 9.984878e-001 -6.096113e-001
18899070 1.000062e+000 -2.496969e-001 2.666802e-005 1.765075e+002 1.580982e-004 5.439846e+001 9.996391e-001 -5.447322e-001
19199055 1.000661e+000 -2.208942e-001 4.896556e-005 5.556137e+001 7.036060e-005 -7.206436e+001 9.988644e-001 -5.954865e-001
19499040 1.000804e+000 -2.647875e-001 6.725454e-005 1.627351e+002 1.321219e-004 -1.792589e+002 9.987755e-001 -5.647197e-001
19799025 1.000668e+000 -2.335672e-001 9.447461e-005 8.813077e+001 1.910025e-004 -4.864500e+001 9.998533e-001 -6.199457e-001
20099010 1.000738e+000 -2.350271e-001 2.358320e-005 1.246768e+002 1.855075e-004 1.181742e+002 9.999435e-001 -6.458683e-001
20398995 1.000300e+000 -2.093868e-001 4.590255e-005 -5.439855e+001 1.809855e-004 -2.000845e+001 9.997034e-001 -6.682386e-001
20698980 9.994407e-001 -2.260959e-001 1.391081e-005 4.676458e+001 8.673168e-005 3.027749e+001 9.983993e-001 -6.277500e-001
20998965 9.990650e-001 -2.149189e-001 7.421770e-005 1.601578e+002 3.726240e-004 -9.068253e+001 9.999110e-001 -6.760222e-001
21298950 9.991219e-001 -1.832161e-001 7.403448e-005 -1.526927e+002 1.571677e-004 7.559469e+001 9.987062e-001 -6.009316e-001
21598935 9.997826e-001 -2.709408e-001 6.392595e-005 -6.137879e+001 1.786518e-004 1.521190e+002 9.975950e-001 -5.375232e-001
21898920 9.994913e-001 -2.336595e-001 8.865210e-005 3.229888e+001 2.130085e-004 7.771461e+001 9.987863e-001 -5.802060e-001
22198905 1.000623e+000 -2.518884e-001 1.068538e-004 -6.895741e+001 2.825349e-004 -1.725408e+002 9.994906e-001 -6.652255e-001
22498890 1.000220e+000 -2.390422e-001 3.990219e-005 1.389042e+002 1.526430e-004 -1.935371e+001 9.995933e-001 -7.344467e-001
22798875 1.000114e+000 -2.355646e-001 2.078357e-005 -1.641192e+002 2.503582e-004 1.339309e+002 1.000228e+000 -6.858227e-001
23098860 1.000258e+000 -2.407189e-001 1.066325e-004 -1.720035e+002 2.471519e-004 -1.014029e+002 9.998997e-001 -7.133400e-001
23398845 1.000944e+000 -2.728665e-001 8.564675e-005 -7.495055e+001 1.974144e-004 1.119895e+002 1.000716e+000 -7.082214e-001
23698830 1.001068e+000 -2.667651e-001 3.762435e-005 -2.069235e+001 3.671095e-004 -8.063521e+001 9.998977e-001 -6.928495e-001
23998815 1.000815e+000 -3.152049e-001 2.839373e-005 -1.408419e+002 3.254121e-004 6.151714e+000 9.972166e-001 -7.320965e-001
24298800 9.996933e-001 -2.936916e-001 1.316082e-004 1.661136e+001 1.935125e-004 -1.193609e+002 9.977791e-001 -8.043277e-001
24598785 9.999720e-001 -3.087757e-001 5.585487e-005 -8.679173e+001 2.639479e-004 3.258879e+001 9.981487e-001 -7.547852e-001
24898770 1.000581e+000 -2.861425e-001 1.044901e-004 -1.505407e+002 2.180137e-004 1.183230e+002 1.000887e+000 -7.834455e-001
25198755 9.997945e-001 -3.081197e-001 4.602163e-005 -3.945002e+001 1.395768e-004 -1.351616e+002 1.000228e+000 -7.661670e-001
25498740 9.998083e-001 -3.022064e-001 7.530806e-005 -1.060732e+002 1.883540e-004 4.612013e+001 9.985110e-001 -7.160346e-001
25798725 1.000663e+000 -2.750333e-001 4.311862e-005 -4.989691e+001 2.682266e-004 -1.369082e+002 1.000391e+000 -8.118861e-001
26098710 1.001138e+000 -3.051180e-001 3.644368e-005 -1.766233e+002 1.594038e-004 -1.082827e+002 1.000458e+000 -7.923068e-001
26398695 1.000767e+000 -2.990455e-001 3.924371e-005 1.480549e+002 2.292495e-004 1.317009e+002 9.998329e-001 -8.032598e-001
26698680 1.000397e+000 -3.020444e-001 6.201081e-005 1.755000e+002 2.319476e-004 -1.157644e+002 9.992293e-001 -7.959928e-001
26998665 1.001019e+000 -2.507703e-001 2.092829e-005 -3.220908e+001 4.023987e-004 9.272633e+001 9.993908e-001 -7.924192e-001
27298650 1.000473e+000 -2.720608e-001 1.309161e-004 7.804596e+001 2.559440e-004 1.615623e+002 9.989029e-001 -8.041084e-001
27598635 1.000396e+000 -3.117335e-001 7.461131e-005 9.249247e+001 8.054736e-005 -9.973481e+000 1.000332e+000 -8.314840e-001
27898620 9.997138e-001 -2.860031e-001 1.096553e-004 -4.898512e+000 2.594570e-004 1.142660e+002 1.000673e+000 -8.056278e-001
28198605 1.000056e+000 -2.866530e-001 4.381093e-005 1.060564e+002 1.144412e-004 -5.720429e+001 1.000259e+000 -8.111814e-001
28498590 1.000129e+000 -3.198204e-001 2.650255e-005 7.482134e+001 9.231360e-005 8.884740e+001 9.987894e-001 -9.140220e-001
28798575 1.000041e+000 -3.111889e-001 1.108956e-004 1.444474e+002 4.232110e-004 -1.125545e+002 9.990308e-001 -9.345461e-001
29098560 9.999675e-001 -3.344863e-001 1.500264e-005 -8.829180e+000 8.557254e-005 9.652586e+001 9.993570e-001 -8.706201e-001
29398545 1.000386e+000 -3.193123e-001 3.507258e-005 -6.434576e+001 3.672642e-004 -7.757920e+001 1.000409e+000 -8.941669e-001
29698530 1.000039e+000 -2.747748e-001 7.684565e-005 9.630886e+001 1.290512e-004 7.868193e+001 1.000280e+000 -8.566009e-001
29998515 1.000167e+000 -3.028987e-001 4.034549e-005 4.474720e+000 7.423515e-005 -1.364238e+002 1.000135e+000 -8.404468e-001
30298500 1.000180e+000 -3.448640e-001 1.504133e-004 -1.364362e+002 3.211639e-004 7.302463e+001 9.995571e-001 -9.355484e-001
30598485 1.000444e+000 -2.527895e-001 7.385672e-005 2.884961e+001 3.619989e-004 -9.380534e+001 9.989356e-001 -9.084393e-001
30898470 1.001011e+000 -3.181190e-001 8.150440e-005 3.112994e+001 1.945083e-004 -3.859773e-001 9.997978e-001 -9.389915e-001
31198455 1.000404e+000 -2.954713e-001 3.365884e-005 9.730117e+000 1.008429e-004 4.166905e+001 9.992167e-001 -9.113247e-001
31498440 1.000653e+000 -3.416399e-001 3.358990e-005 9.866078e+001 8.059259e-005 -5.051997e+001 9.988649e-001 -9.113121e-001
31798425 1.000073e+000 -3.686195e-001 1.161849e-004 1.322495e+002 2.028988e-004 5.987215e+001 1.001025e+000 -9.778340e-001
32098410 1.000361e+000 -3.563441e-001 1.706932e-005 8.559341e+001 4.887725e-005 1.619883e+002 9.998330e-001 -8.887675e-001
32398395 1.001279e+000 -3.649824e-001 4.287269e-005 -5.776874e+001 6.439381e-005 -1.076220e+002 9.999698e-001 -8.763447e-001
32698380 1.001117e+000 -3.093331e-001 6.072570e-005 1.289047e+002 2.044613e-004 -1.774828e+002 9.986855e-001 -9.439098e-001
32998365 1.000833e+000 -3.589471e-001 9.058120e-005 7.284109e+001 9.627926e-005 -6.853833e+001 9.997987e-001 -9.400592e-001
33298350 1.000596e+000 -3.186724e-001 7.682190e-005 1.652491e+002 3.478533e-004 1.119096e+002 9.997481e-001 -9.629553e-001
33598335 1.000580e+000 -3.644093e-001 9.870477e-005 5.666291e+001 2.182594e-005 -1.494461e+002 9.988818e-001 -9.976426e-001
33898320 9.997256e-001 -4.055122e-001 1.046408e-004 1.398263e+002 1.074604e-004 1.293704e+002 9.997832e-001 -1.009896e+000
34198305 9.999543e-001 -4.070976e-001 8.732067e-005 -1.524631e+001 3.811318e-004 -5.000263e+001 9.989110e-001 -9.821080e-001
34498290 9.995784e-001 -4.245069e-001 1.111474e-004 1.285383e+002 1.740422e-004 1.184434e+001 9.983196e-001 -9.871213e-001
34798275 1.000417e+000 -3.987047e-001 1.122858e-005 -2.175317e+001 1.254388e-004 1.751461e+002 9.989879e-001 -1.001347e+000
35098260 1.000093e+000 -4.046672e-001 6.534705e-005 6.655600e+001 3.575596e-004 1.480264e+001 1.000418e+000 -9.654818e-001
35398245 1.000980e+000 -4.282881e-001 7.000425e-005 -1.508979e+002 3.311751e-005 -2.793024e+001 9.996338e-001 -1.000573e+000
35698230 1.000061e+000 -4.129996e-001 6.457896e-005 -1.463693e+002 1.487908e-004 -3.523901e+001 1.000799e+000 -1.021033e+000
35998215 1.000120e+000 -4.079862e-001 8.041145e-005 -9.146633e+001 2.215970e-004 1.177624e+002 9.996958e-001 -1.043557e+000
36298200 1.000059e+000 -4.013231e-001 4.726278e-005 9.962861e+000 1.821095e-004 7.932465e+001 9.995134e-001 -1.096794e+000
36598185 1.000974e+000 -3.858891e-001 1.467824e-004 -1.288133e+002 7.554908e-005 -1.568294e+002 9.987993e-001 -1.054708e+000
36898170 1.000501e+000 -4.068209e-001 3.078721e-005 4.674846e+001 2.904689e-004 -1.053370e+002 9.992579e-001 -1.074756e+000
37198155 1.000512e+000 -3.602625e-001 4.937589e-005 1.353494e+002 1.119254e-004 2.304824e+001 9.989089e-001 -1.121161e+000
37498140 1.000581e+000 -4.010620e-001 1.040772e-004 7.798647e+001 2.062127e-004 -1.274249e+002 9.998399e-001 -1.092346e+000
37798125 9.999956e-001 -3.654608e-001 4.420224e-005 9.121243e+001 1.381503e-004 2.017863e+001 9.995275e-001 -1.129464e+000
38098110 1.000356e+000 -4.060710e-001 3.334469e-005 1.361465e+002 2.486595e-004 -2.610745e+001 9.991561e-001 -1.076263e+000
38398095 9.991944e-001 -3.961147e-001 1.449823e-004 -1.313695e+002 1.870598e-004 7.377180e+001 9.981191e-001 -1.125445e+000
38698080 9.999241e-001 -3.860182e-001 1.056099e-004 7.613354e+001 1.010013e-004 -1.639243e+002 9.978213e-001 -1.170600e+000
38998065 9.999141e-001 -3.985672e-001 6.129612e-005 1.767034e+002 2.249197e-004 5.057985e+001 9.982569e-001 -1.137546e+000
39298050 1.001097e+000 -3.779160e-001 5.139018e-005 -1.746777e+002 9.534867e-005 1.320347e+002 9.990441e-001 -1.131630e+000
39598035 1.001223e+000 -4.113304e-001 7.808999e-005 -1.742728e+002 2.266243e-004 -5.866482e+001 9.994764e-001 -1.077517e+000
39898020 1.000506e+000 -3.529928e-001 7.836412e-005 -3.167635e+001 6.143442e-005 5.748533e+001 9.998221e-001 -1.059385e+000
40198005 1.001178e+000 -4.496498e-001 2.712284e-004 -1.550825e+002 2.701629e-004 1.113973e+002 1.000241e+000 -1.225546e+000
40497990 1.001316e+000 -4.621100e-001 2.555877e-004 -9.120040e+001 3.051029e-004 1.103520e+002 1.001489e+000 -1.331445e+000
40797975 1.001020e+000 -4.328147e-001 9.769839e-005 -8.894091e+001 1.751835e-004 1.210492e+002 1.001707e+000 -1.219157e+000
41097960 1.000141e+000 -3.835112e-001 2.094050e-004 1.419830e+002 8.325480e-005 5.842549e+001 1.000508e+000 -1.172077e+000
41397945 1.000381e+000 -3.184547e-001 1.011969e-004 5.875698e+001 2.982119e-004 -7.277584e+001 9.994940e-001 -1.154471e+000
41697930 9.999388e-001 -3.917800e-001 2.331079e-004 1.567283e+001 4.541398e-004 -9.348646e+001 9.992334e-001 -1.112788e+000
41997915 9.997931e-001 -4.246714e-001 1.097879e-004 1.077003e+002 6.503252e-005 -2.373854e+001 9.998369e-001 -1.155777e+000
42297900 1.001008e+000 -4.646305e-001 1.633519e-004 -1.792074e+002 4.758172e-005 -3.079728e+001 1.000634e+000 -1.150632e+000
42597885 1.000121e+000 -4.369724e-001 1.586970e-004 1.215195e+002 3.006294e-004 1.189164e+002 1.001263e+000 -1.168887e+000
42897870 1.001291e+000 -4.655582e-001 2.278068e-004 -4.001541e+001 2.185557e-004 -9.356191e+001 1.000474e+000 -1.284619e+000
43197855 1.000436e+000 -4.738768e-001 1.663562e-004 9.278245e+001 3.162756e-005 1.612596e+001 1.000185e+000 -1.355632e+000
43497840 9.998689e-001 -4.324440e-001 5.259554e-005 -6.778207e+001 1.734838e-004 6.400017e+001 9.994919e-001 -1.308131e+000
43797825 9.998986e-001 -4.309530e-001 1.006542e-004 1.524445e+002 3.754616e-004 -1.712021e+002 9.978883e-001 -1.383677e+000
44097810 1.000634e+000 -3.704000e-001 1.165299e-004 -1.350423e+002 1.073671e-004 7.088757e+001 1.000489e+000 -1.386404e+000
44397795 1.001152e+000 -4.210455e-001 8.828647e-005 -1.565673e+001 2.472335e-004 1.538338e+001 1.000741e+000 -1.355120e+000
44697780 1.001260e+000 -4.252706e-001 2.464804e-004 1.657035e+002 1.851737e-004 -1.179843e+002 9.997877e-001 -1.356839e+000
44997765 1.000742e+000 -4.871545e-001 7.724915e-005 4.309306e+001 2.010978e-004 -2.686148e+001 1.001227e+000 -1.274944e+000
45297750 1.001814e+000 -4.736515e-001 4.332768e-005 -1.319863e+002 1.717360e-004 -1.490503e+002 1.000676e+000 -1.275979e+000
45597735 1.000998e+000 -4.666611e-001 8.961843e-005 -1.676561e+002 2.579064e-004 -7.171064e+001 1.000931e+000 -1.367553e+000
45897720 1.002124e+000 -5.611005e-001 3.500146e-005 -3.445760e+001 2.994754e-004 -1.517581e+002 1.000479e+000 -1.296489e+000
46197705 1.001814e+000 -4.613061e-001 4.805283e-005 -1.389854e+002 2.717082e-004 -6.208731e+001 1.000821e+000 -1.253124e+000
46497690 1.001808e+000 -4.177881e-001 1.899935e-004 -5.529339e+001 1.574673e-004 -4.702541e+001 9.998657e-001 -1.351237e+000
46797675 1.000718e+000 -4.989364e-001 1.825696e-004 1.039063e+002 1.226308e-004 -9.401993e+001 9.998487e-001 -1.442196e+000
47097660 9.998544e-001 -5.113748e-001 8.403646e-005 -3.489544e+001 3.411805e-004 1.155019e+002 9.996959e-001 -1.476483e+000
