!Agilent Technologies,N5230C,SG49000117,A.08.50.07
!Agilent N5230C: A.08.50.07
!Date: Thursday, May 16, 2024 18:11:05
!Correction: S11(Full 2 Port(1,2)) 
!S21(Full 2 Port(1,2)) 
!S12(Full 2 Port(1,2)) 
!S22(Full 2 Port(1,2)) 
!S2P File: Measurements: S11, S21, S12, S22:
# Hz S  MA   R 50
300000 1.006732e+000 -4.428204e-001 1.106982e-004 1.523410e+002 3.365834e-004 1.662234e+002 1.014263e+000 -7.980772e-001
599985 9.820821e-001 3.417479e-001 1.014179e-004 1.709714e+002 1.367456e-004 -1.515401e+002 9.652255e-001 2.760710e-001
899970 9.973415e-001 -1.101405e-001 6.224523e-005 -6.219975e+001 1.999807e-004 -1.094054e+002 9.836532e-001 -3.843575e-001
1199955 9.980862e-001 -4.763760e-002 9.127108e-005 6.217951e+001 1.502382e-004 1.777464e+002 9.943973e-001 -1.749647e-001
1499940 9.939506e-001 1.640547e-001 8.923306e-005 1.432422e+002 1.540297e-004 7.415584e+001 9.916270e-001 2.762966e-002
1799925 9.919556e-001 2.249549e-001 4.073123e-005 6.565543e+001 1.772126e-004 1.349489e+002 9.897075e-001 -4.410750e-002
2099910 9.987785e-001 -8.083560e-003 7.927261e-005 6.949311e+001 2.731913e-005 1.555553e+001 9.975966e-001 -3.696685e-002
2399895 9.993452e-001 -1.078035e-001 5.281939e-005 4.564925e+000 8.180938e-005 1.471306e+002 1.002548e+000 -8.635668e-002
2699880 9.994216e-001 -2.469237e-001 8.556191e-005 -8.978262e+001 6.055580e-005 9.504794e+000 9.946965e-001 -2.731921e-001
2999865 9.994035e-001 -1.414535e-001 2.906508e-005 1.497658e+002 9.891971e-005 -1.790864e+002 9.983105e-001 -2.379540e-001
3299850 9.999757e-001 -1.282856e-001 2.471191e-005 9.989067e+000 1.632295e-004 -1.429033e+002 9.972304e-001 -2.772033e-001
3599835 9.999931e-001 -1.389999e-001 7.712132e-005 -1.528190e+002 7.341454e-005 6.061897e+001 9.978291e-001 -1.771209e-001
3899820 9.996011e-001 -1.553003e-001 2.886636e-005 -1.397390e+002 2.182971e-004 -4.720325e+001 9.972419e-001 -1.935403e-001
4199805 1.000408e+000 -1.988486e-001 1.251025e-004 -3.006569e+001 1.598773e-004 -1.508297e+002 9.992508e-001 -3.300602e-001
4499790 1.000367e+000 -1.494633e-001 8.640051e-005 -2.780258e+001 7.044664e-005 1.190615e+002 9.990852e-001 -2.582811e-001
4799775 1.000540e+000 -1.147051e-001 6.732246e-005 2.363755e+000 9.147124e-005 2.622550e+001 9.998981e-001 -2.676038e-001
5099760 1.000734e+000 -1.188276e-001 5.491686e-005 -2.048338e+001 2.775692e-004 -9.037895e+001 9.991499e-001 -2.061220e-001
5399745 1.000431e+000 -1.495271e-001 8.432419e-005 -3.201880e+001 8.714953e-005 -1.652471e+002 9.995559e-001 -2.390065e-001
5699730 1.000333e+000 -1.305948e-001 4.630394e-005 5.115649e+001 8.343246e-005 -1.709111e+002 9.999003e-001 -2.742978e-001
5999715 9.993374e-001 -1.068202e-001 3.774911e-005 3.573793e+001 1.675490e-004 1.495036e+002 9.997579e-001 -2.205091e-001
6299700 1.000316e+000 -1.069487e-001 4.337547e-005 1.342275e+002 2.196772e-004 -7.005600e+001 9.989389e-001 -3.052386e-001
6599685 9.997566e-001 -1.190738e-001 5.738272e-005 1.534782e+002 2.033646e-004 1.259900e+002 9.994869e-001 -3.090182e-001
6899670 9.999675e-001 -1.496210e-001 1.525890e-004 -1.359726e+002 1.957586e-004 7.187269e+001 9.993976e-001 -3.431717e-001
7199655 9.996943e-001 -1.333754e-001 8.577131e-005 -1.431115e+002 1.928000e-004 -1.722214e+002 9.983358e-001 -3.456451e-001
7499640 1.000061e+000 -2.084710e-001 4.087119e-005 -9.374093e+001 8.920861e-005 6.328800e+001 9.989055e-001 -3.594193e-001
7799625 1.000091e+000 -1.677820e-001 8.341259e-005 1.535272e+002 7.421651e-005 1.041319e+002 9.980878e-001 -4.106126e-001
8099610 1.000073e+000 -1.374851e-001 6.154210e-005 -4.097619e+001 1.496649e-004 7.614729e+001 9.995249e-001 -3.707539e-001
8399595 1.000072e+000 -1.674227e-001 2.545617e-005 -1.241606e+002 4.654260e-005 -7.031689e+001 9.983129e-001 -4.044036e-001
8699580 1.000120e+000 -1.598422e-001 4.501404e-005 -1.561228e+002 4.384735e-005 6.339597e+001 9.984858e-001 -4.282413e-001
8999565 9.999253e-001 -1.477792e-001 1.758147e-005 -5.787276e+001 2.029358e-004 -3.771209e+001 9.978299e-001 -4.023227e-001
9299550 1.000214e+000 -1.394712e-001 4.957398e-005 1.738486e+002 4.379856e-005 -1.510647e+002 9.989645e-001 -3.296656e-001
9599535 9.999676e-001 -2.101899e-001 8.994137e-005 4.255043e+001 1.123211e-004 1.612230e+002 9.975703e-001 -5.031781e-001
9899520 1.000049e+000 -2.544138e-001 7.697636e-005 -9.881619e+001 4.905945e-005 9.638458e+001 9.969717e-001 -6.957883e-001
10199505 1.000373e+000 -1.207893e-001 4.303362e-006 1.707362e+002 1.468514e-004 -1.320968e+002 9.986736e-001 -4.156434e-001
10499490 9.999737e-001 -1.428189e-001 3.306867e-005 -8.032779e-001 7.545151e-005 -3.952361e+001 9.984450e-001 -4.243316e-001
10799475 9.994727e-001 -1.420283e-001 5.541634e-005 1.449654e+000 9.050887e-005 4.423335e+001 9.998205e-001 -3.845417e-001
11099460 1.000466e+000 -1.185918e-001 6.357014e-005 1.379101e+002 1.388690e-004 7.820484e+001 9.984872e-001 -4.597720e-001
11399445 9.999716e-001 -1.117890e-001 6.602259e-005 -8.637774e+001 2.627958e-004 -1.835610e+001 9.974204e-001 -4.372748e-001
11699430 1.000104e+000 -1.486449e-001 1.042117e-004 -3.870319e+001 1.315816e-004 1.469945e+002 9.985464e-001 -3.945290e-001
11999415 1.000543e+000 -1.674771e-001 9.001436e-006 -1.301042e+002 8.063312e-005 -5.267786e+001 1.000083e+000 -4.238451e-001
12299400 9.999410e-001 -1.318546e-001 3.717812e-005 -7.720612e+001 1.957562e-004 7.830835e+001 9.995108e-001 -4.700527e-001
12599385 1.000004e+000 -1.864217e-001 1.002636e-004 2.223629e+001 1.214100e-004 1.780345e+002 9.975707e-001 -5.003396e-001
12899370 1.000515e+000 -1.905429e-001 8.119248e-005 -1.141622e+002 1.684788e-004 3.846722e+001 9.987491e-001 -6.885995e-001
13199355 1.000746e+000 -2.164868e-001 8.597447e-005 6.157162e+001 5.540532e-005 1.036035e+002 9.984218e-001 -5.583146e-001
13499340 9.999067e-001 -1.926674e-001 7.044973e-005 -1.430419e+002 2.768033e-004 9.505250e+001 9.982735e-001 -5.068062e-001
13799325 9.994559e-001 -2.129463e-001 7.687572e-005 1.626895e+002 2.247334e-004 -1.707850e+002 9.980873e-001 -5.000861e-001
14099310 9.998940e-001 -1.934070e-001 8.759865e-005 -2.123808e+001 3.136036e-004 4.842249e+001 9.983514e-001 -4.939225e-001
14399295 1.000381e+000 -2.176041e-001 9.084473e-005 -1.799532e+002 8.403381e-005 8.982015e+001 9.997826e-001 -4.589970e-001
14699280 1.000247e+000 -2.081207e-001 8.201694e-005 -4.114622e+001 5.935209e-005 1.722009e+002 9.993455e-001 -4.814992e-001
14999265 9.999325e-001 -1.894486e-001 7.397452e-005 -8.963024e+001 3.102583e-004 7.508823e+001 9.990137e-001 -6.258276e-001
15299250 9.992060e-001 -1.590987e-001 5.884636e-005 9.207246e+000 4.991192e-005 1.764201e+002 9.986616e-001 -5.789400e-001
15599235 1.000550e+000 -1.640514e-001 5.977272e-005 1.792003e+002 4.961148e-005 1.032225e+002 9.982723e-001 -6.323367e-001
15899220 1.000347e+000 -2.071070e-001 5.721954e-005 9.679597e+001 1.146267e-004 1.139571e+002 9.999852e-001 -5.646197e-001
16199205 9.996924e-001 -1.792151e-001 3.919564e-005 -1.049986e+002 1.433504e-004 -5.359342e+001 1.000603e+000 -5.980781e-001
16499190 1.000180e+000 -1.586498e-001 8.991778e-005 -1.536836e+002 1.675672e-004 1.450009e+002 1.001012e+000 -6.055806e-001
16799175 9.999986e-001 -2.005734e-001 6.911944e-005 1.715743e+002 3.150989e-004 1.060918e+001 1.000156e+000 -6.176698e-001
17099160 1.000104e+000 -2.296431e-001 8.309582e-005 1.439866e+002 1.831674e-004 1.240668e+002 9.997572e-001 -6.058311e-001
17399145 9.997215e-001 -2.134403e-001 6.964736e-005 1.062230e+002 1.973642e-004 1.217835e+002 9.992104e-001 -6.384895e-001
17699130 1.000150e+000 -2.265694e-001 8.464634e-005 -3.229572e+000 1.182293e-004 -1.738386e+002 9.984059e-001 -6.174856e-001
17999115 1.000036e+000 -2.283676e-001 9.447023e-005 -3.020654e+001 5.475807e-005 9.927245e+001 9.987381e-001 -5.749624e-001
18299100 1.000321e+000 -2.077570e-001 3.534420e-005 3.619376e+001 1.352538e-004 3.834673e+001 9.988199e-001 -7.190067e-001
18599085 1.000392e+000 -2.392225e-001 1.638561e-005 -1.081735e+002 1.018034e-004 1.020049e+002 9.984442e-001 -6.667308e-001
18899070 1.000025e+000 -2.405419e-001 1.095033e-004 1.287928e+002 1.907407e-004 -1.521278e+002 9.995368e-001 -5.809707e-001
19199055 1.000287e+000 -2.610998e-001 7.887414e-005 7.384714e+001 2.521721e-004 3.696787e+001 9.984109e-001 -6.274303e-001
19499040 1.000367e+000 -2.190961e-001 2.916840e-005 4.261193e+001 1.363330e-004 9.744981e+001 9.984558e-001 -7.383323e-001
19799025 1.000883e+000 -2.329486e-001 4.212854e-005 1.430475e+002 1.345448e-004 -8.336387e+001 9.979293e-001 -6.795926e-001
20099010 1.000196e+000 -2.207442e-001 1.079586e-004 8.462357e+001 1.839957e-004 8.864845e+001 9.973969e-001 -7.326673e-001
20398995 9.996352e-001 -2.237022e-001 1.136584e-004 1.685714e+002 2.881389e-004 -8.159988e+001 9.969646e-001 -7.648208e-001
20698980 9.996070e-001 -2.329848e-001 1.185393e-004 -1.357856e+002 3.768666e-004 3.038302e+000 9.974114e-001 -7.136067e-001
20998965 9.994010e-001 -2.020033e-001 8.532139e-005 -2.230210e+001 1.954645e-004 -8.299450e+001 9.983960e-001 -6.299657e-001
21298950 1.000013e+000 -2.589125e-001 3.376047e-005 4.120861e+001 2.293427e-004 4.641508e+001 9.979596e-001 -6.155443e-001
21598935 9.997427e-001 -2.569411e-001 6.023680e-005 -8.259919e+001 3.258886e-004 -1.642519e+002 9.982324e-001 -6.792064e-001
21898920 9.996467e-001 -2.570145e-001 9.260556e-005 -1.489131e+002 1.995842e-004 9.910902e+000 9.961893e-001 -7.028331e-001
22198905 1.000423e+000 -2.713993e-001 4.695423e-005 7.203442e+001 1.229398e-004 9.988621e+001 9.989939e-001 -6.882918e-001
22498890 1.000569e+000 -2.483441e-001 5.929794e-005 1.265069e+002 3.673201e-004 -4.472301e+001 9.998012e-001 -7.944121e-001
22798875 1.000472e+000 -2.123613e-001 1.954518e-005 1.512435e+002 3.660845e-004 1.140029e+002 9.987893e-001 -7.746382e-001
23098860 1.000381e+000 -2.595452e-001 1.219081e-004 -7.478094e+001 3.187427e-004 9.594871e+000 9.994562e-001 -7.488849e-001
23398845 1.000526e+000 -2.661995e-001 6.141825e-006 9.507648e+001 1.309490e-004 1.307718e+002 9.990833e-001 -7.627718e-001
23698830 9.999765e-001 -2.782293e-001 9.355386e-005 -9.230449e+001 1.904882e-004 -9.545187e+001 9.979161e-001 -8.668655e-001
23998815 1.000523e+000 -2.657448e-001 6.322665e-005 -8.897221e+001 3.471150e-004 6.530130e+001 9.983570e-001 -8.013176e-001
24298800 1.000670e+000 -2.926124e-001 8.084363e-005 1.184822e+002 3.399629e-004 -1.725347e+002 9.973925e-001 -8.622431e-001
24598785 9.998085e-001 -3.112469e-001 1.702168e-005 7.155602e+001 1.602472e-004 6.905865e+001 9.970548e-001 -7.932196e-001
24898770 1.000989e+000 -2.902788e-001 7.338426e-005 -1.542017e+001 2.974934e-004 1.522453e+002 9.995671e-001 -8.539505e-001
25198755 9.996036e-001 -2.874029e-001 6.999763e-005 1.456612e+002 2.098746e-004 -1.055284e+002 9.980717e-001 -8.476087e-001
25498740 9.996139e-001 -2.887351e-001 6.962846e-005 -1.758417e+002 1.703485e-004 5.245294e+001 9.979061e-001 -8.867542e-001
25798725 9.995589e-001 -2.738787e-001 5.698830e-005 -5.927767e+000 3.152234e-004 -1.263867e+002 9.979078e-001 -8.890281e-001
26098710 1.000655e+000 -2.750944e-001 3.681281e-006 -1.200679e+001 3.099905e-004 4.108732e+001 9.993997e-001 -8.681999e-001
26398695 1.001463e+000 -3.013681e-001 9.618040e-005 -1.670504e+002 1.839078e-004 1.246148e+002 9.980400e-001 -9.558680e-001
26698680 1.000443e+000 -2.698720e-001 7.078354e-005 5.828940e+001 2.239961e-004 -2.583838e+001 9.984742e-001 -8.680350e-001
26998665 1.000708e+000 -2.765736e-001 1.451856e-004 4.994092e+001 3.173748e-004 9.119474e+001 9.978359e-001 -8.839812e-001
27298650 1.000575e+000 -2.621566e-001 4.285142e-005 -1.029971e+002 1.624733e-004 1.426971e+002 9.991428e-001 -9.723554e-001
27598635 1.000009e+000 -2.730699e-001 7.219109e-005 -6.979228e+000 1.648842e-004 8.997177e+001 1.000035e+000 -9.050114e-001
27898620 1.000459e+000 -2.932483e-001 3.258022e-005 1.444643e+002 4.883686e-004 -1.407437e+002 1.000940e+000 -9.564342e-001
28198605 1.000295e+000 -3.353902e-001 7.907690e-005 7.167218e+001 1.640664e-004 -9.244564e+001 1.000300e+000 -9.171740e-001
28498590 9.999145e-001 -3.345722e-001 6.085059e-005 6.324862e+001 1.675757e-004 1.732301e+002 9.990529e-001 -1.024884e+000
28798575 9.989016e-001 -3.595689e-001 4.392251e-005 1.255746e+002 1.637021e-004 -1.381579e+002 9.978542e-001 -1.036599e+000
29098560 9.997190e-001 -3.433044e-001 1.924485e-004 1.044091e+002 2.225332e-004 6.533111e+001 9.993063e-001 -9.403281e-001
29398545 1.000286e+000 -2.915524e-001 1.180343e-004 -1.514703e+002 1.688330e-004 -1.201420e+002 9.991454e-001 -9.246252e-001
29698530 1.000281e+000 -3.065169e-001 3.547657e-005 -1.210393e+002 2.005226e-004 4.122864e+001 1.001018e+000 -1.012705e+000
29998515 1.000158e+000 -3.191726e-001 8.805971e-005 -4.322024e+001 8.397019e-005 -1.246893e+002 1.000067e+000 -9.394090e-001
30298500 1.000721e+000 -2.970950e-001 3.885357e-005 1.129279e+002 1.972728e-004 -9.419220e+000 9.998304e-001 -1.039008e+000
30598485 1.000087e+000 -2.990436e-001 6.658393e-005 -1.355599e+002 3.416747e-004 1.327278e+002 1.000019e+000 -9.820685e-001
30898470 1.000173e+000 -3.057297e-001 2.526225e-005 -8.267620e-001 1.862619e-004 -1.147842e+002 9.986956e-001 -1.070795e+000
31198455 1.000634e+000 -2.843441e-001 7.182692e-005 -9.355919e+001 1.332488e-004 -5.889932e+000 9.979732e-001 -1.059970e+000
31498440 1.000239e+000 -3.136945e-001 1.084389e-004 -4.011993e+001 2.917801e-004 -8.835921e+001 9.987209e-001 -9.986792e-001
31798425 1.000259e+000 -3.845930e-001 6.894446e-005 1.007765e+001 3.280509e-004 -5.655793e+000 9.998685e-001 -1.010947e+000
32098410 1.000794e+000 -3.417176e-001 8.184205e-005 -1.332511e+002 1.737086e-004 -1.516000e+002 1.000375e+000 -1.014718e+000
32398395 1.000885e+000 -3.745348e-001 8.582633e-005 1.531617e+001 9.069152e-005 -7.301554e+001 9.993309e-001 -1.029348e+000
32698380 1.000301e+000 -3.523938e-001 8.128443e-005 9.289408e+001 2.238217e-004 1.189458e+002 9.990237e-001 -1.041483e+000
32998365 1.000488e+000 -2.987792e-001 1.390044e-004 -1.595048e+002 1.161363e-004 1.527178e-001 9.994262e-001 -1.057683e+000
33298350 1.001059e+000 -3.394117e-001 4.501660e-005 4.267623e+001 2.509952e-004 5.036575e+001 9.991595e-001 -1.151635e+000
33598335 1.000559e+000 -3.778526e-001 1.000228e-004 -4.299336e+001 1.610123e-004 -1.300222e+002 9.988269e-001 -1.068432e+000
33898320 1.000113e+000 -3.448895e-001 9.559725e-005 -3.275369e+001 3.175735e-004 8.190887e+001 9.987561e-001 -1.070954e+000
34198305 1.000118e+000 -3.547753e-001 7.613160e-005 1.592302e+002 2.908022e-004 -1.595903e+002 9.981323e-001 -1.119750e+000
34498290 9.997230e-001 -3.949233e-001 5.417386e-005 6.770848e+001 2.192863e-004 -5.268425e+001 9.976181e-001 -1.113643e+000
34798275 1.000457e+000 -3.953999e-001 9.051571e-005 5.104228e+001 2.357250e-004 2.652532e+001 9.971763e-001 -1.162187e+000
35098260 1.000158e+000 -3.945322e-001 1.138061e-004 -2.131420e+001 6.540866e-005 -1.457854e+002 9.989467e-001 -1.063437e+000
35398245 1.000196e+000 -4.151098e-001 1.127398e-004 8.060822e+001 6.792218e-005 -1.254858e+002 9.986525e-001 -1.134531e+000
35698230 9.999533e-001 -3.774563e-001 1.234822e-004 -7.699916e+001 4.518657e-005 -5.407159e+001 9.988458e-001 -1.111973e+000
35998215 1.000190e+000 -3.575265e-001 7.127698e-005 -1.418911e+002 1.943488e-004 4.035077e+001 9.992890e-001 -1.173221e+000
36298200 9.999120e-001 -3.851044e-001 6.634642e-005 -1.087215e+002 1.342560e-004 1.045023e+002 9.983215e-001 -1.225645e+000
36598185 1.000853e+000 -3.972877e-001 5.005805e-005 1.283789e+002 1.231296e-004 -1.593828e+002 9.983338e-001 -1.234916e+000
36898170 1.000440e+000 -4.448909e-001 6.119190e-005 -4.844904e+001 1.004223e-004 8.420398e+001 9.983863e-001 -1.164581e+000
37198155 1.000284e+000 -3.756442e-001 1.037877e-004 8.539883e+001 3.311125e-004 -1.430754e+002 9.984119e-001 -1.225061e+000
37498140 9.997919e-001 -3.774326e-001 8.944715e-005 -4.531930e+001 1.449426e-004 4.930188e+001 9.990742e-001 -1.203079e+000
37798125 1.000108e+000 -3.739194e-001 2.746091e-005 -1.307793e+002 1.396153e-004 -1.632426e+002 9.990104e-001 -1.238538e+000
38098110 9.998919e-001 -3.681229e-001 2.020263e-005 -6.829591e+001 1.301798e-004 -1.894354e+001 9.986341e-001 -1.226951e+000
38398095 1.000332e+000 -3.947814e-001 1.753589e-005 -8.552515e+001 1.761925e-004 7.332056e+001 9.979020e-001 -1.281785e+000
38698080 1.000150e+000 -3.989576e-001 1.105810e-004 4.527674e+001 9.181665e-005 4.334978e+001 9.977823e-001 -1.244273e+000
38998065 1.000213e+000 -3.832155e-001 4.722397e-005 6.445870e+001 7.169249e-005 1.312824e+002 9.976469e-001 -1.278222e+000
39298050 1.000693e+000 -3.908308e-001 4.581755e-005 -1.125339e+002 1.385621e-004 -1.009496e+002 9.986902e-001 -1.237283e+000
39598035 1.000687e+000 -3.758678e-001 4.658120e-005 1.629006e+002 1.428197e-004 8.069336e+001 9.989358e-001 -1.184659e+000
39898020 1.000960e+000 -3.922413e-001 7.983460e-005 2.472109e+000 2.299016e-004 1.107619e+002 9.993111e-001 -1.156690e+000
40198005 1.000522e+000 -4.253280e-001 1.068192e-004 -1.148838e+002 1.528575e-004 7.791089e+001 9.979560e-001 -1.359962e+000
40497990 1.001065e+000 -3.940677e-001 1.909580e-004 -7.662945e+001 1.316482e-004 -2.748998e+001 1.001493e+000 -1.320063e+000
40797975 1.001567e+000 -4.504694e-001 1.220304e-004 1.476750e+002 1.089786e-004 -1.299521e+002 9.989725e-001 -1.322687e+000
41097960 1.001460e+000 -4.181562e-001 1.562798e-004 -8.516660e+001 7.681215e-005 7.830640e+000 9.987531e-001 -1.283152e+000
41397945 1.000196e+000 -3.424543e-001 1.117388e-004 2.132123e+001 2.965846e-004 -1.133530e+002 9.998818e-001 -1.275805e+000
41697930 1.001001e+000 -3.665260e-001 3.996467e-005 -4.850278e+001 1.572953e-004 -5.354558e+001 9.990739e-001 -1.265880e+000
41997915 1.001127e+000 -4.477877e-001 1.497592e-004 -2.354251e+001 2.105602e-004 -1.358024e+002 1.000220e+000 -1.243830e+000
42297900 1.000189e+000 -4.212345e-001 1.455918e-004 2.624384e+001 2.070741e-004 -1.010826e+002 9.987345e-001 -1.202457e+000
42597885 1.000832e+000 -4.008135e-001 1.235156e-004 1.730960e+002 6.694294e-005 7.773590e+001 9.994885e-001 -1.220609e+000
42897870 1.000716e+000 -4.509130e-001 1.737909e-004 1.376252e+002 6.784753e-005 2.120640e+001 9.990265e-001 -1.469729e+000
43197855 1.000586e+000 -3.818336e-001 1.673613e-004 1.722383e+002 2.408959e-005 -1.795442e+002 9.976476e-001 -1.355163e+000
43497840 1.000630e+000 -4.576689e-001 2.543107e-004 -1.416488e+002 5.251934e-004 1.579884e+002 9.979612e-001 -1.426379e+000
43797825 9.999632e-001 -4.584254e-001 1.202718e-004 -3.837799e+001 1.802476e-004 -8.962820e+001 9.985161e-001 -1.373843e+000
44097810 1.000329e+000 -3.926775e-001 1.864428e-004 -1.592452e+002 1.159698e-005 1.092160e+002 1.000048e+000 -1.431797e+000
44397795 9.995803e-001 -3.965946e-001 1.384362e-004 -5.776738e+001 1.696030e-004 1.325544e+002 1.000569e+000 -1.486869e+000
44697780 1.001587e+000 -4.659281e-001 1.310999e-004 -6.059906e+001 3.302208e-004 -1.694063e+002 9.993702e-001 -1.460776e+000
44997765 1.002441e+000 -4.296536e-001 2.037516e-004 -1.157542e+002 3.074877e-004 4.250761e+001 1.000529e+000 -1.465796e+000
45297750 1.001829e+000 -4.897849e-001 4.239883e-005 -5.553085e+001 1.706206e-004 1.247833e+002 1.001263e+000 -1.587262e+000
45597735 1.001757e+000 -4.931231e-001 6.671143e-005 -7.179771e+001 3.051813e-004 -5.647839e+001 9.996741e-001 -1.574626e+000
45897720 1.002483e+000 -4.150018e-001 1.225043e-004 -7.473290e+001 2.830745e-004 -1.011729e+002 9.992800e-001 -1.465180e+000
46197705 1.001803e+000 -4.735393e-001 2.361943e-004 -6.391407e+001 1.932182e-004 -1.372579e+002 1.002131e+000 -1.490896e+000
46497690 1.001258e+000 -4.450546e-001 1.068809e-004 -9.239113e+001 7.671130e-005 1.089066e+002 1.000993e+000 -1.494056e+000
46797675 1.001768e+000 -4.595099e-001 1.058087e-004 -9.641867e+001 3.469296e-004 1.452788e+002 9.994364e-001 -1.471352e+000
47097660 1.001390e+000 -4.540652e-001 1.654663e-004 -1.282469e+002 3.304364e-004 1.409257e+002 9.985923e-001 -1.520230e+000
