!Agilent Technologies,N5230C,SG49000117,A.08.50.07
!Agilent N5230C: A.08.50.07
!Date: Thursday, May 16, 2024 18:13:20
!Correction: S11(Full 2 Port(1,2)) 
!S21(Full 2 Port(1,2)) 
!S12(Full 2 Port(1,2)) 
!S22(Full 2 Port(1,2)) 
!S2P File: Measurements: S11, S21, S12, S22:
# Hz S  MA   R 50
300000 1.006265e+000 -4.480281e-001 1.386908e-004 9.141362e+001 5.555386e-004 -1.492090e+002 1.015846e+000 -7.363972e-001
599985 9.829823e-001 3.409838e-001 4.241247e-005 -1.691335e+002 8.977452e-005 -6.953554e+001 9.643493e-001 3.756058e-001
899970 9.969701e-001 -1.036718e-001 1.302144e-004 -3.740954e+000 1.497103e-004 -2.922883e+001 9.841654e-001 -3.324935e-001
1199955 9.976175e-001 -6.301763e-002 7.272389e-005 3.360869e+001 1.881674e-005 2.972704e+001 9.956353e-001 -2.190253e-001
1499940 9.938775e-001 1.536738e-001 1.013421e-004 -1.629820e+002 2.131079e-004 4.482667e+001 9.928972e-001 8.726328e-002
1799925 9.922443e-001 2.515342e-001 5.246248e-005 -1.186198e+002 2.894188e-004 -2.537715e+001 9.896163e-001 -1.000951e-002
2099910 9.992946e-001 -1.242330e-002 2.226493e-005 7.673467e+001 7.302270e-005 -1.414234e+002 9.984881e-001 -6.052405e-002
2399895 1.000127e+000 -1.266636e-001 2.929003e-005 -8.719537e+001 1.032126e-004 -1.737540e+002 1.003467e+000 -6.123127e-002
2699880 9.998769e-001 -2.587320e-001 1.888440e-005 -6.972047e+001 1.271332e-004 -6.023039e+001 9.951292e-001 -3.387867e-001
2999865 9.997794e-001 -1.320925e-001 7.264681e-005 -5.785514e+001 8.289149e-005 8.810606e+001 9.971851e-001 -2.306357e-001
3299850 1.000396e+000 -1.058058e-001 2.292511e-005 1.737577e+002 7.064849e-005 1.211786e+002 9.973948e-001 -2.864809e-001
3599835 1.000124e+000 -1.088233e-001 3.151820e-005 9.818474e+001 9.268576e-005 -2.534137e+001 9.982430e-001 -2.159869e-001
3899820 9.992998e-001 -1.305159e-001 1.562809e-005 -1.229971e+002 1.715755e-004 1.235261e+002 9.986678e-001 -2.631769e-001
4199805 1.000638e+000 -1.774417e-001 1.206448e-004 1.008514e+002 2.714943e-004 7.076596e+001 9.992265e-001 -3.019570e-001
4499790 1.000464e+000 -1.572640e-001 2.306341e-005 -1.452752e+002 6.251329e-005 1.028813e+002 9.998803e-001 -3.173496e-001
4799775 1.000687e+000 -1.613762e-001 2.330428e-005 1.388635e+002 7.683001e-005 1.665451e+002 9.992755e-001 -3.115101e-001
5099760 1.000849e+000 -1.169824e-001 8.802238e-005 1.794527e+002 2.348726e-004 3.583917e+001 1.000291e+000 -2.942470e-001
5399745 1.000195e+000 -1.301975e-001 2.460860e-005 -3.928823e-001 3.656524e-005 3.417413e+001 9.998677e-001 -2.320661e-001
5699730 1.000282e+000 -1.124582e-001 4.657637e-005 1.281676e+002 7.102549e-005 6.890025e+001 1.001329e+000 -3.294655e-001
5999715 9.997309e-001 -1.128579e-001 4.088676e-005 1.744151e+002 1.548221e-004 -3.216843e+000 9.999024e-001 -2.893002e-001
6299700 1.000045e+000 -1.061528e-001 5.519072e-005 3.895836e+001 1.225158e-004 2.905440e+001 1.000757e+000 -3.345758e-001
6599685 1.000380e+000 -1.102259e-001 2.256003e-006 5.709279e+001 1.038330e-004 5.118814e+001 9.995198e-001 -3.611132e-001
6899670 9.994599e-001 -1.478812e-001 6.989148e-005 -1.432735e+002 4.106389e-005 -2.027449e+001 9.990140e-001 -3.074153e-001
7199655 1.000080e+000 -1.385487e-001 3.576760e-005 -1.079822e+002 1.327897e-004 1.763675e+002 9.995565e-001 -4.378073e-001
7499640 9.999855e-001 -1.721882e-001 3.662459e-005 9.180637e+001 1.917267e-004 -1.360802e+002 9.993181e-001 -4.496771e-001
7799625 1.000333e+000 -1.516564e-001 6.684761e-005 -1.696375e+002 1.725714e-004 -1.134246e+002 9.990825e-001 -3.601562e-001
8099610 1.000132e+000 -1.502309e-001 3.829534e-005 2.476324e+001 1.047876e-004 -5.987669e+001 9.978939e-001 -4.151831e-001
8399595 1.000167e+000 -1.311399e-001 1.315098e-005 2.705318e+001 1.705008e-004 1.433404e+002 9.994553e-001 -4.982345e-001
8699580 9.996943e-001 -1.680333e-001 4.361499e-005 -1.212210e+002 3.326432e-004 -3.897183e+001 9.995754e-001 -4.581801e-001
8999565 1.000193e+000 -9.315308e-002 9.148720e-006 1.216538e+002 1.118614e-004 -5.347449e+001 9.987862e-001 -5.178542e-001
9299550 1.000154e+000 -1.507893e-001 1.221619e-005 -4.950478e+000 2.598586e-004 1.503404e+002 9.990130e-001 -4.313813e-001
9599535 1.000444e+000 -1.917860e-001 5.472523e-005 1.798734e+002 3.473854e-004 1.444543e+002 9.977376e-001 -5.977593e-001
9899520 9.998735e-001 -2.544054e-001 6.422736e-005 -3.099593e+001 2.337870e-004 -1.369932e+002 9.964504e-001 -6.876055e-001
10199505 9.996196e-001 -1.126171e-001 4.854074e-005 2.670001e+001 1.486700e-004 -1.086715e+002 9.984835e-001 -4.442452e-001
10499490 1.000299e+000 -1.126885e-001 1.223939e-004 1.350422e+002 1.929706e-004 2.386823e+001 9.985436e-001 -4.684793e-001
10799475 9.998194e-001 -1.429958e-001 5.882579e-005 2.106700e+001 1.869176e-004 1.670243e+002 9.984308e-001 -4.688590e-001
11099460 1.000056e+000 -1.193950e-001 3.271877e-005 -4.347750e+001 6.868931e-005 -6.410403e+001 9.981599e-001 -4.467855e-001
11399445 1.000289e+000 -1.239036e-001 7.983119e-005 -4.652975e+001 3.694691e-005 9.199664e-001 9.983658e-001 -4.347383e-001
11699430 1.000214e+000 -1.201552e-001 1.497324e-005 -1.140696e+002 1.657583e-004 -1.279201e+002 9.989783e-001 -4.868246e-001
11999415 9.999903e-001 -1.412835e-001 5.194102e-005 5.182773e+001 1.047289e-004 -6.575698e+001 1.000270e+000 -4.846079e-001
12299400 1.000199e+000 -1.242272e-001 5.844794e-005 -1.233867e+002 6.758612e-005 -1.183942e+002 9.992685e-001 -4.206937e-001
12599385 1.000116e+000 -1.640379e-001 7.725834e-005 5.848207e+001 9.435965e-005 1.738203e+002 9.985998e-001 -6.080977e-001
12899370 1.000812e+000 -1.888313e-001 8.674376e-005 -1.774369e+002 2.021371e-004 -1.171767e+001 9.995248e-001 -7.225469e-001
13199355 1.000149e+000 -2.217519e-001 5.494311e-005 4.685811e+000 3.311158e-005 -1.064471e+002 9.985191e-001 -4.977508e-001
13499340 1.000112e+000 -2.012842e-001 1.365447e-004 -1.678887e+002 1.587766e-004 -8.578887e+001 9.984916e-001 -5.614552e-001
13799325 1.000273e+000 -2.071738e-001 1.777297e-005 1.462486e+002 1.014934e-004 -4.838290e+001 9.974370e-001 -5.398908e-001
14099310 9.999418e-001 -1.971315e-001 1.092180e-004 6.518947e+001 2.432473e-004 1.357955e+002 9.995121e-001 -6.172810e-001
14399295 9.996679e-001 -2.184456e-001 6.145361e-005 -1.020638e+002 3.514372e-005 -1.175734e+002 9.998003e-001 -6.014314e-001
14699280 1.000375e+000 -1.794739e-001 5.432084e-005 7.803975e+001 2.539137e-004 5.824249e+001 9.996023e-001 -6.087137e-001
14999265 1.000002e+000 -1.842203e-001 1.012691e-004 1.710393e+002 3.112257e-004 -2.834247e+001 9.992679e-001 -6.600957e-001
15299250 9.996447e-001 -2.049997e-001 1.453214e-004 -7.744479e+001 9.203631e-005 6.357660e+001 9.988706e-001 -5.933177e-001
15599235 1.000289e+000 -1.979754e-001 1.062002e-004 1.062958e+002 3.918836e-004 -1.714075e+002 9.986424e-001 -6.570311e-001
15899220 9.997445e-001 -1.932766e-001 3.020665e-005 1.726598e+001 2.686572e-004 1.158530e+001 9.992951e-001 -5.220703e-001
16199205 1.000169e+000 -1.951302e-001 1.174073e-004 1.679298e+002 1.187844e-004 1.241620e+002 1.000250e+000 -5.717450e-001
16499190 1.000512e+000 -1.851189e-001 3.949284e-005 4.409117e+001 1.284927e-004 -9.039760e+001 1.000124e+000 -6.660537e-001
16799175 9.999389e-001 -1.939628e-001 1.296146e-004 9.810349e+001 2.936618e-004 8.366915e+001 1.000769e+000 -6.744404e-001
17099160 1.000116e+000 -2.183890e-001 8.704000e-005 2.595386e+001 2.439029e-004 -8.270481e+001 9.996346e-001 -6.571674e-001
17399145 1.000136e+000 -2.220688e-001 3.112954e-005 -1.776804e+002 2.978302e-004 1.097634e+002 1.000172e+000 -6.473886e-001
17699130 1.000111e+000 -2.322513e-001 1.077543e-004 -1.156240e+002 2.819135e-004 -1.117798e+002 9.995209e-001 -7.066215e-001
17999115 1.000086e+000 -2.146872e-001 1.173870e-004 -6.626432e+001 1.005363e-004 6.326830e+000 1.000026e+000 -7.472426e-001
18299100 1.000117e+000 -1.939541e-001 6.775850e-005 1.448865e+002 1.447309e-004 1.277019e+002 9.996120e-001 -7.987033e-001
18599085 1.000470e+000 -2.181658e-001 1.247184e-004 -6.767729e+001 2.165466e-004 -1.685931e+002 9.989817e-001 -7.398306e-001
18899070 9.996136e-001 -2.100707e-001 1.148815e-004 -1.144623e+002 1.076787e-004 1.461211e+002 9.999017e-001 -6.988685e-001
19199055 1.000220e+000 -2.258142e-001 1.198380e-004 -1.254868e+002 4.286522e-004 -1.163122e+002 9.996343e-001 -7.051981e-001
19499040 1.000926e+000 -2.577412e-001 8.575725e-005 1.791786e+002 7.036888e-005 -8.839009e+001 9.989713e-001 -6.721520e-001
19799025 1.000328e+000 -1.938448e-001 5.843967e-005 -1.301629e+002 1.886979e-004 -1.776909e+002 9.989296e-001 -7.396507e-001
20099010 9.999234e-001 -2.012061e-001 1.172434e-004 1.626547e+002 1.998377e-004 1.191360e+002 9.972647e-001 -7.636296e-001
20398995 9.995855e-001 -2.165776e-001 6.948426e-005 1.500922e+002 3.406301e-005 5.296168e+001 9.985164e-001 -7.808821e-001
20698980 1.000057e+000 -2.011274e-001 1.763677e-005 3.936327e+001 1.605332e-004 -1.016730e+002 9.994195e-001 -8.113352e-001
20998965 9.998587e-001 -1.839354e-001 6.996373e-005 -5.033138e+001 9.316663e-005 1.685621e+002 9.973675e-001 -7.690081e-001
21298950 9.997941e-001 -2.187485e-001 2.942498e-005 3.301493e+001 1.899231e-004 -1.270291e+002 9.985247e-001 -7.646204e-001
21598935 9.997784e-001 -2.150126e-001 8.162703e-005 -8.133435e+001 2.502042e-004 2.796595e+001 9.978367e-001 -8.040673e-001
21898920 9.998385e-001 -2.323685e-001 3.152151e-005 2.040110e+001 1.835057e-004 5.645622e+001 9.984973e-001 -7.597154e-001
22198905 1.000088e+000 -2.535521e-001 1.297429e-004 1.734202e+002 2.633571e-004 -3.215991e+001 9.996548e-001 -7.682510e-001
22498890 1.000595e+000 -2.257890e-001 3.780003e-005 -1.377157e+002 3.041818e-004 1.405563e+002 1.000066e+000 -8.567753e-001
22798875 1.000143e+000 -2.496634e-001 6.061653e-005 -1.379456e+002 2.634802e-004 -7.386351e+001 1.001458e+000 -8.925648e-001
23098860 1.000142e+000 -2.602668e-001 1.081146e-004 1.166281e+002 3.760669e-004 1.223763e+002 9.998173e-001 -8.143456e-001
23398845 1.000333e+000 -2.412627e-001 9.684609e-005 -4.254922e+000 5.387662e-005 -8.145901e+001 1.000101e+000 -8.981146e-001
23698830 1.000140e+000 -2.253487e-001 6.688196e-005 1.550236e+002 1.882673e-004 1.173695e+002 9.978503e-001 -9.252999e-001
23998815 1.000429e+000 -2.933640e-001 3.014206e-005 -3.356635e+001 3.056330e-004 -7.929368e+001 9.983481e-001 -9.152151e-001
24298800 1.000239e+000 -3.240731e-001 5.064882e-005 8.013656e+001 4.177610e-004 4.637686e+001 9.970092e-001 -9.080106e-001
24598785 1.001136e+000 -2.893754e-001 9.860092e-005 -1.068000e+002 1.662237e-004 1.054595e+002 9.990190e-001 -9.299626e-001
24898770 9.997686e-001 -3.035862e-001 1.147160e-004 1.743253e+002 7.556065e-005 -8.390544e-001 9.992482e-001 -9.148499e-001
25198755 1.000442e+000 -2.920694e-001 9.953187e-005 3.430206e+001 2.574958e-004 1.327589e+002 9.988911e-001 -1.000731e+000
25498740 1.000168e+000 -2.925538e-001 6.927125e-005 -3.762911e+001 1.523661e-004 5.761471e+001 9.989356e-001 -1.030302e+000
25798725 9.996058e-001 -2.704332e-001 8.868935e-005 1.088861e+002 2.550498e-004 1.723292e+002 9.990120e-001 -9.561890e-001
26098710 1.000291e+000 -2.685651e-001 1.872576e-005 -8.938480e+001 9.065701e-005 -4.402437e+001 1.000397e+000 -1.010352e+000
26398695 1.000638e+000 -2.496428e-001 2.083731e-005 -1.561257e+001 3.828543e-004 1.093715e+002 1.000324e+000 -9.816152e-001
26698680 1.000786e+000 -2.811342e-001 1.335132e-005 -3.328426e+000 1.868717e-004 -1.683760e+002 9.985565e-001 -1.012748e+000
26998665 1.000544e+000 -2.976296e-001 8.187610e-005 -4.943273e+001 1.293297e-004 1.851440e+001 9.997261e-001 -1.040545e+000
27298650 1.000814e+000 -3.058580e-001 1.089463e-004 1.599582e+002 6.683922e-005 -1.621285e+002 9.987261e-001 -1.021956e+000
27598635 1.000343e+000 -2.713955e-001 1.391728e-004 1.698118e+002 8.791158e-005 4.666792e+001 1.001341e+000 -1.030586e+000
27898620 1.000596e+000 -3.111122e-001 4.538251e-005 4.963502e+001 2.012126e-004 1.457273e+002 9.996248e-001 -9.998392e-001
28198605 1.000404e+000 -3.247757e-001 1.289236e-004 -7.491958e+000 2.629540e-004 -6.854415e+001 1.000672e+000 -1.075774e+000
28498590 9.995933e-001 -3.414461e-001 2.155294e-005 1.203087e+002 2.121209e-004 5.306568e+001 9.995531e-001 -1.100320e+000
28798575 9.989132e-001 -3.101250e-001 4.755384e-005 8.299487e+001 1.606896e-004 -1.305103e+002 9.988285e-001 -1.083409e+000
29098560 9.995853e-001 -3.297447e-001 9.067643e-005 6.460824e+001 2.708385e-004 -2.660077e+001 9.996579e-001 -1.058609e+000
29398545 1.000092e+000 -2.871903e-001 2.766049e-006 -1.101211e+002 1.564062e-004 1.214544e+002 9.998294e-001 -1.075621e+000
29698530 1.000437e+000 -2.455431e-001 9.039720e-005 1.706932e+002 9.770234e-005 -1.290754e+002 1.000005e+000 -1.095320e+000
29998515 1.000237e+000 -3.084333e-001 8.299915e-006 -4.402620e+001 2.441333e-004 1.369429e+002 1.000693e+000 -1.153111e+000
30298500 1.000258e+000 -3.342853e-001 9.399026e-005 6.786491e+001 2.412026e-004 -9.581011e+001 1.000175e+000 -1.127677e+000
30598485 1.000689e+000 -3.077097e-001 5.806572e-005 -9.703815e+001 1.687625e-005 -1.052162e+002 1.000062e+000 -1.119937e+000
30898470 1.000046e+000 -2.996784e-001 1.270592e-004 3.090814e+001 1.815195e-004 1.655806e+002 9.992860e-001 -1.119223e+000
31198455 1.000281e+000 -2.883453e-001 5.078597e-005 1.441441e+002 2.677212e-005 1.516263e+002 9.985830e-001 -1.054742e+000
31498440 9.999732e-001 -3.343334e-001 5.695807e-005 -7.837152e+001 1.083473e-004 -3.320991e+001 9.995824e-001 -1.127051e+000
31798425 1.000578e+000 -3.909582e-001 5.667532e-005 3.490480e+001 1.982937e-004 -5.212083e+001 9.997919e-001 -1.123920e+000
32098410 1.000334e+000 -3.696079e-001 1.031717e-004 -1.097760e+002 1.785731e-004 3.140445e+001 1.000235e+000 -1.096040e+000
32398395 1.000679e+000 -3.828855e-001 9.381505e-005 -9.782793e+001 2.387366e-004 -3.262910e+001 9.999087e-001 -1.126438e+000
32698380 1.000830e+000 -3.076971e-001 3.026919e-005 4.474253e+001 2.692752e-004 5.008074e+001 9.994329e-001 -1.157171e+000
32998365 1.000964e+000 -3.574491e-001 4.598923e-005 1.404579e+002 3.092629e-004 -1.269806e+002 9.998719e-001 -1.152529e+000
33298350 1.001079e+000 -3.308076e-001 2.149803e-005 -1.276669e+002 1.603081e-004 -4.112901e+001 9.994879e-001 -1.208778e+000
33598335 9.998305e-001 -3.290061e-001 3.049677e-005 -1.320859e+002 1.867718e-004 -1.788088e+002 9.993190e-001 -1.172115e+000
33898320 1.000307e+000 -3.756033e-001 7.276402e-005 1.051204e+002 1.869859e-004 -4.348872e+001 9.983870e-001 -1.202900e+000
34198305 1.000341e+000 -3.915620e-001 4.074963e-005 -6.593737e+001 2.045304e-004 9.628496e+001 9.978638e-001 -1.254347e+000
34498290 1.000344e+000 -3.273439e-001 9.890159e-005 -4.312582e+001 9.504334e-005 -1.365195e+002 9.987821e-001 -1.220918e+000
34798275 1.000409e+000 -3.801844e-001 5.301917e-005 1.644313e+002 1.631296e-004 8.121120e+001 9.979365e-001 -1.280209e+000
35098260 9.997444e-001 -3.891024e-001 4.904522e-005 9.607600e+001 1.764067e-004 1.178869e+002 9.990888e-001 -1.225868e+000
35398245 1.000442e+000 -3.794923e-001 1.114225e-004 1.179142e+002 1.522263e-004 -8.439245e+001 9.999054e-001 -1.225895e+000
35698230 9.999519e-001 -3.996238e-001 2.924844e-005 1.017976e+002 1.212936e-004 -7.548384e+000 9.998894e-001 -1.270802e+000
35998215 1.000450e+000 -3.979316e-001 6.914051e-005 -7.234472e+001 1.516587e-004 -9.374182e+001 1.000183e+000 -1.268142e+000
36298200 9.999340e-001 -3.995923e-001 1.077605e-005 1.514752e+002 1.717426e-004 1.703873e+001 9.992229e-001 -1.339789e+000
36598185 1.000153e+000 -4.151620e-001 1.104854e-005 -2.453756e+001 1.422828e-004 -1.462184e+002 1.000137e+000 -1.316544e+000
36898170 1.000553e+000 -3.738015e-001 1.152498e-004 -1.452864e+002 1.295043e-004 -5.554286e+001 9.991088e-001 -1.375400e+000
37198155 1.000298e+000 -3.983096e-001 3.238372e-005 1.110416e+002 1.627934e-004 9.694119e+001 9.994309e-001 -1.343254e+000
37498140 1.000450e+000 -4.014192e-001 4.265840e-005 1.172573e+002 7.332508e-005 -1.308753e+002 9.989300e-001 -1.321893e+000
37798125 1.000551e+000 -4.004711e-001 7.205789e-005 9.837726e+001 1.357037e-004 -1.670809e+002 9.993793e-001 -1.322807e+000
38098110 1.000194e+000 -3.899607e-001 2.616122e-005 9.512179e+001 1.517711e-004 -1.161130e+001 9.991206e-001 -1.378182e+000
38398095 9.996030e-001 -3.780710e-001 9.703093e-005 -1.453131e+002 1.375446e-004 -1.055047e+001 9.985117e-001 -1.356823e+000
38698080 9.998267e-001 -3.928300e-001 3.706499e-005 -1.632267e+002 5.141361e-005 -1.626390e+002 9.976320e-001 -1.444391e+000
38998065 1.000607e+000 -3.661225e-001 1.086495e-004 1.305191e+002 1.594437e-004 4.017746e+001 9.980493e-001 -1.385963e+000
39298050 1.000301e+000 -4.138911e-001 4.653584e-005 1.001143e+002 1.779268e-004 1.736657e+002 9.981416e-001 -1.391518e+000
39598035 1.000879e+000 -3.794859e-001 2.059133e-005 -2.817043e+001 2.162987e-004 -3.870382e+001 1.000427e+000 -1.343399e+000
39898020 1.001261e+000 -3.856232e-001 5.888077e-005 1.468212e+001 2.907337e-004 1.535612e+002 1.000736e+000 -1.333432e+000
40198005 9.997064e-001 -3.912840e-001 1.705553e-004 1.357440e+002 1.874375e-004 -3.284489e+001 1.000255e+000 -1.505305e+000
40497990 9.996906e-001 -4.084943e-001 2.028590e-004 -7.260985e+000 2.338635e-004 -3.175760e+001 1.000358e+000 -1.431350e+000
40797975 1.000918e+000 -4.238679e-001 1.154303e-004 9.519086e+001 3.084039e-005 -1.609954e+002 9.985906e-001 -1.539225e+000
41097960 1.001036e+000 -3.777580e-001 6.674192e-005 1.466050e+002 2.540352e-004 -1.262254e+002 9.996520e-001 -1.542434e+000
41397945 1.000286e+000 -3.443120e-001 7.615860e-005 1.034488e+002 2.063500e-004 8.816073e+001 9.987817e-001 -1.432490e+000
41697930 1.001079e+000 -4.139826e-001 1.124269e-004 3.130515e+001 2.036801e-004 -1.765688e+001 9.997841e-001 -1.354403e+000
41997915 9.998952e-001 -4.026222e-001 1.730750e-004 9.818069e+001 2.555779e-004 -7.325205e+001 9.995378e-001 -1.446037e+000
42297900 1.001542e+000 -4.060185e-001 2.276061e-004 -1.011033e+002 3.714159e-004 -1.392759e+002 9.986905e-001 -1.405540e+000
42597885 1.000817e+000 -4.258963e-001 3.672449e-005 1.558033e+002 3.072080e-004 -1.466436e+002 9.996676e-001 -1.425300e+000
42897870 1.001207e+000 -4.058992e-001 1.586951e-004 -1.773381e+002 6.700985e-005 1.261926e+002 1.000942e+000 -1.519780e+000
43197855 1.000792e+000 -4.131320e-001 1.150185e-004 8.985065e+000 1.720509e-004 8.941491e+001 1.000727e+000 -1.562771e+000
43497840 1.001614e+000 -4.326511e-001 3.236924e-004 3.744678e+001 1.110270e-004 -9.380574e+001 9.984123e-001 -1.736636e+000
43797825 9.997067e-001 -4.048174e-001 1.672176e-004 -5.625569e+001 1.597750e-004 1.339703e+002 9.999244e-001 -1.656255e+000
44097810 1.001015e+000 -4.017774e-001 1.256397e-004 1.707533e+002 1.730967e-004 1.160824e+001 9.990456e-001 -1.662390e+000
44397795 9.999191e-001 -3.664946e-001 5.441175e-005 5.719485e+001 1.349595e-004 -1.193292e+002 1.000237e+000 -1.708281e+000
44697780 1.001267e+000 -4.059470e-001 4.348662e-007 -5.733889e+001 1.026792e-004 -9.489992e+001 9.997061e-001 -1.697430e+000
44997765 1.001168e+000 -4.431529e-001 1.260890e-004 -1.260315e+002 2.069095e-004 -1.324987e+002 1.000283e+000 -1.693596e+000
45297750 1.001236e+000 -4.524275e-001 1.222339e-004 -7.288264e+001 1.808156e-004 9.044595e+000 1.002505e+000 -1.691737e+000
45597735 1.002805e+000 -4.908025e-001 1.360143e-005 -4.915764e+001 1.660823e-004 1.688269e+002 1.001915e+000 -1.620293e+000
45897720 1.000844e+000 -4.751120e-001 2.304646e-004 1.556205e+002 7.458030e-005 5.287046e+001 1.001828e+000 -1.619401e+000
46197705 1.001270e+000 -4.193315e-001 1.142281e-004 1.347222e+002 5.383657e-004 9.779788e+001 9.999658e-001 -1.597866e+000
46497690 1.002033e+000 -4.818091e-001 1.645714e-004 -1.508605e+002 1.121260e-004 -3.503248e-001 1.000708e+000 -1.692999e+000
46797675 1.001225e+000 -4.830892e-001 2.540297e-005 -8.571642e+001 1.898891e-004 8.708095e+001 1.000306e+000 -1.679835e+000
47097660 1.000921e+000 -5.491543e-001 5.897143e-005 1.212304e+002 1.560596e-004 -1.443869e+001 9.990119e-001 -1.689524e+000
