!Agilent Technologies,N5230C,SG49000117,A.08.50.07
!Agilent N5230C: A.08.50.07
!Date: Monday, March 18, 2024 19:21:50
!Correction: S11(Off) 
!S21(Off) 
!S12(Off) 
!S22(Off) 
!S2P File: Measurements: S11, S21, S12, S22:
# Hz S  RI   R 50
300000000 -2.405267e-005 3.001628e-005 -6.061765e-001 -6.683220e-001 -3.860905e-005 7.532207e-005 -6.081896e-001 -6.708821e-001
300285000 5.674145e-005 -9.154760e-005 -6.227907e-001 -6.456839e-001 -1.139876e-004 7.260791e-005 -6.244040e-001 -6.479571e-001
300570000 -2.039802e-005 -4.968799e-005 -6.375735e-001 -6.218904e-001 -6.968834e-005 1.217764e-004 -6.400397e-001 -6.242754e-001
300855000 1.841999e-005 3.090199e-005 -6.518161e-001 -5.988643e-001 -5.925831e-005 -1.182125e-006 -6.545231e-001 -6.012374e-001
301140000 -1.293443e-005 -5.523100e-005 -6.657442e-001 -5.750780e-001 -1.224821e-004 -7.610022e-005 -6.682847e-001 -5.779844e-001
301425000 4.517641e-006 1.334102e-005 -6.783220e-001 -5.518544e-001 -3.544523e-005 -8.693252e-005 -6.806316e-001 -5.540997e-001
301710000 9.758511e-006 2.578417e-005 -6.897633e-001 -5.289105e-001 -9.226993e-005 -3.447775e-005 -6.924006e-001 -5.311035e-001
301995000 7.236526e-005 -7.155591e-005 -7.006598e-001 -5.052325e-001 -1.065222e-005 1.190471e-005 -7.040498e-001 -5.068643e-001
302280000 -3.027632e-005 -2.691504e-005 -7.113285e-001 -4.817747e-001 4.042956e-005 -8.930157e-006 -7.141756e-001 -4.833819e-001
302565000 1.142287e-005 1.009314e-005 -7.205368e-001 -4.582724e-001 4.344531e-005 -9.447941e-005 -7.232275e-001 -4.602339e-001
302850000 3.368410e-005 -3.074920e-005 -7.297642e-001 -4.351134e-001 1.465626e-005 -1.611240e-006 -7.324653e-001 -4.367577e-001
303135000 3.141878e-005 7.518630e-005 -7.377722e-001 -4.115286e-001 -1.786469e-005 1.292817e-005 -7.402685e-001 -4.134447e-001
303420000 2.801107e-005 2.084420e-005 -7.452436e-001 -3.883519e-001 4.197364e-005 -2.573479e-005 -7.473823e-001 -3.903050e-001
303705000 -5.584640e-005 -1.034488e-004 -7.522425e-001 -3.658531e-001 -6.160059e-005 -2.282606e-005 -7.547953e-001 -3.669714e-001
303990000 -1.300692e-005 2.579406e-005 -7.580432e-001 -3.429564e-001 -2.476444e-005 -2.804259e-005 -7.607506e-001 -3.444777e-001
304275000 4.529298e-005 2.473642e-005 -7.632893e-001 -3.200374e-001 4.053036e-005 -1.593355e-005 -7.660449e-001 -3.211710e-001
304560000 7.407188e-005 -7.917959e-005 -7.682697e-001 -2.974238e-001 4.971623e-005 -9.494446e-006 -7.713103e-001 -2.986664e-001
304845000 -1.639801e-005 5.155243e-005 -7.723075e-001 -2.748303e-001 -4.838199e-006 -4.600617e-005 -7.753940e-001 -2.758223e-001
305130000 2.129581e-005 -5.792866e-005 -7.764649e-001 -2.527075e-001 2.894334e-005 -8.186387e-005 -7.791005e-001 -2.537767e-001
305415000 1.110157e-006 4.656103e-005 -7.795271e-001 -2.300988e-001 -4.941943e-005 -2.468064e-005 -7.824605e-001 -2.318747e-001
305700000 -2.937173e-005 7.806781e-005 -7.821199e-001 -2.080878e-001 5.759326e-005 -6.438784e-005 -7.849873e-001 -2.090216e-001
305985000 5.585596e-006 7.904319e-005 -7.840638e-001 -1.859658e-001 9.983435e-005 4.221126e-005 -7.871522e-001 -1.869368e-001
306270000 -8.596028e-005 2.320044e-005 -7.864023e-001 -1.648162e-001 -3.291056e-005 7.182006e-005 -7.889226e-001 -1.654258e-001
306555000 -9.203082e-005 6.922970e-005 -7.874935e-001 -1.427358e-001 8.638322e-005 1.119238e-004 -7.903162e-001 -1.428643e-001
306840000 3.307451e-005 1.261164e-004 -7.880700e-001 -1.213323e-001 4.199678e-005 1.327759e-005 -7.911638e-001 -1.219129e-001
307125000 -2.435818e-005 5.002090e-006 -7.884105e-001 -9.998930e-002 -1.636158e-005 4.270234e-005 -7.912005e-001 -1.005800e-001
307410000 -9.907297e-005 1.117993e-004 -7.882897e-001 -7.896595e-002 1.675557e-005 -1.195205e-004 -7.915835e-001 -7.953655e-002
307695000 1.378178e-005 -1.784060e-005 -7.877523e-001 -5.808349e-002 8.517560e-005 -5.410860e-005 -7.906893e-001 -5.822927e-002
307980000 7.314202e-005 3.120285e-005 -7.870142e-001 -3.679469e-002 4.728405e-005 -2.832338e-005 -7.896312e-001 -3.716427e-002
308265000 -3.462072e-005 2.768028e-005 -7.854572e-001 -1.629267e-002 -9.287191e-006 -1.727884e-005 -7.887025e-001 -1.660646e-002
308550000 -2.084983e-005 4.418302e-005 -7.837680e-001 4.239158e-003 -2.998844e-005 8.952486e-006 -7.868983e-001 4.444627e-003
308835000 -1.224487e-004 4.737491e-005 -7.814246e-001 2.449391e-002 2.442782e-005 -1.219046e-004 -7.846801e-001 2.488631e-002
309120000 4.012757e-005 -3.582674e-006 -7.791492e-001 4.524039e-002 4.768520e-005 -1.459030e-005 -7.823319e-001 4.553666e-002
309405000 -1.187552e-004 6.033645e-005 -7.764003e-001 6.559797e-002 4.675481e-006 -8.286399e-006 -7.794820e-001 6.524254e-002
309690000 -6.398725e-006 -8.465358e-005 -7.736375e-001 8.564426e-002 3.292901e-005 2.288333e-005 -7.762306e-001 8.530498e-002
309975000 -5.216966e-005 6.805329e-006 -7.694108e-001 1.059841e-001 1.054540e-004 -5.896866e-005 -7.726813e-001 1.060098e-001
310260000 -6.042416e-005 1.621546e-005 -7.656810e-001 1.252785e-001 3.548380e-006 8.037523e-006 -7.687761e-001 1.257214e-001
310545000 4.240529e-005 -1.494408e-005 -7.614692e-001 1.448655e-001 -2.287752e-006 1.109036e-004 -7.640820e-001 1.458872e-001
310830000 -9.879160e-005 -8.654177e-005 -7.568667e-001 1.640932e-001 6.202906e-005 1.081323e-004 -7.599761e-001 1.649681e-001
311115000 -1.572277e-005 -2.537510e-005 -7.519496e-001 1.842992e-001 -4.988869e-005 1.125097e-005 -7.545598e-001 1.845057e-001
311400000 -4.854263e-005 -8.847923e-005 -7.468116e-001 2.037206e-001 3.424487e-005 4.458564e-006 -7.491334e-001 2.041785e-001
311685000 3.507527e-005 -8.256351e-005 -7.407451e-001 2.227606e-001 1.247565e-005 -4.790182e-005 -7.435622e-001 2.239192e-001
311970000 7.535334e-005 -6.803517e-005 -7.350681e-001 2.421174e-001 -2.102028e-005 5.690642e-005 -7.376098e-001 2.427423e-001
312255000 2.521376e-005 1.252883e-005 -7.281824e-001 2.611303e-001 1.078705e-004 -1.276950e-004 -7.312492e-001 2.616950e-001
312540000 1.204029e-004 8.475783e-005 -7.219344e-001 2.798119e-001 2.967666e-005 -1.398923e-005 -7.247778e-001 2.814516e-001
312825000 1.210337e-004 7.713221e-005 -7.143586e-001 2.989401e-001 1.050627e-004 -1.047533e-005 -7.175562e-001 3.001035e-001
313110000 4.714268e-005 -6.863284e-005 -7.069148e-001 3.180428e-001 -9.795430e-005 1.038485e-004 -7.097985e-001 3.190170e-001
313395000 -2.079936e-005 1.063537e-004 -6.991110e-001 3.365034e-001 -2.607616e-005 -3.671803e-005 -7.014417e-001 3.375882e-001
313680000 8.910556e-005 -7.806963e-005 -6.904472e-001 3.552732e-001 -2.073733e-005 -3.588315e-005 -6.938792e-001 3.569552e-001
313965000 -2.724487e-005 1.962746e-005 -6.820790e-001 3.739343e-001 9.669342e-006 -6.937467e-005 -6.850559e-001 3.756909e-001
314250000 5.795343e-005 5.916205e-005 -6.731471e-001 3.927621e-001 9.458282e-005 -1.044076e-007 -6.759769e-001 3.942302e-001
314535000 -3.117510e-005 1.059735e-005 -6.637790e-001 4.110343e-001 6.590937e-005 5.859681e-006 -6.663955e-001 4.124547e-001
314820000 -5.947448e-006 -4.412416e-005 -6.541889e-001 4.293297e-001 -8.680265e-006 -4.894527e-006 -6.562625e-001 4.305320e-001
315105000 2.926283e-005 -1.163627e-004 -6.435627e-001 4.474503e-001 -9.756497e-005 -2.357544e-005 -6.461556e-001 4.490587e-001
315390000 5.738184e-006 -7.055084e-005 -6.329260e-001 4.660178e-001 4.724535e-007 7.731745e-006 -6.350117e-001 4.678723e-001
315675000 -2.911297e-005 4.059325e-005 -6.218332e-001 4.836433e-001 2.129380e-005 -3.063848e-006 -6.247368e-001 4.855998e-001
315960000 -3.069267e-005 3.726506e-005 -6.106660e-001 5.019805e-001 7.068460e-005 -6.332214e-005 -6.125528e-001 5.041085e-001
316245000 -5.562325e-005 1.316814e-005 -5.984106e-001 5.198110e-001 7.713416e-005 4.856120e-005 -6.005384e-001 5.219203e-001
316530000 -9.403627e-005 5.617334e-005 -5.856494e-001 5.378560e-001 1.089623e-004 -3.014556e-005 -5.879061e-001 5.395796e-001
316815000 5.429204e-005 4.829594e-005 -5.726896e-001 5.552868e-001 1.091414e-004 8.888139e-006 -5.748256e-001 5.575191e-001
317100000 -1.146191e-004 1.153507e-004 -5.594568e-001 5.731449e-001 6.649738e-006 -8.801226e-005 -5.615119e-001 5.752545e-001
317385000 1.422988e-005 1.177876e-005 -5.451464e-001 5.907571e-001 8.625524e-005 7.646306e-005 -5.477297e-001 5.928068e-001
317670000 -7.323307e-005 -1.274696e-005 -5.309181e-001 6.077022e-001 -4.185778e-005 1.612766e-005 -5.326814e-001 6.103721e-001
317955000 -6.793260e-005 3.249370e-006 -5.153148e-001 6.251596e-001 -1.066460e-004 7.898403e-005 -5.175018e-001 6.272609e-001
318240000 2.786486e-005 -7.093470e-005 -4.996565e-001 6.416094e-001 -1.594994e-004 -4.703648e-005 -5.013565e-001 6.447762e-001
318525000 -1.083579e-004 -1.563146e-005 -4.836470e-001 6.588765e-001 -2.503059e-005 1.030482e-004 -4.857224e-001 6.617323e-001
318810000 -5.189016e-005 3.018067e-005 -4.669241e-001 6.752962e-001 -5.639753e-005 -3.640636e-005 -4.687670e-001 6.786090e-001
319095000 -1.214887e-004 2.463468e-005 -4.490258e-001 6.921019e-001 -6.964325e-005 1.151801e-004 -4.515732e-001 6.951206e-001
319380000 3.431687e-007 -1.808896e-005 -4.311632e-001 7.086008e-001 -3.503558e-005 1.950587e-005 -4.330543e-001 7.107107e-001
319665000 5.708174e-005 -5.956808e-005 -4.125446e-001 7.237172e-001 4.483199e-005 1.343580e-005 -4.137204e-001 7.273586e-001
319950000 -3.954887e-005 -7.662503e-005 -3.934252e-001 7.395782e-001 -4.379935e-006 -2.316024e-005 -3.952963e-001 7.429280e-001
320235000 3.891359e-006 -3.900061e-005 -3.731149e-001 7.546861e-001 -1.277400e-004 -6.045173e-005 -3.750970e-001 7.582147e-001
320520000 5.402286e-005 -8.693944e-005 -3.522768e-001 7.697979e-001 -5.202735e-005 -7.868752e-005 -3.541608e-001 7.728338e-001
320805000 7.623088e-005 5.177262e-005 -3.310190e-001 7.845436e-001 -3.844979e-005 -6.899203e-005 -3.325618e-001 7.875317e-001
321090000 5.705068e-005 2.620290e-005 -3.089869e-001 7.985793e-001 6.825148e-005 8.780711e-005 -3.101315e-001 8.020489e-001
321375000 -2.493895e-005 -9.042471e-005 -2.862599e-001 8.121951e-001 -3.208314e-005 -1.146016e-006 -2.876773e-001 8.160511e-001
321660000 1.896748e-005 -2.285741e-005 -2.629978e-001 8.253827e-001 1.047132e-005 -8.573658e-005 -2.640184e-001 8.289584e-001
321945000 7.778130e-005 -7.616170e-005 -2.382675e-001 8.388597e-001 -8.297063e-005 8.194765e-005 -2.397152e-001 8.423155e-001
322230000 3.171513e-005 -2.475528e-005 -2.132820e-001 8.505585e-001 -1.083163e-004 2.077208e-005 -2.140989e-001 8.546877e-001
322515000 -9.311306e-005 3.731524e-006 -1.875829e-001 8.625890e-001 4.597913e-005 2.748312e-005 -1.887765e-001 8.658032e-001
322800000 -8.504265e-005 1.651110e-004 -1.612372e-001 8.735414e-001 -5.136842e-005 2.956673e-005 -1.617007e-001 8.769820e-001
323085000 -5.081393e-005 -1.689592e-005 -1.333356e-001 8.836928e-001 5.147342e-006 -4.930273e-005 -1.342472e-001 8.877240e-001
323370000 -4.666466e-005 -2.204542e-005 -1.060744e-001 8.936104e-001 3.764082e-005 4.144937e-006 -1.062365e-001 8.974882e-001
323655000 -3.902435e-005 -4.276626e-005 -7.697777e-002 9.023842e-001 -2.763406e-005 -1.349429e-004 -7.714015e-002 9.058981e-001
323940000 -7.808344e-006 -7.058700e-005 -4.733150e-002 9.101607e-001 6.854770e-005 -1.497831e-006 -4.761427e-002 9.136651e-001
324225000 -6.472450e-005 2.337750e-005 -1.644865e-002 9.174674e-001 3.708953e-005 -2.653316e-005 -1.707122e-002 9.209508e-001
324510000 8.384771e-006 3.161620e-005 1.394480e-002 9.236249e-001 1.087819e-004 -1.329721e-005 1.350504e-002 9.269642e-001
324795000 -3.569146e-005 4.497528e-005 4.526185e-002 9.278274e-001 -3.590235e-005 2.200397e-005 4.497906e-002 9.317908e-001
325080000 -1.899835e-005 4.336518e-005 7.747757e-002 9.319296e-001 2.975832e-005 1.144542e-004 7.837070e-002 9.359441e-001
325365000 -4.532740e-005 1.860710e-005 1.106466e-001 9.349618e-001 -4.283814e-005 8.660971e-005 1.106775e-001 9.384509e-001
325650000 -3.595894e-005 -4.740372e-005 1.441000e-001 9.361791e-001 5.028951e-005 1.517272e-004 1.445550e-001 9.400260e-001
325935000 -4.805869e-006 7.129798e-005 1.777970e-001 9.362612e-001 -1.026168e-004 4.031622e-006 1.785064e-001 9.396566e-001
326220000 1.153913e-005 -2.958015e-005 2.126500e-001 9.346275e-001 1.116848e-005 2.468904e-005 2.133337e-001 9.379392e-001
326505000 -1.203963e-005 -6.167033e-005 2.463629e-001 9.323151e-001 2.456284e-006 7.768374e-005 2.484519e-001 9.360569e-001
326790000 7.315216e-006 5.860246e-005 2.820712e-001 9.277725e-001 -1.575819e-005 -1.450947e-005 2.834277e-001 9.315264e-001
327075000 -4.271505e-006 6.245446e-005 3.178151e-001 9.215835e-001 -8.088992e-005 -3.543312e-005 3.187810e-001 9.257918e-001
327360000 -3.550237e-005 -4.730279e-006 3.532330e-001 9.146018e-001 6.293446e-006 8.252353e-005 3.551331e-001 9.184522e-001
327645000 -9.449345e-005 -1.524057e-005 3.886724e-001 9.055020e-001 -9.865031e-005 5.812261e-005 3.907736e-001 9.095628e-001
327930000 1.614638e-005 -7.894969e-005 4.240958e-001 8.948972e-001 1.289965e-005 -3.095436e-005 4.259211e-001 8.986573e-001
328215000 2.188283e-005 1.647853e-005 4.602049e-001 8.827667e-001 1.292656e-004 4.843333e-006 4.618737e-001 8.863550e-001
328500000 6.773708e-005 -8.191230e-005 4.955064e-001 8.683894e-001 1.602035e-005 -5.016716e-005 4.972521e-001 8.725474e-001
328785000 6.137945e-005 1.850722e-005 5.302786e-001 8.523363e-001 -4.610256e-005 6.052071e-005 5.323195e-001 8.565702e-001
329070000 3.659124e-006 3.012257e-005 5.645842e-001 8.356783e-001 -3.197167e-005 -7.921423e-005 5.667129e-001 8.388823e-001
329355000 -4.639767e-006 -3.567501e-005 5.987155e-001 8.155054e-001 3.803779e-005 -2.120947e-005 6.010886e-001 8.192255e-001
329640000 -9.240803e-005 -9.411575e-006 6.321427e-001 7.950206e-001 1.910546e-005 -1.368646e-004 6.348931e-001 7.986158e-001
329925000 -9.137856e-005 4.148346e-005 6.647433e-001 7.721678e-001 1.423445e-006 4.028927e-005 6.671649e-001 7.754568e-001
330210000 2.116071e-005 -2.806536e-005 6.963512e-001 7.477385e-001 3.054813e-005 1.502494e-005 6.988443e-001 7.505418e-001
330495000 -3.668353e-005 1.087449e-004 7.263168e-001 7.208979e-001 -6.525610e-005 2.932513e-005 7.297570e-001 7.246040e-001
330780000 -1.229645e-004 4.847157e-005 7.562902e-001 6.937764e-001 5.142557e-005 -5.111664e-005 7.589815e-001 6.969761e-001
331065000 -3.282181e-005 6.199539e-005 7.839493e-001 6.642221e-001 9.033296e-005 5.972226e-006 7.876430e-001 6.676134e-001
331350000 -3.533244e-005 5.146196e-005 8.108025e-001 6.343089e-001 -1.511542e-006 -9.198371e-005 8.145129e-001 6.368340e-001
331635000 -5.973325e-005 2.762942e-005 8.362092e-001 6.017877e-001 -6.476967e-005 -1.354085e-005 8.398830e-001 6.044215e-001
331920000 -4.163219e-005 4.655784e-005 8.597788e-001 5.691127e-001 1.817202e-005 -4.095830e-005 8.638706e-001 5.708634e-001
332205000 -4.526117e-005 1.303658e-004 8.818970e-001 5.346367e-001 7.701731e-005 7.431567e-006 8.855166e-001 5.364795e-001
332490000 8.419878e-005 -1.180180e-005 9.018056e-001 4.986858e-001 7.329548e-005 -4.000666e-005 9.057900e-001 5.009680e-001
332775000 4.546781e-005 -8.310406e-005 9.215032e-001 4.629050e-001 6.735181e-005 -4.738700e-005 9.247352e-001 4.647209e-001
333060000 -1.436895e-006 -2.733379e-005 9.373566e-001 4.255102e-001 4.117367e-005 -9.021818e-006 9.413289e-001 4.267973e-001
333345000 3.638788e-005 -5.603148e-005 9.528152e-001 3.876959e-001 6.206260e-006 -2.441194e-006 9.566550e-001 3.892743e-001
333630000 -4.181069e-005 8.255259e-006 9.654920e-001 3.493153e-001 3.497755e-005 -9.162541e-005 9.695152e-001 3.508694e-001
333915000 -2.879394e-005 -4.625888e-005 9.769096e-001 3.109676e-001 1.102046e-004 6.487389e-005 9.808078e-001 3.116707e-001
334200000 -2.915640e-005 2.868272e-005 9.855969e-001 2.715495e-001 1.972931e-005 8.801439e-005 9.900849e-001 2.732210e-001
334485000 -1.209879e-005 6.640182e-005 9.932005e-001 2.323481e-001 4.641402e-005 -3.876170e-005 9.975622e-001 2.338522e-001
334770000 -1.059158e-006 2.222935e-005 9.975230e-001 1.933863e-001 6.204019e-006 9.387457e-005 1.002763e+000 1.948734e-001
335055000 -1.161663e-004 9.354678e-006 1.001503e+000 1.538433e-001 -1.540164e-004 2.154807e-005 1.006398e+000 1.549208e-001
335340000 -7.679236e-005 6.245155e-005 1.002703e+000 1.153211e-001 8.247030e-005 4.020534e-005 1.007680e+000 1.162005e-001
335625000 5.682819e-006 -9.957877e-005 1.002604e+000 7.696219e-002 -7.020051e-005 -2.496244e-005 1.006466e+000 7.706559e-002
335910000 -8.715130e-005 1.078426e-004 1.001112e+000 3.874772e-002 -3.278797e-005 7.908668e-005 1.004895e+000 3.841300e-002
336195000 -3.368807e-005 4.756002e-005 9.968327e-001 1.313670e-003 -4.490236e-005 1.111399e-004 1.001377e+000 1.418226e-003
336480000 -9.475052e-006 1.073845e-005 9.918228e-001 -3.592287e-002 -4.343673e-005 8.114856e-005 9.956901e-001 -3.624122e-002
336765000 -1.306255e-004 -8.421214e-005 9.853332e-001 -7.174832e-002 -4.632287e-005 1.006515e-004 9.894454e-001 -7.233223e-002
337050000 -8.150165e-005 -2.120677e-005 9.767628e-001 -1.071683e-001 -1.529972e-005 4.003698e-005 9.804736e-001 -1.075107e-001
337335000 -2.734800e-005 -3.322922e-005 9.666156e-001 -1.419825e-001 -1.352787e-004 -2.943809e-005 9.710912e-001 -1.425615e-001
337620000 3.125780e-005 -1.508710e-004 9.561471e-001 -1.757385e-001 1.615942e-005 3.245967e-005 9.597101e-001 -1.767863e-001
337905000 3.704121e-005 -4.398275e-005 9.436229e-001 -2.094572e-001 -3.379607e-005 -1.457229e-004 9.473981e-001 -2.096084e-001
338190000 8.678601e-005 -5.143681e-005 9.305077e-001 -2.406473e-001 5.051568e-005 -1.614353e-004 9.341844e-001 -2.419228e-001
338475000 -2.768494e-005 -1.390283e-004 9.155009e-001 -2.713497e-001 -6.045488e-005 6.375779e-006 9.201019e-001 -2.731874e-001
338760000 5.247642e-005 -1.414308e-004 9.005956e-001 -3.014514e-001 1.367181e-005 -3.252190e-005 9.043351e-001 -3.027376e-001
339045000 -1.330416e-005 -1.512832e-004 8.842026e-001 -3.301501e-001 1.112902e-005 1.866080e-005 8.880433e-001 -3.318173e-001
339330000 -2.076138e-005 -6.998204e-005 8.675455e-001 -3.585374e-001 1.058713e-005 7.278217e-005 8.708316e-001 -3.593515e-001
339615000 5.819842e-005 -3.798808e-005 8.488668e-001 -3.844765e-001 5.242401e-005 -7.139781e-006 8.525096e-001 -3.867557e-001
339900000 8.969459e-005 6.760904e-005 8.301675e-001 -4.105667e-001 -1.012837e-004 -2.790865e-005 8.342979e-001 -4.122649e-001
340185000 3.149877e-005 -1.156055e-005 8.109639e-001 -4.346838e-001 -1.016598e-004 -2.396765e-007 8.150938e-001 -4.370882e-001
340470000 -1.259599e-005 4.175299e-006 7.916315e-001 -4.584942e-001 1.275033e-004 -6.617965e-005 7.953988e-001 -4.599503e-001
340755000 9.984629e-005 5.463827e-005 7.712569e-001 -4.809885e-001 2.975076e-005 -4.495627e-005 7.747452e-001 -4.835652e-001
341040000 -1.299814e-005 -1.879112e-005 7.505356e-001 -5.027252e-001 1.141362e-005 5.071056e-005 7.534367e-001 -5.047511e-001
341325000 -1.954689e-005 -2.839284e-005 7.298123e-001 -5.236755e-001 4.040303e-005 -2.849916e-005 7.328393e-001 -5.253785e-001
341610000 5.696392e-005 1.318861e-004 7.086564e-001 -5.428023e-001 2.793831e-005 -1.446162e-005 7.120137e-001 -5.445881e-001
341895000 1.592840e-005 1.269075e-004 6.868628e-001 -5.606355e-001 2.016631e-005 1.942537e-006 6.901786e-001 -5.636333e-001
342180000 1.273688e-005 -1.619906e-005 6.647067e-001 -5.787932e-001 -9.276320e-005 -4.322337e-005 6.677703e-001 -5.811087e-001
342465000 3.051081e-005 -2.878737e-006 6.428395e-001 -5.949955e-001 9.386312e-006 -2.080099e-005 6.457992e-001 -5.975451e-001
342750000 -2.334426e-006 2.393109e-005 6.209847e-001 -6.110691e-001 8.895743e-005 1.185561e-005 6.234140e-001 -6.137217e-001
343035000 7.557096e-005 4.185786e-005 5.986745e-001 -6.257384e-001 4.964690e-005 4.022688e-005 6.012291e-001 -6.280840e-001
343320000 -4.548187e-005 7.809893e-005 5.755971e-001 -6.399196e-001 5.518133e-005 -1.194968e-004 5.786306e-001 -6.427566e-001
343605000 3.774933e-005 6.838654e-005 5.543753e-001 -6.529143e-001 4.883667e-005 6.468568e-007 5.555989e-001 -6.557931e-001
343890000 -2.694218e-005 3.004214e-005 5.312594e-001 -6.655139e-001 -2.355981e-005 3.792505e-005 5.333293e-001 -6.679228e-001
