!Agilent Technologies,N5230C,SG49000117,A.08.50.07
!Agilent N5230C: A.08.50.07
!Date: Monday, March 18, 2024 19:17:56
!Correction: S11(Off) 
!S21(Off) 
!S12(Off) 
!S22(Off) 
!S2P File: Measurements: S11, S21, S12, S22:
# Hz S  RI   R 50
300000000 -3.473202e-005 -6.857201e-005 -6.147820e-001 -6.595163e-001 -8.643452e-005 6.658882e-005 -6.174005e-001 -6.620511e-001
300285000 7.140529e-005 1.318620e-005 -6.299168e-001 -6.364015e-001 -3.160605e-005 8.161416e-005 -6.330935e-001 -6.379757e-001
300570000 8.708971e-005 -1.778981e-004 -6.452967e-001 -6.128793e-001 3.575953e-005 -5.028948e-005 -6.476811e-001 -6.149209e-001
300855000 7.507630e-005 -7.725991e-005 -6.592702e-001 -5.901098e-001 -3.774354e-005 3.252869e-005 -6.615419e-001 -5.920084e-001
301140000 -1.906376e-005 -8.659667e-005 -6.722166e-001 -5.657804e-001 -7.973821e-005 -5.934688e-005 -6.746442e-001 -5.683216e-001
301425000 7.064158e-005 -5.026369e-005 -6.848267e-001 -5.424608e-001 -7.037740e-005 5.100629e-006 -6.869063e-001 -5.437339e-001
301710000 -6.762284e-005 2.463713e-005 -6.961451e-001 -5.190110e-001 -7.567440e-005 -1.509961e-005 -6.990015e-001 -5.210739e-001
301995000 1.224236e-004 2.467553e-005 -7.068756e-001 -4.950501e-001 -4.219480e-005 6.554125e-005 -7.094719e-001 -4.972344e-001
302280000 6.376364e-005 -6.323533e-005 -7.169428e-001 -4.715234e-001 -2.943419e-005 1.747838e-005 -7.191277e-001 -4.736427e-001
302565000 -1.774014e-005 -1.299937e-005 -7.260497e-001 -4.486855e-001 -1.126919e-004 2.348860e-005 -7.293207e-001 -4.499744e-001
302850000 -1.459988e-005 1.700614e-005 -7.342609e-001 -4.254124e-001 9.892715e-005 1.004801e-004 -7.370561e-001 -4.266195e-001
303135000 6.655469e-005 1.388117e-004 -7.418779e-001 -4.019800e-001 2.646257e-005 -3.095397e-005 -7.451690e-001 -4.035102e-001
303420000 5.016665e-005 1.858441e-005 -7.488787e-001 -3.787463e-001 1.092939e-004 2.548120e-005 -7.523477e-001 -3.800894e-001
303705000 -8.825582e-005 5.205847e-005 -7.555656e-001 -3.556721e-001 3.444499e-005 -9.133885e-007 -7.587572e-001 -3.572328e-001
303990000 -8.162284e-006 3.961942e-005 -7.612644e-001 -3.327291e-001 -1.162906e-004 1.663869e-005 -7.643440e-001 -3.341877e-001
304275000 1.015221e-005 7.602750e-005 -7.669619e-001 -3.100085e-001 8.236964e-006 3.369186e-005 -7.692605e-001 -3.112398e-001
304560000 -9.824607e-005 -6.681134e-007 -7.711738e-001 -2.874042e-001 -8.328999e-005 -1.034569e-005 -7.741902e-001 -2.890778e-001
304845000 7.669248e-005 4.172676e-005 -7.754006e-001 -2.651696e-001 -1.233207e-004 -4.978974e-005 -7.786166e-001 -2.663695e-001
305130000 -5.416584e-005 8.702173e-005 -7.789223e-001 -2.430358e-001 -1.952517e-005 4.669289e-005 -7.820138e-001 -2.433222e-001
305415000 5.431840e-005 -6.890237e-005 -7.818131e-001 -2.201911e-001 -1.474601e-005 1.055874e-004 -7.847641e-001 -2.219447e-001
305700000 7.304573e-006 3.346241e-005 -7.842462e-001 -1.985158e-001 4.101200e-005 7.779583e-005 -7.871209e-001 -1.992387e-001
305985000 1.157776e-006 -4.871274e-005 -7.858693e-001 -1.761301e-001 -1.178337e-004 9.173570e-005 -7.890345e-001 -1.773634e-001
306270000 -1.141301e-004 -2.213303e-005 -7.875525e-001 -1.548555e-001 -2.853422e-005 -4.008392e-006 -7.905833e-001 -1.554810e-001
306555000 -7.635053e-005 -3.492334e-005 -7.889072e-001 -1.330548e-001 -6.444395e-005 -9.051196e-005 -7.915098e-001 -1.334685e-001
306840000 -6.467299e-006 -8.468336e-005 -7.893286e-001 -1.119945e-001 -1.092389e-004 1.452029e-004 -7.922298e-001 -1.120501e-001
307125000 -3.637076e-005 -6.014376e-005 -7.893782e-001 -9.085606e-002 -9.577766e-005 -2.668374e-005 -7.920697e-001 -9.117158e-002
307410000 8.146241e-005 -7.214884e-005 -7.889640e-001 -6.886043e-002 -5.250999e-006 -1.141345e-004 -7.920728e-001 -6.974704e-002
307695000 -2.867351e-005 -4.762821e-005 -7.881960e-001 -4.818248e-002 -1.591854e-004 -1.241016e-004 -7.915140e-001 -4.855214e-002
307980000 1.374656e-005 -1.157917e-005 -7.878429e-001 -2.726053e-002 1.345907e-005 -7.381685e-005 -7.899281e-001 -2.806039e-002
308265000 -2.480921e-005 -4.555985e-005 -7.855501e-001 -6.830408e-003 -4.970837e-005 4.142087e-005 -7.888216e-001 -6.555815e-003
308550000 -9.722076e-005 -8.234734e-005 -7.839536e-001 1.411640e-002 4.689425e-005 -6.384477e-005 -7.866561e-001 1.391444e-002
308835000 2.453061e-005 5.156594e-005 -7.813858e-001 3.469466e-002 2.345720e-005 4.066247e-005 -7.846194e-001 3.428425e-002
309120000 2.479671e-005 -1.216428e-004 -7.788910e-001 5.488752e-002 6.057550e-005 5.124637e-006 -7.817389e-001 5.494402e-002
309405000 2.928462e-005 -7.091630e-005 -7.760966e-001 7.508118e-002 3.968517e-005 5.947005e-005 -7.785945e-001 7.516209e-002
309690000 6.571254e-005 1.065697e-004 -7.724097e-001 9.501199e-002 5.947829e-005 5.610710e-005 -7.754361e-001 9.493054e-002
309975000 -9.895506e-005 -1.122275e-005 -7.684194e-001 1.152857e-001 3.846669e-005 7.480709e-006 -7.714482e-001 1.149514e-001
310260000 2.257343e-005 -8.009315e-005 -7.644776e-001 1.345566e-001 4.541429e-005 5.706779e-005 -7.673960e-001 1.346846e-001
310545000 -3.459408e-005 -1.073400e-004 -7.601677e-001 1.538802e-001 1.049503e-004 8.072089e-005 -7.630378e-001 1.547104e-001
310830000 4.787528e-005 -1.196079e-006 -7.550057e-001 1.736537e-001 1.892672e-006 3.836361e-005 -7.581549e-001 1.745764e-001
311115000 2.055911e-005 1.387821e-004 -7.502494e-001 1.932309e-001 1.112203e-005 6.406452e-005 -7.528349e-001 1.940380e-001
311400000 -5.871455e-005 3.435067e-005 -7.446413e-001 2.125593e-001 9.139621e-005 1.364989e-005 -7.473460e-001 2.132063e-001
311685000 -7.236376e-005 3.103412e-005 -7.387242e-001 2.321220e-001 7.894114e-006 2.007147e-005 -7.413154e-001 2.331154e-001
311970000 -2.712295e-007 -4.633028e-005 -7.326355e-001 2.513640e-001 1.608965e-005 -4.858314e-006 -7.351384e-001 2.522452e-001
312255000 -4.727604e-005 4.475880e-005 -7.256193e-001 2.701215e-001 -4.938729e-005 1.760960e-004 -7.291022e-001 2.715077e-001
312540000 6.462607e-005 -1.227082e-004 -7.188215e-001 2.895132e-001 -3.984526e-005 5.701274e-007 -7.216758e-001 2.902367e-001
312825000 -1.114500e-005 7.311376e-005 -7.118110e-001 3.081600e-001 1.059219e-004 3.977105e-005 -7.137345e-001 3.094425e-001
313110000 -9.960162e-005 -7.313107e-005 -7.036594e-001 3.272764e-001 2.918516e-005 6.698262e-005 -7.071222e-001 3.282388e-001
313395000 -8.648528e-005 8.864477e-005 -6.956390e-001 3.456831e-001 -2.780348e-005 6.722202e-007 -6.989692e-001 3.471588e-001
313680000 -4.487957e-006 4.463686e-005 -6.872357e-001 3.642603e-001 -6.448265e-005 -5.234380e-005 -6.902191e-001 3.654794e-001
313965000 -5.135147e-005 1.953393e-005 -6.784670e-001 3.833964e-001 -4.759606e-005 2.797628e-005 -6.811875e-001 3.842603e-001
314250000 1.318913e-004 -8.800186e-005 -6.689861e-001 4.020696e-001 -1.766667e-005 2.094535e-005 -6.718234e-001 4.029420e-001
314535000 -1.021742e-004 -8.358235e-005 -6.592736e-001 4.202325e-001 -5.400556e-005 8.355961e-005 -6.625339e-001 4.214053e-001
314820000 -6.242585e-005 -1.197986e-004 -6.493243e-001 4.383571e-001 3.989196e-007 2.775995e-005 -6.521748e-001 4.397438e-001
315105000 -4.550665e-005 1.923529e-005 -6.395844e-001 4.565445e-001 -1.020221e-004 -3.762266e-005 -6.420013e-001 4.579272e-001
315390000 -4.349415e-005 -7.551780e-005 -6.281277e-001 4.740197e-001 8.389397e-005 -7.830559e-005 -6.306533e-001 4.769001e-001
315675000 1.008790e-004 5.638104e-005 -6.166447e-001 4.921401e-001 -1.446796e-004 1.469005e-005 -6.193479e-001 4.943365e-001
315960000 -2.700374e-005 -4.825093e-005 -6.050156e-001 5.102657e-001 -2.780162e-005 -9.558258e-005 -6.072489e-001 5.127094e-001
316245000 -7.247183e-005 5.815729e-005 -5.923991e-001 5.284862e-001 5.081040e-005 -2.795658e-006 -5.950691e-001 5.305999e-001
316530000 6.613471e-005 -1.210060e-004 -5.796024e-001 5.462205e-001 6.415596e-005 -6.459306e-005 -5.825630e-001 5.485463e-001
316815000 1.900390e-005 7.817810e-005 -5.661985e-001 5.640936e-001 -6.827681e-006 3.025505e-005 -5.686899e-001 5.661917e-001
317100000 1.132459e-004 -1.734712e-005 -5.525798e-001 5.814894e-001 -1.806284e-005 -1.178536e-004 -5.553446e-001 5.837318e-001
317385000 1.722003e-006 -1.184107e-004 -5.382075e-001 5.989386e-001 5.903563e-006 5.461766e-005 -5.407396e-001 6.009547e-001
317670000 -8.112549e-005 -6.854310e-005 -5.238562e-001 6.162441e-001 5.813830e-005 -2.418275e-005 -5.261080e-001 6.185907e-001
317955000 -1.216400e-006 -4.553965e-006 -5.084649e-001 6.330563e-001 1.196214e-004 6.646399e-005 -5.102649e-001 6.356789e-001
318240000 -1.185576e-005 7.902395e-006 -4.924118e-001 6.499594e-001 7.049532e-005 6.260528e-005 -4.943126e-001 6.526845e-001
318525000 -1.241297e-004 -6.724406e-005 -4.760392e-001 6.666735e-001 -2.389628e-005 -3.033944e-005 -4.776188e-001 6.699687e-001
318810000 -4.828198e-005 -2.194000e-005 -4.591930e-001 6.829230e-001 -8.979852e-006 1.870775e-004 -4.611712e-001 6.861439e-001
319095000 3.191880e-005 -1.026908e-004 -4.417337e-001 6.993665e-001 -2.743528e-005 6.002562e-005 -4.428627e-001 7.025687e-001
319380000 6.359528e-006 1.377534e-005 -4.227731e-001 7.159767e-001 2.687226e-006 -3.655412e-005 -4.244702e-001 7.188790e-001
319665000 9.316413e-005 1.509157e-005 -4.039033e-001 7.311252e-001 -8.134915e-005 -3.887362e-005 -4.053220e-001 7.341748e-001
319950000 4.185909e-005 -4.728488e-005 -3.840452e-001 7.467689e-001 -1.364875e-004 -7.453729e-005 -3.858548e-001 7.493343e-001
320235000 4.435819e-005 1.286218e-004 -3.636051e-001 7.621751e-001 -5.539938e-005 2.214248e-005 -3.654508e-001 7.651833e-001
320520000 -2.116619e-005 -2.578972e-005 -3.430015e-001 7.771244e-001 -3.435053e-005 -6.195930e-005 -3.446994e-001 7.800824e-001
320805000 3.889491e-005 6.846406e-006 -3.209616e-001 7.911331e-001 -5.943324e-005 5.590810e-006 -3.225445e-001 7.948095e-001
321090000 -3.742123e-005 7.696948e-005 -2.988595e-001 8.052841e-001 3.955654e-006 1.872503e-005 -2.999295e-001 8.085236e-001
321375000 -7.891501e-005 -2.819574e-005 -2.756195e-001 8.184372e-001 -3.422794e-006 -4.831628e-005 -2.769712e-001 8.221391e-001
321660000 -1.812938e-006 3.380032e-005 -2.516128e-001 8.323933e-001 -3.517546e-005 1.295030e-005 -2.527649e-001 8.353180e-001
321945000 -2.594911e-007 9.460289e-005 -2.269251e-001 8.443656e-001 1.244019e-005 -1.427167e-005 -2.279282e-001 8.482507e-001
322230000 1.374098e-006 -4.231566e-005 -2.017387e-001 8.568750e-001 -7.357987e-005 -1.438295e-005 -2.028124e-001 8.597338e-001
322515000 -9.861315e-006 -1.181477e-004 -1.749607e-001 8.682942e-001 1.613845e-005 3.976219e-005 -1.762457e-001 8.716465e-001
322800000 -2.758832e-005 -7.848693e-005 -1.484973e-001 8.792314e-001 -2.621367e-005 -3.402609e-005 -1.493043e-001 8.821782e-001
323085000 -4.869854e-005 -7.698020e-005 -1.206889e-001 8.883986e-001 -6.009051e-005 3.923617e-005 -1.214843e-001 8.926328e-001
323370000 3.567721e-005 -3.742456e-005 -9.189946e-002 8.980346e-001 -1.818414e-005 3.859531e-005 -9.278725e-002 9.018852e-001
323655000 -1.081323e-005 -4.103357e-005 -6.369790e-002 9.062572e-001 1.068576e-004 -5.705249e-005 -6.375659e-002 9.096932e-001
323940000 -2.506562e-005 -3.653179e-005 -3.328122e-002 9.140204e-001 -1.750205e-005 -8.498377e-005 -3.331993e-002 9.180988e-001
324225000 4.196347e-005 -5.334448e-005 -2.653674e-003 9.202377e-001 3.037363e-005 6.098703e-005 -2.650568e-003 9.237889e-001
324510000 1.138323e-004 7.852385e-006 2.776095e-002 9.255857e-001 -2.318708e-005 -1.811825e-006 2.818464e-002 9.298123e-001
324795000 -3.163182e-007 2.861212e-005 6.058050e-002 9.303474e-001 3.854524e-005 2.230634e-006 6.065688e-002 9.338861e-001
325080000 -1.373759e-005 9.479007e-005 9.271930e-002 9.328374e-001 2.115709e-004 1.055110e-005 9.312586e-002 9.378644e-001
325365000 1.640229e-005 8.945422e-005 1.256942e-001 9.355864e-001 1.095664e-004 -3.660165e-006 1.261059e-001 9.391583e-001
325650000 8.614916e-005 -3.600593e-005 1.594188e-001 9.361913e-001 1.544584e-005 8.924952e-005 1.603136e-001 9.403560e-001
325935000 -7.261136e-005 3.118291e-005 1.938725e-001 9.361130e-001 -8.976412e-005 -7.185108e-007 1.943185e-001 9.400237e-001
326220000 -5.656849e-006 6.279912e-005 2.280434e-001 9.338853e-001 -2.064693e-005 6.753470e-005 2.294307e-001 9.376505e-001
326505000 -2.130629e-005 1.067035e-005 2.631651e-001 9.302510e-001 -6.598773e-005 3.231197e-005 2.641529e-001 9.342074e-001
326790000 -9.102722e-006 -4.517086e-005 2.984035e-001 9.259933e-001 -1.253664e-005 1.060826e-004 2.995820e-001 9.294630e-001
327075000 -6.695114e-005 5.798234e-005 3.341724e-001 9.194992e-001 -6.204381e-005 6.496593e-005 3.356418e-001 9.229795e-001
327360000 -3.521918e-009 -4.456051e-005 3.698793e-001 9.110812e-001 -3.341565e-005 -3.106997e-005 3.713198e-001 9.151334e-001
327645000 -1.132826e-004 4.474400e-005 4.049946e-001 9.013172e-001 -8.931067e-005 2.845540e-005 4.071095e-001 9.054190e-001
327930000 -7.191476e-005 -6.929236e-005 4.406531e-001 8.901902e-001 -2.614549e-005 3.060636e-005 4.431386e-001 8.943400e-001
328215000 8.260104e-005 4.682795e-005 4.764195e-001 8.771566e-001 1.101364e-005 -1.094645e-004 4.781910e-001 8.805967e-001
328500000 -1.019470e-004 3.871489e-005 5.118715e-001 8.623194e-001 -6.441883e-005 -1.647046e-005 5.145065e-001 8.657432e-001
328785000 2.521214e-005 4.012702e-005 5.464336e-001 8.453927e-001 -3.259154e-005 -2.441330e-005 5.480494e-001 8.491778e-001
329070000 -2.497925e-005 -1.126508e-005 5.808248e-001 8.272708e-001 8.029020e-006 -1.005235e-004 5.837564e-001 8.305360e-001
329355000 -3.909483e-005 -3.280316e-005 6.147158e-001 8.067940e-001 6.286730e-005 -2.728502e-005 6.170090e-001 8.103119e-001
329640000 -1.768270e-005 -6.013517e-005 6.474565e-001 7.854109e-001 -4.413506e-005 2.696206e-005 6.503927e-001 7.889515e-001
329925000 -1.167595e-005 9.924844e-006 6.800095e-001 7.620078e-001 5.906252e-005 -3.260980e-005 6.826510e-001 7.646235e-001
330210000 9.560264e-005 7.554784e-005 7.105955e-001 7.367021e-001 5.917760e-005 -1.243906e-004 7.135977e-001 7.399619e-001
330495000 5.249386e-005 -7.426817e-005 7.407256e-001 7.097535e-001 2.233467e-005 4.230176e-005 7.442116e-001 7.127978e-001
330780000 -1.642331e-006 6.866628e-005 7.692421e-001 6.809065e-001 1.629037e-005 2.187392e-005 7.731872e-001 6.841785e-001
331065000 -8.766187e-005 3.561497e-005 7.973046e-001 6.514429e-001 -1.101849e-005 9.635113e-006 8.010111e-001 6.536931e-001
331350000 2.247040e-005 -7.158338e-006 8.233148e-001 6.203149e-001 1.037158e-004 -2.028988e-005 8.272611e-001 6.230363e-001
331635000 -1.854934e-005 2.483600e-005 8.480014e-001 5.867690e-001 3.837005e-005 -2.560289e-005 8.523230e-001 5.906219e-001
331920000 -9.005713e-005 6.184736e-005 8.711218e-001 5.531989e-001 -1.339520e-005 3.292632e-005 8.744644e-001 5.559987e-001
332205000 -1.214257e-004 -3.386557e-005 8.928890e-001 5.182942e-001 4.545099e-005 1.139348e-004 8.958325e-001 5.206745e-001
332490000 -8.444053e-005 -5.917549e-006 9.118301e-001 4.830019e-001 -3.887414e-005 -9.088977e-005 9.163560e-001 4.854479e-001
332775000 -8.803820e-005 -7.043823e-005 9.298460e-001 4.460790e-001 3.448611e-005 2.427652e-006 9.339038e-001 4.480067e-001
333060000 -1.583717e-004 4.352376e-005 9.460990e-001 4.084666e-001 -3.054407e-006 4.600044e-005 9.502156e-001 4.106962e-001
333345000 -9.533571e-007 -1.000260e-004 9.599053e-001 3.699614e-001 -2.265910e-005 4.771436e-006 9.645427e-001 3.721060e-001
333630000 -1.919213e-005 -1.060224e-004 9.721468e-001 3.316442e-001 -8.842372e-005 -4.067056e-005 9.764044e-001 3.335021e-001
333915000 -6.980715e-005 3.633503e-005 9.821682e-001 2.928190e-001 5.635071e-005 6.638528e-006 9.862990e-001 2.938127e-001
334200000 -9.599030e-005 -1.724425e-006 9.906836e-001 2.539154e-001 -5.898167e-005 -3.791165e-006 9.943602e-001 2.544745e-001
334485000 -2.052474e-006 2.682913e-005 9.970736e-001 2.143458e-001 4.462108e-005 -3.333349e-005 1.000874e+000 2.152609e-001
334770000 5.317358e-005 -2.013582e-005 1.000696e+000 1.746532e-001 2.611743e-005 6.709257e-005 1.005591e+000 1.763258e-001
335055000 4.267690e-005 -1.158234e-005 1.003736e+000 1.357623e-001 1.044532e-005 3.421629e-005 1.008018e+000 1.367978e-001
335340000 -5.599078e-005 2.791693e-005 1.004384e+000 9.750272e-002 -7.112041e-006 -7.119441e-006 1.009271e+000 9.734009e-002
335625000 1.348559e-005 -2.602487e-005 1.003860e+000 5.889372e-002 -6.306569e-005 -1.291762e-004 1.008232e+000 5.933410e-002
335910000 8.463732e-005 -1.131253e-004 1.000796e+000 2.122658e-002 -2.058855e-005 -6.931304e-005 1.005214e+000 2.067382e-002
336195000 -5.302042e-005 -4.222141e-005 9.961716e-001 -1.679189e-002 3.915957e-005 -1.311299e-005 1.000680e+000 -1.633089e-002
336480000 8.471261e-005 2.936095e-005 9.899235e-001 -5.317454e-002 -2.496736e-005 7.202144e-005 9.941924e-001 -5.396043e-002
336765000 -8.795926e-005 4.360228e-005 9.826246e-001 -8.919169e-002 1.278569e-005 -2.923701e-005 9.871347e-001 -8.912836e-002
337050000 -4.731798e-006 1.653579e-005 9.733485e-001 -1.240665e-001 1.745086e-005 -6.317029e-005 9.777254e-001 -1.250320e-001
337335000 -3.551989e-005 -2.082904e-005 9.633713e-001 -1.585187e-001 -1.422186e-005 2.261755e-005 9.672976e-001 -1.594356e-001
337620000 -3.622162e-005 -2.068502e-005 9.517550e-001 -1.925726e-001 7.405091e-005 -9.357506e-006 9.558565e-001 -1.929692e-001
337905000 -4.031805e-005 -4.790541e-005 9.387647e-001 -2.247688e-001 -4.420995e-006 -1.668558e-005 9.429277e-001 -2.253919e-001
338190000 -8.163308e-005 -1.461535e-004 9.252460e-001 -2.562345e-001 5.663650e-005 2.038054e-005 9.288309e-001 -2.572338e-001
338475000 -2.376642e-005 -5.933894e-005 9.099325e-001 -2.864735e-001 6.972800e-005 5.189799e-005 9.134530e-001 -2.881528e-001
338760000 -6.858675e-006 3.950706e-005 8.940818e-001 -3.159177e-001 4.232105e-005 2.819818e-006 8.977550e-001 -3.171409e-001
339045000 5.752443e-005 -6.496972e-005 8.771291e-001 -3.449243e-001 8.259536e-005 1.106678e-005 8.815767e-001 -3.464195e-001
339330000 1.274442e-005 1.179091e-005 8.593122e-001 -3.718619e-001 1.125384e-004 2.754793e-005 8.630194e-001 -3.735944e-001
339615000 -7.140060e-005 -5.511605e-005 8.417424e-001 -3.976786e-001 6.551367e-005 1.462979e-004 8.450202e-001 -4.001695e-001
339900000 -1.462919e-005 -4.474162e-005 8.228898e-001 -4.229764e-001 -1.213355e-004 -4.053886e-005 8.266352e-001 -4.250425e-001
340185000 -2.097088e-005 9.837906e-005 8.034372e-001 -4.476182e-001 -3.135995e-005 -1.011763e-004 8.067204e-001 -4.492064e-001
340470000 -4.574401e-006 -1.660744e-005 7.825396e-001 -4.703324e-001 -4.471591e-005 6.753967e-005 7.865922e-001 -4.728868e-001
340755000 -3.897395e-005 1.083919e-004 7.622912e-001 -4.934287e-001 5.660010e-006 2.081419e-006 7.661088e-001 -4.951507e-001
341040000 7.468371e-005 6.335571e-005 7.415867e-001 -5.134096e-001 -9.397668e-005 7.846792e-005 7.447059e-001 -5.166546e-001
341325000 -4.478817e-005 4.123202e-008 7.197714e-001 -5.337145e-001 -5.950128e-005 2.699817e-005 7.235590e-001 -5.358560e-001
341610000 -2.846246e-005 -5.999914e-005 6.988879e-001 -5.530064e-001 2.050543e-005 -2.732002e-005 7.019922e-001 -5.554147e-001
341895000 -1.015569e-004 -4.613272e-005 6.767952e-001 -5.706605e-001 -2.514448e-005 5.471183e-005 6.798657e-001 -5.732206e-001
342180000 -4.765951e-005 4.851770e-006 6.543974e-001 -5.880630e-001 2.734362e-005 -4.396242e-005 6.571044e-001 -5.903007e-001
342465000 1.712955e-005 -6.254226e-005 6.330527e-001 -6.038877e-001 2.030874e-005 1.754725e-005 6.355276e-001 -6.072630e-001
342750000 -7.396292e-005 -9.357312e-005 6.104218e-001 -6.200702e-001 5.150161e-005 4.675326e-005 6.127952e-001 -6.224870e-001
343035000 4.954439e-005 -3.023605e-005 5.878079e-001 -6.342115e-001 -1.591353e-006 3.939157e-005 5.901681e-001 -6.364313e-001
343320000 -1.758554e-005 -3.536157e-005 5.655428e-001 -6.480426e-001 -6.970838e-006 3.391538e-005 5.676817e-001 -6.502616e-001
343605000 1.185763e-005 -1.705807e-005 5.429329e-001 -6.605716e-001 1.590119e-005 1.086037e-004 5.454429e-001 -6.637312e-001
343890000 3.400899e-005 7.616490e-006 5.203043e-001 -6.727816e-001 7.779367e-006 3.382048e-005 5.221780e-001 -6.751096e-001
