!Agilent Technologies,N5230C,SG49000117,A.08.50.07
!Agilent N5230C: A.08.50.07
!Date: Monday, March 18, 2024 19:18:37
!Correction: S11(Off) 
!S21(Off) 
!S12(Off) 
!S22(Off) 
!S2P File: Measurements: S11, S21, S12, S22:
# Hz S  RI   R 50
300000000 -1.572164e-006 1.241718e-006 -6.220424e-001 -6.488002e-001 -4.441410e-005 -6.981082e-005 -6.245524e-001 -6.511871e-001
300285000 3.421746e-005 -1.279957e-004 -6.371747e-001 -6.260164e-001 8.735275e-007 -7.709205e-006 -6.395710e-001 -6.279877e-001
300570000 -1.202678e-004 -3.562621e-006 -6.518374e-001 -6.025689e-001 -5.234536e-005 1.281215e-005 -6.544351e-001 -6.043138e-001
300855000 2.635122e-005 9.699092e-005 -6.658332e-001 -5.792361e-001 -2.415516e-005 1.595893e-005 -6.682061e-001 -5.811024e-001
301140000 -1.359528e-004 3.856809e-005 -6.783976e-001 -5.551608e-001 -4.937032e-005 -4.930967e-007 -6.805074e-001 -5.572150e-001
301425000 -1.302082e-005 7.935427e-005 -6.908473e-001 -5.314581e-001 3.179473e-006 2.203233e-005 -6.927577e-001 -5.333607e-001
301710000 -2.631062e-005 -1.011559e-004 -7.013664e-001 -5.080972e-001 -2.973785e-005 1.144154e-004 -7.043128e-001 -5.101016e-001
301995000 3.529875e-005 6.537719e-005 -7.121432e-001 -4.843161e-001 -4.970995e-005 6.213598e-005 -7.143980e-001 -4.862568e-001
302280000 3.727714e-005 -7.913910e-005 -7.209793e-001 -4.610246e-001 5.762088e-005 8.061907e-005 -7.236795e-001 -4.627106e-001
302565000 2.854837e-005 -1.044412e-005 -7.299935e-001 -4.376868e-001 -1.200557e-004 4.091383e-005 -7.330068e-001 -4.393398e-001
302850000 -7.444187e-005 9.968745e-006 -7.382002e-001 -4.141167e-001 8.902761e-005 -1.024752e-005 -7.411464e-001 -4.152859e-001
303135000 -1.266899e-004 8.871346e-006 -7.455671e-001 -3.906892e-001 3.003852e-005 -1.980628e-005 -7.481486e-001 -3.920387e-001
303420000 -1.231090e-004 -2.495534e-005 -7.525486e-001 -3.678403e-001 -4.077943e-005 -1.466896e-004 -7.558147e-001 -3.690793e-001
303705000 -3.553491e-005 6.036949e-005 -7.584547e-001 -3.451944e-001 3.245824e-005 -3.724281e-006 -7.618566e-001 -3.463198e-001
303990000 -2.332640e-005 2.833966e-005 -7.639781e-001 -3.218777e-001 3.488417e-005 -7.694651e-005 -7.668800e-001 -3.233485e-001
304275000 -1.013830e-005 -1.528073e-005 -7.690208e-001 -2.994000e-001 9.937501e-005 -5.380438e-006 -7.720531e-001 -3.000017e-001
304560000 1.328077e-004 4.297587e-005 -7.735326e-001 -2.767450e-001 9.123421e-005 -5.263978e-005 -7.764683e-001 -2.774319e-001
304845000 2.085410e-006 -4.252508e-005 -7.768309e-001 -2.543563e-001 -6.536154e-005 -1.326992e-004 -7.800766e-001 -2.554822e-001
305130000 -8.644554e-005 3.175910e-005 -7.803953e-001 -2.316586e-001 -1.216753e-004 7.066673e-005 -7.834718e-001 -2.325505e-001
305415000 6.182030e-007 -1.501429e-004 -7.828401e-001 -2.096914e-001 -6.981130e-005 3.127135e-005 -7.860292e-001 -2.107453e-001
305700000 9.751894e-005 -8.369025e-005 -7.853837e-001 -1.880561e-001 -6.996289e-006 4.680674e-006 -7.880886e-001 -1.882503e-001
305985000 8.895346e-006 -7.344805e-005 -7.865908e-001 -1.663751e-001 1.875545e-005 -6.172987e-005 -7.901989e-001 -1.664072e-001
306270000 3.743617e-005 -7.325776e-005 -7.882312e-001 -1.438981e-001 -2.136525e-005 -7.798409e-005 -7.913048e-001 -1.449589e-001
306555000 -4.528394e-005 -1.222442e-004 -7.889923e-001 -1.227730e-001 8.701205e-005 2.547942e-005 -7.925469e-001 -1.229369e-001
306840000 2.242273e-005 9.736267e-006 -7.892874e-001 -1.015930e-001 -4.035412e-005 -2.493135e-005 -7.925499e-001 -1.017131e-001
307125000 -9.024661e-006 -2.442284e-005 -7.890213e-001 -7.999668e-002 -2.318843e-005 -2.329667e-005 -7.920159e-001 -8.000752e-002
307410000 1.050970e-004 -1.144955e-005 -7.886493e-001 -5.901661e-002 -8.342134e-006 9.096260e-005 -7.915784e-001 -5.889475e-002
307695000 3.464231e-005 -5.187429e-005 -7.878430e-001 -3.762948e-002 -6.213455e-005 -2.376553e-005 -7.906948e-001 -3.818407e-002
307980000 1.931369e-005 -6.951853e-005 -7.864861e-001 -1.708946e-002 9.246578e-006 -3.678731e-005 -7.891144e-001 -1.689297e-002
308265000 2.873346e-005 -9.032896e-005 -7.845174e-001 3.669821e-003 1.625998e-005 -7.653436e-005 -7.878444e-001 3.306883e-003
308550000 5.355233e-005 2.217262e-005 -7.827681e-001 2.399930e-002 -5.866134e-005 -4.977818e-006 -7.853037e-001 2.409214e-002
308835000 -7.266738e-005 1.146721e-006 -7.800059e-001 4.462934e-002 3.991478e-005 -1.623739e-005 -7.831289e-001 4.475278e-002
309120000 3.448881e-005 5.840781e-005 -7.772352e-001 6.474945e-002 -9.388744e-006 3.644418e-005 -7.799043e-001 6.536141e-002
309405000 -2.897465e-005 -2.102210e-005 -7.741215e-001 8.494494e-002 1.051597e-004 -6.336888e-005 -7.769300e-001 8.554352e-002
309690000 7.519118e-005 4.961909e-005 -7.696965e-001 1.050025e-001 2.296652e-005 9.316085e-005 -7.738519e-001 1.051224e-001
309975000 -1.587497e-004 5.059185e-005 -7.655427e-001 1.245098e-001 4.605070e-005 -5.520162e-005 -7.694855e-001 1.252380e-001
310260000 -5.266307e-005 1.008550e-004 -7.617521e-001 1.445855e-001 -1.502973e-005 -1.496804e-005 -7.648180e-001 1.445939e-001
310545000 -1.081864e-004 6.230913e-005 -7.573440e-001 1.639351e-001 1.443921e-005 -1.002619e-004 -7.601812e-001 1.648168e-001
310830000 -1.600890e-006 1.894834e-005 -7.523595e-001 1.837287e-001 1.213587e-004 7.394023e-005 -7.549195e-001 1.842218e-001
311115000 -1.104313e-004 3.626497e-005 -7.464751e-001 2.030168e-001 -1.124194e-004 -2.390168e-005 -7.496861e-001 2.040497e-001
311400000 1.515997e-005 1.406961e-005 -7.414103e-001 2.225568e-001 1.056577e-004 -1.246708e-004 -7.443920e-001 2.232559e-001
311685000 -4.527792e-005 -3.893185e-007 -7.350241e-001 2.415444e-001 -1.419947e-005 -6.199581e-005 -7.375868e-001 2.424949e-001
311970000 6.643213e-006 -2.122503e-005 -7.284421e-001 2.604047e-001 -9.868379e-005 7.069646e-005 -7.314394e-001 2.622999e-001
312255000 4.304825e-005 -6.798543e-005 -7.220559e-001 2.799375e-001 -5.914840e-007 3.565437e-006 -7.246783e-001 2.808006e-001
312540000 4.128521e-005 -2.522359e-005 -7.146202e-001 2.985379e-001 -1.186230e-005 1.075356e-004 -7.171828e-001 2.999386e-001
312825000 -7.347686e-005 -1.691883e-005 -7.076902e-001 3.177004e-001 7.692700e-005 -1.117263e-005 -7.096779e-001 3.188390e-001
313110000 -1.726535e-005 -4.391870e-005 -6.991836e-001 3.362527e-001 -3.327792e-005 3.161118e-005 -7.017992e-001 3.377841e-001
313395000 3.713761e-006 4.707113e-005 -6.912647e-001 3.547310e-001 1.195658e-005 5.267078e-005 -6.937625e-001 3.562534e-001
313680000 4.567605e-005 3.495028e-005 -6.823831e-001 3.742296e-001 -1.636844e-006 5.164392e-005 -6.846847e-001 3.749246e-001
313965000 1.146021e-004 -1.231255e-005 -6.734018e-001 3.920912e-001 -1.149001e-005 -1.085532e-005 -6.757476e-001 3.938086e-001
314250000 1.220347e-004 1.268883e-007 -6.639835e-001 4.104069e-001 -2.662779e-005 -2.892119e-005 -6.664248e-001 4.124501e-001
314535000 1.184888e-004 7.726408e-005 -6.539698e-001 4.285855e-001 3.059346e-005 6.060967e-005 -6.567304e-001 4.304157e-001
314820000 1.176591e-004 3.873051e-005 -6.439875e-001 4.469885e-001 -3.073964e-005 -4.947174e-005 -6.463484e-001 4.490299e-001
315105000 1.090356e-005 -5.080196e-005 -6.332034e-001 4.649121e-001 -3.646432e-005 1.662100e-006 -6.353429e-001 4.674784e-001
315390000 3.779384e-005 3.919014e-006 -6.216015e-001 4.835086e-001 -2.864799e-005 -3.254343e-005 -6.245257e-001 4.852316e-001
315675000 -1.951885e-005 -8.084182e-005 -6.102161e-001 5.015675e-001 4.627700e-006 2.007999e-007 -6.126450e-001 5.031729e-001
315960000 7.195593e-005 -5.382613e-005 -5.982459e-001 5.195429e-001 -3.673156e-005 7.635066e-005 -6.001835e-001 5.213621e-001
316245000 4.181750e-006 2.045386e-005 -5.859076e-001 5.367790e-001 1.058175e-004 -4.465089e-005 -5.879074e-001 5.395694e-001
316530000 4.028869e-005 6.270046e-005 -5.725652e-001 5.546038e-001 -2.907288e-005 5.773903e-007 -5.747156e-001 5.573786e-001
316815000 9.122740e-006 -5.045928e-005 -5.586386e-001 5.725277e-001 -1.809242e-005 1.000274e-004 -5.612621e-001 5.745714e-001
317100000 -8.861080e-006 -6.713058e-005 -5.452024e-001 5.895411e-001 7.162866e-006 3.507700e-006 -5.471825e-001 5.923464e-001
317385000 -1.926164e-005 -8.988465e-005 -5.308972e-001 6.071379e-001 4.315608e-005 -5.018567e-005 -5.325585e-001 6.096284e-001
317670000 1.580963e-005 -4.995703e-005 -5.154901e-001 6.242098e-001 3.512129e-005 -2.948382e-005 -5.173430e-001 6.268459e-001
317955000 6.022540e-006 2.995840e-005 -4.996104e-001 6.414038e-001 7.037587e-005 7.987436e-005 -5.022024e-001 6.437555e-001
318240000 -2.457365e-005 8.587536e-006 -4.836505e-001 6.580887e-001 -2.323258e-005 4.354569e-005 -4.856197e-001 6.609055e-001
318525000 -8.918240e-005 1.908792e-005 -4.667096e-001 6.751056e-001 -4.582953e-005 1.734841e-005 -4.685900e-001 6.770765e-001
318810000 -8.690172e-005 -4.992305e-005 -4.495350e-001 6.906657e-001 2.005623e-005 -9.941857e-005 -4.511800e-001 6.938038e-001
319095000 -7.786129e-005 1.233768e-004 -4.313701e-001 7.069230e-001 1.684106e-005 2.554431e-005 -4.332708e-001 7.096108e-001
319380000 1.035740e-004 6.418768e-005 -4.126365e-001 7.226284e-001 -6.798997e-005 -6.816127e-005 -4.141644e-001 7.258386e-001
319665000 -1.196917e-004 -4.376785e-005 -3.931177e-001 7.386035e-001 4.599021e-006 8.468672e-005 -3.946601e-001 7.414708e-001
319950000 5.313021e-005 5.315745e-005 -3.734998e-001 7.542505e-001 -5.480080e-005 -1.969967e-005 -3.746775e-001 7.567657e-001
320235000 3.711614e-005 -1.063836e-004 -3.525507e-001 7.689409e-001 -2.067293e-005 2.952308e-005 -3.541687e-001 7.713336e-001
320520000 3.532292e-005 1.837796e-006 -3.308446e-001 7.832129e-001 6.178425e-005 -1.261234e-005 -3.325723e-001 7.866370e-001
320805000 -7.551321e-005 -3.188393e-005 -3.094779e-001 7.977366e-001 -1.048249e-004 1.466924e-004 -3.107974e-001 8.008875e-001
321090000 -6.678911e-005 -4.104916e-005 -2.865230e-001 8.116148e-001 7.079217e-005 3.813453e-005 -2.876770e-001 8.144314e-001
321375000 -1.263422e-005 -9.877776e-005 -2.631088e-001 8.245967e-001 -7.039679e-005 7.669417e-005 -2.641340e-001 8.282844e-001
321660000 4.041261e-006 8.163082e-005 -2.386483e-001 8.377790e-001 -1.304055e-006 -3.535840e-005 -2.397292e-001 8.408065e-001
321945000 5.701224e-006 1.399111e-004 -2.142237e-001 8.499216e-001 -9.725187e-005 -1.551521e-004 -2.146366e-001 8.533170e-001
322230000 4.676965e-006 1.783638e-005 -1.884609e-001 8.613059e-001 -8.239330e-005 -3.585325e-005 -1.888022e-001 8.649549e-001
322515000 6.523532e-005 3.227390e-006 -1.619038e-001 8.722795e-001 3.129362e-005 6.406460e-005 -1.626820e-001 8.759024e-001
322800000 -6.067642e-005 6.220772e-005 -1.340934e-001 8.824627e-001 -2.694268e-005 -1.007886e-005 -1.349573e-001 8.861659e-001
323085000 -1.478511e-004 3.124115e-005 -1.064675e-001 8.924363e-001 2.594145e-005 -6.278384e-005 -1.072525e-001 8.961743e-001
323370000 -1.735749e-005 7.658191e-006 -7.825488e-002 9.008822e-001 2.954382e-005 -1.626338e-005 -7.792040e-002 9.048496e-001
323655000 -8.835665e-005 9.923263e-006 -4.847520e-002 9.088911e-001 -2.224839e-006 -7.569615e-006 -4.849664e-002 9.125451e-001
323940000 6.063803e-005 -1.675445e-005 -1.799399e-002 9.163409e-001 -1.880044e-005 -7.585518e-005 -1.824050e-002 9.198238e-001
324225000 -3.947780e-005 -6.427191e-005 1.308471e-002 9.219341e-001 3.545286e-005 1.037467e-004 1.278490e-002 9.259047e-001
324510000 9.193552e-005 5.878557e-006 4.392596e-002 9.265462e-001 7.725681e-005 -6.614027e-005 4.430852e-002 9.309416e-001
324795000 -9.911373e-005 1.301816e-005 7.608555e-002 9.309009e-001 7.772838e-005 8.361686e-005 7.648189e-002 9.343104e-001
325080000 -1.101925e-004 3.479662e-005 1.090399e-001 9.334351e-001 6.503705e-006 -3.316353e-005 1.094531e-001 9.371024e-001
325365000 2.877361e-005 -4.062216e-005 1.426332e-001 9.351556e-001 -2.616149e-005 -3.646819e-005 1.433906e-001 9.387924e-001
325650000 -2.126367e-005 -5.011729e-005 1.765524e-001 9.351906e-001 3.661542e-005 7.540850e-007 1.772060e-001 9.387332e-001
325935000 6.797213e-005 3.593163e-005 2.104239e-001 9.341452e-001 6.482302e-005 1.727614e-005 2.118789e-001 9.371777e-001
326220000 3.145859e-005 3.965137e-005 2.456853e-001 9.310864e-001 -5.157293e-006 -4.865395e-005 2.467716e-001 9.349580e-001
326505000 -5.538485e-005 1.049746e-004 2.805932e-001 9.268029e-001 2.594774e-005 6.610144e-005 2.819594e-001 9.307723e-001
326790000 4.701842e-005 -3.972141e-005 3.160764e-001 9.214098e-001 3.185098e-005 9.002391e-005 3.167731e-001 9.252923e-001
327075000 -5.840055e-005 7.295171e-005 3.517443e-001 9.144086e-001 -3.465988e-005 8.294330e-005 3.529239e-001 9.181396e-001
327360000 -2.632152e-005 -1.031286e-006 3.863862e-001 9.053317e-001 -7.498294e-005 4.024590e-005 3.884890e-001 9.092516e-001
327645000 -4.244195e-005 8.705709e-006 4.231864e-001 8.945413e-001 -2.470051e-005 -1.171525e-005 4.239180e-001 8.989505e-001
327930000 5.896001e-005 8.985217e-005 4.581448e-001 8.825712e-001 7.370389e-005 -1.138608e-004 4.603682e-001 8.864626e-001
328215000 -8.500805e-005 -3.499489e-005 4.934978e-001 8.690793e-001 9.988698e-005 -1.036636e-004 4.955959e-001 8.725624e-001
328500000 5.598554e-005 -6.510374e-005 5.281450e-001 8.530127e-001 4.968233e-005 4.283994e-006 5.304770e-001 8.568692e-001
328785000 -4.928589e-006 -1.388969e-005 5.627820e-001 8.358890e-001 5.192760e-005 1.220154e-004 5.652519e-001 8.388476e-001
329070000 -3.041598e-005 -9.324437e-005 5.968183e-001 8.166513e-001 1.087086e-005 1.522363e-004 5.990398e-001 8.199947e-001
329355000 -1.949146e-005 -1.026216e-004 6.303498e-001 7.951692e-001 7.459133e-006 5.766565e-005 6.326534e-001 7.987615e-001
329640000 -1.116367e-004 1.868795e-005 6.625401e-001 7.721669e-001 1.698661e-006 5.904484e-005 6.654788e-001 7.766796e-001
329925000 -6.672528e-005 4.979894e-005 6.951249e-001 7.492942e-001 -5.061492e-005 3.533730e-005 6.975472e-001 7.517273e-001
330210000 -5.526746e-005 -1.023828e-005 7.253162e-001 7.226911e-001 -8.354728e-006 4.393442e-005 7.284253e-001 7.256821e-001
330495000 2.902436e-005 7.212158e-005 7.548574e-001 6.953803e-001 -6.225453e-005 9.767383e-005 7.577337e-001 6.980743e-001
330780000 4.846778e-005 7.950114e-005 7.824613e-001 6.658045e-001 -3.569104e-005 5.084651e-005 7.865587e-001 6.685207e-001
331065000 4.919615e-005 4.296247e-005 8.101714e-001 6.353347e-001 -2.934891e-005 3.614051e-005 8.131320e-001 6.386659e-001
331350000 -6.060230e-005 8.705023e-005 8.348541e-001 6.032954e-001 -2.119668e-004 7.830342e-006 8.388676e-001 6.061845e-001
331635000 -3.333065e-005 8.698714e-005 8.591244e-001 5.702201e-001 -9.040714e-005 1.107755e-004 8.625666e-001 5.727659e-001
331920000 -1.248404e-005 -1.556166e-005 8.811429e-001 5.362439e-001 -5.189968e-005 -4.388237e-005 8.854090e-001 5.384588e-001
332205000 -2.743735e-005 1.214413e-005 9.015113e-001 5.007403e-001 -4.060405e-005 1.395676e-005 9.062241e-001 5.025448e-001
332490000 -2.366424e-005 -3.038034e-005 9.206654e-001 4.643709e-001 -3.589729e-005 1.993329e-005 9.248394e-001 4.660300e-001
332775000 -1.967826e-005 3.345196e-005 9.374836e-001 4.273483e-001 -1.299792e-004 -6.131360e-006 9.414716e-001 4.289515e-001
333060000 -3.478780e-005 -4.264928e-005 9.522139e-001 3.897557e-001 -3.913971e-005 -3.141270e-005 9.562176e-001 3.913335e-001
333345000 1.512377e-005 7.713849e-005 9.659563e-001 3.512919e-001 -1.093558e-005 -1.776532e-005 9.697996e-001 3.523977e-001
333630000 -9.325203e-005 8.763841e-005 9.768727e-001 3.118753e-001 -3.056104e-005 -7.972874e-005 9.808069e-001 3.131172e-001
333915000 -1.461098e-006 4.190432e-005 9.861287e-001 2.728151e-001 -1.135263e-005 -5.227272e-005 9.905376e-001 2.745614e-001
334200000 -3.004172e-005 5.310528e-005 9.932953e-001 2.341093e-001 4.927392e-005 3.156340e-005 9.977215e-001 2.347436e-001
334485000 -9.720984e-005 2.452671e-005 9.984382e-001 1.946153e-001 -7.039139e-005 -3.803846e-006 1.003131e+000 1.951995e-001
334770000 -5.588539e-005 1.793788e-005 1.001954e+000 1.555807e-001 4.719909e-006 -5.747924e-005 1.007108e+000 1.560533e-001
335055000 -8.651063e-005 -7.867836e-005 1.003639e+000 1.165725e-001 -2.192930e-005 -8.523599e-006 1.008095e+000 1.167476e-001
335340000 -6.880074e-005 -2.948900e-005 1.003417e+000 7.740739e-002 8.514857e-005 -3.451256e-005 1.008614e+000 7.810271e-002
335625000 3.429164e-005 4.137460e-005 1.002279e+000 3.943143e-002 2.986999e-005 -2.677435e-005 1.006186e+000 3.995908e-002
335910000 -7.802439e-005 3.972324e-005 9.980918e-001 1.855945e-003 -1.552774e-005 -2.587648e-005 1.002695e+000 1.367604e-003
336195000 -4.767687e-005 5.367014e-005 9.934544e-001 -3.515690e-002 3.061606e-005 -3.727470e-005 9.969878e-001 -3.507454e-002
336480000 1.421532e-006 -5.715106e-005 9.864122e-001 -7.171453e-002 -5.715397e-005 -8.937947e-007 9.907717e-001 -7.207376e-002
336765000 -2.815575e-005 -1.856530e-006 9.779068e-001 -1.070535e-001 6.196637e-006 2.463472e-005 9.817430e-001 -1.077297e-001
337050000 -4.517535e-005 2.371621e-005 9.687228e-001 -1.422764e-001 -1.062286e-004 -2.257847e-005 9.728201e-001 -1.427390e-001
337335000 1.148799e-005 -2.238150e-005 9.577589e-001 -1.761528e-001 4.131070e-006 3.072054e-006 9.621468e-001 -1.766594e-001
337620000 -7.211432e-005 1.790540e-005 9.453042e-001 -2.092893e-001 -7.159434e-009 5.820246e-005 9.487706e-001 -2.092867e-001
337905000 -5.889395e-005 1.329534e-005 9.316227e-001 -2.411459e-001 1.294446e-004 2.651579e-006 9.358344e-001 -2.419261e-001
338190000 2.836480e-005 4.443758e-005 9.172649e-001 -2.720154e-001 9.799789e-005 4.955782e-005 9.209442e-001 -2.735104e-001
338475000 1.283243e-005 -6.053342e-005 9.015177e-001 -3.023699e-001 -3.770642e-005 6.261232e-005 9.055243e-001 -3.034770e-001
338760000 1.824761e-005 -6.603087e-005 8.856190e-001 -3.307631e-001 5.919402e-005 -1.504256e-005 8.899869e-001 -3.321000e-001
339045000 5.263641e-006 3.355162e-005 8.684288e-001 -3.587155e-001 -2.919959e-005 9.678714e-005 8.717682e-001 -3.601376e-001
339330000 -1.887925e-006 -1.549036e-005 8.509499e-001 -3.854552e-001 -2.400037e-006 1.597352e-005 8.538244e-001 -3.877611e-001
339615000 3.763011e-005 4.972861e-005 8.314581e-001 -4.115455e-001 6.257343e-005 3.264379e-005 8.350258e-001 -4.131984e-001
339900000 1.220412e-005 -6.766145e-005 8.121853e-001 -4.359936e-001 3.875282e-005 1.344249e-004 8.157921e-001 -4.380098e-001
340185000 3.820841e-005 5.671399e-005 7.921115e-001 -4.596690e-001 6.313731e-005 3.611391e-005 7.956548e-001 -4.620369e-001
340470000 -1.025569e-005 -2.408463e-005 7.724983e-001 -4.825644e-001 1.882569e-005 2.705759e-005 7.751700e-001 -4.844622e-001
340755000 -9.983806e-006 7.414765e-005 7.515548e-001 -5.036739e-001 6.153734e-005 -1.277156e-004 7.545582e-001 -5.059896e-001
341040000 3.496788e-005 -3.399599e-005 7.302102e-001 -5.248036e-001 -7.793904e-005 -5.237124e-005 7.330060e-001 -5.264029e-001
341325000 -2.462142e-005 -2.937759e-005 7.087293e-001 -5.438815e-001 9.741285e-005 -4.324090e-006 7.121029e-001 -5.468307e-001
341610000 5.016492e-005 5.478191e-005 6.871952e-001 -5.629152e-001 6.321771e-005 4.093754e-005 6.901385e-001 -5.656269e-001
341895000 1.477224e-005 1.917191e-006 6.644791e-001 -5.802814e-001 1.191938e-004 8.816223e-006 6.684318e-001 -5.823430e-001
342180000 -5.221825e-005 5.891524e-005 6.430200e-001 -5.969533e-001 -3.945622e-007 -5.582054e-005 6.452114e-001 -5.998222e-001
342465000 -6.384152e-005 -1.199657e-005 6.209322e-001 -6.128891e-001 -1.178095e-005 -2.849852e-005 6.231953e-001 -6.151389e-001
342750000 2.551478e-005 -8.419485e-005 5.983192e-001 -6.272365e-001 -8.993802e-005 3.851935e-005 6.010036e-001 -6.300460e-001
343035000 -3.849976e-006 -3.475626e-005 5.754666e-001 -6.417251e-001 -2.391606e-005 4.611034e-005 5.784718e-001 -6.441741e-001
343320000 -4.705096e-005 -9.639588e-006 5.528008e-001 -6.547219e-001 5.198923e-005 -3.080822e-007 5.555990e-001 -6.573411e-001
343605000 4.989940e-005 -6.585066e-006 5.303550e-001 -6.671029e-001 -1.610899e-005 3.146836e-005 5.326002e-001 -6.700344e-001
343890000 -7.129788e-005 2.774167e-005 5.078542e-001 -6.790479e-001 -1.006453e-004 6.721871e-007 5.102121e-001 -6.816539e-001
