!Agilent Technologies,N5230C,SG49000117,A.08.50.07
!Agilent N5230C: A.08.50.07
!Date: Monday, March 18, 2024 19:19:28
!Correction: S11(Off) 
!S21(Off) 
!S12(Off) 
!S22(Off) 
!S2P File: Measurements: S11, S21, S12, S22:
# Hz S  RI   R 50
300000000 1.900642e-005 5.669275e-006 -6.292965e-001 -6.394259e-001 -1.945516e-005 3.945244e-005 -6.322158e-001 -6.415966e-001
300285000 6.289212e-005 -1.832898e-004 -6.446387e-001 -6.155171e-001 4.425898e-005 1.418731e-004 -6.465449e-001 -6.177176e-001
300570000 2.454687e-006 7.747697e-005 -6.589178e-001 -5.920369e-001 -9.106963e-005 2.442939e-005 -6.612108e-001 -5.943678e-001
300855000 3.829995e-005 -2.208298e-005 -6.722612e-001 -5.686630e-001 3.328828e-005 5.123009e-005 -6.746538e-001 -5.705387e-001
301140000 3.994166e-005 -7.206397e-006 -6.847714e-001 -5.450518e-001 5.284799e-005 1.045460e-004 -6.874615e-001 -5.473849e-001
301425000 4.122327e-005 6.175669e-005 -6.962846e-001 -5.215465e-001 3.172352e-005 7.301180e-005 -6.988318e-001 -5.235798e-001
301710000 8.430033e-005 -5.275942e-005 -7.068859e-001 -4.977816e-001 -6.723240e-005 1.543309e-006 -7.094675e-001 -4.997770e-001
301995000 1.955700e-005 3.120460e-005 -7.163968e-001 -4.743052e-001 -5.266707e-005 -5.140411e-006 -7.190104e-001 -4.757581e-001
302280000 -5.130312e-006 3.608877e-005 -7.260845e-001 -4.506991e-001 -7.269526e-006 -5.893342e-005 -7.281784e-001 -4.522770e-001
302565000 2.574037e-005 4.225920e-005 -7.348249e-001 -4.272763e-001 -1.686769e-005 1.065304e-005 -7.368157e-001 -4.289423e-001
302850000 -9.268626e-005 3.507209e-005 -7.422773e-001 -4.043560e-001 -6.074196e-005 -1.414962e-005 -7.456948e-001 -4.053048e-001
303135000 -8.283812e-005 5.466787e-005 -7.494319e-001 -3.808046e-001 3.562824e-005 -2.426421e-005 -7.530022e-001 -3.826375e-001
303420000 -5.863650e-005 -3.184942e-005 -7.559322e-001 -3.577472e-001 1.195393e-004 5.524521e-005 -7.589766e-001 -3.589588e-001
303705000 -1.193892e-005 5.400272e-005 -7.620911e-001 -3.345701e-001 -8.896745e-007 -1.077576e-005 -7.644303e-001 -3.364055e-001
303990000 4.091275e-005 -4.876802e-008 -7.669663e-001 -3.116599e-001 4.117835e-005 -3.353080e-007 -7.705247e-001 -3.129909e-001
304275000 8.551522e-005 -5.482832e-005 -7.719830e-001 -2.889556e-001 7.121772e-005 5.166749e-006 -7.749882e-001 -2.903818e-001
304560000 -1.392993e-004 3.279720e-005 -7.755491e-001 -2.667871e-001 2.460930e-005 -6.546342e-006 -7.789004e-001 -2.671863e-001
304845000 6.522426e-005 -8.104209e-005 -7.793238e-001 -2.442901e-001 4.881193e-005 -5.525997e-005 -7.821959e-001 -2.449418e-001
305130000 -9.721448e-005 -1.595109e-005 -7.823473e-001 -2.218488e-001 1.628628e-005 1.237463e-005 -7.854637e-001 -2.229218e-001
305415000 2.404426e-005 -2.642553e-005 -7.847028e-001 -2.000211e-001 7.134251e-006 4.617228e-005 -7.877778e-001 -2.004510e-001
305700000 6.793429e-005 -3.520036e-005 -7.865450e-001 -1.775695e-001 1.098411e-004 1.381278e-005 -7.892519e-001 -1.780372e-001
305985000 -3.080062e-006 5.871542e-006 -7.880553e-001 -1.562161e-001 4.821476e-005 1.245897e-004 -7.911233e-001 -1.563735e-001
306270000 1.894273e-005 -1.146895e-004 -7.892023e-001 -1.338371e-001 6.242254e-005 3.044950e-005 -7.923098e-001 -1.349177e-001
306555000 -4.585089e-005 7.612644e-005 -7.896219e-001 -1.121504e-001 -4.451323e-005 7.838767e-005 -7.927128e-001 -1.131786e-001
306840000 -9.390504e-005 7.245837e-005 -7.896947e-001 -9.113805e-002 6.189808e-005 5.678784e-005 -7.927519e-001 -9.175028e-002
307125000 -1.627806e-005 -2.768837e-006 -7.896236e-001 -7.017169e-002 1.054336e-004 2.691963e-005 -7.926826e-001 -7.007726e-002
307410000 -6.892296e-005 -3.466985e-005 -7.891006e-001 -4.859686e-002 4.345492e-005 8.750330e-005 -7.920278e-001 -4.927615e-002
307695000 3.786497e-006 3.938006e-006 -7.874312e-001 -2.755159e-002 -6.018669e-005 6.097128e-006 -7.904529e-001 -2.787206e-002
307980000 -2.812639e-005 -1.067131e-004 -7.864997e-001 -7.240205e-003 -4.579247e-005 7.334154e-005 -7.890101e-001 -7.356500e-003
308265000 -7.325675e-005 -4.212065e-005 -7.841946e-001 1.339953e-002 -1.073446e-004 -2.431938e-005 -7.871440e-001 1.342071e-002
308550000 -2.034679e-005 -6.369333e-006 -7.820122e-001 3.396897e-002 -9.207311e-005 -8.774985e-005 -7.850084e-001 3.415268e-002
308835000 -5.420983e-005 -1.029175e-005 -7.792804e-001 5.422285e-002 -9.598784e-005 7.334480e-005 -7.818027e-001 5.431354e-002
309120000 -2.649929e-005 -6.135807e-005 -7.765809e-001 7.427273e-002 -6.402493e-005 6.603858e-006 -7.793012e-001 7.504956e-002
309405000 6.235213e-005 -6.169373e-005 -7.723894e-001 9.450364e-002 1.595634e-005 1.603363e-005 -7.755243e-001 9.511603e-002
309690000 6.559908e-006 -5.863593e-005 -7.685852e-001 1.144401e-001 -4.100189e-005 -4.155632e-005 -7.716807e-001 1.148853e-001
309975000 -3.674209e-005 -9.765207e-005 -7.646585e-001 1.339900e-001 6.968805e-005 9.231756e-006 -7.674605e-001 1.349098e-001
310260000 4.571814e-005 6.241748e-005 -7.597506e-001 1.541507e-001 -3.375302e-005 -7.495106e-006 -7.627676e-001 1.546195e-001
310545000 -1.896829e-005 5.128791e-005 -7.551678e-001 1.736985e-001 -4.027889e-005 -1.505667e-005 -7.584817e-001 1.743011e-001
310830000 -4.456208e-006 -9.370292e-006 -7.501969e-001 1.927772e-001 -7.137742e-005 1.950002e-005 -7.529785e-001 1.941764e-001
311115000 1.129480e-004 -2.333873e-005 -7.445073e-001 2.123450e-001 -2.098440e-005 9.240350e-006 -7.473598e-001 2.134258e-001
311400000 4.207106e-005 -9.028425e-006 -7.386126e-001 2.319205e-001 -8.731663e-005 -3.720693e-005 -7.414830e-001 2.327243e-001
311685000 -5.674353e-005 9.065116e-005 -7.323415e-001 2.508844e-001 -8.218427e-007 1.005431e-005 -7.348584e-001 2.516768e-001
311970000 -5.274142e-005 1.034959e-004 -7.253036e-001 2.701302e-001 -5.355160e-005 4.129370e-006 -7.285086e-001 2.710035e-001
312255000 3.657747e-005 2.159560e-005 -7.186867e-001 2.887432e-001 -7.309822e-005 -5.428698e-005 -7.212439e-001 2.905318e-001
312540000 5.429981e-005 1.201420e-004 -7.109855e-001 3.081134e-001 -4.198484e-005 -5.750292e-005 -7.137114e-001 3.091236e-001
312825000 -9.389344e-005 1.347895e-005 -7.035304e-001 3.268168e-001 5.744044e-005 -7.424100e-005 -7.063177e-001 3.281672e-001
313110000 3.942292e-005 3.482485e-005 -6.958070e-001 3.448921e-001 -8.918427e-005 6.863901e-006 -6.978702e-001 3.465871e-001
313395000 8.294480e-005 -7.399372e-006 -6.872939e-001 3.639079e-001 7.230977e-005 9.593022e-006 -6.895516e-001 3.655536e-001
313680000 -2.409571e-005 1.986587e-005 -6.779139e-001 3.826141e-001 8.293553e-006 6.157679e-005 -6.809296e-001 3.836586e-001
313965000 -2.243027e-005 -4.352591e-007 -6.681631e-001 4.012762e-001 1.784172e-004 4.632137e-005 -6.713601e-001 4.030040e-001
314250000 3.116976e-005 4.471831e-005 -6.588385e-001 4.195010e-001 1.085434e-004 -1.185858e-005 -6.620059e-001 4.212781e-001
314535000 6.375311e-005 1.916863e-005 -6.491108e-001 4.377966e-001 9.547964e-005 -5.855332e-005 -6.516025e-001 4.393253e-001
314820000 6.238371e-006 1.782025e-004 -6.386170e-001 4.558809e-001 5.174815e-005 -3.015747e-005 -6.407683e-001 4.577493e-001
315105000 -2.140045e-005 -4.362022e-005 -6.277220e-001 4.739506e-001 1.545825e-005 1.088121e-004 -6.301546e-001 4.757210e-001
315390000 -7.832238e-005 1.367793e-004 -6.163560e-001 4.920560e-001 -5.746315e-005 9.631093e-005 -6.183419e-001 4.940963e-001
315675000 4.703389e-005 4.905408e-005 -6.047652e-001 5.097605e-001 2.323438e-004 -1.665747e-005 -6.065536e-001 5.117844e-001
315960000 -1.280930e-005 2.391844e-006 -5.921137e-001 5.279136e-001 4.774785e-005 3.091109e-005 -5.943525e-001 5.298503e-001
316245000 3.588724e-005 -1.026349e-004 -5.795607e-001 5.450843e-001 1.016614e-004 2.875146e-005 -5.817083e-001 5.478077e-001
316530000 -4.445114e-005 1.827129e-005 -5.661451e-001 5.631897e-001 -5.697771e-006 -2.491690e-005 -5.683724e-001 5.652677e-001
316815000 6.784440e-005 -1.409361e-005 -5.520571e-001 5.811221e-001 2.895616e-005 -8.323279e-005 -5.543798e-001 5.830248e-001
317100000 -3.852566e-005 1.971624e-005 -5.376781e-001 5.982454e-001 -1.543225e-005 -6.313545e-007 -5.397666e-001 6.004369e-001
317385000 1.910238e-005 5.588203e-005 -5.233846e-001 6.148304e-001 1.258130e-005 -1.709608e-005 -5.248236e-001 6.176808e-001
317670000 -4.138987e-005 -2.449143e-005 -5.078145e-001 6.321850e-001 6.966873e-005 2.072614e-005 -5.100841e-001 6.346543e-001
317955000 -2.912238e-005 1.197394e-004 -4.918003e-001 6.488298e-001 -4.196526e-005 3.695567e-005 -4.938472e-001 6.518233e-001
318240000 3.366556e-005 4.115229e-005 -4.753380e-001 6.655936e-001 -5.404869e-005 7.577502e-005 -4.771435e-001 6.687279e-001
318525000 1.991742e-005 -6.002461e-005 -4.577931e-001 6.822672e-001 -6.496362e-005 4.879853e-005 -4.596733e-001 6.848321e-001
318810000 -5.333062e-006 1.446717e-004 -4.403982e-001 6.982835e-001 -8.790115e-005 -5.031647e-005 -4.425191e-001 7.014744e-001
319095000 -6.960736e-005 1.118648e-004 -4.223570e-001 7.143912e-001 1.400563e-005 -3.956045e-005 -4.241090e-001 7.175253e-001
319380000 8.159809e-005 1.114983e-005 -4.034783e-001 7.300170e-001 -7.291936e-005 1.889189e-005 -4.050289e-001 7.329566e-001
319665000 -9.548392e-005 6.315786e-008 -3.835088e-001 7.459629e-001 -4.987103e-005 1.485044e-004 -3.853101e-001 7.485970e-001
319950000 -3.957149e-005 8.810280e-005 -3.632286e-001 7.605938e-001 -3.206368e-005 -3.946770e-005 -3.648688e-001 7.642498e-001
320235000 -1.125102e-004 5.234847e-005 -3.425638e-001 7.756625e-001 -9.473968e-005 -8.601966e-005 -3.439740e-001 7.787994e-001
320520000 2.020046e-006 4.963061e-005 -3.207995e-001 7.900114e-001 -5.500491e-005 -2.850191e-005 -3.219155e-001 7.927289e-001
320805000 -2.687518e-005 -2.455125e-007 -2.990059e-001 8.035018e-001 -2.337776e-005 -8.084034e-005 -2.994040e-001 8.073828e-001
321090000 -2.203003e-005 8.409112e-005 -2.753185e-001 8.176362e-001 1.121402e-006 -6.263506e-005 -2.763797e-001 8.206568e-001
321375000 8.480504e-005 9.781210e-005 -2.517687e-001 8.302584e-001 5.005244e-005 -1.773028e-005 -2.523597e-001 8.337826e-001
321660000 1.042605e-004 2.331259e-005 -2.266908e-001 8.429288e-001 -4.248485e-005 -1.132634e-004 -2.278806e-001 8.461937e-001
321945000 5.855963e-005 -9.050735e-005 -2.017699e-001 8.549078e-001 6.932118e-006 4.742110e-005 -2.019822e-001 8.582757e-001
322230000 -9.459110e-006 -1.101050e-004 -1.753185e-001 8.666146e-001 9.390177e-005 5.183858e-005 -1.757380e-001 8.698565e-001
322515000 6.243429e-006 -3.692062e-005 -1.489311e-001 8.766431e-001 1.447103e-005 1.134056e-005 -1.492714e-001 8.806118e-001
322800000 1.056384e-005 2.941075e-005 -1.213442e-001 8.865883e-001 4.606474e-005 -3.913094e-005 -1.213786e-001 8.906866e-001
323085000 -6.124377e-005 -4.556098e-005 -9.237426e-002 8.954538e-001 -4.819558e-005 -3.109694e-005 -9.272320e-002 8.998560e-001
323370000 1.105943e-005 -7.726959e-005 -6.379545e-002 9.041417e-001 -4.010748e-005 -1.290955e-004 -6.442333e-002 9.081481e-001
323655000 3.375415e-005 -2.159727e-005 -3.370806e-002 9.120163e-001 9.770033e-006 -2.258734e-005 -3.411388e-002 9.153890e-001
323940000 1.290578e-004 4.354882e-005 -3.689662e-003 9.183493e-001 4.540296e-005 -2.911655e-007 -3.590612e-003 9.225568e-001
324225000 -1.570339e-005 4.135471e-005 2.738243e-002 9.239582e-001 -4.511647e-005 4.890533e-005 2.768500e-002 9.283147e-001
324510000 -6.084604e-006 1.052515e-004 5.939913e-002 9.285765e-001 7.281346e-005 -2.789854e-005 5.933809e-002 9.325870e-001
324795000 -4.845139e-005 7.503405e-005 9.178209e-002 9.314939e-001 -5.429057e-005 7.850191e-006 9.240378e-002 9.356934e-001
325080000 -3.308752e-005 -5.428005e-005 1.251266e-001 9.334171e-001 4.629211e-005 2.340158e-005 1.250672e-001 9.378771e-001
325365000 4.470219e-005 1.071171e-004 1.587078e-001 9.342947e-001 -3.132925e-005 6.090802e-005 1.591766e-001 9.385628e-001
325650000 8.945077e-005 1.292789e-004 1.932617e-001 9.338438e-001 -5.409249e-005 1.206879e-004 1.926276e-001 9.383001e-001
325935000 -3.224362e-005 2.951790e-005 2.267073e-001 9.319119e-001 2.672842e-005 5.865383e-006 2.273292e-001 9.364609e-001
326220000 8.888571e-005 2.543782e-005 2.616881e-001 9.287110e-001 1.113797e-006 -9.345512e-005 2.627186e-001 9.329690e-001
326505000 -6.180366e-005 -2.233912e-006 2.968053e-001 9.244178e-001 -5.708497e-005 3.037218e-005 2.981129e-001 9.281111e-001
326790000 2.960670e-005 1.772525e-005 3.323898e-001 9.180400e-001 -1.056028e-004 -5.059066e-005 3.336463e-001 9.222214e-001
327075000 -5.326688e-005 -8.292012e-005 3.677441e-001 9.096645e-001 2.962353e-005 1.131850e-004 3.695844e-001 9.136667e-001
327360000 4.474853e-006 -1.134131e-004 4.039747e-001 9.004303e-001 -1.240855e-005 -2.577013e-005 4.054822e-001 9.040523e-001
327645000 -1.118134e-005 -7.799621e-005 4.387954e-001 8.895027e-001 -3.779980e-005 -2.212215e-005 4.407996e-001 8.929799e-001
327930000 1.944337e-005 -8.689539e-005 4.748889e-001 8.758709e-001 -2.586296e-005 -1.400102e-004 4.763820e-001 8.798631e-001
328215000 2.696489e-006 -2.743604e-005 5.097299e-001 8.612813e-001 1.364851e-006 -9.282558e-005 5.119048e-001 8.655336e-001
328500000 -7.060027e-006 -3.407288e-005 5.451773e-001 8.450085e-001 3.986541e-005 -5.877901e-005 5.464849e-001 8.484212e-001
328785000 -8.334817e-005 7.345514e-005 5.788052e-001 8.268054e-001 -2.450249e-005 -2.903244e-005 5.812902e-001 8.299884e-001
329070000 1.179293e-005 -7.592358e-005 6.121888e-001 8.065960e-001 2.495632e-005 4.709643e-005 6.149094e-001 8.106214e-001
329355000 2.719320e-005 6.008261e-005 6.452516e-001 7.844179e-001 1.028631e-005 8.707291e-005 6.487495e-001 7.883409e-001
329640000 1.072858e-005 1.025617e-004 6.767471e-001 7.617666e-001 -2.208057e-006 4.590447e-006 6.804627e-001 7.648214e-001
329925000 4.553917e-005 7.539852e-006 7.091386e-001 7.366205e-001 -5.668253e-005 5.038556e-005 7.118865e-001 7.397225e-001
330210000 4.201746e-005 -4.381831e-005 7.389415e-001 7.097028e-001 9.205675e-006 3.475617e-005 7.423875e-001 7.126392e-001
330495000 -8.682764e-005 2.415130e-005 7.683651e-001 6.816338e-001 -2.461183e-005 -2.299793e-005 7.714320e-001 6.839986e-001
330780000 2.067525e-005 1.965946e-005 7.954605e-001 6.517063e-001 -7.196747e-005 -2.748365e-005 7.994232e-001 6.546974e-001
331065000 -3.238141e-005 -2.073322e-006 8.221751e-001 6.202973e-001 -9.662857e-005 2.095844e-006 8.255499e-001 6.234186e-001
331350000 -7.055176e-005 9.886132e-005 8.466095e-001 5.884096e-001 -4.431247e-006 -6.826866e-005 8.504508e-001 5.906771e-001
331635000 5.433854e-005 2.447571e-005 8.696171e-001 5.541499e-001 -4.926617e-005 -1.366435e-005 8.738923e-001 5.570504e-001
331920000 -6.093435e-005 -9.932280e-005 8.916261e-001 5.194863e-001 -4.072707e-005 -6.562845e-005 8.953486e-001 5.217831e-001
332205000 1.105537e-005 -5.395781e-005 9.106292e-001 4.839067e-001 -2.526675e-005 -3.780873e-005 9.147120e-001 4.860825e-001
332490000 2.956914e-005 4.582671e-006 9.287391e-001 4.473087e-001 3.219147e-005 -4.833740e-005 9.332934e-001 4.492737e-001
332775000 8.671921e-005 -3.447136e-005 9.448571e-001 4.091683e-001 6.099461e-005 -4.607601e-005 9.489978e-001 4.108056e-001
333060000 -3.297686e-005 -7.063422e-005 9.595323e-001 3.716930e-001 -2.986848e-005 5.124959e-006 9.625361e-001 3.730161e-001
333345000 -4.022814e-005 -3.500218e-005 9.710637e-001 3.332175e-001 -1.811784e-005 -7.258614e-005 9.760130e-001 3.337255e-001
333630000 7.194108e-005 -4.713746e-005 9.818412e-001 2.941336e-001 -2.209094e-005 9.048945e-005 9.862418e-001 2.954763e-001
333915000 3.502822e-005 -3.931081e-005 9.899906e-001 2.547254e-001 -2.521532e-005 -9.086358e-005 9.944188e-001 2.556877e-001
334200000 5.074069e-005 -9.308406e-005 9.963933e-001 2.161006e-001 7.445278e-005 -6.380470e-005 1.001198e+000 2.160404e-001
334485000 8.884213e-005 1.618399e-005 1.001361e+000 1.761543e-001 5.663643e-005 -7.106371e-005 1.006156e+000 1.767508e-001
334770000 3.433227e-005 1.198282e-005 1.004065e+000 1.364197e-001 -4.927045e-005 4.474110e-006 1.008444e+000 1.371306e-001
335055000 -8.472754e-005 -1.147836e-005 1.005134e+000 9.788226e-002 -1.133478e-004 -9.805770e-005 1.009396e+000 9.880769e-002
335340000 -1.178957e-005 1.553230e-005 1.003699e+000 5.923562e-002 2.030018e-005 7.291524e-006 1.007892e+000 5.985833e-002
335625000 6.702603e-005 -3.586565e-005 1.000982e+000 2.140730e-002 -7.452469e-005 1.642641e-004 1.005089e+000 2.188264e-002
335910000 -6.008103e-005 8.204652e-005 9.967828e-001 -1.681752e-002 1.939027e-005 -5.823458e-005 1.001037e+000 -1.600038e-002
336195000 -1.477940e-004 -4.014297e-005 9.905911e-001 -5.314356e-002 -1.305273e-005 -4.795883e-005 9.951650e-001 -5.311750e-002
336480000 -2.908199e-005 -4.285490e-005 9.827521e-001 -8.898906e-002 1.378054e-004 3.146706e-005 9.883094e-001 -8.967496e-002
336765000 -9.160344e-005 -1.716727e-005 9.742060e-001 -1.243022e-001 2.174595e-005 -8.579780e-007 9.780044e-001 -1.248893e-001
337050000 -2.273801e-005 1.503478e-005 9.638786e-001 -1.585107e-001 4.818929e-005 -3.657816e-005 9.675843e-001 -1.597490e-001
337335000 7.103973e-005 6.430147e-005 9.523380e-001 -1.929460e-001 1.344701e-004 4.048214e-005 9.564384e-001 -1.929952e-001
337620000 1.756074e-004 9.720233e-005 9.398346e-001 -2.248322e-001 -4.608213e-005 -4.766204e-005 9.434154e-001 -2.259292e-001
337905000 1.540398e-005 2.108920e-005 9.255567e-001 -2.563260e-001 -5.081238e-005 1.964254e-005 9.298842e-001 -2.575207e-001
338190000 6.024057e-005 -1.113798e-004 9.106671e-001 -2.870330e-001 1.734970e-005 6.174249e-005 9.143212e-001 -2.885179e-001
338475000 2.627574e-005 1.563360e-004 8.947687e-001 -3.166171e-001 6.754265e-005 -1.651659e-004 8.980587e-001 -3.182890e-001
338760000 1.620747e-005 5.106613e-005 8.776470e-001 -3.450311e-001 -2.644208e-005 -7.316797e-005 8.815433e-001 -3.469144e-001
339045000 2.008308e-005 1.278400e-004 8.598915e-001 -3.726088e-001 3.355865e-005 8.716232e-005 8.634853e-001 -3.745172e-001
339330000 -6.881329e-005 -1.743628e-005 8.415747e-001 -3.993154e-001 8.178699e-005 -1.283055e-004 8.451765e-001 -4.008592e-001
339615000 -4.058650e-005 4.760016e-005 8.224999e-001 -4.242771e-001 1.075745e-004 5.860260e-005 8.259823e-001 -4.264021e-001
339900000 -1.058278e-004 8.410682e-005 8.033269e-001 -4.484932e-001 -8.643355e-005 4.539820e-005 8.064495e-001 -4.505128e-001
340185000 -3.371232e-005 1.430067e-004 7.827398e-001 -4.718479e-001 1.530926e-005 -4.045205e-005 7.867110e-001 -4.736028e-001
340470000 -3.770859e-005 7.268642e-005 7.625687e-001 -4.945564e-001 4.817221e-005 8.687515e-005 7.650290e-001 -4.958594e-001
340755000 -6.095143e-006 3.422215e-005 7.412851e-001 -5.149456e-001 1.585110e-004 1.236299e-005 7.439027e-001 -5.173706e-001
341040000 -5.710471e-005 3.248326e-006 7.202583e-001 -5.349445e-001 2.077410e-006 1.282287e-004 7.228113e-001 -5.371628e-001
341325000 2.588556e-005 3.244612e-005 6.986767e-001 -5.541891e-001 -6.736310e-005 -4.477027e-005 7.012401e-001 -5.562434e-001
341610000 6.266115e-005 -3.128584e-006 6.766253e-001 -5.722978e-001 -8.456300e-005 -6.126772e-005 6.795598e-001 -5.747643e-001
341895000 -3.529422e-005 -1.049689e-005 6.542267e-001 -5.893635e-001 -3.233975e-005 -1.741273e-004 6.569898e-001 -5.914967e-001
342180000 -2.195940e-005 7.265210e-005 6.319728e-001 -6.055973e-001 -7.306226e-005 -4.975861e-005 6.347507e-001 -6.082145e-001
342465000 1.599018e-005 -8.908374e-005 6.093040e-001 -6.207466e-001 1.859257e-005 -1.108973e-004 6.119103e-001 -6.235529e-001
342750000 -4.489109e-005 4.620094e-005 5.862455e-001 -6.356453e-001 -4.844059e-005 -7.298742e-005 5.898283e-001 -6.383379e-001
343035000 3.340138e-005 -7.363458e-005 5.647941e-001 -6.493318e-001 -5.059589e-005 -3.018277e-005 5.667109e-001 -6.519278e-001
343320000 -4.992017e-005 1.019552e-005 5.415916e-001 -6.618964e-001 4.267098e-005 1.232390e-005 5.439520e-001 -6.645718e-001
343605000 3.199566e-005 -5.403564e-005 5.191017e-001 -6.739469e-001 4.906018e-005 -1.702602e-005 5.215077e-001 -6.762599e-001
343890000 3.184439e-005 -3.339593e-005 4.964365e-001 -6.847415e-001 3.654232e-005 -2.498563e-005 4.982014e-001 -6.882044e-001
