!Agilent Technologies,N5230C,SG49000117,A.08.50.07
!Agilent N5230C: A.08.50.07
!Date: Monday, March 18, 2024 19:20:16
!Correction: S11(Off) 
!S21(Off) 
!S12(Off) 
!S22(Off) 
!S2P File: Measurements: S11, S21, S12, S22:
# Hz S  RI   R 50
300000000 -4.773932e-005 -4.263791e-006 -6.367711e-001 -6.283100e-001 2.419696e-005 3.121181e-006 -6.394278e-001 -6.304240e-001
300285000 1.525639e-004 -5.674474e-005 -6.519755e-001 -6.047528e-001 -5.412146e-005 7.575084e-005 -6.537880e-001 -6.071312e-001
300570000 9.307263e-005 -1.495543e-005 -6.649031e-001 -5.810018e-001 -1.187936e-004 4.266873e-005 -6.675833e-001 -5.831816e-001
300855000 1.710463e-005 1.747704e-005 -6.781051e-001 -5.571933e-001 -3.456438e-005 -7.049600e-007 -6.807239e-001 -5.600181e-001
301140000 4.360235e-005 1.323532e-005 -6.901076e-001 -5.339751e-001 9.300595e-005 3.868420e-005 -6.926405e-001 -5.355176e-001
301425000 -6.295112e-005 5.942902e-006 -7.010014e-001 -5.104889e-001 2.083829e-005 -2.254836e-005 -7.041103e-001 -5.116960e-001
301710000 3.926764e-006 4.303211e-005 -7.116554e-001 -4.864551e-001 -2.846178e-005 3.890424e-005 -7.142251e-001 -4.879070e-001
301995000 1.627698e-004 2.841441e-005 -7.212906e-001 -4.632031e-001 5.982993e-005 6.674594e-005 -7.237516e-001 -4.648164e-001
302280000 5.408505e-005 7.371425e-006 -7.304138e-001 -4.395721e-001 2.044045e-005 2.390504e-005 -7.332225e-001 -4.407620e-001
302565000 -4.272331e-005 4.302455e-005 -7.385969e-001 -4.161139e-001 -2.112483e-005 1.099143e-005 -7.406715e-001 -4.173743e-001
302850000 1.071614e-004 6.715512e-005 -7.459283e-001 -3.925683e-001 -1.816171e-005 -4.654473e-005 -7.483969e-001 -3.944311e-001
303135000 -4.587151e-005 -9.264104e-005 -7.531354e-001 -3.693928e-001 8.193350e-005 -4.583478e-005 -7.551410e-001 -3.712530e-001
303420000 -5.062308e-005 -1.013621e-004 -7.589313e-001 -3.460470e-001 -1.759333e-005 -2.049128e-004 -7.616642e-001 -3.475422e-001
303705000 -3.673893e-005 -1.692478e-005 -7.644206e-001 -3.236160e-001 -5.799624e-005 5.743225e-005 -7.673328e-001 -3.246778e-001
303990000 -6.060858e-006 -1.152204e-005 -7.694075e-001 -3.007056e-001 -4.915425e-005 1.065299e-005 -7.724685e-001 -3.017943e-001
304275000 1.142403e-004 6.115316e-005 -7.735953e-001 -2.776845e-001 2.965171e-005 -1.180100e-004 -7.763871e-001 -2.790934e-001
304560000 3.857773e-005 -8.472765e-005 -7.775856e-001 -2.553592e-001 6.451938e-005 -5.748578e-005 -7.801437e-001 -2.563704e-001
304845000 -8.594870e-005 -1.564054e-004 -7.811770e-001 -2.333282e-001 2.587347e-005 6.654392e-005 -7.833033e-001 -2.338860e-001
305130000 2.441672e-006 -6.057374e-005 -7.837577e-001 -2.106424e-001 2.427366e-004 9.796553e-005 -7.863585e-001 -2.117430e-001
305415000 -8.304983e-006 -2.961859e-005 -7.856219e-001 -1.887102e-001 6.259378e-005 3.755853e-005 -7.886924e-001 -1.893321e-001
305700000 -1.179854e-005 -4.306553e-005 -7.874241e-001 -1.667145e-001 -5.104596e-005 1.086144e-004 -7.906680e-001 -1.673964e-001
305985000 6.833610e-005 -3.787774e-005 -7.888190e-001 -1.447683e-001 3.153556e-005 2.343653e-006 -7.912636e-001 -1.454167e-001
306270000 -1.156369e-005 5.364093e-006 -7.894056e-001 -1.235882e-001 -4.572174e-005 7.813809e-006 -7.923740e-001 -1.237695e-001
306555000 -2.092738e-005 -1.528048e-005 -7.898169e-001 -1.022195e-001 -1.115076e-004 1.154215e-005 -7.929029e-001 -1.025216e-001
306840000 4.005335e-005 -7.140795e-006 -7.895498e-001 -8.045543e-002 1.520964e-005 2.035071e-005 -7.925860e-001 -8.048398e-002
307125000 2.434850e-005 1.832854e-005 -7.886844e-001 -5.923039e-002 4.981972e-005 -9.231360e-005 -7.918602e-001 -5.989369e-002
307410000 2.530700e-005 -2.875695e-005 -7.880173e-001 -3.833092e-002 -3.789938e-005 6.234015e-007 -7.912676e-001 -3.823795e-002
307695000 9.625597e-005 -1.731726e-005 -7.868404e-001 -1.733840e-002 -2.236248e-005 -6.457433e-005 -7.898867e-001 -1.757034e-002
307980000 -3.594418e-005 -4.048895e-006 -7.852579e-001 2.976747e-003 -1.430664e-004 -2.317931e-005 -7.884423e-001 3.252095e-003
308265000 5.050268e-005 -3.267461e-005 -7.825494e-001 2.395761e-002 -4.590470e-005 -3.414212e-005 -7.856699e-001 2.369400e-002
308550000 8.706719e-005 7.595659e-005 -7.802641e-001 4.399250e-002 5.113694e-005 6.601310e-005 -7.830226e-001 4.427478e-002
308835000 2.035363e-005 -1.268330e-005 -7.773398e-001 6.458729e-002 -1.039949e-004 -2.633616e-005 -7.802581e-001 6.441712e-002
309120000 -4.293973e-005 1.248265e-004 -7.745245e-001 8.413084e-002 5.499805e-005 -1.043039e-004 -7.773027e-001 8.472198e-002
309405000 2.300755e-005 3.356173e-005 -7.702671e-001 1.046788e-001 3.112245e-005 1.747791e-005 -7.730229e-001 1.050000e-001
309690000 -1.450978e-004 1.250916e-004 -7.665353e-001 1.246208e-001 -4.883426e-008 -9.074273e-005 -7.696355e-001 1.249198e-001
309975000 -1.245919e-004 8.424220e-005 -7.620338e-001 1.446593e-001 1.078957e-004 -1.685351e-005 -7.652730e-001 1.447436e-001
310260000 1.237405e-005 -2.427865e-006 -7.570109e-001 1.641117e-001 5.020256e-005 -4.661812e-005 -7.603611e-001 1.644816e-001
310545000 -1.355272e-005 -8.687368e-005 -7.521372e-001 1.831791e-001 1.608394e-005 -3.993586e-005 -7.550278e-001 1.842979e-001
310830000 -7.399426e-005 -1.190725e-005 -7.466330e-001 2.027635e-001 -2.893085e-005 -2.213409e-005 -7.500146e-001 2.036807e-001
311115000 -4.725764e-005 6.246718e-005 -7.411305e-001 2.222057e-001 -4.972867e-006 4.398265e-005 -7.443883e-001 2.235594e-001
311400000 -8.899561e-006 1.941767e-005 -7.347412e-001 2.414442e-001 8.592966e-005 -1.352232e-005 -7.377706e-001 2.421376e-001
311685000 9.591595e-007 -1.191059e-005 -7.280082e-001 2.606469e-001 1.129300e-004 6.369474e-005 -7.307100e-001 2.617893e-001
311970000 -7.921633e-005 -4.903420e-005 -7.214580e-001 2.796419e-001 -4.645665e-005 -7.138291e-005 -7.240469e-001 2.810509e-001
312255000 -2.875509e-005 -1.081048e-004 -7.139534e-001 2.985371e-001 1.193657e-005 1.548048e-005 -7.172334e-001 2.997645e-001
312540000 -1.385916e-005 2.761737e-006 -7.066728e-001 3.166668e-001 7.544656e-005 -8.347985e-007 -7.100280e-001 3.192360e-001
312825000 -2.926701e-006 -7.095445e-005 -6.988853e-001 3.365020e-001 -8.412371e-005 -2.549574e-005 -7.013819e-001 3.374453e-001
313110000 -1.281847e-004 -6.688116e-005 -6.904391e-001 3.549629e-001 4.692809e-006 1.061465e-004 -6.931866e-001 3.557766e-001
313395000 -6.617169e-005 2.849725e-005 -6.817511e-001 3.734498e-001 -5.796358e-006 4.868822e-005 -6.844170e-001 3.745492e-001
313680000 -1.333570e-005 2.284678e-005 -6.723049e-001 3.919933e-001 -2.457464e-005 1.067898e-005 -6.753104e-001 3.934834e-001
313965000 -1.913549e-005 1.409743e-005 -6.634877e-001 4.101556e-001 -9.474423e-007 7.956300e-006 -6.654538e-001 4.117997e-001
314250000 4.906027e-005 4.611221e-005 -6.530704e-001 4.284588e-001 -7.448464e-005 -1.029887e-005 -6.556374e-001 4.303844e-001
314535000 -2.352893e-005 -3.437784e-005 -6.432443e-001 4.463327e-001 -2.010439e-005 -1.380805e-004 -6.455823e-001 4.486675e-001
314820000 -1.899620e-005 5.266485e-005 -6.322075e-001 4.649919e-001 -6.185464e-006 2.296516e-005 -6.347324e-001 4.668704e-001
315105000 -5.252223e-005 1.343694e-005 -6.212833e-001 4.830412e-001 1.296251e-005 8.252835e-006 -6.238636e-001 4.851424e-001
315390000 6.239180e-005 2.435194e-006 -6.091350e-001 5.007536e-001 -4.447067e-005 -1.484828e-004 -6.120943e-001 5.027146e-001
315675000 5.551001e-005 4.979872e-005 -5.976620e-001 5.189810e-001 5.185752e-006 -6.014556e-005 -5.997363e-001 5.209475e-001
315960000 -1.549057e-004 8.346291e-006 -5.849020e-001 5.362070e-001 -3.643234e-005 -2.169263e-005 -5.867901e-001 5.388609e-001
316245000 6.763871e-005 3.217906e-005 -5.718794e-001 5.537281e-001 1.521227e-005 -5.922044e-005 -5.744656e-001 5.565298e-001
316530000 9.155383e-005 4.161692e-005 -5.584369e-001 5.716218e-001 7.727747e-006 -1.121673e-004 -5.611675e-001 5.739422e-001
316815000 3.620037e-005 6.481601e-005 -5.441956e-001 5.890797e-001 1.862703e-005 -5.862272e-006 -5.460991e-001 5.914312e-001
317100000 1.753574e-005 8.470533e-005 -5.294213e-001 6.063442e-001 -1.308487e-005 1.363757e-004 -5.320573e-001 6.086635e-001
317385000 6.182368e-005 -3.680010e-005 -5.142733e-001 6.230668e-001 -2.716703e-005 3.431767e-005 -5.165901e-001 6.258996e-001
317670000 -3.163567e-005 -1.035053e-005 -4.990622e-001 6.398396e-001 -9.432062e-005 -6.048448e-005 -5.011858e-001 6.425956e-001
317955000 -2.450386e-005 6.263491e-005 -4.828812e-001 6.568791e-001 -7.343672e-005 -6.687200e-007 -4.844335e-001 6.595378e-001
318240000 -3.271234e-005 6.137643e-005 -4.657118e-001 6.736544e-001 5.584435e-005 -3.016125e-005 -4.673866e-001 6.759847e-001
318525000 6.832668e-005 -8.239438e-006 -4.478215e-001 6.896244e-001 1.796444e-005 -1.265019e-005 -4.500366e-001 6.925289e-001
318810000 -7.059207e-005 2.621227e-005 -4.307470e-001 7.057545e-001 3.105115e-005 -1.321572e-005 -4.322448e-001 7.084019e-001
319095000 1.532278e-004 1.421400e-006 -4.116695e-001 7.214726e-001 2.841771e-005 3.114395e-005 -4.134406e-001 7.247091e-001
319380000 -2.219913e-005 4.979306e-005 -3.924652e-001 7.371100e-001 -5.413292e-005 1.584619e-005 -3.939545e-001 7.402218e-001
319665000 -5.679323e-005 -1.114276e-005 -3.724653e-001 7.523572e-001 -1.612384e-005 8.321146e-005 -3.738751e-001 7.551622e-001
319950000 7.805428e-005 -9.678632e-005 -3.522487e-001 7.670417e-001 1.034111e-005 4.864291e-005 -3.533981e-001 7.703306e-001
320235000 1.387890e-004 4.974906e-005 -3.307933e-001 7.818156e-001 5.138572e-005 -2.968837e-005 -3.320954e-001 7.849219e-001
320520000 -7.944267e-005 -1.228715e-004 -3.081563e-001 7.960272e-001 -5.112537e-005 1.867505e-005 -3.099147e-001 7.989240e-001
320805000 1.919061e-005 -3.644185e-005 -2.861635e-001 8.092896e-001 7.353318e-005 1.291235e-004 -2.872607e-001 8.127483e-001
321090000 9.354670e-005 -1.721099e-005 -2.626113e-001 8.230760e-001 -9.780530e-005 1.231417e-004 -2.637232e-001 8.262271e-001
321375000 8.989854e-005 -7.042752e-005 -2.387172e-001 8.355760e-001 2.073648e-005 1.852258e-004 -2.391058e-001 8.392116e-001
321660000 1.548430e-005 -4.397968e-005 -2.134859e-001 8.478128e-001 3.660625e-005 -1.600321e-006 -2.145479e-001 8.507754e-001
321945000 1.099367e-004 1.268176e-004 -1.873463e-001 8.594527e-001 9.856375e-005 6.979625e-005 -1.889612e-001 8.630395e-001
322230000 -1.961762e-005 2.291844e-005 -1.613609e-001 8.703141e-001 -1.474990e-004 7.429051e-005 -1.626222e-001 8.740095e-001
322515000 4.715727e-005 1.409979e-005 -1.345965e-001 8.803399e-001 -6.719440e-005 6.579403e-005 -1.347909e-001 8.841108e-001
322800000 2.891618e-005 9.862593e-005 -1.063874e-001 8.902761e-001 2.788292e-005 -1.392731e-005 -1.071608e-001 8.935344e-001
323085000 9.282332e-005 7.245270e-006 -7.763868e-002 8.992416e-001 4.314717e-005 8.565652e-005 -7.869636e-002 9.025892e-001
323370000 4.158947e-005 -5.558030e-005 -4.874825e-002 9.067044e-001 -2.634507e-005 -1.025894e-004 -4.849968e-002 9.103899e-001
323655000 3.714262e-005 -1.448432e-004 -1.901875e-002 9.136327e-001 3.900002e-005 -2.197503e-005 -1.863063e-002 9.176275e-001
323940000 3.627141e-005 -9.575670e-006 1.228402e-002 9.191276e-001 -3.190809e-005 -2.268801e-005 1.232734e-002 9.232922e-001
324225000 8.726948e-005 3.864413e-005 4.384391e-002 9.244755e-001 -8.211611e-006 -5.109560e-005 4.339860e-002 9.288429e-001
324510000 9.759518e-005 4.705767e-005 7.600737e-002 9.284914e-001 9.681620e-005 -2.695021e-005 7.595763e-002 9.326236e-001
324795000 -8.744615e-005 4.836274e-005 1.084922e-001 9.308434e-001 -6.152852e-005 -6.186789e-005 1.087044e-001 9.350129e-001
325080000 -5.986574e-005 1.185633e-005 1.408407e-001 9.321004e-001 -9.034151e-005 4.564560e-005 1.416564e-001 9.363721e-001
325365000 3.632436e-006 2.029168e-005 1.751563e-001 9.327467e-001 5.416654e-005 4.451058e-005 1.762252e-001 9.367883e-001
325650000 3.430052e-005 -2.863070e-005 2.093536e-001 9.308991e-001 -1.136963e-004 -6.542771e-005 2.101711e-001 9.357688e-001
325935000 -6.248152e-006 6.021264e-005 2.438958e-001 9.296996e-001 6.158550e-005 7.589561e-005 2.451319e-001 9.331298e-001
326220000 -1.575445e-005 2.146153e-005 2.788445e-001 9.248604e-001 2.580636e-005 -5.402921e-005 2.798441e-001 9.288630e-001
326505000 -1.137666e-005 -1.589214e-005 3.140399e-001 9.193205e-001 5.435044e-005 -1.228349e-005 3.150416e-001 9.231236e-001
326790000 -1.297089e-006 -6.539152e-005 3.494979e-001 9.125564e-001 -1.745288e-005 4.676320e-005 3.510158e-001 9.162657e-001
327075000 -7.029681e-005 -7.932042e-005 3.849224e-001 9.031771e-001 6.568339e-005 5.219285e-005 3.870468e-001 9.072554e-001
327360000 1.051830e-005 1.113285e-004 4.209513e-001 8.935103e-001 5.157026e-005 2.614262e-005 4.225374e-001 8.973064e-001
327645000 1.534222e-005 7.715757e-005 4.562735e-001 8.813316e-001 6.008573e-005 1.456351e-005 4.583678e-001 8.853797e-001
327930000 -9.667209e-005 -4.655512e-005 4.910305e-001 8.674139e-001 -4.057752e-005 -1.622227e-005 4.936510e-001 8.707797e-001
328215000 -4.627430e-005 -1.302119e-005 5.262835e-001 8.514044e-001 -5.787329e-005 -4.759077e-006 5.289549e-001 8.555564e-001
328500000 2.703511e-006 -1.967538e-005 5.609133e-001 8.346730e-001 -8.567691e-005 3.615031e-005 5.630096e-001 8.380986e-001
328785000 -3.935396e-005 9.818587e-005 5.941744e-001 8.152849e-001 3.308890e-006 7.156391e-005 5.972032e-001 8.194667e-001
329070000 -2.990923e-005 5.188660e-006 6.277431e-001 7.948516e-001 -3.188382e-005 1.755786e-005 6.310369e-001 7.980773e-001
329355000 -7.168204e-005 -6.039966e-005 6.608036e-001 7.723884e-001 -1.602716e-005 -8.853577e-005 6.640735e-001 7.753065e-001
329640000 -5.206660e-005 5.935342e-005 6.928632e-001 7.481296e-001 -6.766821e-005 -1.715716e-004 6.953128e-001 7.511076e-001
329925000 1.329098e-004 -7.132104e-005 7.231217e-001 7.220343e-001 -5.678336e-005 -2.622723e-005 7.257685e-001 7.254264e-001
330210000 5.682198e-005 2.771241e-005 7.521054e-001 6.949182e-001 -2.351263e-005 -1.284318e-004 7.555661e-001 6.976379e-001
330495000 4.053184e-005 9.089122e-006 7.809708e-001 6.658334e-001 -8.428661e-005 8.317928e-005 7.848718e-001 6.690793e-001
330780000 6.089432e-006 4.560169e-005 8.073022e-001 6.357260e-001 -7.366255e-005 -1.049170e-005 8.115906e-001 6.382560e-001
331065000 -1.125249e-004 1.764403e-005 8.335931e-001 6.035695e-001 -7.569638e-005 -3.375533e-005 8.369765e-001 6.067383e-001
331350000 -5.955493e-005 9.658896e-005 8.575140e-001 5.705690e-001 -2.130027e-005 1.079776e-006 8.611042e-001 5.734107e-001
331635000 -1.896992e-005 -2.481251e-005 8.796084e-001 5.367572e-001 -1.541361e-004 -5.672734e-005 8.830414e-001 5.387620e-001
331920000 2.810887e-006 4.534158e-005 9.000700e-001 5.013796e-001 -2.356992e-005 1.367495e-004 9.040195e-001 5.035416e-001
332205000 -7.912122e-005 -6.371737e-005 9.192193e-001 4.649025e-001 9.464232e-005 6.928067e-006 9.235640e-001 4.664387e-001
332490000 -3.564124e-005 6.883556e-005 9.366361e-001 4.282440e-001 9.426728e-006 3.547403e-005 9.402787e-001 4.294518e-001
332775000 -7.581246e-005 7.516962e-006 9.509854e-001 3.901224e-001 3.700978e-005 -7.629189e-005 9.560447e-001 3.916508e-001
333060000 -4.218792e-005 -4.041685e-005 9.647799e-001 3.513132e-001 -2.851733e-006 -6.101917e-005 9.690735e-001 3.532112e-001
333345000 -1.346783e-006 -4.334043e-005 9.760588e-001 3.130143e-001 7.459708e-005 2.984696e-005 9.809409e-001 3.141569e-001
333630000 -1.871805e-005 1.178985e-005 9.855043e-001 2.738892e-001 5.843095e-005 3.464353e-005 9.893911e-001 2.753325e-001
333915000 4.992458e-005 -1.056342e-005 9.927239e-001 2.341918e-001 6.582627e-007 4.250637e-005 9.972751e-001 2.353015e-001
334200000 -2.959396e-005 -1.069063e-004 9.982596e-001 1.956960e-001 -2.204837e-005 1.446743e-005 1.002890e+000 1.968652e-001
334485000 -4.341274e-005 7.854812e-005 1.001856e+000 1.563999e-001 -1.139388e-005 3.042246e-005 1.006618e+000 1.569805e-001
334770000 -2.004006e-005 7.504805e-005 1.003608e+000 1.179486e-001 2.766679e-005 -1.455570e-005 1.008210e+000 1.179763e-001
335055000 -6.501968e-005 3.085717e-005 1.003538e+000 7.829124e-002 -1.525599e-005 2.687140e-005 1.008092e+000 7.872418e-002
335340000 -3.917499e-005 6.054306e-005 1.001949e+000 4.001332e-002 8.609763e-005 1.223094e-004 1.005441e+000 4.040784e-002
335625000 -1.040167e-004 3.773498e-005 9.978409e-001 2.166672e-003 -1.351784e-005 -5.414201e-006 1.002824e+000 2.517268e-003
335910000 3.580749e-005 6.737117e-005 9.929028e-001 -3.446014e-002 1.016732e-004 8.750067e-006 9.975708e-001 -3.516344e-002
336195000 -8.312256e-005 3.593312e-005 9.864725e-001 -7.102433e-002 2.435977e-005 -2.952443e-005 9.903305e-001 -7.120388e-002
336480000 5.398329e-005 -2.405882e-005 9.783841e-001 -1.070751e-001 4.839133e-005 1.084156e-005 9.826474e-001 -1.075884e-001
336765000 3.713329e-005 -3.490271e-006 9.684057e-001 -1.420353e-001 -7.545092e-005 -1.270712e-004 9.726627e-001 -1.423982e-001
337050000 -1.294667e-004 9.910199e-006 9.573624e-001 -1.763876e-001 7.318274e-005 1.744123e-005 9.613199e-001 -1.770077e-001
337335000 -4.677071e-006 8.593534e-005 9.447761e-001 -2.094516e-001 6.094300e-005 -2.258173e-005 9.491531e-001 -2.100919e-001
337620000 -3.657978e-005 -3.744183e-006 9.316481e-001 -2.408677e-001 2.787798e-005 -4.455704e-005 9.357755e-001 -2.425417e-001
337905000 -9.503847e-005 -4.891726e-005 9.171978e-001 -2.727910e-001 1.560562e-006 -1.872868e-005 9.213727e-001 -2.736281e-001
338190000 -4.716454e-005 6.276384e-005 9.019139e-001 -3.027772e-001 -4.192553e-005 5.272724e-005 9.056355e-001 -3.034235e-001
338475000 4.751804e-005 4.471684e-006 8.850377e-001 -3.318613e-001 1.217531e-005 4.995305e-005 8.891943e-001 -3.330969e-001
338760000 5.028764e-005 -4.145219e-005 8.685890e-001 -3.595243e-001 -1.656037e-005 4.919245e-006 8.721377e-001 -3.610052e-001
339045000 -7.739373e-006 2.606713e-005 8.499433e-001 -3.864129e-001 -1.467909e-004 1.727637e-005 8.538436e-001 -3.885510e-001
339330000 -1.109817e-004 3.532460e-006 8.311716e-001 -4.125301e-001 -8.291739e-005 8.402667e-006 8.354069e-001 -4.142824e-001
339615000 1.853508e-005 -2.321383e-005 8.125680e-001 -4.372251e-001 -6.762746e-005 -4.859054e-005 8.160554e-001 -4.392016e-001
339900000 -4.569962e-005 -5.262762e-006 7.923124e-001 -4.607077e-001 1.752845e-005 -1.326098e-005 7.960333e-001 -4.631216e-001
340185000 -8.469038e-005 -4.294164e-006 7.719627e-001 -4.833594e-001 1.011656e-004 -3.820872e-006 7.751129e-001 -4.857814e-001
340470000 -1.875770e-005 -2.347855e-005 7.508878e-001 -5.051718e-001 -5.618214e-005 -1.942621e-004 7.543619e-001 -5.071698e-001
340755000 1.959788e-005 -4.571172e-005 7.298938e-001 -5.255083e-001 4.796460e-005 -3.705523e-005 7.326754e-001 -5.278499e-001
341040000 1.296259e-004 -2.409959e-005 7.083712e-001 -5.454388e-001 2.520766e-005 -5.358716e-005 7.111965e-001 -5.480600e-001
341325000 2.511727e-005 5.642949e-005 6.862051e-001 -5.639195e-001 2.050282e-005 -1.450338e-004 6.890932e-001 -5.664195e-001
341610000 1.607172e-005 -3.214651e-005 6.646191e-001 -5.814395e-001 9.555064e-005 -9.541943e-005 6.674405e-001 -5.842674e-001
341895000 8.871716e-005 -3.180651e-005 6.419325e-001 -5.983620e-001 2.591051e-005 4.127643e-005 6.453320e-001 -6.006168e-001
342180000 -4.827064e-005 -5.231527e-005 6.194569e-001 -6.140296e-001 6.659620e-005 -3.411311e-005 6.223600e-001 -6.163349e-001
342465000 3.460717e-005 6.343659e-005 5.969796e-001 -6.286823e-001 -1.200371e-005 9.815444e-005 5.990978e-001 -6.312542e-001
342750000 -2.159731e-005 1.189532e-005 5.749264e-001 -6.427749e-001 -1.268273e-004 1.660993e-005 5.771478e-001 -6.463323e-001
343035000 3.596332e-005 -2.870307e-005 5.517260e-001 -6.560158e-001 -2.032168e-005 -4.440803e-005 5.541700e-001 -6.591509e-001
343320000 -7.508454e-006 -1.906328e-006 5.295414e-001 -6.684465e-001 4.030545e-005 -5.625067e-005 5.316463e-001 -6.710070e-001
343605000 3.644925e-005 9.917752e-007 5.064709e-001 -6.801536e-001 -9.518762e-005 4.038401e-005 5.089267e-001 -6.824724e-001
343890000 -1.020675e-005 1.128396e-004 4.833125e-001 -6.906165e-001 1.682074e-005 -1.638012e-004 4.860713e-001 -6.938035e-001
