!Agilent Technologies,N5230C,SG49000117,A.08.50.07
!Agilent N5230C: A.08.50.07
!Date: Monday, March 18, 2024 19:21:02
!Correction: S11(Off) 
!S21(Off) 
!S12(Off) 
!S22(Off) 
!S2P File: Measurements: S11, S21, S12, S22:
# Hz S  RI   R 50
300000000 -2.530672e-005 2.778320e-005 -6.512690e-001 -6.077165e-001 1.525660e-005 -1.590279e-005 -6.536507e-001 -6.093676e-001
300285000 -1.655629e-005 -8.530333e-005 -6.649758e-001 -5.834504e-001 5.726627e-005 -3.672262e-005 -6.671804e-001 -5.860455e-001
300570000 -5.849959e-005 3.125067e-006 -6.781822e-001 -5.600650e-001 -3.427750e-005 -1.132903e-004 -6.803338e-001 -5.618348e-001
300855000 -8.052445e-006 2.490872e-005 -6.897993e-001 -5.367209e-001 9.983747e-005 3.704814e-005 -6.928814e-001 -5.383306e-001
301140000 6.266269e-005 2.003203e-005 -7.015274e-001 -5.127243e-001 2.272714e-006 -6.196595e-005 -7.045102e-001 -5.144653e-001
301425000 5.141590e-005 -2.917201e-005 -7.125630e-001 -4.891354e-001 1.035912e-004 2.029935e-007 -7.146702e-001 -4.902101e-001
301710000 -5.495752e-005 1.310262e-004 -7.217708e-001 -4.651477e-001 1.363877e-004 -1.383119e-005 -7.244449e-001 -4.670009e-001
301995000 -8.001881e-005 4.831037e-005 -7.306327e-001 -4.418586e-001 -9.109935e-006 7.136786e-005 -7.335245e-001 -4.429077e-001
302280000 -1.397864e-006 -4.641368e-005 -7.392533e-001 -4.178633e-001 -2.157945e-005 3.076622e-005 -7.421100e-001 -4.194688e-001
302565000 -1.010551e-004 -4.871558e-005 -7.466750e-001 -3.947140e-001 8.359197e-005 7.762486e-005 -7.490983e-001 -3.959724e-001
302850000 -3.698347e-005 4.920614e-005 -7.533836e-001 -3.714775e-001 -6.417752e-005 4.380695e-005 -7.558759e-001 -3.722974e-001
303135000 -3.352525e-005 -6.291410e-005 -7.590614e-001 -3.483583e-001 9.392069e-005 3.097891e-006 -7.622805e-001 -3.495389e-001
303420000 -6.985203e-005 -1.002897e-004 -7.648204e-001 -3.248195e-001 -7.806727e-005 2.737433e-005 -7.679948e-001 -3.263602e-001
303705000 -3.177507e-005 -8.360724e-005 -7.698196e-001 -3.021693e-001 1.061213e-004 -1.062916e-004 -7.731515e-001 -3.039533e-001
303990000 6.452047e-005 -2.456009e-005 -7.745198e-001 -2.796085e-001 2.153380e-006 -5.764037e-005 -7.773761e-001 -2.799870e-001
304275000 7.725597e-005 -6.749410e-005 -7.785844e-001 -2.572456e-001 2.436167e-005 -6.957010e-005 -7.811305e-001 -2.581281e-001
304560000 -5.852334e-007 2.722021e-006 -7.813686e-001 -2.344598e-001 -7.822071e-005 5.909158e-005 -7.843388e-001 -2.350323e-001
304845000 -4.403972e-006 -3.086462e-005 -7.837229e-001 -2.119503e-001 -1.126651e-004 -2.958496e-007 -7.874081e-001 -2.128476e-001
305130000 7.989611e-005 1.047004e-004 -7.864066e-001 -1.898096e-001 -3.262454e-005 3.054963e-005 -7.892296e-001 -1.899184e-001
305415000 -7.491533e-005 8.422872e-005 -7.882065e-001 -1.675219e-001 -1.122065e-004 7.604469e-005 -7.912974e-001 -1.679405e-001
305700000 -5.631976e-005 5.435132e-005 -7.893394e-001 -1.457222e-001 6.979444e-006 3.440258e-006 -7.922012e-001 -1.464207e-001
305985000 -2.614623e-005 -2.463518e-005 -7.905174e-001 -1.239363e-001 8.694204e-006 4.437474e-005 -7.929484e-001 -1.245049e-001
306270000 8.305365e-006 -3.748506e-005 -7.902538e-001 -1.029097e-001 6.737924e-005 -2.665728e-005 -7.936360e-001 -1.034262e-001
306555000 1.540181e-006 -1.383876e-005 -7.904421e-001 -8.138093e-002 4.351965e-005 -3.455110e-006 -7.937887e-001 -8.184240e-002
306840000 7.699965e-005 -9.405555e-005 -7.900243e-001 -5.967689e-002 -6.339189e-005 -9.720074e-006 -7.925938e-001 -6.065729e-002
307125000 2.427878e-005 2.651382e-005 -7.889973e-001 -3.935543e-002 5.631721e-005 -6.721784e-005 -7.918241e-001 -3.914117e-002
307410000 2.805538e-005 -8.330726e-005 -7.872574e-001 -1.855682e-002 5.285035e-006 2.943889e-005 -7.907316e-001 -1.807584e-002
307695000 2.442766e-005 -3.503839e-005 -7.858247e-001 2.724076e-003 4.598097e-005 2.061322e-005 -7.886531e-001 2.245797e-003
307980000 2.227665e-005 -7.506484e-005 -7.830985e-001 2.336199e-002 -1.219593e-005 -5.133823e-005 -7.860941e-001 2.329419e-002
308265000 6.502929e-005 -2.255917e-005 -7.811053e-001 4.382085e-002 7.580975e-005 -2.745801e-005 -7.836237e-001 4.346464e-002
308550000 8.782492e-005 -6.115835e-005 -7.776869e-001 6.428509e-002 4.723210e-005 -2.481020e-005 -7.808583e-001 6.442501e-002
308835000 -5.537067e-005 3.663394e-005 -7.745495e-001 8.398665e-002 7.793680e-006 2.430992e-005 -7.773616e-001 8.471371e-002
309120000 6.755299e-006 5.326318e-005 -7.711546e-001 1.041496e-001 -5.622358e-005 7.487892e-006 -7.735946e-001 1.047445e-001
309405000 4.844619e-005 -2.695304e-005 -7.669316e-001 1.244909e-001 -6.570174e-005 -9.139106e-005 -7.695098e-001 1.247805e-001
309690000 5.540722e-005 -3.491863e-005 -7.622447e-001 1.441996e-001 7.526260e-005 7.237375e-006 -7.655431e-001 1.448889e-001
309975000 7.980199e-005 -1.964719e-005 -7.575369e-001 1.639815e-001 1.164009e-005 1.093690e-005 -7.606349e-001 1.641216e-001
310260000 -5.307492e-005 4.190524e-005 -7.520232e-001 1.831207e-001 3.067267e-005 1.589661e-004 -7.554451e-001 1.837972e-001
310545000 6.303101e-005 5.308479e-005 -7.470623e-001 2.023741e-001 -4.873939e-005 3.360458e-005 -7.497020e-001 2.035206e-001
310830000 -5.596149e-005 -5.434003e-005 -7.411982e-001 2.218027e-001 -1.104450e-004 -7.399012e-005 -7.439164e-001 2.230915e-001
311115000 2.793456e-005 1.852433e-006 -7.349416e-001 2.412520e-001 -1.390116e-004 8.693569e-005 -7.379479e-001 2.422204e-001
311400000 -8.802340e-006 8.636131e-005 -7.283979e-001 2.605567e-001 -5.405632e-005 1.330873e-005 -7.313817e-001 2.613393e-001
311685000 -1.060302e-004 -2.631699e-005 -7.214065e-001 2.799648e-001 4.040399e-005 3.623317e-005 -7.243865e-001 2.805128e-001
311970000 1.039053e-005 1.610010e-004 -7.146876e-001 2.980311e-001 4.384019e-005 -7.280650e-006 -7.171193e-001 2.997820e-001
312255000 5.313374e-005 -5.343848e-005 -7.070270e-001 3.174582e-001 7.350752e-005 5.422255e-005 -7.096356e-001 3.187797e-001
312540000 1.239052e-004 1.861804e-006 -6.987423e-001 3.360437e-001 -1.059205e-004 -6.598312e-006 -7.015659e-001 3.374330e-001
312825000 -8.984342e-005 -3.515470e-006 -6.905910e-001 3.547377e-001 -1.245565e-004 8.482084e-005 -6.929165e-001 3.560749e-001
313110000 1.063852e-005 -5.983896e-005 -6.814657e-001 3.728159e-001 -1.057449e-004 5.660715e-005 -6.845627e-001 3.746724e-001
313395000 -1.884969e-005 -3.875433e-005 -6.723926e-001 3.919616e-001 -6.343786e-005 1.685888e-005 -6.750368e-001 3.928114e-001
313680000 -8.390540e-005 -1.002107e-004 -6.633945e-001 4.100100e-001 5.581076e-005 -5.367725e-005 -6.656069e-001 4.118700e-001
313965000 8.276240e-005 8.998469e-005 -6.532839e-001 4.283621e-001 -1.073934e-004 -7.517093e-006 -6.557487e-001 4.300925e-001
314250000 2.687461e-006 -7.338569e-005 -6.426958e-001 4.464771e-001 -2.711870e-005 -1.903261e-005 -6.449404e-001 4.486544e-001
314535000 -1.843805e-005 -7.802503e-005 -6.319361e-001 4.646208e-001 1.782145e-006 -6.566997e-005 -6.343504e-001 4.665583e-001
314820000 2.747955e-005 -3.313556e-005 -6.206372e-001 4.828083e-001 -6.345646e-005 7.267247e-005 -6.234940e-001 4.849678e-001
315105000 7.583468e-005 5.361539e-005 -6.090526e-001 5.007820e-001 2.667009e-005 6.674989e-006 -6.115914e-001 5.022002e-001
315390000 6.814806e-005 2.089212e-005 -5.965576e-001 5.183938e-001 3.395098e-005 -3.930170e-005 -5.990516e-001 5.204540e-001
315675000 3.537115e-005 4.684492e-005 -5.843862e-001 5.362164e-001 2.985460e-005 4.751820e-005 -5.868087e-001 5.381648e-001
315960000 7.008800e-005 1.370664e-004 -5.710989e-001 5.536953e-001 1.243659e-004 -1.398704e-004 -5.735762e-001 5.555255e-001
316245000 3.096546e-005 3.266839e-006 -5.579278e-001 5.708957e-001 8.050032e-005 -1.732430e-005 -5.598342e-001 5.731520e-001
316530000 6.110982e-005 -1.830996e-005 -5.434207e-001 5.887327e-001 9.726518e-005 9.723428e-006 -5.462496e-001 5.903543e-001
316815000 -7.726977e-005 8.585956e-005 -5.292494e-001 6.053429e-001 -7.695496e-005 -1.092018e-005 -5.315361e-001 6.082701e-001
317100000 -1.066037e-005 -1.446943e-005 -5.140851e-001 6.227067e-001 4.911781e-005 -6.131888e-005 -5.161892e-001 6.249787e-001
317385000 3.677301e-007 -7.263942e-005 -4.985624e-001 6.396312e-001 8.575707e-005 5.485184e-005 -5.004122e-001 6.422533e-001
317670000 -3.897581e-005 8.827344e-005 -4.823597e-001 6.560152e-001 3.632330e-005 -4.135901e-005 -4.839185e-001 6.588952e-001
317955000 4.268597e-005 9.807646e-005 -4.656480e-001 6.722377e-001 6.410485e-005 -3.720852e-005 -4.673445e-001 6.753216e-001
318240000 -2.949334e-005 3.044637e-005 -4.484190e-001 6.889778e-001 1.600532e-005 5.549478e-005 -4.503149e-001 6.918575e-001
318525000 3.699961e-005 -1.133100e-005 -4.299295e-001 7.047552e-001 3.048182e-005 8.997486e-005 -4.318705e-001 7.081007e-001
318810000 1.012177e-004 6.701004e-005 -4.116929e-001 7.211798e-001 -2.816745e-005 3.130282e-005 -4.132383e-001 7.238852e-001
319095000 -3.049670e-005 -7.547961e-005 -3.924774e-001 7.359547e-001 4.311593e-005 2.559742e-005 -3.937219e-001 7.389042e-001
319380000 -1.700531e-005 1.029514e-004 -3.721313e-001 7.513338e-001 -1.594955e-006 7.376601e-007 -3.739418e-001 7.541518e-001
319665000 -3.172037e-005 -5.449508e-006 -3.518199e-001 7.661412e-001 -6.425262e-006 -3.510799e-006 -3.530367e-001 7.690404e-001
319950000 6.054042e-005 -5.544338e-005 -3.301936e-001 7.806934e-001 -4.045725e-005 -4.347978e-005 -3.312828e-001 7.837449e-001
320235000 4.052287e-005 -1.298529e-004 -3.084921e-001 7.946439e-001 4.781429e-005 -2.809425e-006 -3.100449e-001 7.980193e-001
320520000 7.508117e-006 -5.889729e-006 -2.862658e-001 8.081868e-001 1.182532e-005 9.987976e-005 -2.871332e-001 8.118171e-001
320805000 -1.986981e-005 1.116480e-004 -2.621080e-001 8.210061e-001 1.523333e-004 -8.145456e-005 -2.639182e-001 8.251861e-001
321090000 3.803452e-005 1.022671e-004 -2.384255e-001 8.344825e-001 2.485226e-005 -4.305182e-005 -2.397525e-001 8.380833e-001
321375000 -6.791585e-005 3.066969e-005 -2.137519e-001 8.461199e-001 6.908846e-005 -3.280458e-005 -2.143920e-001 8.501657e-001
321660000 1.866541e-005 -2.518797e-005 -1.881886e-001 8.582047e-001 9.672455e-005 -6.706775e-005 -1.888878e-001 8.620068e-001
321945000 4.035590e-005 -9.834211e-006 -1.617570e-001 8.684884e-001 1.869941e-006 4.541590e-005 -1.625632e-001 8.724142e-001
322230000 -7.047012e-005 -1.908722e-004 -1.344747e-001 8.791227e-001 -2.192763e-005 -1.383181e-005 -1.353697e-001 8.832255e-001
322515000 -5.613108e-005 4.466513e-005 -1.068952e-001 8.890175e-001 4.405339e-005 -8.470071e-005 -1.072876e-001 8.925239e-001
322800000 1.673355e-005 -1.031041e-005 -7.823166e-002 8.971980e-001 2.198821e-005 8.997769e-005 -7.833260e-002 9.013814e-001
323085000 -9.608093e-005 1.746018e-005 -4.890498e-002 9.051847e-001 7.594511e-005 -2.136052e-004 -4.947910e-002 9.087062e-001
323370000 5.119985e-006 4.258261e-005 -1.902930e-002 9.122481e-001 9.513447e-005 2.806058e-005 -1.897244e-002 9.160538e-001
323655000 -8.068545e-005 -3.265422e-005 1.113097e-002 9.178313e-001 9.433371e-005 -8.838600e-005 1.145161e-002 9.221149e-001
323940000 -1.313064e-004 4.939599e-005 4.220340e-002 9.233751e-001 -3.060691e-005 3.442721e-005 4.321778e-002 9.268495e-001
324225000 -4.171448e-005 2.540197e-005 7.505552e-002 9.269805e-001 2.101703e-005 -1.965543e-005 7.495463e-002 9.309143e-001
324510000 7.575057e-005 7.249334e-007 1.075229e-001 9.294803e-001 8.802949e-005 -1.563343e-006 1.081652e-001 9.333802e-001
324795000 3.036845e-005 1.047463e-004 1.406090e-001 9.313702e-001 -4.416115e-005 -4.868997e-005 1.411826e-001 9.351043e-001
325080000 -4.635430e-005 -6.086391e-005 1.742912e-001 9.314142e-001 -3.054246e-006 -9.837523e-006 1.747569e-001 9.361904e-001
325365000 -8.574794e-005 -6.072878e-005 2.084842e-001 9.308913e-001 3.737287e-005 -1.586721e-004 2.090538e-001 9.344791e-001
325650000 -2.080031e-005 5.313517e-005 2.434604e-001 9.286784e-001 4.341719e-005 -4.960562e-005 2.442819e-001 9.322477e-001
325935000 6.704598e-005 -1.903239e-005 2.775438e-001 9.244811e-001 -6.378919e-005 6.915575e-005 2.787116e-001 9.284246e-001
326220000 -1.203140e-004 -5.825178e-005 3.127949e-001 9.189247e-001 8.444493e-005 -5.337829e-005 3.139279e-001 9.220084e-001
326505000 4.770185e-005 2.002681e-005 3.482207e-001 9.114867e-001 -6.775987e-006 -6.973402e-005 3.497939e-001 9.150905e-001
326790000 -1.502393e-005 -4.544967e-005 3.832298e-001 9.030438e-001 2.247243e-005 -4.730731e-005 3.854353e-001 9.067150e-001
327075000 1.570444e-005 -4.737218e-005 4.190285e-001 8.928106e-001 -2.511046e-005 -1.262237e-004 4.205094e-001 8.966683e-001
327360000 6.873452e-005 -8.905245e-006 4.546292e-001 8.806273e-001 -7.045395e-005 -1.829926e-005 4.566912e-001 8.841221e-001
327645000 7.207191e-005 -1.191197e-005 4.899603e-001 8.672051e-001 -2.819371e-005 -1.107146e-004 4.917480e-001 8.706586e-001
327930000 -2.226066e-005 1.044022e-004 5.249754e-001 8.514785e-001 5.723709e-005 5.359745e-005 5.269231e-001 8.557400e-001
328215000 -2.467087e-005 5.112818e-005 5.588778e-001 8.345558e-001 9.712350e-005 5.637354e-005 5.615026e-001 8.380567e-001
328500000 2.739341e-006 2.948860e-005 5.935373e-001 8.151127e-001 4.677669e-005 7.110584e-005 5.964784e-001 8.191949e-001
328785000 1.063185e-005 -6.215853e-005 6.263849e-001 7.943869e-001 -6.125717e-005 1.386854e-006 6.287292e-001 7.982660e-001
329070000 1.286870e-005 3.870204e-005 6.592390e-001 7.724572e-001 -3.528381e-005 5.325099e-005 6.622503e-001 7.757089e-001
329355000 2.601692e-005 1.080993e-005 6.907378e-001 7.480554e-001 5.111806e-005 6.084908e-005 6.945165e-001 7.517554e-001
329640000 4.958827e-005 -1.386488e-005 7.211832e-001 7.228095e-001 -8.917924e-005 -2.965450e-006 7.251557e-001 7.261149e-001
329925000 -6.574480e-005 -1.652316e-005 7.515181e-001 6.951278e-001 -1.066511e-005 -2.958674e-005 7.547724e-001 6.983863e-001
330210000 -4.270883e-005 -3.817162e-005 7.790415e-001 6.669802e-001 6.566079e-005 7.776014e-006 7.828568e-001 6.695767e-001
330495000 -2.088229e-005 -6.930905e-005 8.068913e-001 6.363575e-001 7.247979e-005 -4.350837e-005 8.109176e-001 6.390997e-001
330780000 -1.690494e-005 -1.249326e-004 8.319862e-001 6.043732e-001 4.646041e-005 -3.226717e-005 8.358393e-001 6.073523e-001
331065000 7.106813e-006 -4.768767e-006 8.566548e-001 5.711153e-001 -1.833150e-005 -1.274894e-004 8.599104e-001 5.743174e-001
331350000 8.413573e-005 -1.573958e-005 8.791202e-001 5.372835e-001 -7.788133e-005 -4.221311e-006 8.824148e-001 5.392789e-001
331635000 5.599107e-005 4.302021e-006 8.983386e-001 5.027433e-001 -1.704740e-006 -2.775924e-005 9.030505e-001 5.045757e-001
331920000 -2.089897e-005 1.168350e-004 9.188840e-001 4.663306e-001 -5.460840e-005 -8.066161e-005 9.230483e-001 4.680981e-001
332205000 -3.579588e-005 -1.591156e-005 9.357314e-001 4.292270e-001 -1.807626e-005 -4.230266e-005 9.398090e-001 4.309193e-001
332490000 -6.904269e-005 5.333891e-005 9.518390e-001 3.912809e-001 -5.109993e-005 -1.732070e-005 9.556255e-001 3.929122e-001
332775000 -9.069435e-005 2.734414e-005 9.645092e-001 3.528798e-001 -7.111621e-005 6.682068e-005 9.684762e-001 3.546774e-001
333060000 -1.210278e-004 -6.513734e-005 9.754812e-001 3.144724e-001 1.125536e-004 8.830555e-005 9.807616e-001 3.157387e-001
333345000 -4.612056e-005 -1.665868e-005 9.855970e-001 2.754626e-001 7.560025e-005 1.072782e-004 9.896141e-001 2.756072e-001
333630000 -7.626396e-005 -7.294692e-006 9.935375e-001 2.354640e-001 -5.429670e-005 1.059567e-004 9.974985e-001 2.367374e-001
333915000 -3.502690e-005 1.506914e-004 9.988475e-001 1.953704e-001 -3.305172e-005 5.823507e-005 1.002566e+000 1.968585e-001
334200000 -5.747805e-005 1.443146e-005 1.002215e+000 1.565465e-001 -6.261613e-005 2.853126e-005 1.006329e+000 1.577584e-001
334485000 2.178962e-005 6.274930e-005 1.003770e+000 1.178707e-001 -7.032669e-005 -3.243358e-005 1.008791e+000 1.183702e-001
334770000 5.787411e-005 3.756204e-006 1.004629e+000 7.865693e-002 -1.739493e-005 -8.257769e-005 1.008054e+000 7.893321e-002
335055000 9.939191e-005 3.387670e-006 1.002427e+000 4.039736e-002 3.470756e-005 -7.107948e-005 1.007233e+000 4.010638e-002
335340000 -5.772883e-005 6.321786e-005 9.989286e-001 2.376255e-003 4.110228e-005 -4.380041e-005 1.003006e+000 2.641354e-003
335625000 -1.384302e-005 4.098058e-005 9.934593e-001 -3.473268e-002 1.303425e-004 7.849878e-005 9.986489e-001 -3.494949e-002
335910000 -1.679564e-004 1.094945e-004 9.875306e-001 -7.178192e-002 8.157799e-005 4.461489e-005 9.913422e-001 -7.198554e-002
336195000 -5.224721e-005 5.006636e-005 9.787568e-001 -1.070445e-001 2.322083e-005 4.850310e-005 9.829257e-001 -1.079299e-001
336480000 1.122032e-004 6.709172e-005 9.694638e-001 -1.425104e-001 -1.784868e-005 2.575999e-006 9.732779e-001 -1.427024e-001
336765000 1.883849e-005 1.406623e-004 9.586434e-001 -1.765760e-001 5.769330e-005 5.331163e-006 9.620742e-001 -1.768070e-001
337050000 -1.491915e-005 3.580422e-005 9.461529e-001 -2.098298e-001 -5.101734e-005 9.173798e-005 9.507168e-001 -2.106905e-001
337335000 -5.642015e-005 -6.913290e-005 9.326823e-001 -2.423767e-001 5.590272e-005 -2.056573e-005 9.368337e-001 -2.432007e-001
337620000 -5.488238e-007 4.772243e-005 9.181253e-001 -2.734221e-001 9.559274e-006 5.844056e-005 9.217362e-001 -2.745057e-001
337905000 1.557366e-005 -6.102504e-005 9.026501e-001 -3.030059e-001 -2.058209e-005 9.289076e-005 9.065977e-001 -3.051056e-001
338190000 1.208817e-006 -1.252005e-004 8.857117e-001 -3.324433e-001 1.094248e-004 5.065787e-005 8.894627e-001 -3.341789e-001
338475000 -2.425600e-005 -5.536547e-006 8.687041e-001 -3.603303e-001 7.627074e-005 -5.295302e-006 8.725671e-001 -3.618752e-001
338760000 -5.492216e-005 -2.355788e-007 8.508337e-001 -3.878195e-001 -3.504167e-005 2.189696e-005 8.542652e-001 -3.894072e-001
339045000 1.816910e-005 2.938370e-005 8.320007e-001 -4.131904e-001 -7.515895e-005 -4.589173e-005 8.351613e-001 -4.156655e-001
339330000 2.106190e-005 2.801681e-005 8.125003e-001 -4.386925e-001 6.196790e-005 2.996093e-005 8.157330e-001 -4.403408e-001
339615000 5.042211e-005 -4.344182e-005 7.925308e-001 -4.625193e-001 -2.388651e-005 -6.691259e-006 7.954594e-001 -4.643197e-001
339900000 2.951549e-005 -5.255812e-005 7.718223e-001 -4.849958e-001 8.199239e-005 6.354052e-005 7.757139e-001 -4.866661e-001
340185000 -2.635860e-005 5.935993e-005 7.506981e-001 -5.063847e-001 -1.544406e-005 3.903266e-005 7.545352e-001 -5.084834e-001
340470000 2.562567e-005 -7.352640e-005 7.294964e-001 -5.272049e-001 -4.938914e-005 6.140849e-005 7.328068e-001 -5.298080e-001
340755000 5.135534e-005 -3.722038e-005 7.082250e-001 -5.472957e-001 -1.545566e-005 -3.555149e-005 7.118874e-001 -5.494756e-001
341040000 -1.905809e-005 6.241020e-005 6.860339e-001 -5.654896e-001 -2.368871e-005 -1.349899e-005 6.890747e-001 -5.680103e-001
341325000 -9.583936e-006 3.957452e-005 6.638961e-001 -5.832685e-001 -3.149516e-005 -4.712809e-006 6.670074e-001 -5.859082e-001
341610000 -3.154657e-005 2.592997e-005 6.411247e-001 -6.001624e-001 6.902622e-005 -5.340434e-005 6.444328e-001 -6.025860e-001
341895000 -5.914881e-006 3.385162e-005 6.192924e-001 -6.155899e-001 -1.323754e-005 -1.978336e-005 6.215756e-001 -6.180224e-001
342180000 -1.344139e-005 2.538737e-005 5.962509e-001 -6.300969e-001 8.921103e-006 -5.059579e-005 5.989454e-001 -6.328862e-001
342465000 -1.128192e-005 -4.755458e-005 5.738372e-001 -6.451381e-001 9.302265e-005 -8.471209e-005 5.761828e-001 -6.471847e-001
342750000 1.098412e-005 -1.521264e-004 5.509462e-001 -6.575381e-001 2.601542e-005 -5.474052e-005 5.531532e-001 -6.604906e-001
343035000 3.072645e-005 4.584362e-005 5.280220e-001 -6.697896e-001 4.984544e-005 -8.585954e-005 5.298746e-001 -6.727003e-001
343320000 -2.806767e-005 1.286414e-004 5.049608e-001 -6.814583e-001 1.213773e-004 -8.743736e-005 5.074107e-001 -6.847633e-001
343605000 -2.676666e-005 1.014110e-004 4.823535e-001 -6.922380e-001 1.636251e-005 2.861122e-005 4.848504e-001 -6.954334e-001
343890000 -2.658292e-005 1.585324e-005 4.597365e-001 -7.022544e-001 7.861156e-005 -4.120118e-005 4.619596e-001 -7.053555e-001
