!Agilent Technologies,N5230C,SG49000117,A.08.50.07
!Agilent N5230C: A.08.50.07
!Date: Sunday, March 17, 2024 02:30:46
!Correction: S11(Off) 
!S21(Off) 
!S12(Off) 
!S22(Off) 
!S2P File: Measurements: S11, S21, S12, S22:
# Hz S  RI   R 50
300000000 4.896895e-005 -7.069353e-005 -6.889828e-001 -5.427043e-001 3.631184e-005 5.766402e-005 -6.918367e-001 -5.443789e-001
300285000 -2.583292e-005 -2.731121e-005 -7.007175e-001 -5.189626e-001 3.475408e-005 6.071918e-005 -7.034873e-001 -5.207658e-001
300570000 -9.718048e-005 9.377050e-005 -7.115206e-001 -4.947402e-001 -5.676107e-005 6.352765e-005 -7.136203e-001 -4.965716e-001
300855000 -7.394091e-006 8.658734e-007 -7.216073e-001 -4.708158e-001 -6.348723e-005 1.491846e-005 -7.241198e-001 -4.727657e-001
301140000 -1.613735e-005 -5.138221e-005 -7.307125e-001 -4.473467e-001 -1.161777e-004 9.519736e-005 -7.336668e-001 -4.489385e-001
301425000 7.544184e-005 -9.424080e-006 -7.390559e-001 -4.227815e-001 -1.523971e-004 -9.538507e-005 -7.419697e-001 -4.252400e-001
301710000 2.390771e-005 7.353190e-005 -7.468170e-001 -4.002144e-001 8.554184e-005 3.499349e-005 -7.498014e-001 -4.009743e-001
301995000 -2.639112e-005 -3.998468e-005 -7.535744e-001 -3.758024e-001 -3.866979e-005 2.730113e-005 -7.561467e-001 -3.778639e-001
302280000 1.006102e-004 5.356505e-005 -7.599102e-001 -3.521652e-001 -6.001980e-005 -8.404876e-005 -7.629512e-001 -3.538793e-001
302565000 -9.137751e-005 8.908377e-005 -7.658944e-001 -3.295031e-001 -8.939489e-005 8.786424e-005 -7.684479e-001 -3.305379e-001
302850000 6.885597e-005 2.542117e-005 -7.705297e-001 -3.059212e-001 3.756678e-005 -3.721888e-005 -7.737296e-001 -3.073919e-001
303135000 1.025569e-005 7.879209e-005 -7.751949e-001 -2.833624e-001 -3.740528e-005 5.638086e-005 -7.784092e-001 -2.841757e-001
303420000 2.474156e-005 -1.950163e-005 -7.793638e-001 -2.603815e-001 -2.619832e-005 -6.060457e-005 -7.822356e-001 -2.613565e-001
303705000 -4.610864e-005 -2.727598e-005 -7.824288e-001 -2.376883e-001 -2.666146e-005 1.169123e-004 -7.855865e-001 -2.379954e-001
303990000 1.833580e-005 1.377542e-004 -7.847216e-001 -2.149574e-001 9.334916e-005 -8.150790e-005 -7.880893e-001 -2.153310e-001
304275000 -6.380198e-005 5.131607e-005 -7.872139e-001 -1.926494e-001 5.521026e-005 9.173562e-005 -7.900272e-001 -1.930486e-001
304560000 -3.734581e-005 8.095451e-006 -7.892248e-001 -1.703706e-001 -1.253155e-004 -2.905625e-005 -7.917693e-001 -1.713177e-001
304845000 9.353002e-007 3.550447e-005 -7.902792e-001 -1.481052e-001 5.396729e-005 9.522034e-005 -7.929517e-001 -1.488517e-001
305130000 -1.048592e-004 -1.318407e-005 -7.911649e-001 -1.264063e-001 -1.355681e-004 5.918507e-005 -7.940248e-001 -1.266915e-001
305415000 -5.087274e-005 -2.583117e-006 -7.913424e-001 -1.046267e-001 -8.586407e-005 8.589304e-005 -7.944222e-001 -1.053068e-001
305700000 1.014898e-004 9.360571e-005 -7.910253e-001 -8.293859e-002 -1.538386e-004 8.219257e-005 -7.941540e-001 -8.329921e-002
305985000 1.030912e-004 4.093687e-005 -7.903469e-001 -6.193335e-002 7.174099e-006 -6.123012e-005 -7.938762e-001 -6.221902e-002
306270000 -5.446262e-005 3.138026e-005 -7.892352e-001 -4.123135e-002 -1.716918e-004 -1.107422e-005 -7.924922e-001 -4.099141e-002
306555000 -5.851990e-005 -2.586718e-005 -7.882073e-001 -1.902961e-002 4.672120e-005 -3.260682e-005 -7.905986e-001 -1.965744e-002
306840000 -8.722343e-005 -8.336784e-005 -7.859716e-001 1.691250e-003 -5.558239e-005 6.593042e-005 -7.887843e-001 1.417432e-003
307125000 5.198150e-005 -1.653187e-005 -7.838520e-001 2.176093e-002 -8.201120e-005 1.169622e-005 -7.867285e-001 2.250406e-002
307410000 3.625518e-005 -6.062751e-005 -7.809594e-001 4.260355e-002 -8.392074e-007 4.050763e-005 -7.837153e-001 4.296564e-002
307695000 5.154663e-005 -7.129974e-006 -7.782282e-001 6.290950e-002 5.593811e-005 -5.165499e-005 -7.807196e-001 6.355848e-002
307980000 8.435175e-005 3.591891e-005 -7.749631e-001 8.337720e-002 -1.786040e-006 -7.983435e-005 -7.771360e-001 8.388149e-002
308265000 5.236401e-005 -3.218627e-005 -7.709827e-001 1.036666e-001 -8.454375e-005 -3.118493e-005 -7.740462e-001 1.043595e-001
308550000 2.625602e-005 2.520849e-005 -7.668663e-001 1.232898e-001 -2.941898e-005 -1.395006e-005 -7.694360e-001 1.239064e-001
308835000 1.247975e-004 1.138967e-004 -7.616674e-001 1.436852e-001 5.284248e-005 1.094526e-005 -7.649927e-001 1.444417e-001
309120000 -4.925269e-005 3.998672e-005 -7.566977e-001 1.635186e-001 7.931169e-005 -8.402390e-005 -7.599618e-001 1.636883e-001
309405000 4.961804e-005 -4.826046e-005 -7.521957e-001 1.835072e-001 -1.421288e-005 1.041234e-005 -7.547939e-001 1.833488e-001
309690000 2.723596e-006 3.188268e-005 -7.461634e-001 2.021130e-001 1.076575e-004 3.931896e-005 -7.491702e-001 2.034373e-001
309975000 -6.486340e-005 -7.107003e-005 -7.404940e-001 2.216898e-001 -7.289420e-006 -7.337143e-005 -7.429566e-001 2.231923e-001
310260000 2.869298e-005 -1.901634e-005 -7.338895e-001 2.409931e-001 6.295987e-006 2.308335e-005 -7.366438e-001 2.417398e-001
310545000 3.898212e-006 -1.031809e-006 -7.272770e-001 2.598582e-001 1.127008e-005 -5.090829e-005 -7.300518e-001 2.611259e-001
310830000 -1.151230e-004 5.931234e-005 -7.199385e-001 2.792984e-001 -1.136770e-004 -2.866080e-005 -7.231330e-001 2.800732e-001
311115000 -9.449440e-005 4.085751e-005 -7.130494e-001 2.979661e-001 -4.641702e-005 -3.272179e-005 -7.161004e-001 2.989451e-001
311400000 -1.333873e-004 6.231184e-005 -7.047902e-001 3.170824e-001 3.784286e-005 -2.157840e-005 -7.078475e-001 3.183113e-001
311685000 -2.379483e-007 -5.637151e-005 -6.968320e-001 3.353196e-001 4.863083e-005 -1.904190e-004 -6.997174e-001 3.365698e-001
311970000 1.478002e-005 6.246468e-006 -6.884435e-001 3.537977e-001 4.619714e-006 -5.233221e-005 -6.910806e-001 3.558215e-001
312255000 3.352852e-005 -3.893804e-005 -6.797500e-001 3.727316e-001 8.859385e-005 -1.105137e-004 -6.822400e-001 3.738288e-001
312540000 1.349085e-005 -1.529056e-004 -6.697282e-001 3.909282e-001 3.033280e-005 -2.554470e-005 -6.728630e-001 3.927704e-001
312825000 5.969269e-005 -5.515470e-005 -6.606186e-001 4.093517e-001 -4.138187e-006 -3.538743e-006 -6.632861e-001 4.108060e-001
313110000 1.200798e-004 -4.927236e-005 -6.510204e-001 4.272577e-001 1.341214e-005 -1.621978e-005 -6.530854e-001 4.291905e-001
313395000 -4.407800e-005 -1.410386e-005 -6.403459e-001 4.453620e-001 3.122688e-005 1.402250e-005 -6.426405e-001 4.470003e-001
313680000 7.703502e-005 -1.714489e-005 -6.295777e-001 4.638613e-001 8.477309e-005 -1.710377e-005 -6.320471e-001 4.649385e-001
313965000 1.160759e-004 6.662280e-005 -6.178671e-001 4.810989e-001 -5.836338e-005 3.972743e-005 -6.204491e-001 4.830564e-001
314250000 -1.316015e-005 1.308276e-006 -6.060211e-001 4.992407e-001 4.497967e-005 4.557228e-005 -6.085642e-001 5.007512e-001
314535000 -3.023937e-005 -6.735713e-005 -5.940503e-001 5.162979e-001 -8.791030e-005 1.014587e-004 -5.965061e-001 5.187696e-001
314820000 -6.506747e-005 -6.859601e-006 -5.812932e-001 5.340460e-001 -9.763403e-005 -3.352501e-005 -5.835752e-001 5.361502e-001
315105000 -9.593320e-005 -1.074518e-005 -5.685299e-001 5.515093e-001 5.891286e-005 -1.360762e-004 -5.707372e-001 5.542013e-001
315390000 -5.317027e-006 -2.041486e-006 -5.547265e-001 5.691577e-001 3.897899e-006 -1.184281e-004 -5.570954e-001 5.711989e-001
315675000 -7.400670e-005 -6.336986e-005 -5.405102e-001 5.862234e-001 4.511506e-005 -3.660348e-005 -5.426181e-001 5.885123e-001
315960000 -1.935062e-005 4.179310e-005 -5.257816e-001 6.028775e-001 -1.813121e-005 -2.301872e-005 -5.277070e-001 6.051654e-001
316245000 -1.729850e-005 6.475083e-006 -5.111476e-001 6.199655e-001 1.792465e-005 6.313574e-006 -5.128249e-001 6.222675e-001
316530000 5.170070e-005 -6.246460e-005 -4.950956e-001 6.360487e-001 5.063660e-006 -5.875767e-005 -4.971645e-001 6.388293e-001
316815000 1.508339e-005 7.925971e-006 -4.792116e-001 6.527228e-001 1.897826e-005 1.432139e-006 -4.812955e-001 6.554491e-001
317100000 5.076763e-005 -8.958976e-005 -4.625017e-001 6.689698e-001 7.385785e-005 -7.135181e-005 -4.647648e-001 6.721742e-001
317385000 -3.867167e-005 3.082240e-005 -4.453762e-001 6.850358e-001 -7.806812e-005 -6.485390e-006 -4.471150e-001 6.881449e-001
317670000 4.603129e-005 -6.405653e-006 -4.273647e-001 7.007701e-001 3.573501e-005 -9.594278e-005 -4.292367e-001 7.037860e-001
317955000 -3.978218e-005 1.385308e-004 -4.087659e-001 7.166132e-001 -1.532363e-005 -9.975579e-005 -4.099218e-001 7.194664e-001
318240000 1.165032e-005 4.809139e-005 -3.901524e-001 7.316627e-001 -2.715011e-005 -8.308350e-005 -3.912537e-001 7.347777e-001
318525000 -2.402665e-005 3.402020e-005 -3.693288e-001 7.467088e-001 -2.294507e-005 -1.082196e-004 -3.712541e-001 7.493278e-001
318810000 -1.681259e-004 8.978311e-005 -3.492608e-001 7.616700e-001 6.812208e-008 4.903446e-005 -3.509920e-001 7.645035e-001
319095000 -3.256294e-005 4.204925e-005 -3.282443e-001 7.752599e-001 -1.460813e-004 -7.425353e-005 -3.293868e-001 7.790768e-001
319380000 -9.533987e-006 -2.574093e-005 -3.067362e-001 7.894209e-001 -7.257114e-005 -4.669989e-005 -3.080728e-001 7.924211e-001
319665000 -2.372882e-005 -4.279193e-005 -2.843125e-001 8.030839e-001 7.765983e-005 -1.151820e-005 -2.853594e-001 8.062170e-001
319950000 -6.220333e-005 -1.544311e-004 -2.606221e-001 8.162215e-001 -4.198889e-005 -1.119547e-004 -2.618414e-001 8.193886e-001
320235000 -5.076511e-005 -1.886534e-005 -2.371611e-001 8.285919e-001 -3.086928e-005 -3.076457e-005 -2.374552e-001 8.323327e-001
320520000 -4.639553e-005 -5.501599e-005 -2.120186e-001 8.406486e-001 1.146548e-004 -8.298622e-005 -2.133238e-001 8.440031e-001
320805000 1.018344e-004 -8.162129e-005 -1.872504e-001 8.520944e-001 7.068018e-005 -2.913342e-005 -1.874472e-001 8.556567e-001
321090000 -5.055525e-005 -1.362325e-005 -1.608740e-001 8.631321e-001 1.140466e-005 -6.069097e-005 -1.616327e-001 8.657556e-001
321375000 7.243297e-005 2.293267e-005 -1.336349e-001 8.724839e-001 -9.552045e-005 5.878557e-005 -1.345005e-001 8.762836e-001
321660000 -8.969706e-006 1.142597e-004 -1.064034e-001 8.820375e-001 5.057364e-005 -9.745017e-005 -1.066993e-001 8.858121e-001
321945000 -4.570740e-005 -3.427564e-005 -7.835704e-002 8.914342e-001 2.253633e-005 -7.092083e-005 -7.863620e-002 8.946055e-001
322230000 1.451645e-004 -5.992080e-005 -4.912984e-002 8.980758e-001 1.299952e-004 -3.426161e-005 -4.938940e-002 9.025054e-001
322515000 1.102350e-005 4.366710e-005 -1.919441e-002 9.056256e-001 2.039452e-005 6.407627e-005 -1.970366e-002 9.097856e-001
322800000 -3.874636e-005 2.566984e-005 1.082860e-002 9.111949e-001 9.978267e-006 5.828552e-005 1.056658e-002 9.156173e-001
323085000 1.540612e-005 -5.672698e-005 4.147512e-002 9.160543e-001 -1.160415e-006 -1.393415e-005 4.178099e-002 9.199830e-001
323370000 -4.633183e-005 -2.762668e-005 7.300253e-002 9.202616e-001 1.108264e-005 6.379224e-005 7.376905e-002 9.242624e-001
323655000 -4.473177e-006 7.168698e-005 1.050468e-001 9.233196e-001 3.993984e-005 -7.580104e-006 1.060001e-001 9.268553e-001
323940000 -8.502412e-006 -1.665653e-005 1.380851e-001 9.252120e-001 -5.998697e-005 8.233794e-006 1.382762e-001 9.288576e-001
324225000 -4.135684e-005 3.317152e-006 1.711091e-001 9.253637e-001 3.155297e-006 1.265040e-004 1.716239e-001 9.291298e-001
324510000 -9.579405e-005 9.259308e-006 2.048101e-001 9.245100e-001 -6.893221e-006 1.918678e-004 2.057171e-001 9.280912e-001
324795000 -4.301119e-005 -3.841186e-005 2.390723e-001 9.218100e-001 -9.640500e-005 4.285431e-005 2.401535e-001 9.261751e-001
325080000 -3.465885e-005 1.611468e-005 2.738524e-001 9.181824e-001 7.311643e-005 8.983484e-005 2.750460e-001 9.225421e-001
325365000 -2.418543e-005 -6.536390e-005 3.090081e-001 9.130864e-001 -7.383381e-005 -6.131375e-005 3.097873e-001 9.171606e-001
325650000 -7.259605e-005 6.329134e-006 3.432912e-001 9.059035e-001 4.393932e-005 -3.375880e-005 3.454133e-001 9.098521e-001
325935000 -5.115272e-006 -1.000858e-004 3.787929e-001 8.977587e-001 -2.188844e-005 -4.276089e-005 3.800584e-001 9.013886e-001
326220000 7.222110e-005 -9.174721e-005 4.143586e-001 8.879379e-001 -7.187593e-005 -1.021741e-004 4.157676e-001 8.916102e-001
326505000 -3.167163e-006 1.210586e-004 4.491684e-001 8.758923e-001 -3.824525e-005 -1.238973e-006 4.514577e-001 8.801473e-001
326790000 3.210285e-005 3.507423e-005 4.843144e-001 8.631547e-001 9.710888e-005 4.720655e-005 4.861610e-001 8.668969e-001
327075000 -6.276568e-006 -1.901057e-005 5.191197e-001 8.481558e-001 9.087219e-005 -4.850787e-005 5.207100e-001 8.516983e-001
327360000 2.267265e-005 3.751387e-005 5.532750e-001 8.310156e-001 -1.768273e-005 1.254653e-004 5.553386e-001 8.347257e-001
327645000 -2.184697e-005 3.505603e-005 5.872296e-001 8.122934e-001 2.589116e-005 3.956608e-005 5.901539e-001 8.163230e-001
327930000 2.420361e-005 2.585742e-005 6.201770e-001 7.918468e-001 -2.330661e-006 4.288534e-005 6.233750e-001 7.950807e-001
328215000 1.538688e-005 -8.588031e-005 6.530049e-001 7.704746e-001 -6.447638e-006 -1.282235e-005 6.558870e-001 7.741072e-001
328500000 4.743475e-005 5.147150e-005 6.846139e-001 7.468222e-001 -9.724680e-005 1.908178e-005 6.879628e-001 7.503492e-001
328785000 -2.169909e-006 9.558336e-005 7.162378e-001 7.212194e-001 2.410789e-005 -3.240266e-005 7.185476e-001 7.244972e-001
329070000 -2.020921e-005 1.445441e-004 7.453735e-001 6.943424e-001 5.068637e-005 -1.060146e-004 7.486861e-001 6.977019e-001
329355000 -1.675811e-006 -4.032430e-006 7.737068e-001 6.659034e-001 1.585874e-004 1.933195e-005 7.772926e-001 6.690958e-001
329640000 -1.141762e-004 -7.792495e-005 8.013158e-001 6.357531e-001 7.722458e-005 -9.748308e-005 8.045856e-001 6.392320e-001
329925000 -4.350760e-005 4.028365e-005 8.273170e-001 6.047559e-001 8.771453e-005 -4.331809e-005 8.302789e-001 6.066853e-001
330210000 3.048392e-005 -3.859265e-006 8.507913e-001 5.722458e-001 8.137022e-006 -5.165915e-005 8.547801e-001 5.743380e-001
330495000 -3.693171e-005 6.643387e-005 8.740221e-001 5.382370e-001 5.919466e-005 -1.165078e-004 8.775920e-001 5.409193e-001
330780000 -1.366456e-004 -2.394940e-005 8.951969e-001 5.039822e-001 7.423653e-005 4.656825e-005 8.993140e-001 5.050398e-001
331065000 -2.440925e-006 -1.580391e-005 9.139022e-001 4.667788e-001 5.445935e-005 -2.568500e-006 9.185235e-001 4.687294e-001
331350000 -1.288980e-005 1.599130e-006 9.312631e-001 4.300893e-001 -2.151183e-005 1.883501e-005 9.356697e-001 4.322079e-001
331635000 -4.929669e-005 8.034947e-005 9.475462e-001 3.923720e-001 -6.951358e-005 1.111982e-005 9.520835e-001 3.946608e-001
331920000 7.388760e-005 -3.259175e-005 9.609929e-001 3.541585e-001 -4.436427e-006 8.044207e-005 9.654140e-001 3.560791e-001
332205000 -1.211001e-005 7.486526e-005 9.732886e-001 3.152535e-001 -3.997120e-005 4.379216e-005 9.769094e-001 3.178147e-001
332490000 9.523876e-005 -2.846517e-005 9.828345e-001 2.767996e-001 -7.426212e-005 7.469309e-006 9.871061e-001 2.777750e-001
332775000 -4.499553e-005 7.025816e-005 9.908873e-001 2.368935e-001 -4.982167e-005 6.955269e-005 9.944934e-001 2.386547e-001
333060000 -6.644393e-005 1.304823e-005 9.965730e-001 1.977199e-001 4.755516e-005 7.237412e-008 1.001277e+000 1.991803e-001
333345000 2.332732e-005 3.680008e-005 1.000566e+000 1.581977e-001 4.610970e-005 8.765575e-006 1.004494e+000 1.593038e-001
333630000 -2.035090e-005 5.543733e-005 1.002788e+000 1.189418e-001 -1.811443e-004 3.494876e-005 1.006811e+000 1.193155e-001
333915000 2.133035e-005 -3.364903e-005 1.003052e+000 8.018605e-002 -8.783957e-007 -1.650110e-005 1.007281e+000 8.001406e-002
334200000 -3.493333e-006 -3.229017e-006 1.000998e+000 4.095399e-002 7.875170e-006 2.700320e-005 1.005709e+000 4.137656e-002
334485000 9.754301e-006 7.698501e-005 9.985954e-001 3.242492e-003 1.665501e-006 -1.761544e-005 1.002610e+000 3.838816e-003
334770000 1.830651e-005 -6.490071e-005 9.928030e-001 -3.497408e-002 -8.217019e-005 -1.093319e-004 9.974806e-001 -3.463051e-002
335055000 4.920893e-005 -1.081692e-004 9.867070e-001 -7.144105e-002 -4.771731e-005 -6.391387e-005 9.913214e-001 -7.133877e-002
335340000 -1.893048e-005 3.390796e-006 9.784902e-001 -1.074056e-001 -1.076441e-004 7.214615e-005 9.834083e-001 -1.079417e-001
335625000 -1.705408e-005 5.140140e-005 9.692022e-001 -1.432045e-001 2.161894e-005 2.031608e-005 9.735801e-001 -1.433026e-001
335910000 -3.360097e-005 -2.055818e-006 9.584095e-001 -1.770177e-001 -1.062786e-004 -7.572930e-005 9.620394e-001 -1.779096e-001
336195000 8.159392e-006 5.411040e-005 9.463913e-001 -2.106459e-001 -3.860884e-005 1.145562e-005 9.495010e-001 -2.115393e-001
336480000 4.005836e-005 3.976726e-005 9.328040e-001 -2.434241e-001 9.154304e-006 2.044459e-005 9.364591e-001 -2.443472e-001
336765000 1.167153e-005 6.936368e-005 9.174002e-001 -2.748410e-001 -7.646132e-006 4.022794e-005 9.221492e-001 -2.760944e-001
337050000 -5.178065e-006 7.475433e-006 9.026864e-001 -3.049079e-001 1.228251e-004 4.126426e-005 9.061952e-001 -3.063953e-001
337335000 5.047893e-005 1.313330e-006 8.854439e-001 -3.347146e-001 8.193254e-005 6.179456e-005 8.891717e-001 -3.364699e-001
337620000 2.518384e-005 7.957860e-005 8.681524e-001 -3.629899e-001 7.635257e-005 6.367922e-005 8.721092e-001 -3.640615e-001
337905000 1.017216e-004 1.159795e-005 8.501552e-001 -3.900869e-001 1.072769e-004 -2.845214e-005 8.534301e-001 -3.917300e-001
338190000 -3.142020e-005 3.788118e-005 8.311800e-001 -4.162496e-001 2.424471e-005 -2.273975e-005 8.346965e-001 -4.182078e-001
338475000 -7.221421e-005 -8.422016e-005 8.112663e-001 -4.410832e-001 4.331822e-005 8.784858e-006 8.150631e-001 -4.431632e-001
338760000 -6.541730e-005 -7.422744e-005 7.911401e-001 -4.656721e-001 2.599184e-006 1.573073e-004 7.942815e-001 -4.675905e-001
339045000 -1.034465e-004 4.984980e-005 7.706878e-001 -4.879235e-001 -4.794270e-005 -8.065246e-006 7.738210e-001 -4.900986e-001
339330000 -2.325221e-005 -1.927697e-005 7.496873e-001 -5.097194e-001 -5.328074e-005 -5.077060e-005 7.523915e-001 -5.119451e-001
339615000 -4.967841e-005 7.571486e-005 7.279801e-001 -5.303028e-001 1.657707e-005 5.833326e-005 7.306135e-001 -5.326274e-001
339900000 1.134063e-005 1.448711e-005 7.057284e-001 -5.502876e-001 3.084221e-005 4.552749e-005 7.086754e-001 -5.527625e-001
340185000 -6.790583e-005 5.500266e-005 6.832255e-001 -5.688167e-001 8.005442e-006 -5.484136e-005 6.867524e-001 -5.718631e-001
340470000 8.881606e-005 7.361571e-005 6.610343e-001 -5.860904e-001 6.218017e-005 -9.952379e-006 6.640887e-001 -5.889817e-001
340755000 1.235882e-005 6.070134e-005 6.384305e-001 -6.033388e-001 -7.014810e-005 3.734476e-005 6.408209e-001 -6.057508e-001
341040000 3.716799e-005 -1.873320e-005 6.151411e-001 -6.187971e-001 -9.611817e-005 -8.988380e-005 6.182555e-001 -6.215357e-001
341325000 -5.767892e-005 -2.333921e-006 5.929014e-001 -6.336704e-001 -6.979179e-005 -4.687296e-005 5.950367e-001 -6.366100e-001
341610000 -1.505440e-005 7.365441e-005 5.697366e-001 -6.474900e-001 2.763519e-005 -6.772602e-005 5.720211e-001 -6.503025e-001
341895000 -1.572627e-005 3.931036e-005 5.464904e-001 -6.604912e-001 -1.443491e-005 -1.499496e-005 5.485610e-001 -6.639509e-001
342180000 1.264354e-005 1.340195e-004 5.234838e-001 -6.726353e-001 4.373477e-005 1.036799e-005 5.257666e-001 -6.759103e-001
342465000 -3.251760e-005 -3.582500e-005 5.002962e-001 -6.846405e-001 1.006332e-004 -6.571857e-005 5.032932e-001 -6.874419e-001
342750000 2.021411e-005 -1.070930e-004 4.778981e-001 -6.950555e-001 -2.817961e-006 1.786112e-005 4.796336e-001 -6.978959e-001
343035000 8.315333e-005 1.002288e-005 4.545153e-001 -7.054871e-001 8.078934e-005 -6.258436e-007 4.558831e-001 -7.078624e-001
343320000 9.244552e-005 4.128164e-008 4.312929e-001 -7.142452e-001 1.439487e-004 -5.937428e-005 4.331162e-001 -7.175012e-001
343605000 7.650696e-005 -2.759612e-005 4.085141e-001 -7.230269e-001 -3.221759e-005 -2.907897e-006 4.105494e-001 -7.255056e-001
343890000 -5.526438e-006 -7.309414e-005 3.859506e-001 -7.306365e-001 2.949824e-005 7.063513e-005 3.873599e-001 -7.336417e-001
