!Agilent Technologies,N5230C,SG49000117,A.08.50.07
!Agilent N5230C: A.08.50.07
!Date: Sunday, March 17, 2024 02:21:40
!Correction: S11(Off) 
!S21(Off) 
!S12(Off) 
!S22(Off) 
!S2P File: Measurements: S11, S21, S12, S22:
# Hz S  RI   R 50
300000000 -6.622818e-005 -6.001840e-005 -6.274768e-001 -6.444345e-001 -8.386475e-005 1.048696e-004 -6.292441e-001 -6.467096e-001
300285000 -2.962690e-005 1.485000e-005 -6.418592e-001 -6.208664e-001 -4.724288e-005 -2.961011e-007 -6.445511e-001 -6.233817e-001
300570000 7.649402e-005 -1.103219e-004 -6.561387e-001 -5.976651e-001 1.730882e-005 -3.032747e-005 -6.584970e-001 -5.999392e-001
300855000 4.609477e-007 -4.060530e-005 -6.697623e-001 -5.744655e-001 -4.447394e-005 -1.277640e-004 -6.724583e-001 -5.769307e-001
301140000 8.969305e-005 2.693633e-005 -6.826665e-001 -5.501870e-001 1.245840e-004 -7.829114e-005 -6.849194e-001 -5.527067e-001
301425000 1.639222e-004 1.478177e-005 -6.943331e-001 -5.269756e-001 2.045278e-005 3.109233e-005 -6.968424e-001 -5.290316e-001
301710000 2.655586e-005 -3.721367e-005 -7.050283e-001 -5.033278e-001 3.419475e-006 3.870054e-005 -7.079851e-001 -5.056370e-001
301995000 -2.883032e-005 4.853669e-005 -7.152578e-001 -4.795891e-001 3.418724e-005 -4.813472e-005 -7.176881e-001 -4.816441e-001
302280000 5.002692e-005 2.376900e-005 -7.247898e-001 -4.560136e-001 -7.062259e-005 -3.590813e-006 -7.275103e-001 -4.578053e-001
302565000 4.823851e-005 -4.403266e-005 -7.331917e-001 -4.326470e-001 8.500976e-005 -4.790775e-005 -7.360999e-001 -4.343795e-001
302850000 -5.923694e-005 7.735394e-005 -7.414102e-001 -4.092163e-001 1.065109e-004 1.308712e-005 -7.442791e-001 -4.109355e-001
303135000 -3.715798e-005 -1.138515e-006 -7.483997e-001 -3.857503e-001 4.732393e-005 -3.137261e-005 -7.519976e-001 -3.870955e-001
303420000 1.380624e-005 1.170895e-004 -7.548715e-001 -3.629658e-001 7.849498e-006 -3.608022e-005 -7.577128e-001 -3.638844e-001
303705000 -5.770864e-005 -3.317594e-005 -7.611352e-001 -3.397632e-001 1.858933e-005 8.380588e-005 -7.639490e-001 -3.409859e-001
303990000 -2.814798e-005 2.944631e-005 -7.669313e-001 -3.172406e-001 -5.220391e-005 5.879123e-005 -7.694170e-001 -3.186313e-001
304275000 -4.426617e-005 -5.665073e-005 -7.715678e-001 -2.943223e-001 -4.622545e-005 -2.724610e-005 -7.740978e-001 -2.952350e-001
304560000 4.004406e-005 -5.541928e-005 -7.753735e-001 -2.715681e-001 -3.077806e-005 -1.313180e-004 -7.786302e-001 -2.724270e-001
304845000 8.835642e-007 -8.909125e-005 -7.789147e-001 -2.490716e-001 -6.513887e-005 -3.021311e-005 -7.822139e-001 -2.501350e-001
305130000 1.590625e-005 -1.644901e-006 -7.824357e-001 -2.269035e-001 -1.590844e-005 1.071576e-005 -7.851902e-001 -2.277257e-001
305415000 -3.481123e-005 6.488404e-005 -7.850752e-001 -2.049151e-001 -4.948792e-005 -1.966021e-005 -7.880023e-001 -2.050202e-001
305700000 -4.007691e-005 -8.919213e-005 -7.868686e-001 -1.829326e-001 2.889251e-005 1.368409e-005 -7.896673e-001 -1.837032e-001
305985000 2.507522e-005 -8.833842e-006 -7.887286e-001 -1.605821e-001 1.086804e-005 8.028422e-005 -7.914207e-001 -1.612677e-001
306270000 2.000275e-006 -1.005625e-004 -7.894999e-001 -1.388034e-001 -8.432918e-005 1.062371e-004 -7.927590e-001 -1.396375e-001
306555000 7.388543e-005 2.890703e-005 -7.901567e-001 -1.172618e-001 -5.054654e-005 -1.469970e-005 -7.930375e-001 -1.181187e-001
306840000 5.519110e-005 -1.414107e-005 -7.905351e-001 -9.582220e-002 -8.729533e-005 1.678514e-005 -7.934063e-001 -9.664010e-002
307125000 8.120185e-005 2.908160e-005 -7.901722e-001 -7.506111e-002 -5.881673e-005 -2.403947e-005 -7.932066e-001 -7.539709e-002
307410000 1.270358e-005 6.263849e-005 -7.896938e-001 -5.416143e-002 1.485812e-004 -4.661303e-005 -7.929349e-001 -5.412753e-002
307695000 4.965388e-006 1.095846e-004 -7.883962e-001 -3.286741e-002 7.050408e-005 5.615668e-005 -7.919559e-001 -3.279890e-002
307980000 -1.355387e-005 -5.291517e-006 -7.867159e-001 -1.199661e-002 5.251174e-005 -2.018755e-005 -7.898982e-001 -1.167131e-002
308265000 4.379431e-005 -5.469420e-005 -7.849957e-001 8.680555e-003 1.233949e-004 5.103009e-005 -7.882980e-001 8.807794e-003
308550000 -3.565301e-005 -4.693531e-007 -7.830247e-001 2.902361e-002 2.440143e-005 -9.189007e-005 -7.861858e-001 2.931307e-002
308835000 -7.409225e-005 7.714390e-007 -7.804774e-001 4.946357e-002 4.460919e-006 -2.507749e-005 -7.834056e-001 4.952898e-002
309120000 -1.152937e-004 1.759494e-004 -7.778745e-001 6.960744e-002 -1.507816e-004 4.947175e-005 -7.806656e-001 6.989390e-002
309405000 -3.016638e-005 2.008053e-005 -7.739525e-001 8.994564e-002 8.478818e-007 5.274367e-005 -7.768559e-001 9.059949e-002
309690000 -8.542739e-005 1.304659e-004 -7.704631e-001 1.099053e-001 -6.299930e-005 2.587582e-005 -7.734264e-001 1.107119e-001
309975000 2.121007e-005 1.742961e-005 -7.664198e-001 1.296153e-001 4.181311e-006 -5.693248e-005 -7.694418e-001 1.306093e-001
310260000 -1.235457e-005 -1.280758e-004 -7.621408e-001 1.495774e-001 7.808673e-005 3.412609e-005 -7.652059e-001 1.501297e-001
310545000 -2.376674e-005 -2.618359e-005 -7.570523e-001 1.688108e-001 2.609786e-005 -2.379507e-005 -7.600808e-001 1.698598e-001
310830000 7.086098e-006 4.062163e-005 -7.521707e-001 1.884541e-001 -1.461906e-004 8.529329e-006 -7.551579e-001 1.897210e-001
311115000 -3.359581e-005 1.291164e-005 -7.464462e-001 2.079534e-001 -9.110600e-005 -8.278610e-005 -7.496021e-001 2.088111e-001
311400000 7.661898e-005 -5.157600e-005 -7.408483e-001 2.275456e-001 3.595404e-006 -1.297853e-004 -7.438130e-001 2.282870e-001
311685000 2.886533e-005 4.501994e-005 -7.343758e-001 2.463185e-001 1.363764e-004 2.060034e-005 -7.375070e-001 2.480799e-001
311970000 -1.603207e-005 -2.388371e-005 -7.281831e-001 2.655463e-001 5.341870e-005 -7.587311e-006 -7.308371e-001 2.667036e-001
312255000 8.157225e-005 3.566776e-006 -7.212798e-001 2.845026e-001 -3.488005e-005 -3.487827e-005 -7.238261e-001 2.862924e-001
312540000 3.216830e-005 -1.214339e-005 -7.136195e-001 3.037295e-001 8.092949e-005 -6.483320e-005 -7.163180e-001 3.048693e-001
312825000 -5.830725e-005 5.474422e-005 -7.061521e-001 3.224992e-001 3.038801e-005 -1.069729e-006 -7.091314e-001 3.235651e-001
313110000 -4.356348e-005 3.760122e-005 -6.980759e-001 3.412981e-001 1.197259e-004 2.744505e-005 -7.008557e-001 3.425247e-001
313395000 -6.037412e-005 1.003520e-004 -6.895161e-001 3.601197e-001 -8.922389e-006 -5.857121e-006 -6.920503e-001 3.617402e-001
313680000 5.292869e-005 -6.794107e-006 -6.808958e-001 3.786192e-001 -2.437549e-005 -3.853333e-005 -6.836361e-001 3.801690e-001
313965000 -5.172148e-005 9.762563e-005 -6.720608e-001 3.970086e-001 -8.641153e-005 -8.472658e-005 -6.741393e-001 3.986623e-001
314250000 -1.050115e-004 7.527756e-006 -6.622686e-001 4.155074e-001 1.035347e-004 -5.773201e-005 -6.651275e-001 4.169735e-001
314535000 -1.170284e-004 -3.400636e-005 -6.524608e-001 4.340140e-001 -2.129760e-005 -1.325526e-004 -6.547959e-001 4.356951e-001
314820000 3.893701e-005 4.131741e-005 -6.422285e-001 4.520837e-001 5.570194e-005 -2.656696e-005 -6.445069e-001 4.543159e-001
315105000 2.175471e-005 3.743969e-006 -6.307614e-001 4.702972e-001 -3.468476e-005 -4.601220e-005 -6.331959e-001 4.725348e-001
315390000 -8.887777e-005 -5.102363e-006 -6.195489e-001 4.885364e-001 -5.147548e-006 -5.654256e-005 -6.221913e-001 4.905083e-001
315675000 6.161432e-005 2.570512e-006 -6.080896e-001 5.062207e-001 6.380757e-005 -1.077440e-004 -6.105917e-001 5.085741e-001
315960000 -4.086816e-006 -2.549339e-005 -5.959160e-001 5.241393e-001 3.862483e-005 -1.446861e-005 -5.981354e-001 5.262716e-001
316245000 1.569124e-004 5.706140e-005 -5.830919e-001 5.421560e-001 6.344733e-005 -7.235867e-005 -5.854073e-001 5.442801e-001
316530000 1.650686e-005 6.755393e-006 -5.699815e-001 5.594593e-001 9.863034e-006 3.180418e-007 -5.724295e-001 5.617957e-001
316815000 9.933491e-006 -1.118992e-005 -5.564488e-001 5.767814e-001 3.689337e-005 3.310598e-005 -5.586812e-001 5.794320e-001
317100000 -1.781749e-005 9.820184e-005 -5.422347e-001 5.947231e-001 3.867315e-005 -6.454782e-006 -5.446286e-001 5.968634e-001
317385000 -6.818671e-005 7.653794e-005 -5.272358e-001 6.117079e-001 2.154611e-005 -8.964619e-005 -5.299872e-001 6.142603e-001
317670000 4.346704e-005 2.447349e-005 -5.121564e-001 6.291428e-001 3.367535e-005 -2.070242e-005 -5.143556e-001 6.317107e-001
317955000 -7.928420e-005 9.987553e-006 -4.969455e-001 6.462824e-001 1.031091e-005 8.947346e-005 -4.983032e-001 6.486291e-001
318240000 -2.518789e-005 3.042487e-005 -4.804690e-001 6.625246e-001 5.312189e-005 7.826353e-005 -4.817819e-001 6.652518e-001
318525000 -1.210999e-004 -3.794441e-005 -4.635825e-001 6.792905e-001 7.859791e-005 4.028486e-005 -4.649562e-001 6.818184e-001
318810000 -9.325246e-006 -1.083314e-004 -4.454635e-001 6.954415e-001 1.982616e-005 1.178046e-005 -4.475455e-001 6.982347e-001
319095000 -5.636583e-005 -9.415692e-005 -4.274721e-001 7.118273e-001 3.851450e-005 6.107323e-005 -4.291245e-001 7.145877e-001
319380000 4.502229e-005 -8.171962e-005 -4.086683e-001 7.276333e-001 -3.373854e-005 -2.647011e-005 -4.102837e-001 7.298452e-001
319665000 -3.708658e-005 -1.014781e-004 -3.888885e-001 7.431256e-001 -8.838716e-005 -7.849746e-005 -3.909378e-001 7.461429e-001
319950000 5.925801e-005 -5.921298e-005 -3.688767e-001 7.582993e-001 -5.551195e-005 3.918068e-005 -3.704393e-001 7.610893e-001
320235000 1.755470e-005 1.770067e-005 -3.484077e-001 7.730772e-001 -4.859875e-005 -5.197259e-005 -3.497048e-001 7.759197e-001
320520000 5.177634e-005 5.004145e-005 -3.262469e-001 7.875087e-001 -3.015809e-005 2.170906e-005 -3.282103e-001 7.910057e-001
320805000 5.143683e-005 -6.764638e-005 -3.044828e-001 8.019642e-001 1.053970e-005 -4.528184e-005 -3.058438e-001 8.051274e-001
321090000 2.545389e-006 1.021877e-004 -2.812522e-001 8.156457e-001 -6.373654e-005 -1.777557e-005 -2.829981e-001 8.188018e-001
321375000 4.220556e-005 7.878910e-005 -2.578281e-001 8.282041e-001 7.306241e-005 -1.097101e-004 -2.590314e-001 8.324028e-001
321660000 -3.218929e-005 9.874844e-005 -2.333057e-001 8.413079e-001 -4.633616e-005 4.489401e-005 -2.342211e-001 8.450114e-001
321945000 -5.565521e-005 4.794888e-005 -2.081708e-001 8.533972e-001 1.103157e-004 2.178910e-006 -2.091779e-001 8.566087e-001
322230000 -1.280275e-004 -3.536629e-005 -1.824597e-001 8.650325e-001 8.131577e-005 -3.027585e-005 -1.829685e-001 8.682456e-001
322515000 -3.951603e-005 4.253897e-005 -1.555362e-001 8.757991e-001 -1.922665e-005 4.870033e-005 -1.560713e-001 8.791692e-001
322800000 1.811634e-005 4.646341e-005 -1.285007e-001 8.859550e-001 9.584538e-005 2.608267e-005 -1.286838e-001 8.896194e-001
323085000 -3.552842e-005 -3.958487e-005 -9.983122e-002 8.954520e-001 8.192643e-005 1.068244e-004 -1.002439e-001 8.995771e-001
323370000 4.550245e-005 -1.921656e-005 -7.103479e-002 9.041214e-001 -9.283501e-006 -7.116705e-005 -7.137403e-002 9.079557e-001
323655000 -9.029358e-005 -7.511413e-005 -4.146426e-002 9.115873e-001 3.322971e-005 8.539931e-005 -4.139807e-002 9.158867e-001
323940000 -1.179784e-006 8.797415e-005 -1.140639e-002 9.189131e-001 -7.954677e-005 2.835469e-005 -1.172246e-002 9.221399e-001
324225000 1.894893e-005 -4.819985e-005 1.962665e-002 9.240664e-001 4.025458e-005 -4.863228e-005 1.984892e-002 9.282389e-001
324510000 -3.683313e-005 1.085923e-004 5.124692e-002 9.289877e-001 -5.410630e-005 9.378720e-005 5.219546e-002 9.330261e-001
324795000 1.377287e-005 4.899346e-005 8.424440e-002 9.328821e-001 8.744658e-006 3.071579e-005 8.444598e-002 9.366851e-001
325080000 2.484303e-006 -6.083755e-005 1.171108e-001 9.351736e-001 -3.357890e-005 7.012398e-006 1.176609e-001 9.391056e-001
325365000 -4.223729e-005 3.609642e-005 1.502160e-001 9.364375e-001 -4.298592e-005 2.185446e-005 1.509434e-001 9.401709e-001
325650000 -1.723818e-005 3.648340e-006 1.845475e-001 9.365320e-001 -3.240557e-005 1.177961e-005 1.857665e-001 9.404004e-001
325935000 1.826071e-005 2.071003e-005 2.188611e-001 9.346203e-001 -8.351872e-005 -5.384837e-005 2.195107e-001 9.386432e-001
326220000 4.952489e-005 4.773623e-005 2.540639e-001 9.323065e-001 -7.415780e-005 -1.025523e-004 2.547592e-001 9.357789e-001
326505000 3.275684e-005 -3.310706e-005 2.883779e-001 9.277205e-001 -4.872636e-005 -1.393175e-005 2.900211e-001 9.311879e-001
326790000 9.138653e-005 -6.490412e-005 3.243614e-001 9.212778e-001 -5.598170e-005 -2.471591e-005 3.255841e-001 9.253063e-001
327075000 -4.338927e-005 -1.375720e-005 3.599507e-001 9.136876e-001 1.564427e-005 -7.442048e-006 3.610417e-001 9.179124e-001
327360000 -2.162963e-005 1.792523e-005 3.953290e-001 9.044900e-001 -1.315305e-005 -1.219156e-004 3.974773e-001 9.083478e-001
327645000 -4.460758e-005 5.598746e-005 4.313899e-001 8.943097e-001 -1.299995e-005 3.324147e-005 4.326725e-001 8.978786e-001
327930000 8.740104e-005 2.515695e-005 4.671173e-001 8.817126e-001 6.920578e-007 3.646616e-005 4.690054e-001 8.850722e-001
328215000 7.702163e-005 2.582535e-005 5.022323e-001 8.670444e-001 -3.777296e-005 -2.608685e-005 5.044445e-001 8.708135e-001
328500000 -2.146955e-004 5.799135e-005 5.368013e-001 8.508546e-001 -9.241092e-005 8.595181e-005 5.394267e-001 8.545895e-001
328785000 -6.279628e-005 -5.188752e-005 5.718727e-001 8.331875e-001 -2.358182e-005 4.000715e-005 5.742500e-001 8.367044e-001
329070000 1.779419e-005 -4.882975e-005 6.056103e-001 8.135780e-001 -7.579866e-005 -6.734305e-005 6.081641e-001 8.168167e-001
329355000 8.666422e-005 4.041060e-005 6.388053e-001 7.927387e-001 9.534539e-005 -2.198326e-005 6.413910e-001 7.954411e-001
329640000 6.982938e-006 -6.811626e-005 6.716952e-001 7.687263e-001 4.555004e-005 1.797202e-005 6.746664e-001 7.723945e-001
329925000 4.792845e-005 4.986397e-005 7.024664e-001 7.445249e-001 -1.096063e-005 7.761384e-006 7.059062e-001 7.479773e-001
330210000 -9.200894e-005 5.647774e-005 7.333121e-001 7.179668e-001 1.124892e-005 2.327596e-005 7.365697e-001 7.208949e-001
330495000 2.380634e-005 2.087476e-005 7.629811e-001 6.898105e-001 5.086092e-005 3.119637e-005 7.658941e-001 6.929120e-001
330780000 -5.503073e-005 -1.090490e-005 7.906888e-001 6.603091e-001 5.660830e-005 -1.036942e-005 7.940000e-001 6.632977e-001
331065000 1.194772e-004 -4.681086e-006 8.170764e-001 6.295414e-001 -1.884512e-005 5.178096e-005 8.213010e-001 6.321507e-001
331350000 7.713894e-005 1.122627e-004 8.428785e-001 5.978063e-001 2.457895e-005 4.208987e-005 8.466679e-001 5.999565e-001
331635000 2.227288e-005 6.994355e-005 8.664162e-001 5.637732e-001 3.925770e-005 -1.137246e-004 8.693103e-001 5.668178e-001
331920000 -4.296318e-005 -3.066211e-005 8.877270e-001 5.290987e-001 -6.686567e-005 3.986121e-005 8.922341e-001 5.317463e-001
332205000 4.530398e-005 -3.846504e-005 9.086177e-001 4.931249e-001 -4.370661e-005 1.581511e-005 9.121596e-001 4.955911e-001
332490000 1.005345e-004 1.036082e-004 9.268059e-001 4.570464e-001 2.556964e-005 -6.722790e-006 9.304266e-001 4.586932e-001
332775000 -6.345131e-005 -4.283755e-005 9.434403e-001 4.192704e-001 -3.402057e-005 -3.252943e-005 9.473778e-001 4.216310e-001
333060000 6.827463e-005 3.997544e-005 9.578052e-001 3.812267e-001 -4.364132e-006 -8.341338e-006 9.616938e-001 3.826481e-001
333345000 -2.434875e-005 -5.193512e-006 9.706248e-001 3.429584e-001 -8.167641e-005 4.240831e-006 9.742579e-001 3.441968e-001
333630000 3.002753e-005 9.256825e-005 9.812824e-001 3.035955e-001 3.902550e-005 6.315239e-005 9.854880e-001 3.053952e-001
333915000 -1.288915e-005 1.926562e-005 9.899339e-001 2.649814e-001 1.252727e-005 -3.985292e-006 9.941846e-001 2.655698e-001
334200000 -3.793569e-005 -2.203080e-005 9.967774e-001 2.246195e-001 -3.782046e-005 -5.940422e-006 1.001315e+000 2.264635e-001
334485000 4.191685e-006 -8.066530e-005 1.001691e+000 1.860171e-001 -5.338086e-005 -2.794315e-005 1.006312e+000 1.864546e-001
334770000 -3.643235e-005 3.548398e-005 1.005429e+000 1.465769e-001 3.346142e-005 2.045190e-005 1.009422e+000 1.474898e-001
335055000 4.733820e-005 4.614846e-005 1.006425e+000 1.074303e-001 5.249136e-006 -8.485036e-005 1.010728e+000 1.075679e-001
335340000 -5.268251e-005 8.954648e-005 1.005486e+000 6.846704e-002 6.229553e-005 -9.841059e-005 1.010514e+000 6.955466e-002
335625000 3.269264e-005 -1.658856e-005 1.003528e+000 3.055229e-002 6.364791e-005 -5.773306e-005 1.007958e+000 3.089645e-002
335910000 -5.907092e-006 1.870419e-005 9.992825e-001 -7.210934e-003 4.283923e-005 1.116008e-007 1.004269e+000 -6.989674e-003
336195000 -6.193102e-005 3.600053e-005 9.938059e-001 -4.437952e-002 -6.569162e-006 -2.292063e-005 9.980360e-001 -4.448892e-002
336480000 -2.524183e-005 -4.326532e-005 9.859532e-001 -8.025072e-002 2.381011e-005 -3.632078e-005 9.914594e-001 -8.076725e-002
336765000 -2.483698e-005 -9.744789e-005 9.781914e-001 -1.159660e-001 -5.289341e-006 -3.744585e-005 9.822397e-001 -1.165754e-001
337050000 -7.700393e-005 -2.457513e-005 9.677655e-001 -1.504603e-001 1.023944e-004 2.235716e-005 9.716709e-001 -1.513107e-001
337335000 -1.552236e-005 6.404624e-005 9.563462e-001 -1.844535e-001 -5.002277e-005 2.309779e-005 9.606352e-001 -1.850935e-001
337620000 -5.692162e-005 -2.803523e-005 9.438533e-001 -2.172585e-001 -3.943873e-005 4.027589e-005 9.479007e-001 -2.186353e-001
337905000 -9.157341e-005 -6.135732e-005 9.304182e-001 -2.491461e-001 -1.753278e-005 1.083348e-004 9.344800e-001 -2.500634e-001
338190000 3.418034e-005 -4.975223e-005 9.154571e-001 -2.802206e-001 -7.123494e-005 -6.557560e-005 9.196748e-001 -2.809598e-001
338475000 -2.307310e-005 -5.998257e-005 9.002093e-001 -3.101554e-001 -4.250771e-005 1.336206e-004 9.036511e-001 -3.109361e-001
338760000 -2.188933e-005 -7.696513e-006 8.826985e-001 -3.389686e-001 5.464667e-005 -4.074407e-005 8.867955e-001 -3.401519e-001
339045000 -9.706082e-005 -2.066501e-006 8.655844e-001 -3.662835e-001 1.126349e-005 1.368143e-005 8.692765e-001 -3.681074e-001
339330000 2.832784e-005 -7.140597e-005 8.473061e-001 -3.934353e-001 -8.006483e-005 -3.290867e-005 8.507505e-001 -3.941822e-001
339615000 -4.661021e-005 -1.915843e-006 8.280595e-001 -4.185935e-001 -3.936685e-005 2.009212e-005 8.321804e-001 -4.209520e-001
339900000 -9.198902e-006 1.043449e-005 8.086787e-001 -4.431609e-001 -5.681786e-005 -9.882362e-005 8.124015e-001 -4.453208e-001
340185000 4.972351e-005 8.092990e-005 7.886210e-001 -4.664611e-001 5.930732e-005 8.881205e-006 7.918582e-001 -4.688668e-001
340470000 8.102275e-006 1.673821e-005 7.683297e-001 -4.893825e-001 -4.426942e-005 1.256526e-004 7.719259e-001 -4.911572e-001
340755000 1.098983e-005 3.372131e-005 7.476871e-001 -5.103965e-001 7.949077e-005 -1.767972e-005 7.506796e-001 -5.127165e-001
341040000 -6.603892e-006 8.879803e-005 7.262353e-001 -5.303237e-001 -2.657904e-005 -4.098077e-005 7.292898e-001 -5.327851e-001
341325000 -7.380881e-005 -6.445116e-005 7.049421e-001 -5.501194e-001 4.809612e-005 7.145025e-005 7.072311e-001 -5.527979e-001
341610000 -5.723098e-005 5.953298e-005 6.824223e-001 -5.687143e-001 -4.088723e-005 -3.125672e-005 6.856583e-001 -5.708916e-001
341895000 2.921544e-005 5.414706e-005 6.611163e-001 -5.860585e-001 5.990544e-005 6.295312e-006 6.635327e-001 -5.882949e-001
342180000 -2.197833e-005 1.313607e-005 6.384355e-001 -6.028281e-001 -3.786194e-005 5.297161e-005 6.408794e-001 -6.050476e-001
342465000 -1.219961e-004 -2.205659e-005 6.159962e-001 -6.174096e-001 -4.513087e-005 1.889054e-006 6.188926e-001 -6.205481e-001
342750000 -8.852865e-005 1.878633e-005 5.936288e-001 -6.329994e-001 -7.594577e-005 -3.119881e-005 5.960797e-001 -6.354404e-001
343035000 -4.326504e-005 -3.516712e-005 5.707044e-001 -6.458702e-001 1.428706e-004 5.164187e-005 5.734093e-001 -6.488380e-001
343320000 1.072463e-004 -3.707609e-005 5.475809e-001 -6.587471e-001 -5.041044e-006 1.392206e-005 5.507793e-001 -6.622190e-001
343605000 2.204910e-005 -5.010008e-005 5.252725e-001 -6.718203e-001 3.666347e-005 -8.563026e-005 5.277272e-001 -6.744127e-001
343890000 5.131353e-005 5.750182e-005 5.028470e-001 -6.829851e-001 -2.764795e-005 2.224503e-005 5.047755e-001 -6.858844e-001
