!Agilent Technologies,N5230C,SG49000117,A.08.50.07
!Agilent N5230C: A.08.50.07
!Date: Sunday, March 17, 2024 02:27:09
!Correction: S11(Off) 
!S21(Off) 
!S12(Off) 
!S22(Off) 
!S2P File: Measurements: S11, S21, S12, S22:
# Hz S  RI   R 50
300000000 -3.246180e-005 -1.091054e-005 -6.477795e-001 -6.126766e-001 -2.360673e-005 5.218482e-005 -6.502198e-001 -6.147881e-001
300285000 1.075781e-004 -2.295771e-005 -6.618038e-001 -5.889157e-001 3.581550e-005 5.933240e-006 -6.637499e-001 -5.915219e-001
300570000 -5.818468e-005 4.929736e-005 -6.747670e-001 -5.653877e-001 -4.478377e-005 5.702608e-005 -6.772153e-001 -5.677366e-001
300855000 2.226830e-006 -1.441767e-004 -6.872633e-001 -5.418195e-001 -2.832086e-006 1.067731e-004 -6.895196e-001 -5.440914e-001
301140000 4.351417e-006 -4.369360e-005 -6.984724e-001 -5.180310e-001 -2.059731e-005 4.719082e-005 -7.012358e-001 -5.200643e-001
301425000 5.270954e-005 -9.306529e-005 -7.093035e-001 -4.946790e-001 -6.389816e-005 8.479814e-005 -7.124877e-001 -4.960492e-001
301710000 4.503446e-005 2.373727e-005 -7.192236e-001 -4.709500e-001 -5.564735e-005 -3.080417e-005 -7.218899e-001 -4.721336e-001
301995000 -2.205273e-005 1.077888e-005 -7.280661e-001 -4.476904e-001 -6.646551e-005 -3.525283e-005 -7.310454e-001 -4.484444e-001
302280000 2.672102e-005 2.408670e-007 -7.365851e-001 -4.242347e-001 -4.896308e-005 4.059117e-005 -7.393388e-001 -4.251774e-001
302565000 1.204771e-006 -2.285244e-005 -7.441369e-001 -4.003312e-001 5.126132e-005 -1.114981e-005 -7.469975e-001 -4.016195e-001
302850000 3.113381e-005 -9.441327e-005 -7.513136e-001 -3.767588e-001 -3.908569e-005 -1.198558e-004 -7.540439e-001 -3.782394e-001
303135000 1.005881e-004 -8.527372e-006 -7.578474e-001 -3.539872e-001 3.528857e-005 2.146120e-005 -7.601663e-001 -3.550198e-001
303420000 -2.073038e-005 5.019761e-005 -7.633532e-001 -3.310818e-001 9.400429e-005 -1.764481e-005 -7.661683e-001 -3.318699e-001
303705000 1.438502e-004 6.461985e-005 -7.686909e-001 -3.076667e-001 8.421404e-006 -3.175504e-005 -7.717150e-001 -3.090181e-001
303990000 4.351865e-005 -7.974743e-005 -7.732800e-001 -2.850844e-001 1.063392e-004 -3.873741e-005 -7.764248e-001 -2.858146e-001
304275000 -6.249405e-006 4.055053e-005 -7.770281e-001 -2.619833e-001 1.965568e-006 5.652296e-005 -7.802432e-001 -2.632562e-001
304560000 -1.193964e-005 1.000984e-004 -7.801626e-001 -2.392609e-001 5.936422e-005 5.623832e-005 -7.837337e-001 -2.405517e-001
304845000 -6.024128e-005 3.682250e-005 -7.833641e-001 -2.169486e-001 3.111999e-005 1.127664e-004 -7.866196e-001 -2.178675e-001
305130000 -5.536721e-005 8.896620e-005 -7.855092e-001 -1.946346e-001 -7.249590e-005 7.261156e-005 -7.888135e-001 -1.963487e-001
305415000 6.900154e-005 -5.833022e-005 -7.875714e-001 -1.734802e-001 3.254370e-005 1.489028e-005 -7.911360e-001 -1.743845e-001
305700000 5.810463e-005 4.228282e-005 -7.887123e-001 -1.512078e-001 -3.672255e-005 -1.055906e-004 -7.913534e-001 -1.517531e-001
305985000 5.844261e-005 -1.560919e-004 -7.900011e-001 -1.291538e-001 -8.202660e-008 5.138079e-005 -7.926514e-001 -1.299776e-001
306270000 -1.448653e-006 4.158630e-005 -7.905157e-001 -1.079006e-001 -2.630390e-005 -4.396858e-005 -7.930401e-001 -1.088157e-001
306555000 -7.241281e-005 1.627137e-005 -7.903129e-001 -8.645672e-002 -1.096354e-005 9.334038e-005 -7.934241e-001 -8.668934e-002
306840000 -2.255018e-005 -1.179432e-005 -7.894766e-001 -6.523957e-002 6.369975e-005 -5.998798e-005 -7.927683e-001 -6.582738e-002
307125000 -6.063590e-005 -6.250529e-005 -7.888214e-001 -4.407539e-002 3.617963e-005 -3.896653e-005 -7.915502e-001 -4.435871e-002
307410000 6.391398e-005 1.688342e-005 -7.877561e-001 -2.357344e-002 6.733875e-005 3.193634e-005 -7.903199e-001 -2.339678e-002
307695000 6.890087e-005 -1.188077e-004 -7.859064e-001 -2.581661e-003 -7.306791e-005 -7.691454e-005 -7.889592e-001 -2.722898e-003
307980000 3.626478e-005 -9.208543e-006 -7.835644e-001 1.794177e-002 -1.115925e-004 -8.777037e-005 -7.865448e-001 1.786044e-002
308265000 5.381651e-006 5.287182e-006 -7.815214e-001 3.857473e-002 5.835478e-005 4.282899e-005 -7.845079e-001 3.868885e-002
308550000 6.757169e-005 4.405740e-005 -7.780123e-001 5.868916e-002 6.546824e-005 -4.266013e-005 -7.818441e-001 5.968476e-002
308835000 3.649632e-005 -8.852401e-005 -7.748749e-001 7.925546e-002 -8.144714e-005 6.899864e-005 -7.781520e-001 7.961923e-002
309120000 -3.324966e-005 3.368647e-005 -7.716190e-001 9.940661e-002 -3.883119e-005 -2.473230e-005 -7.745864e-001 9.960590e-002
309405000 -1.303042e-006 -2.270103e-005 -7.676020e-001 1.190140e-001 1.114518e-004 -1.165818e-005 -7.710845e-001 1.199602e-001
309690000 -4.233329e-005 -6.156493e-005 -7.636471e-001 1.390835e-001 9.109526e-005 7.296900e-006 -7.666146e-001 1.393789e-001
309975000 -3.129250e-005 -4.959150e-005 -7.588765e-001 1.589839e-001 -8.526730e-005 6.205060e-005 -7.618774e-001 1.588741e-001
310260000 -2.335137e-006 -2.023216e-005 -7.536151e-001 1.787244e-001 -8.335889e-005 1.361123e-004 -7.563204e-001 1.790069e-001
310545000 -7.122529e-006 5.871691e-006 -7.483298e-001 1.977914e-001 7.866479e-005 -4.051443e-005 -7.510872e-001 1.986739e-001
310830000 9.112429e-005 -6.802842e-005 -7.425371e-001 2.169724e-001 -1.046569e-004 1.375618e-005 -7.457480e-001 2.178944e-001
311115000 -8.599753e-005 5.150732e-005 -7.367513e-001 2.365599e-001 5.196217e-005 -6.182210e-006 -7.393737e-001 2.370971e-001
311400000 -1.888815e-005 -7.449652e-005 -7.303218e-001 2.553838e-001 -3.239185e-005 -4.847193e-006 -7.329493e-001 2.565234e-001
311685000 4.472238e-005 2.051668e-005 -7.236586e-001 2.745463e-001 -5.115573e-005 7.924673e-005 -7.263001e-001 2.758831e-001
311970000 -6.942681e-006 -2.267929e-005 -7.162957e-001 2.936945e-001 -6.670308e-005 -5.543257e-005 -7.187902e-001 2.947542e-001
312255000 6.033644e-005 -6.369827e-005 -7.089174e-001 3.123074e-001 4.193002e-005 -4.874349e-005 -7.113965e-001 3.135610e-001
312540000 -1.339142e-004 5.876142e-005 -7.008893e-001 3.312432e-001 1.166881e-005 4.813918e-005 -7.036566e-001 3.326581e-001
312825000 8.421973e-005 7.241643e-008 -6.924486e-001 3.498020e-001 -4.834655e-005 -2.270351e-005 -6.955746e-001 3.515193e-001
313110000 6.720331e-006 1.997798e-005 -6.840277e-001 3.685492e-001 -2.456038e-005 -9.604742e-005 -6.866652e-001 3.699012e-001
313395000 -7.818000e-005 2.288315e-005 -6.749933e-001 3.870713e-001 5.041303e-007 -3.401894e-005 -6.776112e-001 3.884213e-001
313680000 1.044302e-004 8.467600e-005 -6.653516e-001 4.056967e-001 1.130009e-004 7.874992e-005 -6.680590e-001 4.070744e-001
313965000 6.085076e-005 7.414995e-005 -6.554111e-001 4.239436e-001 -3.907077e-005 1.375804e-005 -6.583187e-001 4.256469e-001
314250000 -6.169935e-006 6.027452e-005 -6.453857e-001 4.418628e-001 5.180679e-005 -1.991751e-005 -6.478755e-001 4.430565e-001
314535000 -3.458781e-005 7.945106e-005 -6.347519e-001 4.601799e-001 -4.355570e-005 1.413174e-005 -6.373929e-001 4.622975e-001
314820000 -8.809429e-005 8.315216e-007 -6.237878e-001 4.782832e-001 -3.180220e-005 4.398878e-006 -6.263633e-001 4.794493e-001
315105000 -4.141997e-005 8.347234e-005 -6.119373e-001 4.960273e-001 -9.662082e-005 4.630307e-005 -6.146576e-001 4.981965e-001
315390000 4.192243e-005 -1.274084e-005 -6.003098e-001 5.139602e-001 -1.250323e-004 -4.342597e-006 -6.026044e-001 5.162513e-001
315675000 3.323450e-005 -1.080147e-006 -5.879567e-001 5.312590e-001 -6.420701e-005 -3.380130e-005 -5.902983e-001 5.336378e-001
315960000 -6.883740e-005 -6.259794e-005 -5.745438e-001 5.491661e-001 7.398776e-005 -1.088513e-005 -5.770878e-001 5.518851e-001
316245000 1.620303e-005 -1.699329e-005 -5.613687e-001 5.664547e-001 -5.301430e-005 1.346081e-005 -5.638900e-001 5.694048e-001
316530000 -2.571756e-005 -1.039795e-004 -5.476796e-001 5.841558e-001 -6.701321e-006 -1.159000e-004 -5.496503e-001 5.861942e-001
316815000 4.887340e-005 4.759358e-005 -5.327867e-001 6.009748e-001 5.524206e-005 -1.314400e-004 -5.354871e-001 6.040224e-001
317100000 7.116395e-005 -4.733233e-005 -5.180081e-001 6.177580e-001 8.459642e-005 3.277296e-005 -5.201870e-001 6.210191e-001
317385000 1.230019e-004 -2.999695e-006 -5.024435e-001 6.356290e-001 5.631658e-005 -4.276041e-005 -5.045308e-001 6.378680e-001
317670000 1.728451e-005 3.750635e-005 -4.869741e-001 6.521758e-001 4.669930e-005 -9.841783e-005 -4.882525e-001 6.548821e-001
317955000 3.513448e-005 -2.986628e-006 -4.698420e-001 6.687474e-001 4.779623e-005 2.588742e-005 -4.720052e-001 6.714821e-001
318240000 3.160805e-005 -7.334277e-006 -4.525811e-001 6.851399e-001 -2.040167e-005 8.973295e-005 -4.545864e-001 6.877887e-001
318525000 -3.288709e-005 5.449961e-005 -4.347630e-001 7.011275e-001 1.239534e-005 4.628895e-005 -4.368533e-001 7.040625e-001
318810000 -5.161769e-005 -8.511713e-006 -4.158234e-001 7.167991e-001 4.599963e-006 2.775360e-005 -4.181294e-001 7.199083e-001
319095000 -4.619877e-005 1.213739e-004 -3.971529e-001 7.323239e-001 2.143956e-005 9.017698e-005 -3.993771e-001 7.354154e-001
319380000 -1.123241e-004 -8.325722e-005 -3.767493e-001 7.479708e-001 -4.676844e-005 1.374782e-005 -3.790521e-001 7.506979e-001
319665000 -5.274102e-005 2.802931e-005 -3.580562e-001 7.624294e-001 1.674860e-004 -8.729310e-006 -3.586293e-001 7.662475e-001
319950000 -3.767067e-005 1.300879e-005 -3.357225e-001 7.771222e-001 -4.609149e-005 -3.349700e-005 -3.373061e-001 7.806028e-001
320235000 1.404222e-005 5.654789e-005 -3.143724e-001 7.914935e-001 -8.288993e-005 1.767219e-005 -3.147944e-001 7.948221e-001
320520000 2.127126e-005 -9.959259e-005 -2.920257e-001 8.050927e-001 -8.387679e-006 4.542240e-005 -2.930184e-001 8.089812e-001
320805000 -1.785109e-004 -3.566835e-005 -2.686480e-001 8.178350e-001 -1.377176e-005 -7.595706e-006 -2.697175e-001 8.218033e-001
321090000 1.709219e-005 -1.663160e-005 -2.442402e-001 8.314906e-001 -1.394641e-004 2.400335e-005 -2.460065e-001 8.347114e-001
321375000 -2.873153e-005 -6.839805e-005 -2.199865e-001 8.437991e-001 -8.448796e-005 2.977364e-005 -2.212894e-001 8.472528e-001
321660000 1.237846e-004 -5.377908e-005 -1.946221e-001 8.551962e-001 -1.227130e-004 1.774936e-005 -1.949704e-001 8.589219e-001
321945000 3.571641e-005 2.449112e-005 -1.684994e-001 8.662547e-001 -1.318315e-004 -6.503159e-005 -1.695602e-001 8.704451e-001
322230000 9.257624e-005 1.014890e-004 -1.418251e-001 8.769512e-001 4.676731e-005 -4.560987e-005 -1.422038e-001 8.809035e-001
322515000 1.179167e-004 9.912258e-005 -1.137223e-001 8.871489e-001 9.273253e-006 -4.783226e-005 -1.141801e-001 8.896481e-001
322800000 -5.795441e-005 -1.303141e-006 -8.559368e-002 8.954314e-001 1.211548e-005 -9.411845e-005 -8.618484e-002 8.994386e-001
323085000 9.792139e-005 8.461282e-006 -5.631910e-002 9.036237e-001 -9.343711e-005 5.917586e-005 -5.711548e-002 9.076308e-001
323370000 1.460483e-005 8.572557e-005 -2.683584e-002 9.109999e-001 3.510473e-005 2.499835e-005 -2.742108e-002 9.146007e-001
323655000 9.766488e-006 1.142179e-004 3.866988e-003 9.172888e-001 5.270756e-005 -4.322416e-005 3.668666e-003 9.211778e-001
323940000 -3.169749e-006 -2.006604e-005 3.464286e-002 9.227600e-001 1.229272e-005 -6.827681e-005 3.521485e-002 9.261310e-001
324225000 -4.120969e-005 -3.302412e-005 6.636035e-002 9.259587e-001 1.056411e-004 1.892535e-004 6.644268e-002 9.307907e-001
324510000 -8.635798e-006 2.296618e-005 9.884240e-002 9.298106e-001 5.824642e-005 6.853123e-005 9.950868e-002 9.335399e-001
324795000 -1.341950e-004 1.775855e-005 1.324238e-001 9.320842e-001 1.078922e-004 7.849115e-005 1.330526e-001 9.358511e-001
325080000 -1.379044e-006 -5.745486e-005 1.655507e-001 9.319235e-001 2.335045e-005 7.316616e-005 1.664324e-001 9.357985e-001
325365000 -1.574321e-004 3.860235e-005 1.995443e-001 9.314568e-001 -1.766814e-005 -1.874130e-005 2.010272e-001 9.355012e-001
325650000 5.125919e-005 -9.394164e-005 2.340211e-001 9.294847e-001 5.470969e-005 -3.343537e-007 2.350863e-001 9.337744e-001
325935000 -9.128596e-005 4.603256e-006 2.695593e-001 9.259079e-001 -1.334035e-004 1.933831e-006 2.698024e-001 9.300659e-001
326220000 -4.793975e-005 -1.041826e-004 3.041408e-001 9.209366e-001 -1.534078e-004 1.298322e-004 3.049798e-001 9.247567e-001
326505000 1.764334e-004 -1.082176e-004 3.392191e-001 9.139997e-001 -5.228273e-005 6.380717e-005 3.402143e-001 9.182922e-001
326790000 9.407237e-006 2.965634e-005 3.750163e-001 9.064041e-001 -4.319333e-005 -8.970511e-005 3.767909e-001 9.100040e-001
327075000 1.079587e-005 -9.942720e-005 4.105437e-001 8.964292e-001 1.508330e-005 3.636385e-005 4.118769e-001 8.998307e-001
327360000 -2.300247e-006 -7.421520e-005 4.460490e-001 8.844942e-001 -9.158956e-006 4.324527e-005 4.479549e-001 8.884118e-001
327645000 1.161587e-004 -2.503097e-005 4.810581e-001 8.713366e-001 9.315593e-005 9.599542e-006 4.828517e-001 8.750518e-001
327930000 -2.883964e-005 5.724585e-005 5.158426e-001 8.563060e-001 6.939669e-006 2.220160e-007 5.176991e-001 8.599077e-001
328215000 2.505514e-005 7.219393e-005 5.510196e-001 8.395272e-001 -2.780791e-005 1.204432e-005 5.533211e-001 8.435115e-001
328500000 -6.164644e-005 2.994872e-005 5.846646e-001 8.213005e-001 2.501233e-005 4.327146e-005 5.871274e-001 8.248313e-001
328785000 -6.950185e-006 4.362932e-005 6.180006e-001 8.006865e-001 -3.800965e-005 1.794824e-005 6.209143e-001 8.041937e-001
329070000 -7.470199e-005 -3.846727e-005 6.512937e-001 7.787526e-001 -1.160499e-005 -8.581611e-005 6.534976e-001 7.820276e-001
329355000 3.352700e-005 -1.518753e-005 6.833845e-001 7.552392e-001 -3.244244e-005 4.717705e-006 6.866198e-001 7.583718e-001
329640000 1.330456e-004 -5.698353e-006 7.138656e-001 7.296200e-001 -9.070761e-005 -4.202317e-005 7.178184e-001 7.331004e-001
329925000 2.969722e-005 -2.946774e-005 7.447230e-001 7.029511e-001 4.316890e-005 -6.824092e-005 7.477509e-001 7.059234e-001
330210000 1.026730e-004 8.447801e-006 7.722711e-001 6.743022e-001 -1.015533e-005 -9.318735e-006 7.764055e-001 6.773461e-001
330495000 9.351166e-005 -2.763570e-005 8.000763e-001 6.442114e-001 2.316714e-006 -1.077961e-004 8.039739e-001 6.468073e-001
330780000 -1.411533e-005 3.307224e-005 8.261268e-001 6.128191e-001 6.495331e-005 -3.079130e-005 8.299944e-001 6.150146e-001
331065000 3.535507e-005 9.797110e-006 8.506174e-001 5.810419e-001 -3.874942e-005 -4.437416e-005 8.545913e-001 5.825539e-001
331350000 -1.037529e-004 8.397851e-005 8.736243e-001 5.464694e-001 1.952448e-006 -1.751023e-005 8.774807e-001 5.488435e-001
331635000 2.450822e-005 5.634483e-006 8.952905e-001 5.110881e-001 -7.089315e-005 9.126701e-005 8.983149e-001 5.138699e-001
331920000 1.068978e-005 -4.030483e-005 9.136378e-001 4.748813e-001 -1.152423e-005 -2.564982e-006 9.183004e-001 4.779015e-001
332205000 -3.415636e-005 5.107619e-006 9.318669e-001 4.391924e-001 -6.318434e-005 -1.286782e-005 9.359956e-001 4.405854e-001
332490000 4.121562e-005 1.864940e-005 9.481456e-001 4.011889e-001 3.434740e-005 1.735203e-005 9.519130e-001 4.028028e-001
332775000 -1.219243e-005 2.591585e-005 9.615668e-001 3.627057e-001 -6.578878e-005 -5.838980e-005 9.657925e-001 3.647335e-001
333060000 3.192427e-005 -2.301382e-005 9.729770e-001 3.239696e-001 1.336790e-005 2.159402e-005 9.776328e-001 3.259155e-001
333345000 3.222038e-005 1.329076e-005 9.837723e-001 2.852474e-001 -2.217189e-005 5.011805e-005 9.879555e-001 2.868157e-001
333630000 4.013206e-005 -2.048531e-005 9.913836e-001 2.459781e-001 1.770368e-005 2.324031e-005 9.963351e-001 2.470803e-001
333915000 2.939617e-005 -4.882797e-005 9.975815e-001 2.063620e-001 2.206016e-005 -3.386117e-005 1.002200e+000 2.067728e-001
334200000 1.479203e-005 2.153006e-005 1.001764e+000 1.671285e-001 -1.085800e-005 8.384597e-005 1.005508e+000 1.674055e-001
334485000 6.884521e-005 5.199768e-005 1.003795e+000 1.279830e-001 2.829213e-006 7.030156e-007 1.008071e+000 1.291342e-001
334770000 -2.580236e-005 -3.876711e-005 1.004774e+000 8.866719e-002 5.899664e-005 1.384587e-004 1.008819e+000 8.964248e-002
335055000 3.095295e-005 4.550774e-005 1.003545e+000 5.060662e-002 8.153573e-005 1.318973e-004 1.007641e+000 5.021593e-002
335340000 -4.303905e-005 -2.745546e-005 9.999560e-001 1.172708e-002 -2.833594e-005 4.306370e-006 1.004647e+000 1.212644e-002
335625000 -3.183912e-005 -9.834210e-005 9.958009e-001 -2.526870e-002 -1.844803e-005 -7.219093e-006 9.994175e-001 -2.520991e-002
335910000 7.564238e-005 -3.875954e-005 9.888478e-001 -6.239981e-002 -1.408056e-004 -1.849771e-005 9.938381e-001 -6.232309e-002
336195000 1.010517e-004 5.077685e-005 9.814259e-001 -9.812634e-002 -6.035670e-005 -5.507660e-006 9.856505e-001 -9.824737e-002
336480000 -8.832251e-006 8.502050e-006 9.717634e-001 -1.333332e-001 3.740703e-005 -6.007626e-006 9.759958e-001 -1.339735e-001
336765000 9.621683e-005 -8.740643e-006 9.613283e-001 -1.674331e-001 -8.188581e-006 1.198399e-005 9.659234e-001 -1.684793e-001
337050000 1.598437e-004 1.886570e-005 9.495087e-001 -2.009042e-001 -8.902973e-006 1.309957e-005 9.540700e-001 -2.015417e-001
337335000 5.899989e-005 2.937247e-006 9.359257e-001 -2.332961e-001 -3.824965e-005 -1.254942e-005 9.407672e-001 -2.349881e-001
337620000 1.107214e-004 -6.203854e-005 9.219259e-001 -2.651386e-001 -2.149268e-005 -1.673215e-005 9.261362e-001 -2.664512e-001
337905000 -5.303443e-006 -4.424405e-005 9.067116e-001 -2.952299e-001 -1.007137e-005 1.070070e-004 9.107666e-001 -2.967754e-001
338190000 -6.581250e-005 -7.937438e-005 8.907698e-001 -3.251528e-001 4.233131e-005 2.842084e-005 8.947450e-001 -3.262811e-001
338475000 1.682969e-004 4.788562e-005 8.731672e-001 -3.532274e-001 1.129150e-005 2.055710e-005 8.774395e-001 -3.548819e-001
338760000 3.681831e-006 4.287925e-005 8.551153e-001 -3.801261e-001 2.063950e-005 1.626866e-005 8.590655e-001 -3.821546e-001
339045000 5.866653e-005 8.293672e-005 8.371502e-001 -4.065022e-001 -1.575448e-005 2.661774e-005 8.405639e-001 -4.081227e-001
339330000 4.425868e-005 1.148634e-007 8.172381e-001 -4.309860e-001 1.523649e-005 -9.112638e-005 8.209728e-001 -4.337462e-001
339615000 -1.243617e-004 -7.590513e-006 7.979954e-001 -4.560674e-001 1.381528e-004 -1.923197e-005 8.007925e-001 -4.578503e-001
339900000 2.411485e-005 -4.019973e-005 7.775329e-001 -4.788508e-001 -4.863715e-005 -7.106532e-008 7.807003e-001 -4.813592e-001
340185000 3.087282e-005 3.040507e-005 7.566645e-001 -5.012270e-001 -1.375257e-004 5.753730e-005 7.598690e-001 -5.026534e-001
340470000 -6.955951e-005 -6.900582e-005 7.352486e-001 -5.217535e-001 -8.697902e-005 5.004886e-005 7.384846e-001 -5.235263e-001
340755000 -7.099452e-005 -6.714270e-005 7.137439e-001 -5.416770e-001 -8.858564e-005 5.948008e-005 7.169954e-001 -5.440929e-001
341040000 6.349796e-005 -4.592843e-005 6.920062e-001 -5.601811e-001 -8.307297e-005 -8.476572e-007 6.953519e-001 -5.623962e-001
341325000 5.629225e-005 -8.415304e-005 6.694643e-001 -5.781364e-001 -1.803565e-004 -2.957458e-005 6.727249e-001 -5.812069e-001
341610000 -4.177722e-005 6.658072e-005 6.477822e-001 -5.951201e-001 2.523813e-005 1.124202e-005 6.501232e-001 -5.970622e-001
341895000 2.736670e-006 3.682621e-006 6.252676e-001 -6.114142e-001 -2.539934e-005 -9.770863e-006 6.278602e-001 -6.135517e-001
342180000 4.948902e-005 1.244684e-004 6.027908e-001 -6.260640e-001 -4.826342e-005 -8.259142e-005 6.049665e-001 -6.290766e-001
342465000 -3.093771e-006 6.185683e-005 5.798252e-001 -6.405771e-001 2.071789e-005 6.899462e-005 5.825379e-001 -6.432887e-001
342750000 -2.271631e-005 2.190816e-005 5.575009e-001 -6.542053e-001 1.499160e-004 -1.041862e-004 5.599111e-001 -6.566337e-001
343035000 3.595544e-006 -9.472545e-006 5.346597e-001 -6.663299e-001 9.847592e-006 -6.708152e-007 5.367614e-001 -6.692995e-001
343320000 -8.543120e-005 -3.112859e-005 5.114613e-001 -6.787234e-001 6.326858e-005 1.404594e-006 5.137323e-001 -6.809431e-001
343605000 -6.308421e-005 -3.205398e-005 4.883971e-001 -6.894006e-001 -3.561860e-005 4.955448e-005 4.911191e-001 -6.917905e-001
343890000 -7.974230e-005 -5.484550e-005 4.663428e-001 -6.993396e-001 1.023956e-005 -9.328490e-005 4.682679e-001 -7.019926e-001
