!Agilent Technologies,N5230C,SG49000117,A.08.50.07
!Agilent N5230C: A.08.50.07
!Date: Sunday, March 17, 2024 02:29:09
!Correction: S11(Off) 
!S21(Off) 
!S12(Off) 
!S22(Off) 
!S2P File: Measurements: S11, S21, S12, S22:
# Hz S  RI   R 50
300000000 -2.575586e-005 5.891833e-006 -6.683463e-001 -5.801789e-001 -5.156190e-005 1.051210e-004 -6.708670e-001 -5.826398e-001
300285000 1.351052e-005 -9.020494e-005 -6.813629e-001 -5.570453e-001 -4.609811e-005 2.318548e-005 -6.838658e-001 -5.587169e-001
300570000 -5.200981e-005 2.252923e-005 -6.933666e-001 -5.325769e-001 -5.983508e-005 -1.114080e-004 -6.959717e-001 -5.349065e-001
300855000 -7.302932e-005 2.461829e-005 -7.045385e-001 -5.089621e-001 -3.652361e-005 -4.157146e-005 -7.076626e-001 -5.111843e-001
301140000 5.039400e-005 -7.962622e-005 -7.152328e-001 -4.853606e-001 5.809859e-005 5.643426e-005 -7.175996e-001 -4.865019e-001
301425000 -5.289135e-005 -1.466996e-004 -7.246841e-001 -4.614413e-001 1.618893e-004 -2.693430e-005 -7.273483e-001 -4.633960e-001
301710000 -1.962254e-005 -1.225867e-004 -7.337782e-001 -4.371631e-001 7.222975e-005 -1.444790e-005 -7.367538e-001 -4.398742e-001
301995000 -6.874762e-006 2.951073e-005 -7.411875e-001 -4.138165e-001 -9.006832e-006 7.053514e-005 -7.448391e-001 -4.156167e-001
302280000 5.533022e-005 -3.313728e-005 -7.493238e-001 -3.902861e-001 -6.972986e-006 1.341533e-004 -7.515860e-001 -3.922791e-001
302565000 2.631525e-006 7.373655e-005 -7.555189e-001 -3.666376e-001 9.842592e-005 -3.463309e-005 -7.586729e-001 -3.683490e-001
302850000 -4.750776e-005 1.368436e-004 -7.617081e-001 -3.437569e-001 8.418975e-005 8.964286e-005 -7.643896e-001 -3.449464e-001
303135000 3.777518e-005 4.654058e-005 -7.670954e-001 -3.207847e-001 2.307419e-005 9.542227e-005 -7.703327e-001 -3.213722e-001
303420000 -3.257060e-005 5.147346e-005 -7.720037e-001 -2.979859e-001 -6.670226e-005 2.555117e-006 -7.749735e-001 -2.986942e-001
303705000 -2.439950e-005 -1.835875e-005 -7.766469e-001 -2.750383e-001 -9.795974e-006 4.776969e-006 -7.791892e-001 -2.754897e-001
303990000 -9.349125e-005 -9.771492e-005 -7.803285e-001 -2.519923e-001 -2.338732e-005 2.842053e-005 -7.828375e-001 -2.532868e-001
304275000 -4.676801e-005 1.081080e-004 -7.835983e-001 -2.294212e-001 -5.676588e-005 7.973157e-005 -7.863965e-001 -2.308378e-001
304560000 -6.259447e-005 -1.565009e-004 -7.863218e-001 -2.069362e-001 -6.117943e-005 -3.083387e-006 -7.884143e-001 -2.080284e-001
304845000 6.581252e-006 7.217146e-005 -7.878013e-001 -1.849666e-001 -1.033963e-004 6.740636e-005 -7.910619e-001 -1.854632e-001
305130000 4.617587e-005 -3.279885e-005 -7.893558e-001 -1.626800e-001 -9.830917e-006 -5.178193e-005 -7.922910e-001 -1.636781e-001
305415000 -7.450803e-006 -6.369317e-005 -7.905425e-001 -1.410191e-001 5.883960e-006 5.650774e-005 -7.937130e-001 -1.410031e-001
305700000 8.073832e-005 5.851190e-006 -7.909036e-001 -1.190646e-001 -2.906250e-005 -6.244717e-005 -7.938930e-001 -1.198131e-001
305985000 3.177918e-006 3.163840e-006 -7.912217e-001 -9.752546e-002 -6.860435e-005 7.478534e-005 -7.943350e-001 -9.796372e-002
306270000 1.249328e-005 4.932429e-005 -7.907977e-001 -7.628019e-002 -1.178346e-004 -1.613441e-005 -7.939301e-001 -7.656405e-002
306555000 -3.383333e-005 1.184822e-004 -7.900341e-001 -5.468510e-002 7.629912e-006 -5.367217e-005 -7.932458e-001 -5.518680e-002
306840000 2.955105e-005 6.016873e-005 -7.889130e-001 -3.354197e-002 4.344384e-005 -2.108844e-005 -7.918265e-001 -3.374324e-002
307125000 -7.774806e-005 -4.600392e-005 -7.877007e-001 -1.268608e-002 -3.973693e-005 -3.568473e-005 -7.907743e-001 -1.294087e-002
307410000 4.317412e-005 7.448481e-005 -7.855669e-001 8.051847e-003 3.525263e-005 -9.783657e-005 -7.886649e-001 7.741619e-003
307695000 -1.561787e-004 -8.979558e-005 -7.836294e-001 2.848984e-002 -5.556776e-006 -5.560650e-006 -7.862791e-001 2.859298e-002
307980000 3.209604e-005 -2.475679e-005 -7.806765e-001 4.923650e-002 -7.368659e-005 5.216376e-005 -7.837574e-001 4.897822e-002
308265000 -4.757944e-005 -1.332725e-005 -7.773607e-001 6.979302e-002 2.793570e-006 -1.797156e-005 -7.809473e-001 6.979344e-002
308550000 -8.292714e-005 2.118253e-005 -7.738219e-001 8.919276e-002 -1.528904e-004 2.763001e-005 -7.765590e-001 8.958598e-002
308835000 -3.827349e-005 1.536283e-005 -7.700496e-001 1.098376e-001 2.802940e-005 5.629300e-005 -7.726222e-001 1.099095e-001
309120000 3.934922e-005 3.197325e-005 -7.659860e-001 1.295734e-001 7.915106e-006 4.310057e-005 -7.687156e-001 1.302472e-001
309405000 -8.155218e-005 7.060636e-005 -7.614393e-001 1.498517e-001 -8.226989e-005 -3.064052e-005 -7.640206e-001 1.495847e-001
309690000 -4.883100e-005 -8.093819e-005 -7.560226e-001 1.691598e-001 5.511980e-005 1.092179e-005 -7.596318e-001 1.699088e-001
309975000 -1.579378e-005 2.312297e-005 -7.515072e-001 1.885566e-001 2.852604e-005 -1.611945e-005 -7.542557e-001 1.890397e-001
310260000 -2.861148e-005 -7.754036e-005 -7.454856e-001 2.082644e-001 -5.859160e-005 -2.528130e-005 -7.485764e-001 2.083172e-001
310545000 -2.805523e-005 -1.407801e-004 -7.392606e-001 2.273640e-001 1.587502e-005 2.859974e-005 -7.426493e-001 2.286286e-001
310830000 -2.089256e-005 -7.299463e-005 -7.334826e-001 2.468137e-001 -1.201061e-004 -6.370105e-005 -7.356768e-001 2.476219e-001
311115000 2.609638e-005 -1.361435e-004 -7.261755e-001 2.659614e-001 -6.391190e-005 -3.162311e-006 -7.290172e-001 2.670668e-001
311400000 7.554072e-005 8.489937e-006 -7.189217e-001 2.844182e-001 -8.500501e-005 4.727208e-005 -7.224013e-001 2.855985e-001
311685000 2.522253e-005 1.304677e-005 -7.117580e-001 3.040245e-001 1.911641e-006 -9.203182e-007 -7.152096e-001 3.044203e-001
311970000 4.983497e-005 -9.063413e-006 -7.041658e-001 3.223659e-001 -5.395578e-005 -2.745469e-005 -7.067976e-001 3.238514e-001
312255000 2.871354e-005 -5.807626e-005 -6.957707e-001 3.413297e-001 5.761803e-005 4.282930e-005 -6.987025e-001 3.425355e-001
312540000 5.398394e-005 9.732069e-005 -6.875300e-001 3.598582e-001 -2.515785e-005 7.598754e-005 -6.903635e-001 3.610114e-001
312825000 -3.483047e-005 -2.112904e-005 -6.782450e-001 3.779396e-001 5.017873e-006 1.019047e-004 -6.811523e-001 3.796647e-001
313110000 6.145175e-006 1.227043e-004 -6.693137e-001 3.967364e-001 -4.213598e-005 1.062126e-004 -6.723609e-001 3.981413e-001
313395000 -7.825231e-006 4.063404e-005 -6.594630e-001 4.147627e-001 5.660116e-006 -1.015416e-004 -6.625476e-001 4.166447e-001
313680000 -6.862370e-005 -8.776171e-005 -6.491528e-001 4.333131e-001 -6.313773e-005 5.109443e-006 -6.522165e-001 4.345839e-001
313965000 -5.757709e-005 9.373499e-005 -6.383315e-001 4.513712e-001 9.561796e-005 -1.413576e-004 -6.415417e-001 4.530250e-001
314250000 5.423754e-005 1.124896e-005 -6.281232e-001 4.692530e-001 1.134889e-004 2.533724e-005 -6.307567e-001 4.716950e-001
314535000 -2.422864e-005 1.422996e-005 -6.167859e-001 4.875736e-001 -1.109574e-004 1.122887e-005 -6.194139e-001 4.896526e-001
314820000 -1.694758e-005 7.628997e-007 -6.045658e-001 5.050496e-001 4.494877e-005 1.887538e-005 -6.071378e-001 5.072289e-001
315105000 -6.549931e-005 -1.079912e-005 -5.924675e-001 5.232444e-001 -3.633364e-006 -5.457938e-006 -5.950100e-001 5.247357e-001
315390000 -2.077567e-005 -3.790513e-005 -5.797121e-001 5.404734e-001 -8.679652e-005 6.642056e-005 -5.821716e-001 5.427940e-001
315675000 4.701719e-005 2.200084e-005 -5.666600e-001 5.581590e-001 -5.490153e-006 6.053854e-005 -5.689104e-001 5.604205e-001
315960000 1.882382e-005 -3.868427e-005 -5.531330e-001 5.752544e-001 -6.008118e-005 1.365544e-005 -5.553641e-001 5.777096e-001
316245000 1.946685e-005 1.100132e-004 -5.385172e-001 5.927998e-001 -2.696291e-005 -7.874616e-005 -5.404590e-001 5.949907e-001
316530000 2.616254e-005 -1.732237e-005 -5.240136e-001 6.094883e-001 -1.177144e-007 7.986732e-006 -5.262977e-001 6.121685e-001
316815000 6.076142e-005 -1.003408e-004 -5.092261e-001 6.264887e-001 -7.391907e-005 3.982551e-005 -5.111542e-001 6.289136e-001
317100000 -8.279232e-006 -3.237035e-005 -4.928558e-001 6.430830e-001 -4.583725e-005 4.598170e-008 -4.950768e-001 6.453652e-001
317385000 -5.867445e-005 9.024644e-005 -4.767356e-001 6.596326e-001 -6.278970e-005 -1.002563e-004 -4.787013e-001 6.626312e-001
317670000 3.614717e-005 -6.258398e-006 -4.598074e-001 6.762540e-001 -4.296873e-005 -6.177565e-005 -4.615972e-001 6.789925e-001
317955000 -2.136003e-006 1.412917e-005 -4.423682e-001 6.919265e-001 -7.445891e-005 3.923608e-005 -4.439658e-001 6.948761e-001
318240000 4.599417e-005 7.525476e-005 -4.240343e-001 7.080970e-001 -1.400539e-006 3.365737e-005 -4.254115e-001 7.111014e-001
318525000 3.500747e-005 3.028880e-006 -4.053431e-001 7.237217e-001 5.104172e-005 3.827448e-005 -4.070398e-001 7.263349e-001
318810000 8.509574e-005 6.853542e-005 -3.856855e-001 7.386969e-001 1.518078e-004 1.306656e-004 -3.876697e-001 7.419692e-001
319095000 -5.961449e-005 -5.672876e-005 -3.662978e-001 7.538727e-001 -2.265283e-006 6.958036e-005 -3.676922e-001 7.568963e-001
319380000 -2.119192e-006 2.636487e-005 -3.449087e-001 7.685131e-001 -6.470398e-006 1.356955e-005 -3.463978e-001 7.712496e-001
319665000 -6.043051e-005 1.178395e-005 -3.239399e-001 7.831748e-001 -1.465013e-005 -9.866194e-005 -3.246554e-001 7.857644e-001
319950000 -8.948466e-005 2.507701e-005 -3.013253e-001 7.965537e-001 -6.023845e-005 -3.828452e-005 -3.027161e-001 8.002673e-001
320235000 -3.012177e-005 -4.372571e-005 -2.796999e-001 8.102016e-001 -1.610394e-004 1.828797e-005 -2.798724e-001 8.138522e-001
320520000 -5.018875e-005 -8.248744e-005 -2.549832e-001 8.234165e-001 -4.146597e-005 -9.112076e-006 -2.563909e-001 8.269744e-001
320805000 1.253828e-004 -3.716553e-005 -2.312204e-001 8.354182e-001 -2.286116e-005 -1.844023e-005 -2.319447e-001 8.394092e-001
321090000 7.201298e-005 -1.048571e-004 -2.066113e-001 8.479255e-001 -2.254612e-005 -1.039325e-004 -2.065420e-001 8.512055e-001
321375000 9.140555e-005 -9.135099e-006 -1.806654e-001 8.589621e-001 -2.794641e-005 -5.485833e-005 -1.814308e-001 8.623726e-001
321660000 1.879791e-005 -3.849851e-005 -1.541198e-001 8.694824e-001 5.884575e-005 -5.963195e-005 -1.544744e-001 8.731922e-001
321945000 5.950385e-005 4.764232e-005 -1.267624e-001 8.795329e-001 -1.947363e-005 2.221919e-005 -1.275677e-001 8.838432e-001
322230000 -6.544836e-005 1.573635e-004 -9.894820e-002 8.895018e-001 -6.418768e-005 -1.880441e-005 -9.901874e-002 8.929761e-001
322515000 2.952910e-005 5.622077e-005 -7.026629e-002 8.974283e-001 1.220814e-004 -2.644663e-005 -7.026713e-002 9.014395e-001
322800000 5.156130e-005 1.735057e-005 -4.115654e-002 9.049568e-001 -2.623222e-005 -2.526967e-006 -4.065973e-002 9.089082e-001
323085000 -1.820607e-005 8.129732e-005 -1.099343e-002 9.120082e-001 -7.093765e-005 -2.625168e-005 -1.126083e-002 9.156521e-001
323370000 1.252214e-005 1.242545e-004 1.941686e-002 9.175800e-001 1.114562e-004 3.629643e-005 2.029489e-002 9.212273e-001
323655000 -3.742230e-005 -1.056477e-005 5.062566e-002 9.219285e-001 -2.777172e-005 1.783852e-005 5.124919e-002 9.261811e-001
323940000 -7.908838e-005 5.219668e-005 8.319199e-002 9.263840e-001 6.060076e-005 6.821249e-005 8.307520e-002 9.298140e-001
324225000 -8.673210e-005 -1.104386e-004 1.153608e-001 9.280698e-001 -6.355619e-005 2.424788e-006 1.159504e-001 9.316425e-001
324510000 8.411165e-006 -2.670136e-005 1.486073e-001 9.294912e-001 -1.278090e-004 4.441787e-005 1.491300e-001 9.334102e-001
324795000 6.875327e-005 -7.085230e-005 1.820402e-001 9.295251e-001 -3.941878e-005 -2.005930e-004 1.827955e-001 9.334915e-001
325080000 -7.751398e-005 -3.697169e-005 2.162352e-001 9.286001e-001 -1.125643e-004 5.361439e-005 2.178643e-001 9.317819e-001
325365000 5.724967e-006 -3.013876e-005 2.505530e-001 9.254455e-001 8.243128e-005 -2.249148e-005 2.524723e-001 9.291834e-001
325650000 -1.108252e-004 -3.652404e-005 2.857608e-001 9.211044e-001 -1.392163e-005 -1.898511e-005 2.871878e-001 9.251094e-001
325935000 9.514754e-005 6.481726e-005 3.215919e-001 9.152566e-001 6.688291e-007 2.412482e-005 3.221292e-001 9.191778e-001
326220000 -2.178307e-005 -1.995566e-005 3.564005e-001 9.076868e-001 1.017214e-004 -4.529311e-005 3.576780e-001 9.117573e-001
326505000 -3.862733e-005 1.587494e-004 3.919967e-001 8.991354e-001 -2.810546e-005 -3.305932e-005 3.929757e-001 9.033007e-001
326790000 1.112031e-005 7.038811e-005 4.267719e-001 8.885971e-001 1.645463e-005 -5.891174e-005 4.288593e-001 8.920827e-001
327075000 -4.454602e-005 -1.130555e-006 4.619451e-001 8.761150e-001 -6.444423e-005 -3.821398e-005 4.640030e-001 8.801508e-001
327360000 -8.435975e-007 -5.632572e-005 4.974997e-001 8.615261e-001 7.648865e-005 -4.242392e-005 4.996726e-001 8.655710e-001
327645000 -1.351131e-005 5.736106e-005 5.320547e-001 8.462817e-001 1.033032e-005 9.935482e-005 5.343797e-001 8.499490e-001
327930000 -2.027549e-005 4.611779e-005 5.664926e-001 8.291253e-001 -7.469109e-005 -1.017197e-005 5.692482e-001 8.330640e-001
328215000 1.966447e-005 1.299753e-004 6.000313e-001 8.096406e-001 -6.506233e-005 8.934969e-006 6.030911e-001 8.133247e-001
328500000 2.478607e-005 -3.571091e-005 6.335590e-001 7.891984e-001 1.233316e-005 8.066843e-005 6.365234e-001 7.920581e-001
328785000 3.988988e-005 -2.297326e-005 6.662476e-001 7.661138e-001 6.582998e-005 2.602006e-005 6.689218e-001 7.693006e-001
329070000 -1.377525e-006 4.682022e-005 6.978493e-001 7.418367e-001 1.378226e-005 -8.046223e-005 7.006218e-001 7.447533e-001
329355000 -9.688467e-006 -4.264204e-005 7.278032e-001 7.155242e-001 8.394017e-006 -5.032236e-005 7.317346e-001 7.190955e-001
329640000 6.455938e-005 6.803308e-005 7.571245e-001 6.881949e-001 1.498882e-004 7.057287e-005 7.611762e-001 6.903670e-001
329925000 -1.880829e-005 3.232574e-005 7.855897e-001 6.586801e-001 9.967724e-005 -4.584478e-005 7.891471e-001 6.619353e-001
330210000 -1.392486e-005 3.772833e-005 8.124384e-001 6.278376e-001 -5.020092e-005 -1.766652e-005 8.155715e-001 6.312206e-001
330495000 -1.683336e-005 3.807768e-005 8.375816e-001 5.962138e-001 7.583778e-005 -1.200771e-005 8.410940e-001 5.989424e-001
330780000 -5.988519e-005 9.855579e-005 8.612307e-001 5.627854e-001 4.169640e-006 -3.935768e-005 8.649147e-001 5.654426e-001
331065000 -6.445011e-005 1.228275e-004 8.833560e-001 5.285415e-001 -4.672930e-005 -5.311642e-005 8.878297e-001 5.310429e-001
331350000 2.859121e-005 3.176719e-005 9.038268e-001 4.931856e-001 -3.558250e-005 -3.479085e-005 9.080981e-001 4.952107e-001
331635000 4.944110e-005 -1.168739e-004 9.231895e-001 4.574014e-001 -5.555547e-006 6.485435e-005 9.268899e-001 4.586729e-001
331920000 8.438331e-006 -7.757272e-005 9.395865e-001 4.195459e-001 -6.865108e-006 -1.041827e-004 9.431170e-001 4.215331e-001
332205000 -2.436499e-005 -1.079967e-004 9.541942e-001 3.814880e-001 -6.895002e-005 1.152081e-005 9.585002e-001 3.835751e-001
332490000 9.348507e-006 -3.700523e-005 9.674178e-001 3.428134e-001 -5.112396e-005 -3.145748e-005 9.714175e-001 3.449076e-001
332775000 4.223609e-005 6.484121e-005 9.784996e-001 3.040628e-001 -1.076009e-005 -1.402905e-004 9.827355e-001 3.058355e-001
333060000 8.611313e-006 1.424816e-005 9.871876e-001 2.654003e-001 -3.346006e-005 7.630279e-005 9.920292e-001 2.663702e-001
333345000 9.201804e-005 -6.481868e-006 9.949863e-001 2.257140e-001 3.374027e-005 -5.977304e-005 9.989713e-001 2.267082e-001
333630000 -2.931510e-005 2.132083e-005 1.000174e+000 1.859497e-001 -5.444414e-005 3.619313e-005 1.003910e+000 1.865484e-001
333915000 -8.407077e-005 -9.506224e-005 1.002802e+000 1.465297e-001 -4.209881e-005 4.774416e-005 1.007499e+000 1.473112e-001
334200000 -1.069051e-004 -3.356828e-005 1.004727e+000 1.072040e-001 -2.458801e-005 -7.421510e-005 1.009382e+000 1.082905e-001
334485000 -1.050923e-004 -8.841263e-005 1.004617e+000 6.900980e-002 -1.249040e-005 -6.333169e-005 1.009308e+000 6.843521e-002
334770000 -5.582465e-005 -7.566328e-005 1.002440e+000 2.993674e-002 6.056045e-005 -1.022236e-004 1.006701e+000 3.076483e-002
335055000 -9.577339e-005 -4.275205e-005 9.986762e-001 -7.887165e-003 -5.472022e-005 -5.444370e-005 1.002787e+000 -7.418765e-003
335340000 -5.207255e-005 -1.758974e-005 9.931017e-001 -4.558716e-002 -9.132020e-005 -5.879938e-005 9.974437e-001 -4.465058e-002
335625000 -1.411551e-005 -1.107293e-005 9.859468e-001 -8.158569e-002 -1.133443e-005 6.692474e-006 9.900662e-001 -8.228941e-002
335910000 -7.004820e-005 -6.007617e-005 9.774668e-001 -1.175138e-001 -1.171513e-005 -1.476193e-005 9.814223e-001 -1.180260e-001
336195000 -1.660679e-005 -8.010228e-005 9.673071e-001 -1.518879e-001 1.253198e-005 2.841250e-005 9.714632e-001 -1.529576e-001
336480000 4.759449e-005 -1.193539e-005 9.560455e-001 -1.869430e-001 7.848454e-005 -1.288706e-005 9.595260e-001 -1.873938e-001
336765000 -1.891056e-005 -1.265307e-004 9.436408e-001 -2.199893e-001 3.190887e-005 5.147962e-005 9.469877e-001 -2.201125e-001
337050000 -3.163235e-005 3.024599e-005 9.297154e-001 -2.515887e-001 -6.233813e-005 6.834923e-005 9.339067e-001 -2.524252e-001
337335000 5.996454e-005 -1.512719e-004 9.152204e-001 -2.830499e-001 -6.744582e-006 7.449769e-005 9.184753e-001 -2.840125e-001
337620000 -2.414720e-005 5.010265e-005 8.988409e-001 -3.125996e-001 -7.629354e-005 5.796951e-005 9.029223e-001 -3.141461e-001
337905000 8.909013e-005 6.695897e-006 8.826101e-001 -3.419577e-001 5.180817e-005 -4.723220e-006 8.857349e-001 -3.433672e-001
338190000 1.178218e-004 -1.260419e-004 8.647518e-001 -3.696555e-001 -4.930468e-005 6.167763e-006 8.681409e-001 -3.708027e-001
338475000 1.717122e-005 -7.095139e-005 8.461879e-001 -3.968892e-001 -5.196162e-006 -1.833578e-005 8.491367e-001 -3.983815e-001
338760000 5.446049e-006 -6.571159e-006 8.267037e-001 -4.222870e-001 -6.733371e-005 6.147054e-005 8.308780e-001 -4.240781e-001
339045000 -1.110741e-005 3.378706e-005 8.068838e-001 -4.466493e-001 -9.730215e-005 1.212356e-004 8.111051e-001 -4.484475e-001
339330000 6.795893e-006 -4.587282e-005 7.866177e-001 -4.699956e-001 -8.484333e-005 -1.112190e-005 7.898173e-001 -4.727870e-001
339615000 -3.694479e-005 8.322449e-005 7.657073e-001 -4.927707e-001 -3.632330e-005 -4.336431e-006 7.697056e-001 -4.951593e-001
339900000 -5.150137e-005 8.953724e-005 7.447026e-001 -5.142469e-001 -6.051623e-006 -7.035049e-005 7.481250e-001 -5.164171e-001
340185000 2.911250e-005 1.042361e-004 7.237434e-001 -5.348203e-001 -7.087930e-005 -2.550425e-005 7.262475e-001 -5.371100e-001
340470000 -3.766735e-005 8.938671e-006 7.016215e-001 -5.539155e-001 5.955347e-006 -1.487586e-004 7.039884e-001 -5.560125e-001
340755000 1.173330e-004 1.632017e-004 6.791585e-001 -5.726820e-001 2.961598e-005 -2.109941e-005 6.821923e-001 -5.749926e-001
341040000 3.844275e-005 3.752257e-005 6.569437e-001 -5.898721e-001 5.946543e-005 2.715700e-005 6.597609e-001 -5.925673e-001
341325000 -6.867554e-005 -2.314272e-005 6.347149e-001 -6.064899e-001 -3.141429e-005 4.874732e-005 6.365898e-001 -6.088225e-001
341610000 3.450108e-005 -5.199216e-006 6.119775e-001 -6.217372e-001 9.340259e-006 -3.211025e-005 6.145019e-001 -6.238037e-001
341895000 -9.065850e-006 -8.766485e-005 5.890735e-001 -6.366211e-001 8.064252e-005 -5.231274e-005 5.913892e-001 -6.389899e-001
342180000 -9.091807e-005 -3.794493e-005 5.662892e-001 -6.502456e-001 9.800064e-006 1.100183e-005 5.686581e-001 -6.526157e-001
342465000 3.813200e-005 -6.949008e-005 5.429972e-001 -6.632732e-001 2.800365e-006 1.155860e-004 5.453264e-001 -6.660643e-001
342750000 -4.704949e-005 6.541483e-005 5.204958e-001 -6.752940e-001 -7.443428e-005 1.604215e-004 5.230099e-001 -6.783067e-001
343035000 1.202339e-004 9.445248e-006 4.967757e-001 -6.864771e-001 -3.904156e-005 1.020582e-004 4.992453e-001 -6.890952e-001
343320000 4.426338e-005 2.149819e-005 4.747148e-001 -6.970455e-001 -1.874112e-005 1.111821e-005 4.760676e-001 -6.996059e-001
343605000 1.353732e-004 4.405488e-005 4.514122e-001 -7.069681e-001 2.927486e-005 -7.551347e-005 4.531198e-001 -7.094101e-001
343890000 2.473718e-005 -9.513723e-007 4.287547e-001 -7.157090e-001 1.425005e-005 -3.811262e-005 4.302951e-001 -7.191415e-001
