!Agilent Technologies,N5230C,SG49000117,A.08.50.07
!Agilent N5230C: A.08.50.07
!Date: Friday, May 17, 2024 04:46:28
!Correction: S11(Full 2 Port(1,2)) 
!S21(Full 2 Port(1,2)) 
!S12(Full 2 Port(1,2)) 
!S22(Full 2 Port(1,2)) 
!S2P File: Measurements: S11, S21, S12, S22:
# Hz S  MA   R 50
300000 1.005723e+000 -3.802235e-001 4.837526e-005 1.366730e+002 4.502414e-005 9.490557e+001 1.013631e+000 -7.155237e-001
1049985 1.000773e+000 -2.935784e-001 5.201909e-006 -1.464875e+002 3.573904e-005 6.790376e+001 1.000469e+000 -4.488091e-001
1799970 9.997094e-001 -1.891597e-001 6.738304e-006 3.480444e+001 2.328160e-005 -1.226250e+002 9.990592e-001 -3.640323e-001
2549955 9.993566e-001 -1.612358e-001 9.252939e-005 -1.143259e+002 1.623928e-004 -1.295183e+002 9.993305e-001 -2.876429e-001
3299940 1.000149e+000 -1.609999e-001 2.038658e-005 1.379440e+002 4.164956e-005 1.363575e+002 9.979876e-001 -2.885100e-001
4049925 9.997378e-001 -2.116862e-001 1.215340e-005 1.227819e+002 1.711879e-005 4.805450e+000 9.991320e-001 -2.756648e-001
4799910 1.000056e+000 -2.003054e-001 8.633764e-006 1.035086e+002 1.703394e-005 2.143745e+001 9.995508e-001 -3.024369e-001
5549895 9.997997e-001 -2.115393e-001 2.415349e-005 -7.652466e+001 3.673751e-005 2.818994e+001 9.995859e-001 -2.864195e-001
6299880 9.996622e-001 -2.025724e-001 1.680670e-005 -1.723061e+002 7.463925e-006 -1.411466e+002 9.998126e-001 -3.439922e-001
7049865 9.995320e-001 -2.302966e-001 2.102530e-005 1.122929e+002 5.005826e-005 1.651884e+002 9.994678e-001 -3.863573e-001
7799850 9.997823e-001 -2.534024e-001 1.689252e-005 1.438904e+002 4.374507e-005 9.103700e+001 9.980820e-001 -4.025556e-001
8549835 9.995419e-001 -2.587098e-001 3.425424e-006 -8.934271e+001 4.613789e-005 5.490969e+001 9.988858e-001 -4.765935e-001
9299820 9.996340e-001 -2.749913e-001 7.248928e-006 -1.780382e+002 2.958356e-005 1.556709e+002 9.986121e-001 -4.626387e-001
10049805 9.997676e-001 -2.979265e-001 1.146990e-005 9.199995e+001 2.810006e-005 1.127197e+002 9.984536e-001 -4.811511e-001
10799790 9.993025e-001 -2.794032e-001 1.632876e-005 9.504144e+001 4.139664e-005 1.045703e+002 9.986187e-001 -4.823239e-001
11549775 9.996916e-001 -3.024081e-001 1.322408e-005 1.066850e+002 4.211424e-005 1.088449e+002 9.983606e-001 -4.938704e-001
12299760 9.993855e-001 -3.142178e-001 1.710462e-005 9.864931e+001 5.125173e-005 7.618965e+001 9.999076e-001 -5.188314e-001
13049745 9.997658e-001 -3.720409e-001 2.802223e-005 1.044210e+002 6.201151e-005 1.097914e+002 9.986696e-001 -5.787678e-001
13799730 9.996128e-001 -3.833413e-001 1.922638e-005 8.626405e+001 7.580571e-005 1.056880e+002 9.979043e-001 -6.271145e-001
14549715 9.998183e-001 -4.005339e-001 1.120088e-005 4.428981e+001 7.433834e-005 8.654430e+001 9.996849e-001 -6.140034e-001
15299700 9.991817e-001 -3.985655e-001 3.393466e-005 7.454534e+001 1.778575e-005 -3.175181e+001 9.983549e-001 -6.868615e-001
16049685 9.997280e-001 -3.983376e-001 3.761182e-005 7.926514e+001 7.551129e-005 7.405666e+001 9.994113e-001 -6.674873e-001
16799670 9.993154e-001 -4.105670e-001 1.319221e-005 9.153578e+001 7.041564e-005 6.117163e+001 1.000254e+000 -7.242129e-001
17549655 9.995224e-001 -4.723063e-001 3.406860e-005 9.798829e+001 4.075293e-005 1.285265e+002 9.995684e-001 -7.146113e-001
18299640 9.993186e-001 -4.468633e-001 2.039743e-005 7.962081e+001 6.573070e-005 8.615311e+001 9.988172e-001 -8.167469e-001
19049625 9.996231e-001 -4.961310e-001 3.142297e-005 8.148122e+001 4.430708e-005 3.643213e+001 9.985652e-001 -7.469891e-001
19799610 9.999840e-001 -4.858706e-001 4.318089e-005 7.709927e+001 6.287950e-005 8.972308e+001 9.981639e-001 -7.872683e-001
20549595 9.990145e-001 -4.890161e-001 3.614706e-005 8.590979e+001 7.573333e-005 4.819535e+001 9.980543e-001 -8.848546e-001
21299580 9.989817e-001 -5.039940e-001 3.619011e-005 9.822780e+001 1.051431e-004 1.002865e+002 9.979576e-001 -8.053214e-001
22049565 9.989334e-001 -5.626497e-001 3.916445e-005 1.105598e+002 7.989074e-005 6.845396e+001 9.979107e-001 -8.804379e-001
22799550 9.999076e-001 -5.290325e-001 3.866256e-005 9.964854e+001 6.987833e-005 1.058126e+002 9.997015e-001 -9.503553e-001
23549535 9.997247e-001 -5.814589e-001 1.864558e-005 9.411197e+001 7.397822e-005 7.467110e+001 9.986520e-001 -9.372963e-001
24299520 9.993907e-001 -6.048528e-001 5.175273e-005 8.173702e+001 1.334512e-004 7.996833e+001 9.972918e-001 -9.905224e-001
25049505 9.997649e-001 -6.299546e-001 4.694954e-005 7.874249e+001 5.737873e-005 1.081009e+002 9.989280e-001 -1.038559e+000
25799490 9.992949e-001 -6.246286e-001 3.491384e-005 1.009707e+002 7.094482e-005 7.278661e+001 9.983410e-001 -1.098882e+000
26549475 1.000135e+000 -6.377845e-001 3.310936e-005 9.604708e+001 9.442561e-005 9.533118e+001 9.992774e-001 -1.089278e+000
27299460 9.995942e-001 -6.333138e-001 4.873245e-005 1.053118e+002 7.662650e-005 1.145603e+002 9.988368e-001 -1.117156e+000
28049445 9.992876e-001 -6.457925e-001 3.818064e-005 9.430330e+001 1.237535e-004 9.646554e+001 1.000342e+000 -1.144462e+000
28799430 9.990253e-001 -7.143443e-001 4.630424e-005 7.556680e+001 4.442991e-005 2.335380e+001 9.982910e-001 -1.232143e+000
29549415 9.994156e-001 -6.711027e-001 4.871011e-005 1.147229e+002 1.050648e-004 1.094184e+002 9.996900e-001 -1.169173e+000
30299400 9.993544e-001 -7.089872e-001 5.669863e-005 9.671479e+001 1.866916e-004 6.306898e+001 9.999590e-001 -1.239854e+000
31049385 9.996040e-001 -6.817141e-001 3.676879e-005 6.977531e+001 4.241750e-005 5.971683e+001 9.984123e-001 -1.276683e+000
31799370 9.995990e-001 -7.796289e-001 3.389020e-005 7.910075e+001 1.378515e-004 9.731763e+001 9.997716e-001 -1.248574e+000
32549355 9.999534e-001 -7.704120e-001 4.241950e-005 1.047530e+002 1.338023e-004 7.455039e+001 9.996058e-001 -1.268278e+000
33299340 9.996067e-001 -7.695239e-001 5.190528e-005 1.001941e+002 9.951126e-005 1.045808e+002 9.989369e-001 -1.312684e+000
34049325 9.990202e-001 -8.138638e-001 5.912490e-005 4.912584e+001 1.637448e-004 8.169788e+001 9.986148e-001 -1.340929e+000
34799310 9.990879e-001 -8.322005e-001 6.839223e-005 8.105801e+001 8.845039e-005 5.543121e+001 9.976678e-001 -1.381588e+000
35549295 9.993398e-001 -8.770553e-001 5.537670e-005 8.361866e+001 1.033986e-004 1.159888e+002 1.000185e+000 -1.382477e+000
36299280 9.992318e-001 -8.672621e-001 4.621632e-005 8.831929e+001 1.301367e-004 7.808407e+001 9.991952e-001 -1.453694e+000
37049265 9.998904e-001 -8.641774e-001 4.743505e-005 9.314327e+001 1.101752e-004 9.153914e+001 9.988429e-001 -1.472188e+000
37799250 9.994063e-001 -8.691424e-001 6.772807e-005 9.244367e+001 1.452358e-004 9.257786e+001 9.991627e-001 -1.469665e+000
38549235 9.989643e-001 -8.930067e-001 6.827783e-005 1.025416e+002 1.306738e-004 7.063231e+001 9.983984e-001 -1.568301e+000
39299220 9.997276e-001 -9.093544e-001 6.129451e-005 8.272318e+001 9.465109e-005 8.887184e+001 9.985479e-001 -1.514396e+000
40049205 9.994029e-001 -8.851548e-001 3.744874e-005 9.916024e+001 1.413171e-004 7.181350e+001 1.000022e+000 -1.587680e+000
40799190 9.998770e-001 -9.454439e-001 6.108652e-005 9.758061e+001 1.514768e-004 9.935392e+001 1.000264e+000 -1.640519e+000
41549175 9.984947e-001 -9.260841e-001 6.775606e-005 9.166969e+001 1.025773e-004 1.039482e+002 9.987105e-001 -1.660135e+000
42299160 9.993909e-001 -9.618866e-001 6.835531e-005 7.201569e+001 1.179103e-004 1.139319e+002 9.987562e-001 -1.614661e+000
43049145 9.999346e-001 -9.652390e-001 9.712470e-005 9.849941e+001 1.753275e-004 1.043405e+002 9.990304e-001 -1.709292e+000
43799130 9.993458e-001 -1.009967e+000 8.011152e-005 1.056764e+002 1.119270e-004 1.003082e+002 9.982663e-001 -1.710039e+000
44549115 9.998495e-001 -9.784025e-001 5.745884e-005 8.561217e+001 1.250047e-004 1.041128e+002 9.994230e-001 -1.765308e+000
45299100 1.000411e+000 -1.061257e+000 8.524602e-005 9.742759e+001 1.322662e-004 8.931955e+001 1.000561e+000 -1.752014e+000
46049085 1.000015e+000 -1.043348e+000 7.816967e-005 9.459689e+001 1.847699e-004 1.030033e+002 1.000317e+000 -1.723572e+000
46799070 9.999310e-001 -1.052799e+000 7.654430e-005 7.985869e+001 1.480171e-004 7.915896e+001 9.996627e-001 -1.809218e+000
47549055 9.999838e-001 -1.094281e+000 7.233404e-005 9.469746e+001 1.592710e-004 9.885474e+001 9.982609e-001 -1.895450e+000
48299040 1.000321e+000 -1.085488e+000 8.050624e-005 7.924778e+001 1.981209e-004 9.132092e+001 9.985746e-001 -1.839747e+000
49049025 1.000419e+000 -1.108237e+000 5.705632e-005 1.040426e+002 2.038404e-004 1.074944e+002 1.000644e+000 -1.825311e+000
49799010 9.991719e-001 -1.144195e+000 9.063262e-005 8.479707e+001 2.011376e-004 1.067908e+002 9.989693e-001 -1.856849e+000
50548995 9.988056e-001 -1.162796e+000 5.386571e-005 9.145436e+001 1.925493e-004 7.246896e+001 1.000054e+000 -1.960278e+000
51298980 1.000600e+000 -1.171156e+000 6.936634e-005 8.872282e+001 1.893597e-004 8.208611e+001 9.982708e-001 -1.947875e+000
52048965 9.993879e-001 -1.168150e+000 7.173631e-005 8.846152e+001 1.887298e-004 9.317365e+001 9.987734e-001 -1.891352e+000
52798950 9.996011e-001 -1.151462e+000 9.263041e-005 7.835359e+001 1.483530e-004 9.328288e+001 9.998187e-001 -2.035830e+000
53548935 1.001094e+000 -1.247903e+000 8.262471e-005 9.659009e+001 2.100191e-004 8.301711e+001 9.995067e-001 -2.047124e+000
54298920 9.996526e-001 -1.224625e+000 6.263004e-005 8.905293e+001 1.565016e-004 7.562486e+001 9.977080e-001 -2.101809e+000
55048905 9.998721e-001 -1.205007e+000 7.929302e-005 8.680779e+001 2.143356e-004 6.940756e+001 9.964011e-001 -2.129309e+000
55798890 9.995095e-001 -1.243534e+000 7.948193e-005 9.248217e+001 1.725693e-004 5.008665e+001 9.991383e-001 -2.290330e+000
56548875 9.998655e-001 -1.285083e+000 6.332282e-005 9.840551e+001 1.950826e-004 7.322631e+001 9.974073e-001 -2.123160e+000
57298860 1.000730e+000 -1.316000e+000 9.542574e-005 1.043947e+002 1.381268e-004 9.221397e+001 9.993561e-001 -2.070009e+000
58048845 9.995414e-001 -1.333497e+000 8.762705e-005 8.411720e+001 1.844053e-004 8.505193e+001 9.987619e-001 -2.079899e+000
58798830 9.992992e-001 -1.256588e+000 8.408251e-005 8.211632e+001 1.793321e-004 8.172957e+001 9.993459e-001 -2.121350e+000
59548815 9.999067e-001 -1.367468e+000 8.606091e-005 8.996354e+001 1.851941e-004 7.685567e+001 9.992853e-001 -2.226413e+000
60298800 1.000141e+000 -1.344297e+000 1.023504e-004 9.920150e+001 1.589261e-004 7.764096e+001 9.993415e-001 -2.277188e+000
61048785 1.001158e+000 -1.337249e+000 1.006645e-004 8.319157e+001 1.592016e-004 1.021027e+002 1.000029e+000 -2.163893e+000
61798770 9.999217e-001 -1.386073e+000 7.258383e-005 8.486026e+001 1.212263e-004 1.014581e+002 9.999146e-001 -2.407398e+000
62548755 1.000480e+000 -1.338968e+000 8.362778e-005 9.416737e+001 1.958297e-004 9.132661e+001 9.990498e-001 -2.343550e+000
63298740 1.000692e+000 -1.374286e+000 9.831948e-005 8.741651e+001 2.242408e-004 9.199769e+001 9.997807e-001 -2.332206e+000
64048725 1.000275e+000 -1.345165e+000 1.083788e-004 9.146230e+001 2.111692e-004 1.051957e+002 9.990483e-001 -2.281448e+000
64798710 9.995264e-001 -1.443403e+000 8.320963e-005 1.036230e+002 2.335172e-004 8.216722e+001 9.990961e-001 -2.506731e+000
65548695 1.000438e+000 -1.477014e+000 1.117149e-004 9.775739e+001 1.916600e-004 1.122845e+002 9.998570e-001 -2.331762e+000
66298680 1.000753e+000 -1.463901e+000 9.716988e-005 8.935217e+001 2.553283e-004 9.372533e+001 9.991692e-001 -2.476753e+000
67048665 1.000605e+000 -1.411794e+000 8.902320e-005 9.278650e+001 2.244363e-004 8.388927e+001 9.995759e-001 -2.490066e+000
67798650 1.000155e+000 -1.450916e+000 1.102481e-004 9.545774e+001 2.734587e-004 7.158504e+001 9.995323e-001 -2.505114e+000
68548635 9.997789e-001 -1.480611e+000 8.429868e-005 9.599837e+001 2.547182e-004 7.926421e+001 1.001184e+000 -2.487217e+000
69298620 1.000762e+000 -1.499500e+000 1.104244e-004 9.446442e+001 2.476706e-004 7.587007e+001 1.000354e+000 -2.481034e+000
70048605 1.000507e+000 -1.511657e+000 1.072672e-004 8.353797e+001 1.807407e-004 7.718427e+001 1.000876e+000 -2.605453e+000
70798590 1.000767e+000 -1.492372e+000 8.212963e-005 1.019173e+002 2.517393e-004 8.826268e+001 9.987645e-001 -2.624573e+000
71548575 1.000500e+000 -1.521085e+000 1.107780e-004 8.349994e+001 1.769900e-004 6.511268e+001 9.986349e-001 -2.728426e+000
72298560 1.000628e+000 -1.561814e+000 1.199356e-004 8.918572e+001 1.685988e-004 7.367450e+001 9.989212e-001 -2.790576e+000
73048545 1.000456e+000 -1.581195e+000 1.183676e-004 8.990621e+001 1.333832e-004 7.329987e+001 1.000813e+000 -2.628577e+000
73798530 1.000365e+000 -1.521441e+000 1.001279e-004 8.643595e+001 1.612142e-004 8.530196e+001 1.000916e+000 -2.811436e+000
74548515 1.001030e+000 -1.636632e+000 1.062418e-004 7.795393e+001 2.114706e-004 6.867167e+001 9.998676e-001 -2.746901e+000
75298500 1.000947e+000 -1.617146e+000 1.334520e-004 9.458859e+001 1.923181e-004 6.846445e+001 9.987686e-001 -2.801879e+000
76048485 1.000967e+000 -1.614311e+000 1.236105e-004 1.041897e+002 2.241072e-004 8.820020e+001 1.000111e+000 -2.817922e+000
76798470 1.000739e+000 -1.591482e+000 1.024962e-004 8.555228e+001 1.859955e-004 1.104578e+002 9.993286e-001 -2.819187e+000
77548455 1.000258e+000 -1.650452e+000 1.292330e-004 8.258076e+001 1.753851e-004 9.012224e+001 1.001623e+000 -2.817146e+000
78298440 1.001008e+000 -1.665298e+000 1.258867e-004 9.000646e+001 1.968478e-004 9.411395e+001 9.994540e-001 -2.902784e+000
79048425 1.001084e+000 -1.702794e+000 9.413496e-005 9.051694e+001 1.697467e-004 1.079799e+002 1.001172e+000 -2.920171e+000
79798410 1.001274e+000 -1.686962e+000 1.283250e-004 9.593398e+001 2.252543e-004 9.850407e+001 9.994320e-001 -2.882182e+000
80548395 1.001118e+000 -1.695802e+000 1.067394e-004 8.906672e+001 2.198384e-004 9.122099e+001 9.990838e-001 -3.009111e+000
81298380 1.000568e+000 -1.743753e+000 1.256245e-004 9.072869e+001 2.027191e-004 8.881716e+001 9.999983e-001 -2.911263e+000
82048365 1.000504e+000 -1.693886e+000 1.723883e-004 9.412743e+001 2.924092e-004 9.977283e+001 1.001753e+000 -2.962943e+000
82798350 1.001730e+000 -1.701287e+000 1.314014e-004 8.545618e+001 2.398758e-004 8.982342e+001 1.001139e+000 -3.017591e+000
83548335 1.000193e+000 -1.755688e+000 1.044892e-004 9.229527e+001 2.437769e-004 8.369093e+001 9.996228e-001 -3.048961e+000
84298320 1.001334e+000 -1.789677e+000 1.370465e-004 7.799304e+001 3.005932e-004 8.729061e+001 1.000323e+000 -3.037276e+000
85048305 1.000439e+000 -1.798054e+000 1.442036e-004 8.196909e+001 2.288580e-004 7.747874e+001 1.000470e+000 -3.098551e+000
85798290 9.999915e-001 -1.826115e+000 1.451467e-004 8.140834e+001 2.048287e-004 8.695216e+001 1.000759e+000 -3.084756e+000
86548275 1.000859e+000 -1.812835e+000 1.218002e-004 8.222533e+001 2.709970e-004 8.026798e+001 9.996526e-001 -3.086201e+000
87298260 1.000204e+000 -1.831130e+000 1.491747e-004 8.986667e+001 2.788184e-004 8.345826e+001 1.001939e+000 -3.137101e+000
88048245 1.000415e+000 -1.788368e+000 1.346375e-004 9.040046e+001 3.123052e-004 7.958036e+001 1.000788e+000 -3.241782e+000
88798230 1.001231e+000 -1.857486e+000 1.313852e-004 8.086035e+001 3.202363e-004 7.618153e+001 1.001696e+000 -3.217401e+000
89548215 1.001335e+000 -1.850019e+000 1.165037e-004 8.399241e+001 3.156225e-004 8.485142e+001 9.990959e-001 -3.252195e+000
90298200 1.000044e+000 -1.887963e+000 1.245127e-004 9.232188e+001 2.963561e-004 8.297375e+001 1.001389e+000 -3.102051e+000
91048185 1.000777e+000 -1.930559e+000 1.203889e-004 7.032578e+001 2.908653e-004 7.698147e+001 1.000341e+000 -3.205530e+000
91798170 1.000954e+000 -1.895447e+000 1.324191e-004 9.432039e+001 2.256478e-004 7.967450e+001 1.001150e+000 -3.305725e+000
92548155 1.001619e+000 -1.917687e+000 1.545826e-004 1.030976e+002 3.206405e-004 6.978346e+001 1.001681e+000 -3.329752e+000
93298140 1.001944e+000 -1.932939e+000 1.179714e-004 9.863696e+001 3.020851e-004 7.829621e+001 1.001568e+000 -3.245697e+000
94048125 1.001237e+000 -1.987407e+000 1.206895e-004 9.090169e+001 2.114711e-004 6.683934e+001 1.002310e+000 -3.360198e+000
94798110 1.001480e+000 -1.923385e+000 1.685853e-004 9.197726e+001 2.545715e-004 7.589408e+001 1.000671e+000 -3.359727e+000
95548095 1.001320e+000 -1.956800e+000 1.527331e-004 9.873165e+001 1.747824e-004 8.505417e+001 9.997950e-001 -3.334842e+000
96298080 1.001405e+000 -1.929887e+000 1.534505e-004 1.020467e+002 1.997863e-004 9.277710e+001 1.000467e+000 -3.396099e+000
97048065 1.000653e+000 -2.009496e+000 1.548901e-004 7.910439e+001 2.531522e-004 7.237933e+001 1.000610e+000 -3.395935e+000
97798050 1.000909e+000 -1.914421e+000 1.213296e-004 8.415279e+001 2.641492e-004 9.298593e+001 1.002107e+000 -3.494285e+000
98548035 1.001576e+000 -2.008262e+000 1.191587e-004 8.953661e+001 2.805922e-004 8.693245e+001 1.001216e+000 -3.499430e+000
99298020 1.001813e+000 -2.007139e+000 1.444933e-004 9.611897e+001 2.381922e-004 9.572765e+001 1.001729e+000 -3.553967e+000
100048005 1.001827e+000 -2.026806e+000 1.493531e-004 9.080405e+001 2.316821e-004 9.321658e+001 1.000296e+000 -3.549012e+000
100797990 1.001560e+000 -2.014616e+000 1.544643e-004 8.952311e+001 2.940502e-004 7.338937e+001 1.001577e+000 -3.464190e+000
101547975 1.000878e+000 -2.056590e+000 1.413295e-004 9.524598e+001 3.074170e-004 7.925556e+001 9.999065e-001 -3.530064e+000
102297960 1.002725e+000 -2.027034e+000 1.552100e-004 8.005853e+001 3.298974e-004 8.268288e+001 1.002075e+000 -3.505841e+000
103047945 1.001347e+000 -2.042163e+000 1.515773e-004 9.162605e+001 3.635462e-004 9.691934e+001 1.000417e+000 -3.550138e+000
103797930 1.000970e+000 -2.079355e+000 1.148905e-004 8.573866e+001 2.883780e-004 9.417172e+001 1.002671e+000 -3.633363e+000
104547915 1.001254e+000 -2.048634e+000 1.318525e-004 7.342077e+001 4.034253e-004 7.358485e+001 1.002921e+000 -3.539768e+000
105297900 1.000969e+000 -2.104123e+000 1.771714e-004 8.284011e+001 3.997716e-004 7.644673e+001 1.002935e+000 -3.497482e+000
106047885 1.002019e+000 -2.090922e+000 1.668430e-004 8.780182e+001 3.536393e-004 9.505877e+001 1.002065e+000 -3.732002e+000
106797870 1.002191e+000 -2.127717e+000 1.378385e-004 9.200187e+001 3.419789e-004 7.308790e+001 1.002206e+000 -3.706634e+000
107547855 1.002257e+000 -2.166522e+000 1.565880e-004 9.240747e+001 3.177358e-004 8.437242e+001 1.002232e+000 -3.595891e+000
108297840 1.001798e+000 -2.153668e+000 1.658916e-004 7.575527e+001 3.457398e-004 9.698238e+001 1.001253e+000 -3.772299e+000
109047825 1.001751e+000 -2.180968e+000 1.791935e-004 9.111225e+001 2.975972e-004 9.122101e+001 1.003417e+000 -3.840718e+000
109797810 1.001205e+000 -2.223823e+000 1.685249e-004 8.874557e+001 3.332420e-004 8.915529e+001 1.002967e+000 -3.718560e+000
110547795 1.001296e+000 -2.168056e+000 1.777908e-004 8.517339e+001 2.384208e-004 9.523861e+001 1.002192e+000 -3.819955e+000
111297780 1.001689e+000 -2.172468e+000 1.527421e-004 8.569435e+001 2.862653e-004 7.646243e+001 1.001416e+000 -3.668684e+000
112047765 1.000918e+000 -2.223413e+000 1.307055e-004 8.765739e+001 2.558195e-004 9.509467e+001 1.001314e+000 -3.755013e+000
112797750 1.001689e+000 -2.251249e+000 1.667021e-004 9.033096e+001 2.562687e-004 8.397293e+001 1.001766e+000 -3.809390e+000
113547735 1.001977e+000 -2.227843e+000 1.456635e-004 9.006801e+001 3.235765e-004 7.624136e+001 1.001458e+000 -3.789063e+000
114297720 1.000741e+000 -2.241851e+000 1.846109e-004 8.882243e+001 2.576779e-004 8.819933e+001 1.003734e+000 -3.899131e+000
115047705 1.001933e+000 -2.233675e+000 1.767880e-004 9.541736e+001 3.390373e-004 8.739857e+001 1.001903e+000 -3.922540e+000
115797690 1.002178e+000 -2.263076e+000 1.612353e-004 9.361203e+001 2.999657e-004 7.693749e+001 1.002445e+000 -4.017660e+000
116547675 1.002281e+000 -2.298215e+000 1.789522e-004 8.934225e+001 2.786893e-004 7.647120e+001 1.001901e+000 -3.920550e+000
117297660 1.002192e+000 -2.273132e+000 1.639008e-004 9.092526e+001 2.901114e-004 8.474570e+001 1.002748e+000 -3.962502e+000
118047645 1.001620e+000 -2.299827e+000 1.728145e-004 8.657452e+001 3.346845e-004 8.444357e+001 1.003352e+000 -3.924145e+000
