!Agilent Technologies,N5230C,SG49000117,A.08.50.07
!Agilent N5230C: A.08.50.07
!Date: Friday, May 17, 2024 04:48:25
!Correction: S11(Full 2 Port(1,2)) 
!S21(Full 2 Port(1,2)) 
!S12(Full 2 Port(1,2)) 
!S22(Full 2 Port(1,2)) 
!S2P File: Measurements: S11, S21, S12, S22:
# Hz S  MA   R 50
300000 1.005708e+000 -3.936335e-001 4.192629e-005 -1.220654e+002 5.637039e-005 -3.938545e+001 1.014112e+000 -7.048902e-001
1049985 1.000894e+000 -2.895957e-001 1.666891e-005 1.041277e+002 1.358795e-005 -3.612098e+001 1.000489e+000 -4.264670e-001
1799970 9.996672e-001 -1.977334e-001 2.240214e-006 1.260656e+002 1.278367e-005 -1.330664e+002 9.992288e-001 -3.811809e-001
2549955 9.993756e-001 -1.723409e-001 9.346222e-005 -1.190490e+002 1.553987e-004 -1.371229e+002 9.994975e-001 -2.906009e-001
3299940 1.000214e+000 -1.697274e-001 1.412015e-005 1.601592e+002 1.854938e-005 1.041099e+002 9.981646e-001 -3.083524e-001
4049925 9.996913e-001 -2.235468e-001 2.231321e-006 1.440992e+002 1.951997e-005 7.183073e+001 9.992774e-001 -2.895888e-001
4799910 1.000051e+000 -2.121529e-001 1.213600e-005 -1.727655e+002 1.396161e-005 6.896693e+001 9.996524e-001 -3.163895e-001
5549895 9.999127e-001 -2.213164e-001 1.381101e-005 1.509823e+002 3.303948e-005 6.803159e+001 9.995646e-001 -3.047180e-001
6299880 9.996921e-001 -2.161089e-001 1.186447e-005 1.228338e+002 2.449786e-005 1.006720e+002 1.000005e+000 -3.551690e-001
7049865 9.994287e-001 -2.423150e-001 7.247368e-006 1.715732e+002 2.647357e-005 2.820336e+001 9.996262e-001 -3.959223e-001
7799850 9.999292e-001 -2.731897e-001 1.434742e-006 1.522532e+002 4.857518e-005 4.660438e+001 9.983555e-001 -4.398220e-001
8549835 9.996837e-001 -2.702830e-001 2.455635e-005 1.191132e+002 4.377486e-005 1.107927e+002 9.989983e-001 -5.055300e-001
9299820 9.997679e-001 -2.841997e-001 1.760118e-005 1.137955e+002 2.174181e-005 5.492358e+001 9.986608e-001 -4.930727e-001
10049805 9.999018e-001 -3.099502e-001 2.468417e-005 7.893176e+001 2.545345e-005 5.809922e+001 9.985937e-001 -5.282246e-001
10799790 9.993860e-001 -2.926005e-001 1.178028e-005 1.471439e+002 4.773138e-005 1.003090e+002 9.988118e-001 -5.141513e-001
11549775 9.998057e-001 -3.245252e-001 2.112924e-005 7.277651e+001 3.946168e-005 1.076301e+002 9.985117e-001 -5.222980e-001
12299760 9.994566e-001 -3.366087e-001 3.495973e-005 8.350336e+001 6.759339e-005 9.354161e+001 1.000215e+000 -5.540394e-001
13049745 9.998006e-001 -3.961865e-001 2.111916e-005 6.498457e+001 5.294873e-005 9.422617e+001 9.989099e-001 -6.087786e-001
13799730 9.995807e-001 -4.056330e-001 1.661027e-005 4.966359e+001 7.399857e-005 1.153179e+002 9.978167e-001 -6.580516e-001
14549715 9.998540e-001 -4.239588e-001 2.525976e-005 7.502876e+001 6.491922e-005 6.193707e+001 9.995314e-001 -6.603704e-001
15299700 9.990737e-001 -4.213516e-001 4.116470e-005 7.959422e+001 2.901855e-005 1.258225e+002 9.984721e-001 -7.391066e-001
16049685 9.997221e-001 -4.173224e-001 2.023474e-005 1.068878e+002 8.312279e-005 7.424102e+001 9.994313e-001 -7.218867e-001
16799670 9.994062e-001 -4.409979e-001 2.503551e-005 9.301173e+001 5.570260e-005 9.955088e+001 1.000233e+000 -7.685074e-001
17549655 9.996235e-001 -5.011805e-001 3.737809e-005 7.764834e+001 8.874328e-005 7.631287e+001 9.996977e-001 -7.601295e-001
18299640 9.994588e-001 -4.773209e-001 3.620744e-005 8.322253e+001 5.195987e-005 9.927141e+001 9.991191e-001 -8.662630e-001
19049625 9.996211e-001 -5.250971e-001 3.993866e-005 8.166673e+001 6.599742e-005 8.872907e+001 9.988841e-001 -8.067740e-001
19799610 9.999859e-001 -5.159393e-001 4.486221e-005 9.757637e+001 6.544318e-005 8.094372e+001 9.982264e-001 -8.535274e-001
20549595 9.990330e-001 -5.219553e-001 2.444767e-005 1.006879e+002 8.133234e-005 8.481138e+001 9.980473e-001 -9.349416e-001
21299580 9.990093e-001 -5.387846e-001 2.063302e-005 9.595710e+001 6.925367e-005 9.702261e+001 9.978697e-001 -8.683736e-001
22049565 9.990903e-001 -5.938154e-001 2.696664e-005 9.663755e+001 8.435078e-005 7.914994e+001 9.980727e-001 -9.297951e-001
22799550 9.998860e-001 -5.630133e-001 2.568374e-005 1.038399e+002 5.734987e-005 7.858514e+001 9.998300e-001 -1.009870e+000
23549535 9.997220e-001 -6.175210e-001 3.097711e-005 1.093582e+002 9.020876e-005 8.676628e+001 9.987002e-001 -1.008525e+000
24299520 9.995809e-001 -6.398705e-001 4.020660e-005 8.709179e+001 5.935980e-005 8.106010e+001 9.972386e-001 -1.053961e+000
25049505 9.996295e-001 -6.623371e-001 2.879368e-005 5.570766e+001 7.001355e-005 9.105305e+001 9.988813e-001 -1.100405e+000
25799490 9.993186e-001 -6.672157e-001 2.943555e-005 1.151067e+002 1.019697e-004 8.850687e+001 9.983463e-001 -1.170658e+000
26549475 1.000187e+000 -6.682672e-001 4.669542e-005 6.891393e+001 7.904750e-005 8.145827e+001 9.996147e-001 -1.143425e+000
27299460 9.996078e-001 -6.779859e-001 4.803379e-005 8.480748e+001 9.684486e-005 8.883615e+001 9.986452e-001 -1.183751e+000
28049445 9.993238e-001 -6.871673e-001 5.151415e-005 8.175330e+001 9.756345e-005 7.137424e+001 1.000349e+000 -1.226799e+000
28799430 9.990047e-001 -7.616585e-001 4.709958e-005 6.226410e+001 9.452496e-005 7.311209e+001 9.982591e-001 -1.301877e+000
29549415 9.995179e-001 -7.100160e-001 5.519241e-005 1.092248e+002 1.434522e-004 8.588574e+001 9.997903e-001 -1.245434e+000
30299400 9.993587e-001 -7.483714e-001 3.730693e-005 8.493822e+001 9.076799e-005 7.127448e+001 1.000122e+000 -1.317840e+000
31049385 9.996815e-001 -7.246352e-001 5.181053e-005 1.007955e+002 6.751597e-005 1.073736e+002 9.984367e-001 -1.357742e+000
31799370 9.995986e-001 -8.231934e-001 5.146644e-005 9.069308e+001 1.313972e-004 8.053330e+001 9.996587e-001 -1.332960e+000
32549355 1.000065e+000 -8.168061e-001 4.811062e-005 8.002342e+001 8.715846e-005 1.045254e+002 9.998302e-001 -1.357710e+000
33299340 9.996614e-001 -8.144818e-001 2.726673e-005 8.368605e+001 1.182021e-004 1.030877e+002 9.990866e-001 -1.404930e+000
34049325 9.989652e-001 -8.616089e-001 6.222779e-005 8.710471e+001 1.137669e-004 7.532295e+001 9.987279e-001 -1.445441e+000
34799310 9.991592e-001 -8.871976e-001 6.922799e-005 8.684108e+001 9.688059e-005 7.720152e+001 9.977871e-001 -1.456464e+000
35549295 9.994295e-001 -9.187335e-001 5.561246e-005 9.289850e+001 1.357155e-004 8.399243e+001 1.000175e+000 -1.467796e+000
36299280 9.993280e-001 -9.123588e-001 6.731339e-005 8.705247e+001 8.313853e-005 8.246635e+001 9.992314e-001 -1.544119e+000
37049265 9.999187e-001 -9.244980e-001 5.940257e-005 9.743757e+001 1.109787e-004 8.865427e+001 9.988351e-001 -1.560685e+000
37799250 9.993777e-001 -9.259000e-001 6.303429e-005 9.036194e+001 1.313225e-004 7.856380e+001 9.992253e-001 -1.577861e+000
38549235 9.989882e-001 -9.512485e-001 6.109878e-005 9.217425e+001 1.300717e-004 9.175675e+001 9.983628e-001 -1.666373e+000
39299220 9.998066e-001 -9.614109e-001 6.111169e-005 8.569482e+001 1.364773e-004 8.768837e+001 9.984216e-001 -1.614579e+000
40049205 9.994385e-001 -9.541506e-001 6.896644e-005 8.724119e+001 1.513815e-004 8.652586e+001 1.000296e+000 -1.693831e+000
40799190 1.000010e+000 -1.011873e+000 6.665162e-005 7.073045e+001 1.465206e-004 7.568579e+001 1.000221e+000 -1.750021e+000
41549175 9.986514e-001 -9.700239e-001 6.835254e-005 8.539776e+001 1.215843e-004 9.599857e+001 9.989134e-001 -1.766172e+000
42299160 9.992810e-001 -1.021466e+000 3.787226e-005 5.795017e+001 4.664511e-005 7.578616e+001 9.988493e-001 -1.726113e+000
43049145 9.998643e-001 -1.027318e+000 5.773845e-005 9.051788e+001 1.527591e-004 8.663876e+001 9.990551e-001 -1.819849e+000
43799130 9.992470e-001 -1.068436e+000 9.117759e-005 1.062892e+002 9.622811e-005 7.461827e+001 9.980468e-001 -1.836922e+000
44549115 9.998162e-001 -1.043055e+000 9.720260e-005 8.890125e+001 1.250433e-004 1.057669e+002 9.992535e-001 -1.857394e+000
45299100 1.000354e+000 -1.131308e+000 9.186375e-005 9.757035e+001 1.697319e-004 8.889891e+001 1.000188e+000 -1.876838e+000
46049085 1.000132e+000 -1.106603e+000 8.605305e-005 8.405726e+001 1.346991e-004 9.523708e+001 1.000287e+000 -1.864726e+000
46799070 1.000225e+000 -1.112927e+000 8.554038e-005 8.715314e+001 1.268713e-004 1.049867e+002 9.993822e-001 -1.936326e+000
47549055 9.999697e-001 -1.175212e+000 7.455696e-005 9.121657e+001 1.313421e-004 1.021653e+002 9.983539e-001 -2.030803e+000
48299040 1.000423e+000 -1.146947e+000 7.085985e-005 9.901839e+001 1.381407e-004 9.802291e+001 9.983183e-001 -1.975714e+000
49049025 1.000554e+000 -1.186360e+000 8.089856e-005 8.944383e+001 1.311902e-004 1.061006e+002 1.000401e+000 -1.953559e+000
49799010 9.990832e-001 -1.219168e+000 6.212778e-005 7.842881e+001 1.600644e-004 8.872969e+001 9.990216e-001 -2.015312e+000
50548995 9.991156e-001 -1.237173e+000 8.989467e-005 1.050013e+002 1.371155e-004 9.117107e+001 9.999129e-001 -2.101759e+000
51298980 1.000617e+000 -1.251204e+000 8.589761e-005 9.394277e+001 2.107387e-004 8.315398e+001 9.979835e-001 -2.087227e+000
52048965 9.993968e-001 -1.242386e+000 1.152554e-004 9.215537e+001 2.114826e-004 9.227736e+001 9.987245e-001 -2.019677e+000
52798950 9.997013e-001 -1.227098e+000 7.952189e-005 1.016113e+002 1.821418e-004 8.743201e+001 9.999306e-001 -2.171950e+000
53548935 1.001257e+000 -1.317767e+000 1.003512e-004 1.001563e+002 1.858306e-004 8.532890e+001 9.995725e-001 -2.179014e+000
54298920 9.997753e-001 -1.296420e+000 1.079956e-004 9.361391e+001 1.712686e-004 8.958232e+001 9.979334e-001 -2.247054e+000
55048905 9.997526e-001 -1.279751e+000 7.015918e-005 8.132494e+001 1.566377e-004 8.737642e+001 9.968617e-001 -2.303551e+000
55798890 9.995724e-001 -1.323616e+000 8.676159e-005 8.394828e+001 1.308129e-004 7.940211e+001 9.989855e-001 -2.423952e+000
56548875 9.998918e-001 -1.356066e+000 8.764691e-005 1.032354e+002 2.520508e-004 6.456158e+001 9.975544e-001 -2.292842e+000
57298860 1.000828e+000 -1.389470e+000 8.964126e-005 9.243882e+001 1.763537e-004 7.563577e+001 9.998943e-001 -2.243374e+000
58048845 9.994285e-001 -1.413594e+000 7.626683e-005 8.897997e+001 1.987554e-004 7.754410e+001 9.989949e-001 -2.231153e+000
58798830 9.993597e-001 -1.339438e+000 1.169581e-004 7.737858e+001 2.072825e-004 8.037248e+001 9.994000e-001 -2.288286e+000
59548815 1.000017e+000 -1.458100e+000 9.809797e-005 8.912048e+001 1.865612e-004 7.716037e+001 9.994712e-001 -2.365640e+000
60298800 1.000220e+000 -1.428341e+000 1.007393e-004 9.258787e+001 1.833757e-004 9.102879e+001 9.995786e-001 -2.452647e+000
61048785 1.001035e+000 -1.427848e+000 1.100556e-004 9.639263e+001 2.044654e-004 8.144210e+001 9.997110e-001 -2.333439e+000
61798770 1.000107e+000 -1.476285e+000 1.114057e-004 8.893976e+001 1.660543e-004 7.343523e+001 1.000191e+000 -2.547021e+000
62548755 1.000442e+000 -1.434274e+000 1.017507e-004 9.407366e+001 1.744611e-004 1.133044e+002 9.996037e-001 -2.511208e+000
63298740 1.000658e+000 -1.466165e+000 9.251197e-005 7.866953e+001 1.535160e-004 9.232906e+001 9.997662e-001 -2.491349e+000
64048725 1.000260e+000 -1.436422e+000 1.127765e-004 9.309345e+001 1.898414e-004 8.223966e+001 9.988080e-001 -2.430681e+000
64798710 9.997150e-001 -1.532283e+000 1.067822e-004 9.574663e+001 1.756322e-004 8.683750e+001 9.990830e-001 -2.679127e+000
65548695 1.000321e+000 -1.566210e+000 1.003083e-004 9.054728e+001 2.527321e-004 1.045607e+002 9.998571e-001 -2.495433e+000
66298680 1.000706e+000 -1.558690e+000 1.005234e-004 9.684464e+001 2.236618e-004 8.771164e+001 9.987301e-001 -2.640141e+000
67048665 1.000721e+000 -1.509024e+000 1.209095e-004 8.790182e+001 2.332954e-004 9.183913e+001 9.997761e-001 -2.681982e+000
67798650 1.000180e+000 -1.545353e+000 1.050247e-004 8.607082e+001 2.120633e-004 1.016622e+002 9.995545e-001 -2.692598e+000
68548635 9.998291e-001 -1.580867e+000 7.858661e-005 8.872079e+001 2.490244e-004 8.530489e+001 1.000974e+000 -2.658520e+000
69298620 1.000909e+000 -1.598338e+000 1.180740e-004 9.331654e+001 2.218981e-004 9.117808e+001 1.000186e+000 -2.675357e+000
70048605 1.000556e+000 -1.611383e+000 1.308427e-004 9.211140e+001 2.726177e-004 7.401762e+001 1.000905e+000 -2.802280e+000
70798590 1.000823e+000 -1.586423e+000 1.327484e-004 8.855988e+001 2.031153e-004 7.855276e+001 9.985369e-001 -2.830316e+000
71548575 1.000652e+000 -1.626015e+000 1.147963e-004 8.795791e+001 1.882964e-004 8.614419e+001 9.989725e-001 -2.921822e+000
72298560 1.000653e+000 -1.665512e+000 1.317602e-004 9.044228e+001 2.187383e-004 1.015593e+002 9.989042e-001 -2.973086e+000
73048545 1.000558e+000 -1.693019e+000 1.052191e-004 8.139927e+001 2.356291e-004 7.083924e+001 1.000639e+000 -2.834011e+000
73798530 1.000437e+000 -1.631506e+000 1.276988e-004 1.025076e+002 2.100281e-004 7.446912e+001 1.000708e+000 -3.003209e+000
74548515 1.000951e+000 -1.748852e+000 1.090703e-004 8.375438e+001 2.101918e-004 8.844676e+001 9.999279e-001 -2.972290e+000
75298500 1.001065e+000 -1.731613e+000 1.267698e-004 9.692273e+001 2.290836e-004 8.930225e+001 9.986129e-001 -2.980999e+000
76048485 1.000996e+000 -1.720044e+000 1.405575e-004 7.790942e+001 2.212328e-004 9.338133e+001 1.000362e+000 -3.031434e+000
76798470 1.000658e+000 -1.691024e+000 1.212378e-004 8.400711e+001 2.686464e-004 9.554618e+001 9.990841e-001 -3.017386e+000
77548455 1.000220e+000 -1.769986e+000 9.615786e-005 8.468282e+001 2.455836e-004 9.990755e+001 1.001810e+000 -3.019727e+000
78298440 1.001128e+000 -1.778852e+000 1.191550e-004 9.753378e+001 2.188663e-004 8.697904e+001 9.995658e-001 -3.107925e+000
79048425 1.001157e+000 -1.809523e+000 1.499933e-004 8.703704e+001 2.971666e-004 8.837110e+001 1.001352e+000 -3.140332e+000
79798410 1.001242e+000 -1.793790e+000 1.549124e-004 8.696868e+001 2.847322e-004 9.319602e+001 9.994376e-001 -3.089165e+000
80548395 1.001249e+000 -1.805354e+000 1.246124e-004 9.990009e+001 2.222916e-004 8.620632e+001 9.986907e-001 -3.223732e+000
81298380 1.000763e+000 -1.854667e+000 1.288079e-004 8.356384e+001 2.890804e-004 8.919962e+001 1.000048e+000 -3.123371e+000
82048365 1.000591e+000 -1.821150e+000 1.289676e-004 7.380760e+001 2.517713e-004 9.011013e+001 1.001891e+000 -3.197895e+000
82798350 1.001429e+000 -1.816181e+000 1.307920e-004 9.476105e+001 2.578295e-004 8.762704e+001 1.000809e+000 -3.236351e+000
83548335 1.000459e+000 -1.868446e+000 1.584075e-004 8.615170e+001 2.378926e-004 8.304286e+001 9.993716e-001 -3.276565e+000
84298320 1.001462e+000 -1.915722e+000 1.392311e-004 8.440751e+001 2.310690e-004 8.029831e+001 1.000329e+000 -3.251645e+000
85048305 1.000309e+000 -1.913533e+000 1.182172e-004 9.375958e+001 2.638196e-004 8.323484e+001 1.000384e+000 -3.332498e+000
85798290 9.999853e-001 -1.947323e+000 1.364446e-004 7.587223e+001 2.688401e-004 8.737266e+001 1.000839e+000 -3.303449e+000
86548275 1.000890e+000 -1.950300e+000 1.188576e-004 9.591066e+001 3.200138e-004 8.563589e+001 1.000118e+000 -3.309601e+000
87298260 1.000202e+000 -1.934219e+000 1.298273e-004 8.365847e+001 2.374451e-004 9.085942e+001 1.001691e+000 -3.370945e+000
88048245 1.000348e+000 -1.915473e+000 1.271330e-004 8.795069e+001 2.505934e-004 8.556795e+001 1.000931e+000 -3.453843e+000
88798230 1.001541e+000 -1.971904e+000 1.163896e-004 1.015250e+002 2.844503e-004 8.259009e+001 1.001671e+000 -3.458194e+000
89548215 1.001395e+000 -1.976216e+000 1.573800e-004 7.030777e+001 2.734477e-004 7.451349e+001 9.990571e-001 -3.470816e+000
90298200 1.000096e+000 -2.004140e+000 1.318583e-004 8.471706e+001 2.886726e-004 9.693037e+001 1.001705e+000 -3.334211e+000
91048185 1.000645e+000 -2.061169e+000 1.410540e-004 9.666750e+001 2.616875e-004 9.224883e+001 1.000343e+000 -3.459740e+000
91798170 1.001199e+000 -2.026879e+000 1.692022e-004 9.064510e+001 2.784052e-004 8.004449e+001 1.001232e+000 -3.541131e+000
92548155 1.001923e+000 -2.048759e+000 1.367956e-004 9.008078e+001 3.176964e-004 8.374934e+001 1.001562e+000 -3.578550e+000
93298140 1.002098e+000 -2.069749e+000 1.412924e-004 1.018371e+002 3.007553e-004 8.330201e+001 1.001444e+000 -3.504046e+000
94048125 1.001478e+000 -2.116999e+000 1.616217e-004 8.328099e+001 2.648533e-004 8.446529e+001 1.002283e+000 -3.602346e+000
94798110 1.001720e+000 -2.056392e+000 1.412097e-004 8.789091e+001 3.157635e-004 9.422954e+001 1.000933e+000 -3.603175e+000
95548095 1.001113e+000 -2.091322e+000 1.617383e-004 8.428419e+001 2.661070e-004 7.822958e+001 9.999776e-001 -3.585075e+000
96298080 1.001200e+000 -2.056532e+000 1.533651e-004 7.718310e+001 3.457263e-004 8.800109e+001 1.000359e+000 -3.646870e+000
97048065 1.000730e+000 -2.142782e+000 1.424294e-004 8.693365e+001 2.710433e-004 8.588187e+001 1.000744e+000 -3.634134e+000
97798050 1.001171e+000 -2.060294e+000 1.654951e-004 7.563944e+001 2.327840e-004 7.090443e+001 1.001927e+000 -3.751255e+000
98548035 1.001687e+000 -2.138567e+000 1.610090e-004 8.602486e+001 2.911876e-004 8.206453e+001 1.001305e+000 -3.723587e+000
99298020 1.001774e+000 -2.146894e+000 1.370435e-004 8.347353e+001 2.739729e-004 8.148423e+001 1.002042e+000 -3.841339e+000
100048005 1.001759e+000 -2.167723e+000 1.551029e-004 8.439999e+001 3.103098e-004 7.353391e+001 1.000294e+000 -3.809566e+000
100797990 1.001798e+000 -2.160882e+000 1.851303e-004 8.949696e+001 2.371226e-004 7.819065e+001 1.001300e+000 -3.709422e+000
101547975 1.000868e+000 -2.185630e+000 1.750776e-004 9.113435e+001 2.574741e-004 9.085129e+001 9.997982e-001 -3.781071e+000
102297960 1.002830e+000 -2.171326e+000 1.738956e-004 8.846670e+001 2.551017e-004 8.773744e+001 1.001881e+000 -3.768432e+000
103047945 1.001267e+000 -2.195412e+000 1.351103e-004 8.993415e+001 3.230102e-004 8.989162e+001 1.000239e+000 -3.790410e+000
103797930 1.001225e+000 -2.222677e+000 1.457447e-004 8.573363e+001 3.483482e-004 7.741285e+001 1.002077e+000 -3.895703e+000
104547915 1.001347e+000 -2.190191e+000 1.884912e-004 8.431568e+001 3.329780e-004 9.230020e+001 1.002616e+000 -3.813612e+000
105297900 1.001044e+000 -2.259142e+000 1.582766e-004 8.074024e+001 3.774206e-004 7.432272e+001 1.002794e+000 -3.786299e+000
106047885 1.002351e+000 -2.246834e+000 1.614153e-004 8.602708e+001 3.371995e-004 8.747496e+001 1.002526e+000 -3.987537e+000
106797870 1.002320e+000 -2.267743e+000 1.795879e-004 8.894854e+001 3.439798e-004 8.118813e+001 1.002271e+000 -4.001259e+000
107547855 1.002267e+000 -2.316156e+000 1.673050e-004 8.744341e+001 3.491707e-004 8.665865e+001 1.002240e+000 -3.859317e+000
108297840 1.001742e+000 -2.295848e+000 1.585570e-004 8.625333e+001 3.592239e-004 7.872760e+001 1.001213e+000 -4.038774e+000
109047825 1.001883e+000 -2.341309e+000 1.712980e-004 9.215049e+001 2.844977e-004 7.738971e+001 1.003410e+000 -4.113951e+000
109797810 1.001341e+000 -2.380330e+000 1.708538e-004 9.042800e+001 3.592304e-004 8.193804e+001 1.002671e+000 -4.007211e+000
110547795 1.001351e+000 -2.316774e+000 1.770308e-004 9.349538e+001 3.032648e-004 7.983043e+001 1.002677e+000 -4.093737e+000
111297780 1.001953e+000 -2.340566e+000 1.613203e-004 8.948008e+001 3.148607e-004 7.226925e+001 1.001213e+000 -3.978704e+000
112047765 1.000906e+000 -2.383523e+000 2.110846e-004 8.698172e+001 3.169157e-004 8.364306e+001 1.000876e+000 -4.034802e+000
112797750 1.001593e+000 -2.411798e+000 1.903229e-004 9.100423e+001 2.854893e-004 8.319829e+001 1.001398e+000 -4.113780e+000
113547735 1.002092e+000 -2.390371e+000 1.787061e-004 8.589774e+001 2.385329e-004 9.569073e+001 1.001307e+000 -4.101515e+000
114297720 1.000873e+000 -2.403644e+000 1.897642e-004 8.613499e+001 2.560462e-004 9.154520e+001 1.003945e+000 -4.213239e+000
115047705 1.002110e+000 -2.403614e+000 1.668832e-004 9.040723e+001 3.381484e-004 8.954601e+001 1.002420e+000 -4.219003e+000
115797690 1.002272e+000 -2.422531e+000 1.719155e-004 8.486214e+001 3.367136e-004 8.976559e+001 1.002625e+000 -4.315274e+000
116547675 1.002279e+000 -2.468186e+000 1.945871e-004 8.566239e+001 3.025160e-004 7.955804e+001 1.001976e+000 -4.207832e+000
117297660 1.002187e+000 -2.439286e+000 1.955029e-004 9.251393e+001 3.430456e-004 8.661206e+001 1.002716e+000 -4.276077e+000
118047645 1.001783e+000 -2.461193e+000 1.835024e-004 9.010619e+001 3.857730e-004 8.348981e+001 1.003212e+000 -4.242051e+000
