!Agilent Technologies,N5230C,SG49000117,A.08.50.07
!Agilent N5230C: A.08.50.07
!Date: Friday, May 17, 2024 07:51:04
!Correction: S11(Full 2 Port(1,2)) 
!S21(Full 2 Port(1,2)) 
!S12(Full 2 Port(1,2)) 
!S22(Full 2 Port(1,2)) 
!S2P File: Measurements: S11, S21, S12, S22:
# Hz S  MA   R 50
300000 1.007274e+000 -3.863628e-001 8.479499e-005 -1.436171e+002 2.226593e-004 -1.630312e+002 1.015913e+000 -8.270166e-001
1049985 1.000639e+000 -3.277595e-001 7.441216e-005 3.837185e+001 2.759751e-005 1.350809e+002 9.997033e-001 -4.960409e-001
1799970 9.992983e-001 -2.196632e-001 4.984396e-005 -1.759761e+002 1.665088e-004 8.677039e+001 9.981266e-001 -4.529756e-001
2549955 9.993729e-001 -2.200535e-001 1.178268e-004 -1.142916e+002 3.009549e-004 1.690082e+002 9.992961e-001 -3.537491e-001
3299940 1.000345e+000 -1.935357e-001 3.366296e-005 -1.481359e+002 1.355506e-004 6.349151e+001 9.967621e-001 -3.850371e-001
4049925 9.995986e-001 -2.254979e-001 6.783367e-005 -1.275345e+002 2.176221e-004 5.930263e+001 9.992378e-001 -3.320825e-001
4799910 9.994879e-001 -2.172622e-001 2.027983e-005 -4.866325e+001 1.149668e-004 9.606647e+001 9.982882e-001 -3.352828e-001
5549895 9.998558e-001 -2.406871e-001 5.089180e-005 5.257826e+001 1.642207e-004 -1.751425e+002 9.992349e-001 -2.504055e-001
6299880 1.000000e+000 -2.109609e-001 1.778762e-005 9.313379e+001 1.577782e-004 -8.170441e+001 9.998121e-001 -4.040725e-001
7049865 9.998213e-001 -2.488877e-001 3.535970e-005 -5.861211e+000 1.013470e-004 -1.021436e+002 9.985839e-001 -3.782637e-001
7799850 1.000202e+000 -2.471090e-001 8.207354e-005 -4.718727e+001 1.938885e-004 -1.571169e+002 9.987072e-001 -4.582216e-001
8549835 9.996572e-001 -3.065015e-001 6.917804e-005 -8.316945e+001 2.459344e-004 9.959646e+001 9.995245e-001 -5.229110e-001
9299820 9.997364e-001 -2.917049e-001 1.353743e-005 -1.614561e+002 2.983949e-004 1.230270e+002 9.982431e-001 -4.914387e-001
10049805 9.999062e-001 -3.142354e-001 3.656941e-005 -7.176252e+001 8.728991e-005 -4.560741e+001 9.980745e-001 -5.536891e-001
10799790 9.990519e-001 -3.039309e-001 6.649840e-005 7.604243e+001 1.493308e-004 5.310363e+001 9.985026e-001 -5.631322e-001
11549775 1.000150e+000 -3.610959e-001 3.133029e-005 -6.883054e+001 2.796448e-004 -1.854237e+001 9.978276e-001 -5.606699e-001
12299760 9.996197e-001 -3.624401e-001 2.605700e-005 1.030676e+002 2.728597e-004 -1.349346e+002 1.000249e+000 -6.164445e-001
13049745 9.997339e-001 -3.770704e-001 7.695450e-005 -1.738790e+002 1.160128e-004 1.614759e+001 9.991099e-001 -6.539072e-001
13799730 9.994498e-001 -4.107457e-001 4.070663e-005 -1.590075e+002 1.501748e-004 6.716637e+001 9.979434e-001 -7.616254e-001
14549715 9.997270e-001 -4.404398e-001 4.923513e-005 1.176991e+002 2.999299e-004 -1.452872e+002 9.991043e-001 -6.376438e-001
15299700 9.988264e-001 -4.669469e-001 8.115733e-005 -1.520837e+002 1.467721e-004 1.437200e+002 9.981804e-001 -7.580336e-001
16049685 1.000234e+000 -4.311086e-001 2.729862e-005 8.998295e+000 2.097549e-004 -2.097635e+001 1.000024e+000 -7.688454e-001
16799670 9.993474e-001 -4.252272e-001 9.406621e-005 1.293375e+002 4.047273e-004 9.084281e+001 1.000284e+000 -7.996474e-001
17549655 9.998390e-001 -5.019655e-001 9.016828e-005 7.925677e+001 2.070837e-004 1.648406e+001 9.986290e-001 -8.444109e-001
18299640 9.990546e-001 -4.780194e-001 6.103647e-005 1.274919e+002 3.742105e-004 8.893243e+001 9.978753e-001 -8.764578e-001
19049625 9.995866e-001 -5.539885e-001 3.704480e-005 -1.136494e+002 1.526262e-004 1.347263e+002 9.987737e-001 -8.668085e-001
19799610 1.000197e+000 -5.389160e-001 3.415360e-005 1.056420e+002 2.021965e-004 2.596652e+001 9.986969e-001 -9.224037e-001
20549595 9.990919e-001 -5.814096e-001 4.313701e-005 -7.300282e+001 3.143462e-004 -1.558443e+002 9.974520e-001 -1.047512e+000
21299580 9.996871e-001 -5.691028e-001 2.641350e-005 1.388363e+002 8.718701e-005 1.241019e+002 9.979099e-001 -9.107420e-001
22049565 9.990619e-001 -6.093003e-001 3.432807e-005 -5.303067e+001 1.564017e-004 1.137751e+002 9.984095e-001 -1.047865e+000
22799550 9.999977e-001 -5.975590e-001 2.902962e-005 -1.398885e+002 2.124489e-004 4.461831e+001 9.997002e-001 -1.071312e+000
23549535 9.999369e-001 -6.446776e-001 4.487302e-005 5.870583e+001 1.190138e-004 1.114446e+002 9.997272e-001 -1.077779e+000
24299520 9.999012e-001 -7.150106e-001 1.088113e-004 5.957816e+001 3.710091e-004 -6.734227e+000 9.973899e-001 -1.116316e+000
25049505 9.996085e-001 -7.266229e-001 6.022922e-005 3.033112e+001 3.068050e-004 -1.575712e+002 9.984269e-001 -1.154075e+000
25799490 9.997243e-001 -6.986165e-001 9.433119e-005 1.182520e+002 1.335518e-004 6.280732e+001 9.981987e-001 -1.204588e+000
26549475 1.000315e+000 -7.001132e-001 1.046416e-004 2.646884e+001 1.147584e-004 1.375664e+002 9.984931e-001 -1.211482e+000
27299460 9.996105e-001 -7.145888e-001 5.947011e-005 7.485479e+001 2.484410e-004 1.999226e+001 9.992127e-001 -1.280057e+000
28049445 9.991461e-001 -7.302665e-001 1.156412e-004 1.812730e+001 2.718665e-004 1.019044e+002 1.000463e+000 -1.267154e+000
28799430 9.990619e-001 -8.373194e-001 1.954280e-004 6.692560e+001 2.237051e-004 4.227333e+001 9.980710e-001 -1.330352e+000
29549415 9.995961e-001 -7.476931e-001 1.192539e-004 9.769033e+001 2.953892e-004 9.953685e+001 9.988194e-001 -1.313036e+000
30299400 1.000058e+000 -8.136115e-001 4.460601e-005 4.760826e+001 2.898024e-005 1.703384e+002 9.996010e-001 -1.393509e+000
31049385 1.000111e+000 -7.488146e-001 1.762896e-004 1.182944e+002 2.139186e-004 8.641628e+001 9.983195e-001 -1.461308e+000
31799370 1.000281e+000 -8.906505e-001 4.807898e-005 5.180993e+001 1.510770e-004 6.163081e+001 9.994825e-001 -1.464366e+000
32549355 1.000055e+000 -8.547861e-001 1.069428e-004 -1.489044e+002 2.419319e-004 8.278035e+001 9.998996e-001 -1.474801e+000
33299340 1.000123e+000 -9.010792e-001 3.386275e-005 -1.382856e+001 2.485613e-004 1.301922e+002 9.990717e-001 -1.520065e+000
34049325 9.994498e-001 -9.167021e-001 6.872677e-005 -1.342632e+002 3.421642e-004 1.012198e+002 9.979283e-001 -1.526374e+000
34799310 9.990509e-001 -9.778522e-001 1.929997e-004 1.103187e+002 1.345451e-004 1.079081e+002 9.974192e-001 -1.578233e+000
35549295 9.995149e-001 -9.805842e-001 3.416847e-005 6.509863e+001 3.477409e-004 1.021025e+002 1.000212e+000 -1.619630e+000
36299280 9.994522e-001 -9.777774e-001 3.534149e-005 -1.282435e+002 1.130562e-004 4.480163e+001 9.984607e-001 -1.629553e+000
37049265 1.000211e+000 -1.003134e+000 7.499149e-005 8.661797e+001 6.620233e-005 -1.263076e+002 9.979730e-001 -1.708306e+000
37799250 9.994840e-001 -9.762191e-001 1.287887e-004 7.130866e+001 2.729463e-004 2.632900e+001 9.986587e-001 -1.679467e+000
38549235 9.992158e-001 -1.016317e+000 1.630543e-004 9.998708e+001 2.450525e-004 1.403900e+002 9.967359e-001 -1.797504e+000
39299220 9.999005e-001 -1.012453e+000 9.333805e-005 1.001918e+002 2.170843e-004 5.768417e+001 9.977848e-001 -1.732344e+000
40049205 1.000669e+000 -9.703611e-001 9.020937e-005 3.790797e+001 7.817899e-005 2.912793e+001 9.990228e-001 -1.745322e+000
40799190 9.996948e-001 -1.036150e+000 1.773113e-004 2.093167e+001 1.388589e-004 3.971654e+001 9.996020e-001 -1.927834e+000
41549175 9.990861e-001 -1.073323e+000 1.590141e-004 9.515496e+001 4.864279e-005 -8.545961e+001 9.990594e-001 -1.897568e+000
42299160 9.983752e-001 -1.100141e+000 5.039466e-005 -1.394978e+002 3.642571e-004 1.007028e+002 9.971205e-001 -1.783941e+000
43049145 1.000267e+000 -1.122341e+000 8.359149e-005 -2.361739e+001 4.008244e-004 9.063742e+001 9.981598e-001 -1.927001e+000
43799130 9.997402e-001 -1.134759e+000 2.109295e-004 -8.689204e+000 2.923357e-004 1.359792e+002 9.967166e-001 -1.902320e+000
44549115 9.999107e-001 -1.119686e+000 2.181793e-004 8.913337e+001 1.660638e-004 1.652495e+002 9.990820e-001 -2.027496e+000
45299100 1.000152e+000 -1.213719e+000 2.276312e-004 6.239323e+001 4.404583e-004 6.089815e+001 1.000549e+000 -1.931511e+000
46049085 1.000259e+000 -1.181393e+000 1.647188e-004 4.098061e+001 3.644678e-004 9.970412e+001 1.000378e+000 -2.008374e+000
46799070 9.996852e-001 -1.172093e+000 1.521792e-004 1.445683e+002 3.755510e-004 2.091424e+001 9.986495e-001 -2.026369e+000
47549055 1.000487e+000 -1.180512e+000 1.884775e-004 1.142383e+002 3.837071e-004 4.135189e+000 9.987816e-001 -2.187063e+000
48299040 1.001070e+000 -1.180660e+000 1.282335e-004 1.131256e+002 1.207965e-004 -4.204984e+001 9.979066e-001 -2.070827e+000
49049025 9.997907e-001 -1.264284e+000 6.357294e-005 1.981854e+001 1.052072e-004 -6.048325e+001 1.000293e+000 -2.083947e+000
49799010 9.991876e-001 -1.304600e+000 1.592386e-004 1.273007e+002 2.565962e-004 1.455889e+002 9.970812e-001 -2.067807e+000
50548995 9.987901e-001 -1.302243e+000 1.519697e-004 8.675548e+001 3.177568e-004 6.598862e+000 9.981682e-001 -2.202674e+000
51298980 1.000448e+000 -1.255576e+000 7.001490e-005 8.004055e+001 2.090618e-004 -1.105476e+002 9.970670e-001 -2.187258e+000
52048965 9.991859e-001 -1.308199e+000 1.352400e-004 1.305024e+002 2.517054e-004 -1.367921e+002 9.978533e-001 -2.056631e+000
52798950 9.994622e-001 -1.282775e+000 1.680431e-004 8.467325e+001 2.815604e-004 -5.544774e+001 1.000329e+000 -2.406144e+000
53548935 1.001228e+000 -1.393152e+000 1.551799e-004 -1.561733e+002 9.061748e-005 -4.885466e+001 9.983567e-001 -2.341653e+000
54298920 1.000059e+000 -1.362415e+000 8.161461e-005 -2.627055e+000 3.773009e-004 8.501460e+001 9.960417e-001 -2.365540e+000
55048905 9.989417e-001 -1.374561e+000 1.075570e-004 1.061259e+002 3.383788e-004 1.279550e+002 9.964178e-001 -2.405523e+000
55798890 9.987152e-001 -1.426691e+000 9.411561e-005 5.734262e+001 3.806071e-004 1.453545e+002 9.982957e-001 -2.690613e+000
56548875 1.000143e+000 -1.483646e+000 1.379510e-004 1.489180e+002 1.961881e-004 1.056159e+002 9.960005e-001 -2.407377e+000
57298860 1.001450e+000 -1.464632e+000 1.658307e-004 1.057011e+002 2.315733e-004 1.469966e+002 9.993765e-001 -2.449463e+000
58048845 9.998714e-001 -1.481388e+000 1.458148e-004 8.601207e+001 2.862066e-004 -1.414704e+002 9.995702e-001 -2.431036e+000
58798830 9.994032e-001 -1.404303e+000 7.197094e-005 8.653220e+001 1.976825e-004 9.949258e+001 9.993269e-001 -2.438882e+000
59548815 9.999186e-001 -1.561160e+000 1.937611e-004 9.892094e+001 3.801799e-004 9.277031e+001 9.983647e-001 -2.565488e+000
60298800 1.000801e+000 -1.532385e+000 1.101120e-004 8.133872e+001 3.650390e-004 3.261722e+001 1.000066e+000 -2.642595e+000
61048785 1.001177e+000 -1.486602e+000 1.698018e-004 9.927247e+001 5.476669e-004 1.080868e+002 9.985639e-001 -2.526995e+000
61798770 9.995471e-001 -1.603953e+000 2.717831e-004 8.989086e+001 1.939628e-004 9.598605e+001 9.977576e-001 -2.673357e+000
62548755 1.000157e+000 -1.531661e+000 2.608024e-004 1.201133e+002 3.327575e-004 4.385224e+001 9.990037e-001 -2.810130e+000
63298740 1.000298e+000 -1.529719e+000 1.762442e-004 9.251158e+001 6.711035e-005 1.031579e+002 1.001261e+000 -2.693381e+000
64048725 1.000176e+000 -1.520524e+000 1.425702e-004 8.485194e+001 1.584821e-004 5.569618e+001 9.996198e-001 -2.686246e+000
64798710 9.998758e-001 -1.646150e+000 1.345108e-004 7.740735e+001 2.434942e-004 -1.487446e+002 9.984675e-001 -2.876455e+000
65548695 1.001077e+000 -1.638044e+000 1.750426e-004 8.456626e+001 2.434642e-004 1.110744e+002 9.997582e-001 -2.767014e+000
66298680 1.000895e+000 -1.653056e+000 9.867440e-005 -3.411411e+001 4.417272e-004 9.912997e+001 9.966444e-001 -2.852106e+000
67048665 1.001013e+000 -1.586731e+000 1.361887e-004 7.493150e+001 7.188872e-004 1.510616e+002 1.000495e+000 -2.847527e+000
67798650 1.000441e+000 -1.622579e+000 4.988922e-005 9.926131e+001 3.963703e-004 9.148967e+001 9.973589e-001 -2.798620e+000
68548635 9.995908e-001 -1.725436e+000 1.409262e-004 1.136519e+002 3.698354e-004 1.198050e+002 1.000207e+000 -2.880287e+000
69298620 1.000261e+000 -1.730056e+000 1.829950e-004 4.716731e+001 7.414962e-004 1.337145e+002 1.000360e+000 -2.859566e+000
70048605 1.000514e+000 -1.711155e+000 1.570663e-004 7.858936e+001 3.088413e-004 1.020614e+002 9.996623e-001 -3.017589e+000
70798590 1.000493e+000 -1.693237e+000 3.287627e-004 7.427396e+001 4.177522e-004 -1.638133e+002 9.982227e-001 -3.078577e+000
71548575 1.001209e+000 -1.698602e+000 9.445196e-005 9.083390e+001 5.241567e-004 1.230223e+002 9.985930e-001 -3.188480e+000
72298560 1.001189e+000 -1.834135e+000 7.692154e-005 1.648626e+002 4.098518e-004 1.027239e+002 9.982962e-001 -3.204431e+000
73048545 1.001227e+000 -1.823171e+000 3.031396e-004 9.409921e+001 2.766918e-004 8.245472e+001 9.997715e-001 -3.098414e+000
73798530 1.000740e+000 -1.761597e+000 1.242077e-004 1.018170e+002 6.327732e-004 7.268995e+001 1.000751e+000 -3.266661e+000
74548515 1.001018e+000 -1.876596e+000 1.285842e-004 5.550047e+001 7.039576e-004 7.027689e+001 9.997065e-001 -3.209744e+000
75298500 1.000002e+000 -1.801212e+000 7.265358e-005 1.221233e+002 2.028585e-004 7.385667e+001 9.977192e-001 -3.196207e+000
76048485 1.000716e+000 -1.801934e+000 1.342863e-004 1.234202e+002 3.148731e-004 6.014966e+001 9.992465e-001 -3.335608e+000
76798470 1.000767e+000 -1.788482e+000 1.455483e-004 5.297213e+001 2.708079e-004 2.140486e+001 9.975010e-001 -3.258522e+000
77548455 1.001172e+000 -1.939176e+000 1.604367e-004 6.779334e+001 4.087252e-004 3.499118e+001 9.999226e-001 -3.290320e+000
78298440 1.000166e+000 -1.909924e+000 3.218011e-004 1.099523e+002 2.989476e-004 -1.570477e+002 9.990044e-001 -3.343635e+000
79048425 1.001139e+000 -1.919150e+000 1.255156e-004 1.096658e+002 1.923222e-004 9.601596e+001 9.992745e-001 -3.410510e+000
79798410 1.001319e+000 -1.910473e+000 2.056000e-004 1.071580e+002 5.222916e-004 1.098187e+002 1.000013e+000 -3.356181e+000
80548395 1.001056e+000 -1.923976e+000 1.517734e-004 6.083515e+001 8.257839e-005 -8.935526e+001 9.978616e-001 -3.427028e+000
81298380 1.001133e+000 -1.944067e+000 3.910018e-004 1.246220e+002 4.622130e-004 6.830703e+001 1.000332e+000 -3.372574e+000
82048365 1.000501e+000 -1.932203e+000 3.062306e-004 8.228241e+001 4.710911e-004 9.689162e+001 1.000763e+000 -3.452905e+000
82798350 1.000543e+000 -1.957651e+000 1.270635e-004 1.273952e+002 4.100898e-004 8.051343e+001 1.001325e+000 -3.539388e+000
83548335 1.000541e+000 -2.015317e+000 1.149899e-004 1.007284e+002 4.948143e-004 6.763987e+001 9.984756e-001 -3.561119e+000
84298320 1.001512e+000 -2.021130e+000 1.857582e-004 8.997795e+001 3.669665e-004 8.189940e+001 9.995052e-001 -3.504417e+000
85048305 1.000414e+000 -2.007303e+000 3.595803e-004 5.768470e+001 7.114335e-004 7.300615e+001 1.000095e+000 -3.575216e+000
85798290 1.000200e+000 -2.058183e+000 4.551257e-004 9.866424e+001 3.038872e-004 8.850875e+001 9.992036e-001 -3.637919e+000
86548275 1.001414e+000 -2.081101e+000 3.307212e-004 9.251752e+001 5.478844e-004 9.674107e+001 1.001213e+000 -3.580395e+000
87298260 9.998438e-001 -2.031850e+000 2.429574e-004 3.705738e+001 1.982069e-004 6.828663e+001 1.001943e+000 -3.673841e+000
88048245 1.000669e+000 -2.051568e+000 2.018782e-004 7.311816e+001 3.988414e-004 4.847858e+001 1.000808e+000 -3.796934e+000
88798230 1.001037e+000 -2.076985e+000 3.476045e-004 8.273175e+001 2.790087e-004 1.098732e+002 1.001105e+000 -3.741603e+000
89548215 1.001254e+000 -2.164173e+000 2.176690e-004 3.503098e+001 2.679132e-004 1.487124e+002 9.977829e-001 -3.741628e+000
90298200 1.000253e+000 -2.158058e+000 1.771381e-004 9.094823e+001 3.334781e-004 7.008495e+001 1.001522e+000 -3.577007e+000
91048185 1.000829e+000 -2.179763e+000 1.618323e-004 8.917932e+001 3.415482e-004 8.582520e+001 1.000991e+000 -3.734917e+000
91798170 1.001334e+000 -2.165948e+000 2.440745e-004 5.172656e+001 5.317586e-004 7.897016e+001 1.001444e+000 -3.834972e+000
92548155 1.000778e+000 -2.173056e+000 1.837535e-004 8.798274e+001 3.758821e-004 8.567886e+001 1.000524e+000 -3.823895e+000
93298140 1.001346e+000 -2.175702e+000 3.321406e-005 1.008575e+002 2.705120e-004 1.211549e+002 1.003683e+000 -3.777720e+000
94048125 1.001308e+000 -2.189365e+000 4.824968e-004 1.069399e+002 4.527182e-004 1.385263e+002 1.002631e+000 -3.829140e+000
94798110 1.003091e+000 -2.188367e+000 2.951495e-004 3.515945e+001 2.765075e-004 1.375939e+002 1.000121e+000 -3.800608e+000
95548095 1.000575e+000 -2.171113e+000 2.188432e-004 6.493388e+001 6.438287e-004 8.545915e+001 1.001480e+000 -3.921280e+000
96298080 1.001539e+000 -2.215394e+000 2.259367e-004 1.215301e+002 6.688682e-004 9.562629e+001 1.000652e+000 -3.900162e+000
97048065 9.996616e-001 -2.283222e+000 2.282278e-004 1.724137e+002 2.303286e-004 1.029786e+002 9.990894e-001 -3.900317e+000
97798050 9.989580e-001 -2.184116e+000 2.923627e-004 1.243761e+002 4.555162e-004 6.356781e+001 1.000512e+000 -4.043264e+000
98548035 1.003018e+000 -2.335426e+000 2.794905e-004 1.138451e+002 3.968180e-004 1.073880e+002 1.001278e+000 -3.997815e+000
99298020 1.002200e+000 -2.297370e+000 2.864469e-004 8.910133e+001 7.677039e-004 7.008584e+001 1.002714e+000 -4.089758e+000
100048005 1.001616e+000 -2.296660e+000 3.420792e-004 7.679459e+001 3.355221e-004 1.222174e+002 1.001296e+000 -4.102612e+000
100797990 1.001967e+000 -2.360500e+000 1.405731e-004 8.125941e+001 3.833193e-004 9.307543e+001 1.000495e+000 -4.044189e+000
101547975 1.001063e+000 -2.374456e+000 1.418014e-004 1.385370e+002 1.784619e-004 1.637511e+002 1.000213e+000 -4.004122e+000
102297960 1.003451e+000 -2.319277e+000 2.683377e-004 1.058127e+002 3.201111e-004 5.820936e+001 1.002699e+000 -4.072261e+000
103047945 1.001487e+000 -2.384072e+000 1.253626e-004 1.787173e+002 5.512837e-004 3.580024e+001 1.000320e+000 -4.119748e+000
103797930 1.001205e+000 -2.422380e+000 2.420389e-004 1.107563e+002 4.789630e-004 1.803143e+001 1.003859e+000 -4.054310e+000
104547915 1.001891e+000 -2.375509e+000 1.337751e-004 4.072115e+001 2.831810e-004 2.815552e+001 1.003172e+000 -4.165986e+000
105297900 1.001355e+000 -2.414290e+000 3.386886e-004 9.060023e+001 8.121977e-004 7.779290e+001 1.002563e+000 -4.182216e+000
106047885 1.002137e+000 -2.433596e+000 2.991280e-004 5.990971e+001 6.620308e-004 1.264928e+002 1.001465e+000 -4.344158e+000
106797870 1.002658e+000 -2.386337e+000 1.271769e-004 1.074426e+002 5.266414e-004 1.279571e+002 1.003813e+000 -4.326385e+000
107547855 1.002315e+000 -2.469301e+000 2.152980e-004 3.097722e+001 5.113535e-004 6.930254e+001 1.001536e+000 -4.151164e+000
108297840 1.001637e+000 -2.480324e+000 3.218944e-004 8.879382e+001 6.068425e-004 1.033284e+002 1.000662e+000 -4.379116e+000
109047825 1.002117e+000 -2.474746e+000 3.133811e-004 8.363737e+001 6.699827e-004 1.414831e+002 1.001571e+000 -4.591701e+000
109797810 1.000231e+000 -2.511530e+000 1.720932e-004 1.361114e+002 5.201536e-004 1.305375e+002 1.002584e+000 -4.340196e+000
110547795 1.001166e+000 -2.474253e+000 1.336988e-004 5.010081e+001 5.388688e-004 9.633535e+001 1.001695e+000 -4.411944e+000
111297780 1.001997e+000 -2.460205e+000 3.620787e-004 7.740868e+001 7.296613e-004 8.076093e+001 1.002154e+000 -4.248882e+000
112047765 1.001657e+000 -2.552376e+000 1.001086e-004 1.238247e+002 3.504765e-004 1.222755e+002 9.996114e-001 -4.343047e+000
112797750 1.001768e+000 -2.561508e+000 2.560308e-004 3.365702e+001 5.458147e-004 5.647150e+001 1.000753e+000 -4.381584e+000
113547735 1.002314e+000 -2.561749e+000 2.588989e-004 9.344633e+001 2.332535e-004 6.984595e+001 1.002178e+000 -4.477406e+000
114297720 1.001624e+000 -2.576758e+000 1.490904e-004 9.829198e+001 4.753651e-004 7.928075e+001 1.002470e+000 -4.494879e+000
115047705 1.002296e+000 -2.548782e+000 2.119326e-004 5.788026e+001 4.408440e-004 4.585316e+001 1.002016e+000 -4.605309e+000
115797690 1.003108e+000 -2.616726e+000 1.309682e-004 7.688685e+001 5.572158e-004 4.757231e+001 1.002443e+000 -4.670023e+000
116547675 1.002669e+000 -2.625566e+000 2.387654e-004 7.449783e+001 6.810123e-004 7.614431e+001 1.001801e+000 -4.576375e+000
117297660 1.001639e+000 -2.590604e+000 1.095316e-004 -1.690730e+002 1.070327e-004 1.453953e+002 1.001367e+000 -4.614428e+000
118047645 1.002231e+000 -2.678566e+000 1.117999e-004 8.455508e+001 7.243402e-004 8.974189e+001 1.002042e+000 -4.678779e+000
