!Agilent Technologies,N5230C,SG49000117,A.08.50.07
!Agilent N5230C: A.08.50.07
!Date: Friday, May 17, 2024 04:51:43
!Correction: S11(Full 2 Port(1,2)) 
!S21(Full 2 Port(1,2)) 
!S12(Full 2 Port(1,2)) 
!S22(Full 2 Port(1,2)) 
!S2P File: Measurements: S11, S21, S12, S22:
# Hz S  MA   R 50
300000 1.005795e+000 -4.236386e-001 4.455171e-005 -1.230907e+002 3.573600e-005 1.732278e+002 1.014341e+000 -7.517596e-001
1049985 1.000830e+000 -3.022409e-001 1.916608e-005 1.796255e+002 2.132355e-005 1.106207e+002 9.995800e-001 -4.747826e-001
1799970 9.996211e-001 -2.054851e-001 1.993102e-005 1.617927e+002 8.944079e-006 1.598157e+002 9.984974e-001 -3.961490e-001
2549955 9.993083e-001 -1.807969e-001 9.031088e-005 -1.170971e+002 1.611981e-004 -1.394264e+002 9.985791e-001 -3.088889e-001
3299940 1.000005e+000 -1.784393e-001 1.528092e-005 1.463233e+002 1.277993e-005 9.248521e+001 9.975891e-001 -3.294670e-001
4049925 9.995799e-001 -2.360138e-001 1.171771e-005 1.158031e+002 4.121877e-005 1.132958e+002 9.985433e-001 -3.182988e-001
4799910 9.999048e-001 -2.247980e-001 6.685314e-006 1.411621e+002 6.568311e-006 -1.653860e+002 9.989668e-001 -3.510264e-001
5549895 9.997184e-001 -2.359676e-001 1.477752e-005 9.371809e+001 2.039547e-005 6.135703e+000 9.989741e-001 -3.422448e-001
6299880 9.995058e-001 -2.316250e-001 1.933861e-005 1.502673e+002 2.718158e-005 1.460900e+002 9.993244e-001 -4.047584e-001
7049865 9.993415e-001 -2.646593e-001 3.602825e-005 7.593449e+001 3.947499e-005 1.223023e+002 9.987583e-001 -4.386800e-001
7799850 9.997217e-001 -2.948501e-001 2.958966e-005 1.158834e+002 6.848734e-005 9.879852e+001 9.977017e-001 -4.767482e-001
8549835 9.994794e-001 -2.989565e-001 2.118937e-005 5.985295e+001 5.461839e-005 1.540117e+002 9.980842e-001 -5.487932e-001
9299820 9.995702e-001 -3.214505e-001 1.911655e-005 1.052712e+002 6.157056e-005 7.594582e+001 9.980235e-001 -5.529870e-001
10049805 9.996551e-001 -3.436191e-001 1.855548e-005 1.046279e+002 4.339951e-005 8.816389e+001 9.978651e-001 -5.907912e-001
10799790 9.992125e-001 -3.197046e-001 2.128723e-005 7.988337e+001 7.500029e-005 6.177271e+001 9.979844e-001 -5.781812e-001
11549775 9.997112e-001 -3.644721e-001 2.395898e-005 9.043966e+001 7.022969e-005 7.273662e+001 9.977984e-001 -5.908274e-001
12299760 9.994251e-001 -3.721470e-001 2.724874e-005 6.744956e+001 8.119793e-005 8.365945e+001 9.992428e-001 -6.302412e-001
13049745 9.997193e-001 -4.306921e-001 1.706126e-005 9.665706e+001 6.937097e-005 1.003407e+002 9.980344e-001 -6.945700e-001
13799730 9.994469e-001 -4.488623e-001 2.437417e-005 5.821533e+001 3.442088e-005 9.580827e+001 9.973530e-001 -7.424546e-001
14549715 9.996618e-001 -4.701737e-001 3.938131e-005 1.022814e+002 1.055922e-004 8.558160e+001 9.989309e-001 -7.506338e-001
15299700 9.989888e-001 -4.724323e-001 3.251659e-005 8.659979e+001 1.071390e-004 7.339080e+001 9.976090e-001 -8.322163e-001
16049685 9.996818e-001 -4.719891e-001 4.964965e-005 9.881109e+001 4.919992e-005 1.152465e+002 9.988654e-001 -8.164665e-001
16799670 9.992194e-001 -4.849629e-001 2.540940e-005 8.828099e+001 9.307102e-005 9.866710e+001 9.998609e-001 -8.717965e-001
17549655 9.993744e-001 -5.546591e-001 4.159344e-005 6.110210e+001 5.690637e-005 1.023626e+002 9.991068e-001 -8.740197e-001
18299640 9.992398e-001 -5.347034e-001 4.865008e-005 8.890738e+001 1.084823e-004 8.654781e+001 9.984698e-001 -9.814436e-001
19049625 9.994833e-001 -5.808923e-001 3.162226e-005 9.446922e+001 1.068127e-004 5.829646e+001 9.980062e-001 -9.214042e-001
19799610 9.998468e-001 -5.750909e-001 3.696094e-005 7.391659e+001 9.708307e-005 8.266141e+001 9.972324e-001 -9.697222e-001
20549595 9.989079e-001 -5.845435e-001 5.354661e-005 8.591109e+001 7.960859e-005 1.027363e+002 9.974852e-001 -1.063052e+000
21299580 9.987469e-001 -6.020867e-001 6.159071e-005 7.100597e+001 8.204883e-005 8.564459e+001 9.971803e-001 -9.812526e-001
22049565 9.988986e-001 -6.686532e-001 3.161277e-005 1.009311e+002 7.117575e-005 9.373585e+001 9.973630e-001 -1.066376e+000
22799550 9.995732e-001 -6.318952e-001 5.424058e-005 7.519698e+001 1.543598e-004 8.278820e+001 9.988868e-001 -1.150402e+000
23549535 9.996096e-001 -6.891683e-001 4.705527e-005 7.889343e+001 6.978284e-005 8.758466e+001 9.980736e-001 -1.158219e+000
24299520 9.992771e-001 -7.154850e-001 5.672772e-005 1.056164e+002 1.048138e-004 9.478377e+001 9.967898e-001 -1.211280e+000
25049505 9.993743e-001 -7.432925e-001 5.336037e-005 8.291769e+001 8.576151e-005 7.825768e+001 9.982083e-001 -1.262537e+000
25799490 9.991267e-001 -7.443595e-001 5.364537e-005 8.537238e+001 1.416661e-004 9.188394e+001 9.978469e-001 -1.323909e+000
26549475 1.000047e+000 -7.497662e-001 5.536150e-005 8.867319e+001 9.758167e-005 7.435994e+001 9.990261e-001 -1.321208e+000
27299460 9.995667e-001 -7.598125e-001 5.880272e-005 9.591175e+001 9.093155e-005 1.140055e+002 9.981399e-001 -1.356847e+000
28049445 9.993348e-001 -7.789416e-001 6.028761e-005 9.512229e+001 1.061440e-004 9.383908e+001 9.997494e-001 -1.388004e+000
28799430 9.988838e-001 -8.412549e-001 5.627432e-005 8.455076e+001 1.075684e-004 8.416027e+001 9.978023e-001 -1.468270e+000
29549415 9.992679e-001 -7.975230e-001 8.722372e-005 7.461938e+001 1.947499e-004 8.621857e+001 9.989236e-001 -1.441649e+000
30299400 9.991876e-001 -8.439401e-001 6.825023e-005 1.017303e+002 1.484137e-004 8.817577e+001 9.992969e-001 -1.504930e+000
31049385 9.995797e-001 -8.197357e-001 6.241308e-005 7.874519e+001 1.292656e-004 1.107936e+002 9.978498e-001 -1.568510e+000
31799370 9.993958e-001 -9.183494e-001 7.507663e-005 1.039566e+002 1.931220e-004 9.010315e+001 9.988069e-001 -1.535431e+000
32549355 9.999214e-001 -9.155749e-001 8.207947e-005 9.826191e+001 1.015828e-004 7.971577e+001 9.987853e-001 -1.561307e+000
33299340 9.994674e-001 -9.205590e-001 6.002423e-005 8.388952e+001 1.992231e-004 9.607529e+001 9.982252e-001 -1.612178e+000
34049325 9.989585e-001 -9.603966e-001 7.685587e-005 8.448457e+001 1.382627e-004 8.470923e+001 9.980588e-001 -1.649060e+000
34799310 9.990193e-001 -9.895959e-001 6.161309e-005 8.712807e+001 1.490029e-004 9.556947e+001 9.969594e-001 -1.680449e+000
35549295 9.992030e-001 -1.033742e+000 5.981235e-005 9.987781e+001 1.882430e-004 8.834904e+001 9.993495e-001 -1.687746e+000
36299280 9.990699e-001 -1.019837e+000 8.324528e-005 9.793282e+001 1.486190e-004 8.937115e+001 9.982433e-001 -1.775394e+000
37049265 9.997990e-001 -1.032191e+000 9.002444e-005 8.647884e+001 1.623155e-004 8.519598e+001 9.978654e-001 -1.788607e+000
37799250 9.992328e-001 -1.045092e+000 9.601999e-005 8.801550e+001 1.550136e-004 8.210024e+001 9.984379e-001 -1.809146e+000
38549235 9.988310e-001 -1.070160e+000 8.923672e-005 8.437521e+001 1.634940e-004 9.891815e+001 9.975169e-001 -1.905563e+000
39299220 9.995871e-001 -1.082271e+000 7.413996e-005 9.237647e+001 1.528528e-004 8.329337e+001 9.978551e-001 -1.865749e+000
40049205 9.993591e-001 -1.070191e+000 1.365959e-004 9.631502e+001 2.009817e-004 8.587992e+001 9.994141e-001 -1.943680e+000
40799190 9.997625e-001 -1.140203e+000 9.570597e-005 8.290070e+001 1.359722e-004 8.926355e+001 9.990906e-001 -2.001271e+000
41549175 9.986083e-001 -1.110157e+000 6.990015e-005 9.576566e+001 1.893141e-004 8.472888e+001 9.980483e-001 -2.028404e+000
42299160 9.990740e-001 -1.153103e+000 8.632984e-005 1.049692e+002 2.123401e-004 9.528474e+001 9.973516e-001 -1.983877e+000
43049145 9.997345e-001 -1.171285e+000 9.964005e-005 8.891730e+001 1.918601e-004 9.033102e+001 9.976479e-001 -2.086138e+000
43799130 9.992924e-001 -1.197223e+000 1.035636e-004 8.625324e+001 1.833078e-004 8.308181e+001 9.972945e-001 -2.077675e+000
44549115 9.997711e-001 -1.177932e+000 1.073491e-004 8.702975e+001 1.918619e-004 8.987499e+001 9.983692e-001 -2.142387e+000
45299100 1.000175e+000 -1.254069e+000 7.984164e-005 9.908428e+001 2.042044e-004 8.117252e+001 9.994159e-001 -2.144649e+000
46049085 1.000266e+000 -1.253326e+000 1.099103e-004 1.049301e+002 1.475707e-004 9.366488e+001 9.993720e-001 -2.158665e+000
46799070 9.997994e-001 -1.263467e+000 8.607991e-005 7.910827e+001 2.361774e-004 8.737106e+001 9.982904e-001 -2.199534e+000
47549055 9.997360e-001 -1.315172e+000 1.070016e-004 8.538473e+001 2.233859e-004 9.231896e+001 9.977321e-001 -2.315608e+000
48299040 1.000347e+000 -1.293257e+000 1.017139e-004 1.041261e+002 1.998930e-004 8.385793e+001 9.976879e-001 -2.275226e+000
49049025 1.000295e+000 -1.323368e+000 7.237885e-005 1.104332e+002 2.448287e-004 7.751433e+001 9.995732e-001 -2.245371e+000
49799010 9.988475e-001 -1.377185e+000 1.147160e-004 9.808472e+001 2.327283e-004 9.899638e+001 9.983394e-001 -2.290407e+000
50548995 9.988581e-001 -1.387582e+000 1.261150e-004 8.399519e+001 2.274675e-004 6.328461e+001 9.990274e-001 -2.411211e+000
51298980 1.000202e+000 -1.407445e+000 1.033009e-004 8.842960e+001 2.656373e-004 8.536469e+001 9.970354e-001 -2.396942e+000
52048965 9.991412e-001 -1.399248e+000 1.122476e-004 9.182161e+001 2.047950e-004 9.508566e+001 9.979491e-001 -2.347996e+000
52798950 9.994376e-001 -1.389625e+000 1.105539e-004 8.533064e+001 2.515295e-004 6.855664e+001 9.993332e-001 -2.499738e+000
53548935 1.001120e+000 -1.482869e+000 1.135912e-004 8.187360e+001 2.149937e-004 8.148843e+001 9.987845e-001 -2.492215e+000
54298920 9.995981e-001 -1.461314e+000 1.108835e-004 9.696456e+001 2.736616e-004 8.136591e+001 9.973019e-001 -2.583954e+000
55048905 9.995739e-001 -1.449803e+000 1.248888e-004 8.419829e+001 2.471960e-004 8.604708e+001 9.959683e-001 -2.621463e+000
55798890 9.993706e-001 -1.495010e+000 1.361577e-004 8.705050e+001 2.348383e-004 9.617538e+001 9.985272e-001 -2.758086e+000
56548875 9.997510e-001 -1.527956e+000 1.291246e-004 8.506448e+001 2.129162e-004 9.583648e+001 9.965844e-001 -2.615693e+000
57298860 1.000520e+000 -1.555658e+000 1.254914e-004 9.049581e+001 2.311810e-004 1.010383e+002 9.986735e-001 -2.581053e+000
58048845 9.993081e-001 -1.580083e+000 1.076994e-004 8.608538e+001 2.877467e-004 9.725949e+001 9.979238e-001 -2.568502e+000
58798830 9.991925e-001 -1.522464e+000 9.982918e-005 9.234843e+001 2.625968e-004 8.000607e+001 9.983942e-001 -2.633253e+000
59548815 9.997893e-001 -1.635545e+000 1.239108e-004 9.699307e+001 1.932982e-004 8.426871e+001 9.985083e-001 -2.735396e+000
60298800 9.998862e-001 -1.611501e+000 1.557497e-004 8.052503e+001 2.663565e-004 7.023018e+001 9.988000e-001 -2.854468e+000
61048785 1.000858e+000 -1.606944e+000 1.406545e-004 8.686167e+001 3.223850e-004 8.523856e+001 9.987453e-001 -2.719959e+000
61798770 9.996602e-001 -1.660871e+000 1.353748e-004 9.749834e+001 2.975673e-004 7.435969e+001 9.999451e-001 -2.932472e+000
62548755 1.000294e+000 -1.613410e+000 1.112754e-004 8.772536e+001 2.745480e-004 8.930745e+001 9.979810e-001 -2.884131e+000
63298740 1.000440e+000 -1.659780e+000 1.392892e-004 8.465737e+001 3.063988e-004 7.951891e+001 9.992244e-001 -2.863460e+000
64048725 9.999471e-001 -1.620217e+000 1.397675e-004 8.354736e+001 2.390845e-004 8.801048e+001 9.978446e-001 -2.819423e+000
64798710 9.993516e-001 -1.728772e+000 1.513921e-004 9.660384e+001 2.128011e-004 7.938561e+001 9.979830e-001 -3.082485e+000
65548695 1.000010e+000 -1.760980e+000 1.476773e-004 8.551469e+001 2.281544e-004 9.068035e+001 9.992945e-001 -2.890972e+000
66298680 1.000537e+000 -1.756137e+000 1.167528e-004 9.527547e+001 2.261920e-004 6.316771e+001 9.981361e-001 -3.058822e+000
67048665 1.000543e+000 -1.715953e+000 1.262823e-004 9.313209e+001 2.022066e-004 9.955585e+001 9.989062e-001 -3.087303e+000
67798650 9.996964e-001 -1.753258e+000 1.451841e-004 9.135883e+001 2.569489e-004 9.042886e+001 9.989750e-001 -3.109642e+000
68548635 9.995518e-001 -1.774011e+000 1.364923e-004 9.305611e+001 2.432159e-004 7.583469e+001 1.000190e+000 -3.097636e+000
69298620 1.000606e+000 -1.814857e+000 1.340571e-004 8.852020e+001 2.315330e-004 8.441900e+001 9.995847e-001 -3.101038e+000
70048605 1.000215e+000 -1.821950e+000 1.395764e-004 9.658017e+001 3.187996e-004 9.872531e+001 9.997748e-001 -3.232973e+000
70798590 1.000533e+000 -1.811052e+000 1.637124e-004 8.455546e+001 2.928075e-004 9.851189e+001 9.978639e-001 -3.245527e+000
71548575 1.000455e+000 -1.837029e+000 1.545933e-004 8.536499e+001 2.919988e-004 9.600816e+001 9.977362e-001 -3.328631e+000
72298560 1.000510e+000 -1.871124e+000 1.449184e-004 8.855975e+001 3.470017e-004 8.920371e+001 9.979190e-001 -3.429319e+000
73048545 1.000108e+000 -1.903338e+000 1.520429e-004 8.657305e+001 4.090990e-004 9.136977e+001 9.998849e-001 -3.284154e+000
73798530 1.000018e+000 -1.841981e+000 1.804945e-004 9.593605e+001 3.493406e-004 9.032621e+001 1.000003e+000 -3.439774e+000
74548515 1.000786e+000 -1.976353e+000 1.390937e-004 8.794341e+001 3.878071e-004 8.689447e+001 9.989046e-001 -3.423724e+000
75298500 1.000739e+000 -1.953219e+000 1.830885e-004 8.807053e+001 3.673923e-004 9.547700e+001 9.976556e-001 -3.448333e+000
76048485 1.000684e+000 -1.947988e+000 1.718650e-004 8.987377e+001 3.438374e-004 8.987592e+001 9.990221e-001 -3.482901e+000
76798470 1.000626e+000 -1.917202e+000 1.812108e-004 9.426871e+001 3.494835e-004 8.265342e+001 9.981180e-001 -3.475178e+000
77548455 9.999310e-001 -2.001048e+000 1.877481e-004 8.863166e+001 3.574001e-004 8.109548e+001 1.000584e+000 -3.516571e+000
78298440 1.000577e+000 -2.002970e+000 1.492684e-004 8.770981e+001 3.715967e-004 7.749015e+001 9.987035e-001 -3.564028e+000
79048425 1.001111e+000 -2.048896e+000 1.629330e-004 8.688283e+001 3.331189e-004 8.651295e+001 9.997791e-001 -3.589462e+000
79798410 1.000954e+000 -2.027038e+000 1.545997e-004 8.267520e+001 3.287081e-004 7.141218e+001 9.984484e-001 -3.558923e+000
80548395 1.000866e+000 -2.035761e+000 1.729755e-004 8.735382e+001 3.908528e-004 8.048441e+001 9.977916e-001 -3.709343e+000
81298380 1.000419e+000 -2.101859e+000 1.865829e-004 8.779218e+001 3.351609e-004 8.099142e+001 9.991099e-001 -3.609611e+000
82048365 1.000347e+000 -2.059016e+000 1.686590e-004 8.053517e+001 3.376152e-004 8.718914e+001 1.000785e+000 -3.692245e+000
82798350 1.001029e+000 -2.065561e+000 1.413581e-004 9.170139e+001 3.034570e-004 8.721574e+001 1.000065e+000 -3.733366e+000
83548335 1.000157e+000 -2.114691e+000 2.025309e-004 9.198167e+001 3.038471e-004 8.206216e+001 9.985360e-001 -3.773730e+000
84298320 1.001028e+000 -2.166178e+000 1.770229e-004 1.018516e+002 3.053788e-004 9.924552e+001 9.990185e-001 -3.748487e+000
85048305 9.998094e-001 -2.167023e+000 1.818556e-004 8.975365e+001 3.266261e-004 9.658208e+001 9.993846e-001 -3.840793e+000
85798290 9.999227e-001 -2.201235e+000 2.253132e-004 8.736138e+001 3.216979e-004 9.604549e+001 9.995959e-001 -3.832670e+000
86548275 1.000750e+000 -2.200452e+000 1.776456e-004 7.833619e+001 3.331266e-004 1.018200e+002 9.988354e-001 -3.825854e+000
87298260 1.000128e+000 -2.203111e+000 1.686182e-004 7.882538e+001 3.385291e-004 8.888760e+001 1.000924e+000 -3.880305e+000
88048245 1.000125e+000 -2.177034e+000 2.032607e-004 8.998979e+001 4.232622e-004 8.898395e+001 1.000015e+000 -3.980239e+000
88798230 1.001053e+000 -2.226651e+000 2.050340e-004 9.366719e+001 4.532306e-004 9.413475e+001 1.000731e+000 -3.989404e+000
89548215 1.001091e+000 -2.234496e+000 1.926326e-004 8.703103e+001 4.265990e-004 8.660069e+001 9.980919e-001 -3.990712e+000
90298200 9.997615e-001 -2.275023e+000 1.897807e-004 8.370202e+001 3.759322e-004 8.548926e+001 1.000468e+000 -3.869580e+000
91048185 1.000465e+000 -2.331988e+000 1.878998e-004 9.192661e+001 3.526580e-004 8.396133e+001 9.992311e-001 -3.985642e+000
91798170 1.000785e+000 -2.296474e+000 2.070066e-004 8.842696e+001 4.270988e-004 8.212453e+001 1.000216e+000 -4.121945e+000
92548155 1.001552e+000 -2.320543e+000 2.019580e-004 8.485725e+001 3.793496e-004 7.539063e+001 1.001036e+000 -4.128391e+000
93298140 1.001611e+000 -2.348623e+000 1.996690e-004 8.281253e+001 4.007379e-004 8.478433e+001 1.000596e+000 -4.044894e+000
94048125 1.000970e+000 -2.391958e+000 2.144994e-004 8.484608e+001 4.136499e-004 8.376125e+001 1.001589e+000 -4.151536e+000
94798110 1.001279e+000 -2.338047e+000 1.896644e-004 8.963966e+001 3.693046e-004 8.750431e+001 1.000015e+000 -4.167292e+000
95548095 1.000852e+000 -2.364269e+000 2.184854e-004 9.544541e+001 3.311712e-004 7.428873e+001 9.988408e-001 -4.141118e+000
96298080 1.001031e+000 -2.346296e+000 2.030160e-004 9.358203e+001 3.326634e-004 8.701155e+001 9.995307e-001 -4.232915e+000
97048065 1.000369e+000 -2.427557e+000 1.966765e-004 1.003116e+002 3.840099e-004 8.792348e+001 9.996431e-001 -4.227901e+000
97798050 1.000650e+000 -2.353394e+000 2.142431e-004 9.540477e+001 3.253043e-004 7.762067e+001 1.001335e+000 -4.346397e+000
98548035 1.001536e+000 -2.433172e+000 2.390630e-004 9.018102e+001 4.044735e-004 8.327563e+001 1.000565e+000 -4.317227e+000
99298020 1.001621e+000 -2.445798e+000 2.194795e-004 8.333017e+001 3.934791e-004 8.995918e+001 1.001103e+000 -4.436344e+000
100048005 1.001552e+000 -2.457447e+000 2.148929e-004 8.685223e+001 4.632074e-004 8.341447e+001 9.988694e-001 -4.406108e+000
100797990 1.001396e+000 -2.459503e+000 2.371007e-004 8.675696e+001 4.027846e-004 8.884890e+001 1.000511e+000 -4.310693e+000
101547975 1.000607e+000 -2.493943e+000 2.523859e-004 8.924107e+001 4.398001e-004 9.710868e+001 9.988200e-001 -4.402929e+000
102297960 1.002396e+000 -2.486845e+000 1.917360e-004 9.277608e+001 4.498547e-004 8.696870e+001 1.000879e+000 -4.389705e+000
103047945 1.001187e+000 -2.500670e+000 1.995457e-004 8.236357e+001 4.685119e-004 8.425352e+001 9.995704e-001 -4.424948e+000
103797930 1.000883e+000 -2.524274e+000 2.224127e-004 9.013412e+001 4.525500e-004 9.167214e+001 1.001285e+000 -4.517082e+000
104547915 1.001141e+000 -2.509921e+000 2.465348e-004 9.139025e+001 4.208017e-004 8.412672e+001 1.001875e+000 -4.427157e+000
105297900 1.000759e+000 -2.572033e+000 2.383454e-004 9.107615e+001 4.401621e-004 9.005481e+001 1.001846e+000 -4.391310e+000
106047885 1.001851e+000 -2.546737e+000 2.536235e-004 8.889072e+001 4.442197e-004 7.628781e+001 1.001176e+000 -4.641530e+000
106797870 1.001856e+000 -2.584403e+000 2.274702e-004 8.831126e+001 3.383516e-004 8.299200e+001 1.001530e+000 -4.620397e+000
107547855 1.002126e+000 -2.640756e+000 2.268882e-004 9.234613e+001 4.494532e-004 8.533140e+001 1.000916e+000 -4.515901e+000
108297840 1.001453e+000 -2.611682e+000 2.495770e-004 8.791982e+001 4.790690e-004 8.762259e+001 9.999253e-001 -4.694221e+000
109047825 1.001475e+000 -2.652359e+000 2.277935e-004 8.994577e+001 4.287419e-004 7.702401e+001 1.002695e+000 -4.769903e+000
109797810 1.001006e+000 -2.698117e+000 2.342033e-004 8.776669e+001 4.658625e-004 9.002739e+001 1.001829e+000 -4.657801e+000
110547795 1.001011e+000 -2.641430e+000 2.390653e-004 9.308652e+001 3.835651e-004 8.750663e+001 1.001621e+000 -4.745394e+000
111297780 1.001436e+000 -2.661252e+000 2.394497e-004 9.281691e+001 4.842350e-004 7.938667e+001 1.000656e+000 -4.656573e+000
112047765 1.000549e+000 -2.716548e+000 2.492162e-004 8.802357e+001 4.609657e-004 8.183521e+001 1.000327e+000 -4.683581e+000
112797750 1.001465e+000 -2.741126e+000 2.708489e-004 8.525962e+001 5.127024e-004 8.716650e+001 1.000506e+000 -4.767244e+000
113547735 1.001815e+000 -2.720631e+000 2.584723e-004 9.258141e+001 5.124859e-004 9.734967e+001 1.000420e+000 -4.775875e+000
114297720 1.000487e+000 -2.743817e+000 2.408266e-004 8.716378e+001 4.344186e-004 8.617157e+001 1.002659e+000 -4.884714e+000
115047705 1.001628e+000 -2.739564e+000 2.586923e-004 9.096006e+001 4.801477e-004 8.351113e+001 1.001244e+000 -4.917231e+000
115797690 1.001939e+000 -2.758085e+000 2.385331e-004 8.446891e+001 4.480834e-004 9.290090e+001 1.001801e+000 -4.992837e+000
116547675 1.002204e+000 -2.808720e+000 2.375929e-004 9.168468e+001 4.700871e-004 8.871307e+001 1.001242e+000 -4.906038e+000
117297660 1.002001e+000 -2.778489e+000 2.296809e-004 9.240995e+001 4.616996e-004 8.310681e+001 1.001937e+000 -4.946014e+000
118047645 1.001412e+000 -2.814597e+000 2.512140e-004 8.649600e+001 4.459987e-004 9.309086e+001 1.002053e+000 -4.952080e+000
