!Agilent Technologies,N5230C,SG49000117,A.08.50.07
!Agilent N5230C: A.08.50.07
!Date: Friday, May 17, 2024 20:45:46
!Correction: S11(Full 2 Port(1,2)) 
!S21(Full 2 Port(1,2)) 
!S12(Full 2 Port(1,2)) 
!S22(Full 2 Port(1,2)) 
!S2P File: Measurements: S11, S21, S12, S22:
# Hz S  MA   R 50
300000 1.005473e+000 -4.221094e-001 3.100060e-005 -5.745051e+001 1.384234e-005 8.975107e+001 1.014907e+000 -7.603203e-001
1049985 1.000249e+000 -2.851678e-001 3.933030e-006 6.094033e+001 1.731008e-005 1.722162e+002 1.000130e+000 -4.722463e-001
1799970 9.991177e-001 -1.807966e-001 9.365707e-006 1.024620e+002 9.139967e-006 1.767328e+002 9.985238e-001 -3.752246e-001
2549955 9.988006e-001 -1.472635e-001 1.009980e-004 -1.153741e+002 1.749740e-004 -1.263233e+002 9.989319e-001 -2.587562e-001
3299940 9.997614e-001 -1.389132e-001 1.383209e-005 -1.737285e+002 3.181814e-005 -1.771711e+002 9.978678e-001 -2.533154e-001
4049925 9.992461e-001 -1.803936e-001 2.998048e-006 1.060230e+002 5.154688e-005 1.371586e+002 9.990011e-001 -2.269237e-001
4799910 9.995537e-001 -1.666669e-001 8.089655e-006 1.071664e+002 5.163609e-005 8.694800e+001 9.993056e-001 -2.414572e-001
5549895 9.992538e-001 -1.680508e-001 4.414361e-006 3.585540e+001 2.772947e-005 1.203375e+002 9.992988e-001 -2.079549e-001
6299880 9.992051e-001 -1.616182e-001 1.764039e-005 1.211390e+002 1.658757e-005 7.860849e+001 9.998075e-001 -2.556202e-001
7049865 9.990825e-001 -1.844420e-001 1.447876e-005 1.146508e+002 2.907848e-005 -1.642563e+002 9.994103e-001 -2.884084e-001
7799850 9.994248e-001 -2.068524e-001 9.399319e-006 8.139118e+001 3.801669e-005 7.783839e+001 9.981407e-001 -3.148517e-001
8549835 9.992300e-001 -2.007020e-001 1.329395e-005 1.132733e+002 4.510787e-005 8.750751e+001 9.988728e-001 -3.724251e-001
9299820 9.992170e-001 -2.182936e-001 2.487996e-005 1.106562e+002 1.560315e-005 -1.662876e+002 9.985387e-001 -3.632083e-001
10049805 9.993612e-001 -2.487915e-001 1.073447e-005 1.070569e+002 3.529366e-005 1.154092e+002 9.987704e-001 -3.801802e-001
10799790 9.990020e-001 -2.278413e-001 2.341255e-005 1.163390e+002 3.334174e-005 1.175089e+002 9.987803e-001 -3.738407e-001
11549775 9.993080e-001 -2.516457e-001 2.627986e-005 1.346107e+002 6.401465e-006 1.360166e+002 9.985922e-001 -3.806244e-001
12299760 9.992165e-001 -2.578651e-001 1.712455e-005 6.286540e+001 2.903708e-005 9.237770e+001 1.000062e+000 -4.024602e-001
13049745 9.994491e-001 -3.139653e-001 2.316948e-006 -5.321954e+001 5.196682e-005 1.599373e+002 9.991040e-001 -4.531039e-001
13799730 9.993431e-001 -3.209301e-001 1.251479e-005 8.253838e+001 3.388597e-005 1.557342e+002 9.977550e-001 -4.882921e-001
14549715 9.995914e-001 -3.378322e-001 1.283330e-005 1.608358e+002 4.982120e-005 4.662032e+001 9.996929e-001 -4.712614e-001
15299700 9.988587e-001 -3.272176e-001 1.802205e-005 7.001934e+001 9.467275e-005 1.084718e+002 9.982449e-001 -5.365078e-001
16049685 9.995462e-001 -3.283115e-001 2.372053e-005 1.190005e+002 4.090522e-005 8.259863e+001 9.996337e-001 -5.328816e-001
16799670 9.992288e-001 -3.438524e-001 1.523265e-005 1.188101e+002 7.729306e-005 7.111161e+001 1.000618e+000 -5.695646e-001
17549655 9.993529e-001 -3.944964e-001 1.386232e-005 6.125125e+001 8.794631e-005 1.346194e+002 9.997974e-001 -5.608551e-001
18299640 9.991310e-001 -3.712236e-001 3.200123e-005 8.957381e+001 1.271704e-005 8.137715e+001 9.992677e-001 -6.563652e-001
19049625 9.993437e-001 -4.203691e-001 1.611595e-005 7.953236e+001 1.145443e-004 9.590783e+001 9.989606e-001 -5.784434e-001
19799610 9.998708e-001 -3.958746e-001 1.538857e-005 8.355871e+001 3.771875e-005 1.665609e+002 9.982796e-001 -6.025910e-001
20549595 9.988717e-001 -4.064409e-001 1.954813e-005 1.103928e+002 1.150901e-004 4.585287e+001 9.983330e-001 -6.900926e-001
21299580 9.987807e-001 -4.153025e-001 4.497904e-005 1.015803e+002 1.099921e-004 1.271210e+002 9.981043e-001 -6.263090e-001
22049565 9.988567e-001 -4.650381e-001 3.707695e-005 5.840101e+001 9.186911e-006 3.323372e+001 9.981743e-001 -6.871907e-001
22799550 9.996583e-001 -4.370528e-001 2.084365e-005 7.197737e+001 1.133721e-004 8.085073e+001 1.000026e+000 -7.460142e-001
23549535 9.996495e-001 -4.856963e-001 3.109455e-005 7.451975e+001 8.719272e-005 1.077931e+002 9.989204e-001 -7.383921e-001
24299520 9.993039e-001 -5.073167e-001 2.886345e-005 9.843455e+001 6.492452e-005 7.522991e+001 9.973086e-001 -7.769294e-001
25049505 9.994193e-001 -5.255169e-001 2.021203e-005 1.381133e+002 6.770260e-005 9.114937e+001 9.988404e-001 -8.079166e-001
25799490 9.991849e-001 -5.198262e-001 3.847712e-005 9.519079e+001 2.060392e-005 1.325622e+002 9.985092e-001 -8.754179e-001
26549475 9.999995e-001 -5.278956e-001 4.624381e-005 8.355505e+001 8.004459e-005 5.273792e+001 9.996013e-001 -8.655154e-001
27299460 9.995351e-001 -5.276056e-001 2.993512e-005 6.694798e+001 7.749197e-005 8.716653e+001 9.987839e-001 -8.814080e-001
28049445 9.992551e-001 -5.322471e-001 3.873081e-005 1.128355e+002 5.897899e-005 7.072117e+001 1.000494e+000 -9.029403e-001
28799430 9.989309e-001 -5.984421e-001 4.545872e-005 9.160874e+001 8.999866e-005 9.033521e+001 9.983525e-001 -9.869280e-001
29549415 9.992919e-001 -5.460129e-001 4.641564e-005 8.271155e+001 6.629671e-005 1.487736e+002 9.997239e-001 -9.094530e-001
30299400 9.993572e-001 -5.798425e-001 5.133053e-005 1.003913e+002 8.932444e-005 8.151805e+001 1.000188e+000 -9.826652e-001
31049385 9.995762e-001 -5.637383e-001 3.737571e-005 9.357687e+001 1.151189e-004 9.974969e+001 9.984124e-001 -1.014263e+000
31799370 9.993769e-001 -6.602482e-001 3.944561e-005 7.717229e+001 5.747880e-005 1.239364e+002 9.996499e-001 -9.803178e-001
32549355 9.999126e-001 -6.333627e-001 4.804320e-005 9.668067e+001 1.084766e-004 7.640136e+001 9.995190e-001 -9.993645e-001
33299340 9.994928e-001 -6.356370e-001 4.011628e-005 9.951408e+001 1.012641e-004 1.068466e+002 9.988692e-001 -1.037937e+000
34049325 9.988760e-001 -6.809055e-001 2.448743e-005 1.059456e+002 5.394347e-005 6.858022e+001 9.984735e-001 -1.064780e+000
34799310 9.990531e-001 -6.977244e-001 5.228400e-005 8.283933e+001 9.719037e-005 9.180880e+001 9.975188e-001 -1.073708e+000
35549295 9.992402e-001 -7.333835e-001 3.851527e-005 8.438595e+001 9.456361e-005 1.070018e+002 9.998543e-001 -1.075015e+000
36299280 9.991964e-001 -7.179265e-001 5.355160e-005 9.073428e+001 8.808690e-005 9.395536e+001 9.987779e-001 -1.142108e+000
37049265 9.998056e-001 -7.199125e-001 5.421493e-005 8.816667e+001 1.188249e-004 9.544826e+001 9.984853e-001 -1.145769e+000
37799250 9.991561e-001 -7.315869e-001 2.954844e-005 1.046343e+002 7.663827e-005 6.884544e+001 9.989091e-001 -1.152021e+000
38549235 9.988550e-001 -7.397091e-001 4.515193e-005 9.890606e+001 1.073550e-004 7.436993e+001 9.980012e-001 -1.243611e+000
39299220 9.995922e-001 -7.570738e-001 4.742866e-005 1.082800e+002 1.085601e-004 1.024457e+002 9.982463e-001 -1.175337e+000
40049205 9.993597e-001 -7.339893e-001 4.414478e-005 7.322514e+001 8.205306e-005 8.848479e+001 9.999557e-001 -1.254447e+000
40799190 9.998601e-001 -7.961830e-001 4.375714e-005 5.067683e+001 9.981752e-005 9.485139e+001 9.999113e-001 -1.288915e+000
41549175 9.986815e-001 -7.667906e-001 2.357984e-005 3.043824e+001 1.085092e-004 9.261292e+001 9.986082e-001 -1.303147e+000
42299160 9.990823e-001 -7.986770e-001 5.858517e-005 7.932067e+001 9.525054e-005 1.218715e+002 9.986057e-001 -1.248004e+000
43049145 9.997332e-001 -7.906464e-001 7.090308e-005 1.024090e+002 1.199117e-004 9.802829e+001 9.986862e-001 -1.325399e+000
43799130 9.991748e-001 -8.267594e-001 7.959191e-005 1.147029e+002 1.048088e-004 1.062198e+002 9.976396e-001 -1.325557e+000
44549115 9.997709e-001 -8.023333e-001 4.446711e-005 1.292843e+002 8.247280e-005 9.695435e+001 9.988181e-001 -1.363882e+000
45299100 1.000254e+000 -8.857839e-001 6.574977e-005 7.517944e+001 7.545027e-005 1.136414e+002 1.000147e+000 -1.361163e+000
46049085 1.000178e+000 -8.537027e-001 5.895122e-005 1.074710e+002 1.706793e-004 8.893259e+001 9.999108e-001 -1.339624e+000
46799070 9.998956e-001 -8.708783e-001 4.778268e-005 8.466793e+001 1.802938e-004 1.122169e+002 9.992615e-001 -1.383869e+000
47549055 9.999248e-001 -9.109940e-001 6.454574e-005 1.175528e+002 1.142811e-004 1.031524e+002 9.979343e-001 -1.467425e+000
48299040 1.000110e+000 -8.982386e-001 3.747526e-005 8.400026e+001 1.270352e-004 9.678654e+001 9.981199e-001 -1.419472e+000
49049025 1.000353e+000 -9.173266e-001 5.438894e-005 9.633461e+001 1.005036e-004 1.048449e+002 1.000312e+000 -1.399702e+000
49799010 9.988593e-001 -9.495933e-001 6.122101e-005 8.802543e+001 1.205021e-004 1.164768e+002 9.988644e-001 -1.427953e+000
50548995 9.986033e-001 -9.605481e-001 6.912074e-005 7.950925e+001 1.250046e-004 8.047235e+001 1.000176e+000 -1.538378e+000
51298980 1.000136e+000 -9.730114e-001 7.000670e-005 7.383128e+001 1.336404e-004 1.003686e+002 9.983169e-001 -1.500669e+000
52048965 9.991328e-001 -9.511454e-001 6.108486e-005 9.839494e+001 1.012788e-004 6.016660e+001 9.985572e-001 -1.437446e+000
52798950 9.993668e-001 -9.404954e-001 7.017145e-005 8.192459e+001 1.138993e-004 1.027499e+002 9.999736e-001 -1.577806e+000
53548935 1.000995e+000 -1.030105e+000 7.063951e-005 7.686237e+001 9.493288e-005 8.426973e+001 9.997112e-001 -1.570820e+000
54298920 9.996049e-001 -9.981173e-001 7.017448e-005 9.543871e+001 1.146452e-004 7.388701e+001 9.979072e-001 -1.617128e+000
55048905 9.995100e-001 -9.793276e-001 4.969363e-005 9.796258e+001 1.027291e-004 1.143211e+002 9.968773e-001 -1.653338e+000
55798890 9.992738e-001 -1.017178e+000 8.608920e-005 9.715957e+001 1.471786e-004 1.018082e+002 9.992957e-001 -1.794598e+000
56548875 9.996032e-001 -1.046122e+000 6.932585e-005 9.343437e+001 9.339146e-005 9.563956e+001 9.976583e-001 -1.642512e+000
57298860 1.000376e+000 -1.079229e+000 7.920813e-005 9.214240e+001 1.782746e-004 1.050883e+002 9.998662e-001 -1.598592e+000
58048845 9.992170e-001 -1.097117e+000 9.818996e-005 1.015292e+002 2.172677e-004 8.132136e+001 9.990671e-001 -1.610545e+000
58798830 9.991872e-001 -1.021026e+000 6.230860e-005 8.475102e+001 9.863576e-005 8.455603e+001 9.993010e-001 -1.638684e+000
59548815 9.996937e-001 -1.133181e+000 8.257876e-005 8.981242e+001 1.963874e-004 8.048376e+001 9.996886e-001 -1.739863e+000
60298800 9.998705e-001 -1.099321e+000 7.448264e-005 8.458650e+001 1.509545e-004 8.313823e+001 9.996403e-001 -1.797895e+000
61048785 1.000822e+000 -1.097739e+000 6.446115e-005 1.066688e+002 1.536294e-004 5.668523e+001 9.996279e-001 -1.650150e+000
61798770 9.996650e-001 -1.132270e+000 7.652590e-005 7.562138e+001 6.332625e-005 9.037306e+001 1.000876e+000 -1.894384e+000
62548755 1.000137e+000 -1.086369e+000 5.871769e-005 8.445725e+001 8.687153e-005 8.265827e+001 9.994262e-001 -1.837411e+000
63298740 1.000321e+000 -1.123238e+000 6.447791e-005 8.893964e+001 1.028460e-004 6.004665e+001 1.000362e+000 -1.810067e+000
64048725 9.999283e-001 -1.083537e+000 8.844322e-005 8.327774e+001 1.306403e-004 6.686881e+001 9.991171e-001 -1.734735e+000
64798710 9.993106e-001 -1.174267e+000 7.841988e-005 8.413529e+001 1.791866e-004 1.157369e+002 9.993165e-001 -1.999562e+000
65548695 9.999511e-001 -1.207357e+000 8.416971e-005 9.482610e+001 1.246304e-004 9.588844e+001 9.999264e-001 -1.793098e+000
66298680 1.000350e+000 -1.195121e+000 7.325569e-005 9.626810e+001 1.883684e-004 1.178139e+002 9.991919e-001 -1.927842e+000
67048665 1.000451e+000 -1.143351e+000 9.106383e-005 9.147906e+001 2.151683e-004 1.073247e+002 9.999626e-001 -1.970010e+000
67798650 9.998951e-001 -1.173958e+000 8.836148e-005 7.893411e+001 1.476871e-004 8.908838e+001 9.995183e-001 -1.945397e+000
68548635 9.995206e-001 -1.196679e+000 5.953898e-005 7.763088e+001 1.603769e-004 9.054539e+001 1.001581e+000 -1.939358e+000
69298620 1.000673e+000 -1.224540e+000 6.543563e-005 9.678813e+001 2.735358e-004 9.729877e+001 1.000663e+000 -1.941397e+000
70048605 1.000332e+000 -1.225001e+000 1.072764e-004 9.494907e+001 1.403036e-004 9.059544e+001 1.000831e+000 -2.038653e+000
70798590 1.000589e+000 -1.201110e+000 8.387033e-005 8.907836e+001 9.936567e-005 8.519823e+001 9.991344e-001 -2.055386e+000
71548575 1.000186e+000 -1.226967e+000 6.749664e-005 7.429473e+001 9.637617e-005 8.459338e+001 9.990419e-001 -2.139410e+000
72298560 1.000304e+000 -1.267404e+000 8.993156e-005 8.871761e+001 2.161613e-004 9.213486e+001 9.991041e-001 -2.231969e+000
73048545 1.000215e+000 -1.292331e+000 6.712459e-005 8.457899e+001 1.959602e-004 1.036460e+002 1.000934e+000 -2.062256e+000
73798530 1.000114e+000 -1.223135e+000 7.781738e-005 7.576968e+001 1.981765e-004 7.137155e+001 1.000779e+000 -2.206698e+000
74548515 1.000736e+000 -1.350356e+000 1.008767e-004 9.359240e+001 1.837832e-004 8.900699e+001 9.998723e-001 -2.163532e+000
75298500 1.000738e+000 -1.316132e+000 6.546227e-005 9.927931e+001 2.147244e-004 9.680840e+001 9.986715e-001 -2.197560e+000
76048485 1.000631e+000 -1.302971e+000 1.139601e-004 9.699607e+001 1.129847e-004 8.373611e+001 1.000118e+000 -2.214229e+000
76798470 1.000507e+000 -1.277897e+000 1.025560e-004 8.004369e+001 1.453479e-004 8.006466e+001 9.991233e-001 -2.176241e+000
77548455 1.000104e+000 -1.349167e+000 8.424884e-005 8.506292e+001 1.854237e-004 9.044516e+001 1.001838e+000 -2.189177e+000
78298440 1.000749e+000 -1.354117e+000 8.786355e-005 7.526380e+001 1.592758e-004 1.020447e+002 9.993480e-001 -2.254539e+000
79048425 1.000965e+000 -1.387356e+000 8.394695e-005 1.094672e+002 2.162779e-004 9.246429e+001 1.000913e+000 -2.258768e+000
79798410 1.000991e+000 -1.362891e+000 1.178914e-004 8.774393e+001 1.826329e-004 6.630141e+001 9.990053e-001 -2.218067e+000
80548395 1.000773e+000 -1.369018e+000 9.132481e-005 8.217650e+001 2.295713e-004 8.067753e+001 9.985334e-001 -2.346187e+000
81298380 1.000421e+000 -1.428079e+000 6.288863e-005 7.481866e+001 1.898745e-004 9.034946e+001 9.997777e-001 -2.223714e+000
82048365 1.000212e+000 -1.363329e+000 9.457634e-005 9.169785e+001 2.092014e-004 9.010275e+001 1.001521e+000 -2.299774e+000
82798350 1.001279e+000 -1.381002e+000 1.134820e-004 9.161005e+001 1.753987e-004 7.376843e+001 1.000709e+000 -2.328925e+000
83548335 1.000175e+000 -1.422464e+000 6.680966e-005 8.954234e+001 1.676536e-004 7.903580e+001 9.990370e-001 -2.366541e+000
84298320 1.000970e+000 -1.453973e+000 1.026191e-004 8.146398e+001 2.137843e-004 9.997430e+001 1.000148e+000 -2.324283e+000
85048305 9.999031e-001 -1.451456e+000 7.973658e-005 9.771620e+001 2.167909e-004 9.809856e+001 1.000346e+000 -2.389312e+000
85798290 9.998413e-001 -1.490235e+000 1.094104e-004 8.492701e+001 1.660186e-004 8.676106e+001 1.000839e+000 -2.355792e+000
86548275 1.000486e+000 -1.476882e+000 9.543605e-005 9.844713e+001 1.676408e-004 1.003905e+002 9.999460e-001 -2.375855e+000
87298260 1.000182e+000 -1.470186e+000 1.233576e-004 8.992024e+001 2.212203e-004 8.306531e+001 1.001718e+000 -2.412014e+000
88048245 1.000229e+000 -1.443111e+000 9.316919e-005 8.327107e+001 2.592940e-004 7.653410e+001 1.000711e+000 -2.499276e+000
88798230 1.001392e+000 -1.496854e+000 9.136483e-005 8.681489e+001 2.354375e-004 6.747525e+001 1.001777e+000 -2.461273e+000
89548215 1.001058e+000 -1.502068e+000 1.121941e-004 8.914384e+001 2.252060e-004 9.303146e+001 9.989659e-001 -2.489419e+000
90298200 9.997625e-001 -1.530747e+000 1.124437e-004 9.164885e+001 2.051484e-004 7.633100e+001 1.001551e+000 -2.330614e+000
91048185 1.000541e+000 -1.581328e+000 1.466162e-004 7.344846e+001 2.369340e-004 9.088901e+001 9.999149e-001 -2.426630e+000
91798170 1.001040e+000 -1.534453e+000 1.062765e-004 8.639583e+001 1.951894e-004 9.189124e+001 1.001155e+000 -2.541032e+000
92548155 1.001454e+000 -1.559122e+000 1.362162e-004 8.183316e+001 2.152936e-004 1.024128e+002 1.001824e+000 -2.562832e+000
93298140 1.001774e+000 -1.563394e+000 1.141952e-004 8.869680e+001 2.430760e-004 7.939704e+001 1.001433e+000 -2.466910e+000
94048125 1.001202e+000 -1.619942e+000 1.232226e-004 9.261564e+001 2.027798e-004 8.916380e+001 1.002328e+000 -2.587825e+000
94798110 1.001118e+000 -1.557591e+000 8.818066e-005 8.631097e+001 2.464814e-004 8.755907e+001 1.000732e+000 -2.568182e+000
95548095 1.000915e+000 -1.578203e+000 7.695952e-005 6.625397e+001 2.360938e-004 9.103194e+001 9.996677e-001 -2.521713e+000
96298080 1.001194e+000 -1.556674e+000 9.797855e-005 8.167706e+001 2.266360e-004 1.021067e+002 9.999005e-001 -2.584987e+000
97048065 1.000258e+000 -1.628450e+000 1.198303e-004 6.965161e+001 3.193246e-004 7.775517e+001 1.000701e+000 -2.574953e+000
97798050 1.000952e+000 -1.540897e+000 1.244974e-004 7.612128e+001 2.655082e-004 9.259386e+001 1.001973e+000 -2.686111e+000
98548035 1.001645e+000 -1.623363e+000 1.376209e-004 8.930317e+001 1.950141e-004 9.652179e+001 1.001428e+000 -2.674831e+000
99298020 1.001515e+000 -1.631500e+000 1.126123e-004 7.864421e+001 2.136113e-004 7.296086e+001 1.001920e+000 -2.740258e+000
100048005 1.001568e+000 -1.634362e+000 1.201812e-004 1.044193e+002 2.287953e-004 6.763816e+001 1.000464e+000 -2.706436e+000
100797990 1.001433e+000 -1.633416e+000 1.287972e-004 8.316900e+001 3.352108e-004 9.422542e+001 1.001802e+000 -2.635384e+000
101547975 1.000687e+000 -1.660982e+000 1.393009e-004 8.656136e+001 2.016479e-004 9.566814e+001 9.998248e-001 -2.675764e+000
102297960 1.002438e+000 -1.632396e+000 1.405551e-004 1.029005e+002 1.941815e-004 9.827808e+001 1.001951e+000 -2.653950e+000
103047945 1.001392e+000 -1.651743e+000 1.117871e-004 8.715972e+001 2.028035e-004 9.399712e+001 1.000416e+000 -2.702908e+000
103797930 1.000720e+000 -1.672658e+000 1.204660e-004 8.944467e+001 2.655906e-004 1.159648e+002 1.002328e+000 -2.775748e+000
104547915 1.001218e+000 -1.640406e+000 1.245305e-004 8.765372e+001 1.792755e-004 5.068247e+001 1.002609e+000 -2.674001e+000
105297900 1.000740e+000 -1.698212e+000 1.138572e-004 7.649682e+001 2.322528e-004 9.434010e+001 1.003016e+000 -2.640068e+000
106047885 1.001985e+000 -1.689562e+000 1.128528e-004 8.750182e+001 2.596393e-004 9.198643e+001 1.001746e+000 -2.879567e+000
106797870 1.001989e+000 -1.716326e+000 1.505028e-004 9.161068e+001 2.372212e-004 8.258002e+001 1.002593e+000 -2.827702e+000
107547855 1.001933e+000 -1.754479e+000 1.367723e-004 8.869659e+001 2.483473e-004 7.938072e+001 1.001853e+000 -2.697223e+000
108297840 1.001482e+000 -1.739982e+000 1.021964e-004 9.664428e+001 2.113941e-004 9.145353e+001 1.001036e+000 -2.891036e+000
109047825 1.001608e+000 -1.769889e+000 1.436597e-004 8.782236e+001 2.701253e-004 7.520147e+001 1.003651e+000 -2.952259e+000
109797810 1.001190e+000 -1.819899e+000 1.066877e-004 8.037975e+001 2.359548e-004 9.844496e+001 1.002888e+000 -2.841969e+000
110547795 1.000843e+000 -1.748169e+000 1.224594e-004 7.682112e+001 2.038991e-004 1.091756e+002 1.002345e+000 -2.921421e+000
111297780 1.001694e+000 -1.760828e+000 1.403570e-004 8.746503e+001 2.680394e-004 8.709688e+001 1.001590e+000 -2.781825e+000
112047765 1.000581e+000 -1.793075e+000 1.408557e-004 8.856504e+001 3.046389e-004 8.748566e+001 1.000640e+000 -2.847785e+000
112797750 1.001455e+000 -1.814958e+000 1.374265e-004 8.628596e+001 2.746439e-004 8.905864e+001 1.001545e+000 -2.903795e+000
113547735 1.001857e+000 -1.794832e+000 1.129186e-004 1.012269e+002 2.737679e-004 8.318438e+001 1.001650e+000 -2.885147e+000
114297720 1.000589e+000 -1.807854e+000 1.632724e-004 8.407432e+001 2.861698e-004 8.415323e+001 1.003567e+000 -2.983573e+000
115047705 1.001689e+000 -1.805421e+000 1.307747e-004 1.009094e+002 2.332133e-004 7.936238e+001 1.002084e+000 -2.991992e+000
115797690 1.001777e+000 -1.814928e+000 1.397419e-004 8.373399e+001 1.817269e-004 6.945214e+001 1.002466e+000 -3.082920e+000
116547675 1.002058e+000 -1.843888e+000 1.508758e-004 9.150517e+001 2.379410e-004 7.678998e+001 1.001801e+000 -2.972150e+000
117297660 1.001793e+000 -1.820785e+000 1.345038e-004 9.086948e+001 2.926045e-004 8.091717e+001 1.002439e+000 -3.008042e+000
118047645 1.001444e+000 -1.848862e+000 1.213192e-004 9.262319e+001 3.026497e-004 8.238134e+001 1.002981e+000 -2.969277e+000
