!Agilent Technologies,N5230C,SG49000117,A.08.50.07
!Agilent N5230C: A.08.50.07
!Date: Friday, May 17, 2024 20:48:26
!Correction: S11(Full 2 Port(1,2)) 
!S21(Full 2 Port(1,2)) 
!S12(Full 2 Port(1,2)) 
!S22(Full 2 Port(1,2)) 
!S2P File: Measurements: S11, S21, S12, S22:
# Hz S  MA   R 50
300000 1.005894e+000 -4.296684e-001 7.323079e-006 1.604015e+002 7.074690e-005 1.703730e+002 1.014908e+000 -8.063534e-001
1049985 1.000317e+000 -3.041543e-001 6.363842e-006 1.353488e+001 5.929199e-006 -9.875926e+001 9.998596e-001 -4.965740e-001
1799970 9.991577e-001 -1.850306e-001 2.024411e-006 1.259298e+002 2.146835e-005 1.555022e+002 9.984424e-001 -3.780322e-001
2549955 9.988261e-001 -1.522279e-001 9.478311e-005 -1.117661e+002 2.039220e-004 -1.264863e+002 9.987837e-001 -2.608854e-001
3299940 9.996033e-001 -1.358659e-001 1.044459e-005 1.594142e+002 1.824312e-005 -1.535828e+001 9.975505e-001 -2.540946e-001
4049925 9.992839e-001 -1.902630e-001 4.500755e-006 1.352884e+002 2.091785e-005 1.002400e+002 9.986922e-001 -2.487444e-001
4799910 9.995195e-001 -1.714780e-001 5.910536e-007 1.335347e+002 2.133194e-005 1.405475e+002 9.990782e-001 -2.506593e-001
5549895 9.993479e-001 -1.764241e-001 1.640837e-005 -1.353339e+001 3.529761e-005 1.053157e+002 9.990504e-001 -2.280693e-001
6299880 9.992480e-001 -1.679698e-001 1.163524e-005 1.024300e+002 3.322499e-005 8.034007e+001 9.994257e-001 -2.744055e-001
7049865 9.989794e-001 -1.920929e-001 1.374136e-005 1.203287e+002 1.975181e-005 1.381555e+002 9.991269e-001 -3.008876e-001
7799850 9.994509e-001 -2.129635e-001 8.526901e-006 1.225419e+002 3.244449e-005 1.497736e+002 9.979668e-001 -3.279626e-001
8549835 9.991795e-001 -2.120927e-001 1.026577e-005 1.560677e+002 5.951414e-005 9.950715e+001 9.988196e-001 -3.905393e-001
9299820 9.993495e-001 -2.250047e-001 1.617999e-005 1.138781e+002 4.900646e-005 1.469370e+002 9.984177e-001 -3.757870e-001
10049805 9.994660e-001 -2.601371e-001 1.656051e-005 1.034092e+002 2.796867e-005 1.478921e+001 9.984475e-001 -4.036882e-001
10799790 9.990343e-001 -2.388824e-001 1.949098e-005 1.091331e+002 2.794126e-005 7.928903e+001 9.987110e-001 -3.970044e-001
11549775 9.994250e-001 -2.635704e-001 1.541044e-005 1.105036e+002 4.843258e-005 8.794998e+001 9.985522e-001 -3.995621e-001
12299760 9.992026e-001 -2.725919e-001 5.375585e-006 3.760740e+001 3.826290e-005 1.286641e+002 1.000037e+000 -4.344239e-001
13049745 9.994214e-001 -3.289641e-001 2.972881e-005 8.305466e+001 4.446348e-005 1.183396e+002 9.985667e-001 -4.697751e-001
13799730 9.993376e-001 -3.337159e-001 2.263391e-005 1.110961e+002 4.198555e-005 9.436702e+001 9.976577e-001 -5.090458e-001
14549715 9.994864e-001 -3.485000e-001 1.860216e-005 9.717163e+001 2.484980e-005 5.403338e+001 9.996655e-001 -5.032155e-001
15299700 9.987749e-001 -3.413453e-001 2.013075e-005 1.047238e+002 4.536315e-005 8.018731e+001 9.983465e-001 -5.711191e-001
16049685 9.995524e-001 -3.405855e-001 1.828622e-005 9.738513e+001 5.488173e-005 6.992023e+001 9.994859e-001 -5.509285e-001
16799670 9.989809e-001 -3.515418e-001 2.021206e-005 4.421289e+001 2.637475e-005 1.021575e+002 1.000385e+000 -5.866925e-001
17549655 9.993592e-001 -4.122877e-001 2.425012e-005 6.702296e+001 5.936678e-005 1.134741e+002 9.995078e-001 -5.888910e-001
18299640 9.990911e-001 -3.817638e-001 2.270171e-005 1.086866e+002 2.982742e-005 9.726986e+001 9.991078e-001 -6.906072e-001
19049625 9.993817e-001 -4.323102e-001 2.684911e-005 7.204774e+001 4.963099e-005 7.187503e+001 9.987491e-001 -6.041089e-001
19799610 9.998482e-001 -4.194213e-001 3.017614e-005 7.341159e+001 8.558717e-005 8.946895e+001 9.983855e-001 -6.530684e-001
20549595 9.988084e-001 -4.237056e-001 3.051112e-005 1.045571e+002 5.380050e-005 1.131141e+002 9.980172e-001 -7.247920e-001
21299580 9.987297e-001 -4.315846e-001 2.431394e-005 9.365816e+001 5.771549e-005 5.242068e+001 9.979210e-001 -6.545236e-001
22049565 9.989102e-001 -4.877342e-001 3.577017e-005 6.964980e+001 8.465708e-005 8.939133e+001 9.979852e-001 -7.147096e-001
22799550 9.996291e-001 -4.490237e-001 3.369118e-005 1.031200e+002 3.457349e-005 4.475654e+001 9.996419e-001 -7.738973e-001
23549535 9.995660e-001 -5.098479e-001 2.239937e-005 8.888589e+001 7.733486e-005 4.149190e+001 9.987926e-001 -7.801268e-001
24299520 9.992886e-001 -5.260519e-001 3.161748e-005 1.078592e+002 9.558553e-005 9.407099e+001 9.974123e-001 -8.130852e-001
25049505 9.993528e-001 -5.488620e-001 3.149290e-005 1.133030e+002 5.776476e-005 8.848631e+001 9.988256e-001 -8.555766e-001
25799490 9.991753e-001 -5.411116e-001 3.046730e-005 9.815341e+001 9.395985e-005 7.366534e+001 9.984917e-001 -9.129070e-001
26549475 9.998714e-001 -5.445662e-001 1.670202e-005 1.257799e+002 7.613652e-005 7.438790e+001 9.993557e-001 -9.063420e-001
27299460 9.994380e-001 -5.465546e-001 3.861577e-005 1.097461e+002 1.232212e-004 7.930337e+001 9.985753e-001 -9.232790e-001
28049445 9.992523e-001 -5.569229e-001 4.284201e-005 8.193866e+001 6.787852e-005 1.002633e+002 1.000215e+000 -9.360845e-001
28799430 9.989308e-001 -6.224421e-001 4.902245e-005 7.213107e+001 5.583053e-005 4.425554e+001 9.981755e-001 -1.022575e+000
29549415 9.993084e-001 -5.736889e-001 5.451639e-005 8.166182e+001 7.730282e-005 6.427551e+001 9.994197e-001 -9.608092e-001
30299400 9.992898e-001 -6.131592e-001 3.623929e-005 8.310670e+001 5.263662e-005 1.105207e+002 9.997951e-001 -1.033089e+000
31049385 9.994637e-001 -5.864381e-001 2.896547e-005 8.646365e+001 1.025395e-004 8.216784e+001 9.980856e-001 -1.067080e+000
31799370 9.993276e-001 -6.765041e-001 3.324827e-005 7.498920e+001 9.516744e-005 1.092570e+002 9.993790e-001 -1.029911e+000
32549355 9.998407e-001 -6.640840e-001 4.265387e-005 1.092564e+002 9.172662e-005 1.026878e+002 9.993801e-001 -1.044963e+000
33299340 9.995323e-001 -6.617337e-001 3.767812e-005 9.718855e+001 8.748232e-005 9.246532e+001 9.987926e-001 -1.085780e+000
34049325 9.988723e-001 -6.995995e-001 3.999731e-005 8.191368e+001 7.728608e-005 8.566669e+001 9.984388e-001 -1.111054e+000
34799310 9.990572e-001 -7.203029e-001 5.528639e-005 9.393920e+001 8.037286e-005 8.815897e+001 9.973819e-001 -1.132901e+000
35549295 9.992853e-001 -7.613428e-001 2.727582e-005 9.420367e+001 7.438789e-005 9.830050e+001 9.997347e-001 -1.130705e+000
36299280 9.991850e-001 -7.491921e-001 4.382963e-005 9.401948e+001 9.782663e-005 8.208885e+001 9.986493e-001 -1.203595e+000
37049265 9.997097e-001 -7.551976e-001 4.696931e-005 8.423470e+001 9.699948e-005 1.029851e+002 9.982346e-001 -1.198730e+000
37799250 9.992311e-001 -7.530403e-001 4.938335e-005 8.417754e+001 1.099632e-004 1.016288e+002 9.985810e-001 -1.213227e+000
38549235 9.988003e-001 -7.755769e-001 4.734765e-005 8.543602e+001 9.028072e-005 9.786909e+001 9.979092e-001 -1.300517e+000
39299220 9.995694e-001 -7.789393e-001 5.271971e-005 9.278357e+001 1.288497e-004 7.934916e+001 9.980142e-001 -1.237366e+000
40049205 9.990752e-001 -7.602504e-001 7.976589e-005 1.087953e+002 1.125318e-004 1.016261e+002 9.998983e-001 -1.309440e+000
40799190 9.999568e-001 -8.212147e-001 5.077294e-005 6.813618e+001 1.111659e-004 6.809544e+001 9.999441e-001 -1.352807e+000
41549175 9.986666e-001 -7.946767e-001 5.498293e-005 1.030783e+002 9.040594e-005 9.335752e+001 9.982336e-001 -1.368825e+000
42299160 9.991360e-001 -8.353698e-001 5.216243e-005 1.107419e+002 9.990529e-005 6.235682e+001 9.983340e-001 -1.313050e+000
43049145 9.997134e-001 -8.230039e-001 5.347695e-005 9.918542e+001 7.708668e-005 7.601400e+001 9.985362e-001 -1.399729e+000
43799130 9.991964e-001 -8.515213e-001 4.021809e-005 7.496110e+001 1.385633e-004 8.353145e+001 9.976187e-001 -1.413635e+000
44549115 9.996017e-001 -8.424770e-001 6.841294e-005 6.951759e+001 7.081568e-005 8.284682e+001 9.984289e-001 -1.437101e+000
45299100 1.000059e+000 -9.196865e-001 5.378615e-005 9.147990e+001 1.073908e-004 8.393748e+001 9.999800e-001 -1.422174e+000
46049085 1.000080e+000 -8.954272e-001 5.364072e-005 8.478475e+001 1.441999e-004 1.112838e+002 9.996986e-001 -1.398383e+000
46799070 9.998050e-001 -9.078593e-001 7.166489e-005 9.822954e+001 1.122377e-004 9.625517e+001 9.989539e-001 -1.458655e+000
47549055 9.996662e-001 -9.540421e-001 6.127574e-005 1.091641e+002 1.129519e-004 1.033283e+002 9.979347e-001 -1.559466e+000
48299040 1.000171e+000 -9.346235e-001 6.030701e-005 9.838657e+001 1.017319e-004 7.650634e+001 9.981703e-001 -1.498824e+000
49049025 1.000192e+000 -9.571607e-001 4.799895e-005 1.071013e+002 9.563906e-005 9.034261e+001 1.000161e+000 -1.465851e+000
49799010 9.988704e-001 -9.909552e-001 4.122540e-005 9.241049e+001 1.287295e-004 9.343596e+001 9.988335e-001 -1.507807e+000
50548995 9.985954e-001 -1.009601e+000 8.638144e-005 7.970452e+001 1.585367e-004 7.704655e+001 9.995225e-001 -1.609401e+000
51298980 1.000221e+000 -1.013314e+000 7.207915e-005 9.974923e+001 1.226139e-004 9.021442e+001 9.977701e-001 -1.586340e+000
52048965 9.991190e-001 -1.000066e+000 6.359206e-005 9.147311e+001 1.536639e-004 8.796948e+001 9.985095e-001 -1.515302e+000
52798950 9.993249e-001 -9.848004e-001 5.195914e-005 9.966088e+001 1.695808e-004 9.321522e+001 9.997601e-001 -1.677377e+000
53548935 1.000976e+000 -1.072584e+000 6.124723e-005 7.683736e+001 1.321496e-004 1.055347e+002 9.992741e-001 -1.651173e+000
54298920 9.994542e-001 -1.047146e+000 3.875821e-005 1.173396e+002 1.195810e-004 9.504498e+001 9.975367e-001 -1.720230e+000
55048905 9.995285e-001 -1.027681e+000 7.991373e-005 9.748139e+001 1.305266e-004 9.679917e+001 9.965014e-001 -1.755713e+000
55798890 9.991263e-001 -1.067011e+000 8.406847e-005 9.075221e+001 1.219687e-004 7.949643e+001 9.989968e-001 -1.898753e+000
56548875 9.995973e-001 -1.101449e+000 6.829026e-005 9.883065e+001 1.166629e-004 1.035809e+002 9.973516e-001 -1.742391e+000
57298860 1.000495e+000 -1.126175e+000 7.869225e-005 8.538833e+001 1.594147e-004 1.130002e+002 9.997823e-001 -1.685713e+000
58048845 9.991806e-001 -1.142667e+000 7.918680e-005 9.416657e+001 1.764838e-004 9.748722e+001 9.988765e-001 -1.704552e+000
58798830 9.991300e-001 -1.069787e+000 7.357467e-005 1.002363e+002 1.692550e-004 9.499665e+001 9.990713e-001 -1.722836e+000
59548815 9.997718e-001 -1.182102e+000 6.580690e-005 8.595554e+001 1.321228e-004 1.048707e+002 9.991714e-001 -1.828830e+000
60298800 9.997680e-001 -1.151543e+000 6.954397e-005 8.856026e+001 1.405084e-004 1.016603e+002 9.992435e-001 -1.872893e+000
61048785 1.000844e+000 -1.147567e+000 9.675996e-005 9.127932e+001 1.699040e-004 1.133982e+002 9.997807e-001 -1.756697e+000
61798770 9.995025e-001 -1.180415e+000 1.017776e-004 9.320685e+001 1.326211e-004 7.829393e+001 1.000456e+000 -1.960953e+000
62548755 1.000095e+000 -1.143152e+000 7.051594e-005 8.085229e+001 8.278780e-005 6.778354e+001 9.995022e-001 -1.918914e+000
63298740 1.000315e+000 -1.177220e+000 8.526626e-005 9.422491e+001 1.900156e-004 8.597557e+001 1.000042e+000 -1.913955e+000
64048725 9.998632e-001 -1.132665e+000 8.114363e-005 9.600996e+001 1.227288e-004 7.568603e+001 9.989140e-001 -1.858262e+000
64798710 9.991705e-001 -1.227761e+000 8.225898e-005 9.903537e+001 2.026495e-004 9.433318e+001 9.989048e-001 -2.086927e+000
65548695 9.999871e-001 -1.260626e+000 7.589364e-005 7.589430e+001 1.059152e-004 8.496965e+001 9.996755e-001 -1.911811e+000
66298680 1.000353e+000 -1.246951e+000 9.422088e-005 9.362673e+001 1.202042e-004 7.953506e+001 9.989340e-001 -2.040537e+000
67048665 1.000360e+000 -1.198989e+000 8.771180e-005 9.583906e+001 1.403258e-004 8.538189e+001 9.996753e-001 -2.061565e+000
67798650 9.997212e-001 -1.231122e+000 7.532025e-005 8.514049e+001 1.234207e-004 8.241596e+001 9.997907e-001 -2.068253e+000
68548635 9.994506e-001 -1.257400e+000 9.812947e-005 9.259889e+001 1.606599e-004 1.052907e+002 1.001283e+000 -2.032589e+000
69298620 1.000496e+000 -1.274925e+000 8.546954e-005 8.139897e+001 1.696395e-004 9.524523e+001 9.998900e-001 -2.043446e+000
70048605 1.000194e+000 -1.283812e+000 9.299428e-005 9.193386e+001 1.850098e-004 1.113215e+002 1.000599e+000 -2.163280e+000
70798590 1.000532e+000 -1.259854e+000 7.929727e-005 9.049939e+001 1.793994e-004 9.339975e+001 9.986743e-001 -2.166909e+000
71548575 1.000177e+000 -1.287439e+000 8.874739e-005 8.890726e+001 1.642385e-004 9.997854e+001 9.984574e-001 -2.239429e+000
72298560 1.000298e+000 -1.322891e+000 8.987531e-005 8.194946e+001 1.936117e-004 9.813781e+001 9.987999e-001 -2.323044e+000
73048545 1.000143e+000 -1.342417e+000 1.085235e-004 9.007272e+001 1.242665e-004 7.432205e+001 1.000701e+000 -2.153835e+000
73798530 1.000017e+000 -1.280144e+000 9.436277e-005 8.825455e+001 1.671816e-004 6.920053e+001 1.000460e+000 -2.313642e+000
74548515 1.000719e+000 -1.399464e+000 9.083996e-005 9.964321e+001 2.005831e-004 7.949334e+001 9.996409e-001 -2.267484e+000
75298500 1.000776e+000 -1.374206e+000 9.998459e-005 8.959087e+001 1.545165e-004 7.864529e+001 9.985826e-001 -2.297821e+000
76048485 1.000569e+000 -1.367079e+000 9.852953e-005 9.709010e+001 1.851667e-004 8.356674e+001 1.000025e+000 -2.326511e+000
76798470 1.000402e+000 -1.336463e+000 9.382242e-005 9.714565e+001 1.576051e-004 8.709102e+001 9.986378e-001 -2.306999e+000
77548455 9.999755e-001 -1.411025e+000 8.993441e-005 9.033640e+001 1.737214e-004 8.723659e+001 1.001366e+000 -2.294425e+000
78298440 1.000681e+000 -1.414799e+000 1.089328e-004 9.346043e+001 1.624853e-004 9.156768e+001 9.991791e-001 -2.373445e+000
79048425 1.000913e+000 -1.447831e+000 9.921360e-005 8.520543e+001 2.319356e-004 9.276194e+001 1.000682e+000 -2.382056e+000
79798410 1.000820e+000 -1.422787e+000 1.141335e-004 1.023404e+002 1.932329e-004 9.148727e+001 9.990378e-001 -2.326599e+000
80548395 1.000922e+000 -1.426622e+000 8.397683e-005 8.154506e+001 1.985907e-004 8.187685e+001 9.982510e-001 -2.454678e+000
81298380 1.000439e+000 -1.485701e+000 1.047691e-004 1.044908e+002 1.915564e-004 8.007202e+001 9.994276e-001 -2.362884e+000
82048365 1.000271e+000 -1.422348e+000 1.039103e-004 8.754874e+001 1.699510e-004 8.992858e+001 1.001251e+000 -2.421442e+000
82798350 1.001271e+000 -1.431238e+000 1.081785e-004 8.674178e+001 1.941812e-004 8.350835e+001 1.000670e+000 -2.445908e+000
83548335 1.000110e+000 -1.484763e+000 1.166119e-004 8.666878e+001 2.102455e-004 8.060558e+001 9.989080e-001 -2.480112e+000
84298320 1.000872e+000 -1.522896e+000 9.170769e-005 1.033020e+002 1.774079e-004 8.453735e+001 9.998928e-001 -2.444144e+000
85048305 1.000039e+000 -1.524487e+000 9.229798e-005 9.047413e+001 1.861070e-004 8.224121e+001 1.000026e+000 -2.521658e+000
85798290 9.999548e-001 -1.556486e+000 9.803497e-005 7.354382e+001 1.827109e-004 8.688472e+001 1.000393e+000 -2.496879e+000
86548275 1.000675e+000 -1.538237e+000 1.336169e-004 9.935703e+001 2.039430e-004 8.943594e+001 9.994942e-001 -2.490914e+000
87298260 1.000045e+000 -1.544098e+000 9.413753e-005 9.113454e+001 1.725991e-004 9.259837e+001 1.001348e+000 -2.535233e+000
88048245 1.000014e+000 -1.505037e+000 1.186197e-004 8.590530e+001 2.048128e-004 9.241113e+001 1.000433e+000 -2.611574e+000
88798230 1.001056e+000 -1.577125e+000 1.021259e-004 7.833281e+001 2.210464e-004 9.635945e+001 1.001115e+000 -2.600163e+000
89548215 1.001014e+000 -1.566101e+000 9.347341e-005 9.196008e+001 2.054669e-004 8.840024e+001 9.986352e-001 -2.617586e+000
90298200 9.998620e-001 -1.607448e+000 1.320857e-004 9.130992e+001 2.274396e-004 8.789279e+001 1.000916e+000 -2.468937e+000
91048185 1.000490e+000 -1.642050e+000 1.212532e-004 8.259183e+001 2.676332e-004 8.041508e+001 9.997627e-001 -2.569525e+000
91798170 1.000702e+000 -1.613663e+000 1.198407e-004 1.030399e+002 2.914263e-004 8.692549e+001 1.001035e+000 -2.671170e+000
92548155 1.001390e+000 -1.622941e+000 1.098046e-004 9.654148e+001 2.573227e-004 7.223267e+001 1.001223e+000 -2.706110e+000
93298140 1.001491e+000 -1.642294e+000 1.092982e-004 8.504940e+001 2.063273e-004 8.641953e+001 1.001001e+000 -2.606533e+000
94048125 1.000932e+000 -1.688558e+000 1.063667e-004 9.159091e+001 2.279679e-004 8.633382e+001 1.002437e+000 -2.704813e+000
94798110 1.001238e+000 -1.625801e+000 1.196694e-004 8.922837e+001 1.939821e-004 9.565228e+001 1.000536e+000 -2.693774e+000
95548095 1.000839e+000 -1.645709e+000 8.757180e-005 8.405409e+001 2.749555e-004 9.088650e+001 9.993749e-001 -2.678717e+000
96298080 1.000991e+000 -1.629516e+000 1.151374e-004 9.725980e+001 2.513015e-004 1.063604e+002 1.000065e+000 -2.745535e+000
97048065 1.000297e+000 -1.700199e+000 1.183316e-004 8.539496e+001 2.357181e-004 7.304094e+001 1.000341e+000 -2.741829e+000
97798050 1.000674e+000 -1.622809e+000 1.182453e-004 7.673151e+001 2.582661e-004 8.525439e+001 1.001652e+000 -2.827634e+000
98548035 1.001342e+000 -1.694451e+000 1.314860e-004 1.028697e+002 2.550157e-004 8.556606e+001 1.001049e+000 -2.809851e+000
99298020 1.001394e+000 -1.702469e+000 1.310689e-004 7.453699e+001 2.620666e-004 7.911224e+001 1.001758e+000 -2.885348e+000
100048005 1.001498e+000 -1.720989e+000 1.516506e-004 9.950581e+001 2.911521e-004 8.992632e+001 1.000135e+000 -2.866244e+000
100797990 1.001302e+000 -1.704982e+000 1.351519e-004 8.695061e+001 2.358907e-004 8.662718e+001 1.000933e+000 -2.769907e+000
101547975 1.000664e+000 -1.733120e+000 1.366474e-004 8.233706e+001 2.152532e-004 8.203343e+001 9.992226e-001 -2.820330e+000
102297960 1.002473e+000 -1.713545e+000 1.171712e-004 8.664284e+001 2.863385e-004 8.228790e+001 1.001740e+000 -2.805930e+000
103047945 1.001102e+000 -1.735569e+000 1.424357e-004 9.452334e+001 2.406734e-004 9.217411e+001 1.000171e+000 -2.848423e+000
103797930 1.000731e+000 -1.753421e+000 1.330875e-004 8.628086e+001 2.701670e-004 8.127800e+001 1.002154e+000 -2.932695e+000
104547915 1.001168e+000 -1.725296e+000 1.275043e-004 8.670148e+001 3.324079e-004 7.471540e+001 1.002596e+000 -2.842293e+000
105297900 1.000634e+000 -1.790938e+000 1.198058e-004 8.619666e+001 2.518872e-004 7.100438e+001 1.002535e+000 -2.816310e+000
106047885 1.001809e+000 -1.771331e+000 1.082231e-004 7.919149e+001 2.439770e-004 8.625315e+001 1.001724e+000 -3.012855e+000
106797870 1.001757e+000 -1.793090e+000 1.191222e-004 9.407269e+001 2.865408e-004 8.854707e+001 1.002179e+000 -2.997133e+000
107547855 1.002016e+000 -1.840798e+000 1.375058e-004 8.204701e+001 2.721459e-004 9.270615e+001 1.001872e+000 -2.874036e+000
108297840 1.001357e+000 -1.816159e+000 1.287861e-004 8.502359e+001 2.194062e-004 8.763937e+001 1.000923e+000 -3.055734e+000
109047825 1.001406e+000 -1.856969e+000 1.255349e-004 8.694098e+001 2.932514e-004 8.967697e+001 1.003268e+000 -3.104863e+000
109797810 1.001002e+000 -1.895377e+000 1.372227e-004 8.765179e+001 2.720711e-004 9.369190e+001 1.002769e+000 -2.990464e+000
110547795 1.000957e+000 -1.824563e+000 1.336072e-004 9.307502e+001 2.397245e-004 8.974532e+001 1.001805e+000 -3.075674e+000
111297780 1.001427e+000 -1.847658e+000 1.453159e-004 8.981760e+001 3.105218e-004 7.684405e+001 1.001171e+000 -2.960779e+000
112047765 1.000516e+000 -1.877070e+000 1.552138e-004 9.725163e+001 2.742895e-004 9.212531e+001 1.000782e+000 -3.007414e+000
112797750 1.001236e+000 -1.903065e+000 1.458768e-004 9.357589e+001 2.951694e-004 8.310234e+001 1.001231e+000 -3.043200e+000
113547735 1.001628e+000 -1.872585e+000 1.479977e-004 8.386746e+001 2.925646e-004 9.199618e+001 1.001072e+000 -3.080382e+000
114297720 1.000412e+000 -1.891066e+000 1.397844e-004 8.541227e+001 2.339377e-004 9.083804e+001 1.003317e+000 -3.143726e+000
115047705 1.001540e+000 -1.883647e+000 1.333623e-004 9.127187e+001 2.727794e-004 8.642252e+001 1.001803e+000 -3.172903e+000
115797690 1.001788e+000 -1.898332e+000 1.335231e-004 8.098532e+001 3.070498e-004 8.824036e+001 1.002273e+000 -3.247698e+000
116547675 1.001920e+000 -1.940901e+000 1.406298e-004 8.257397e+001 2.881025e-004 8.194553e+001 1.001581e+000 -3.142800e+000
117297660 1.001810e+000 -1.907548e+000 1.484917e-004 8.231485e+001 2.912957e-004 8.944122e+001 1.002032e+000 -3.175060e+000
118047645 1.001197e+000 -1.934922e+000 1.488484e-004 8.155782e+001 2.581852e-004 8.596384e+001 1.002697e+000 -3.147818e+000
