!Agilent Technologies,N5230C,SG49000117,A.08.50.07
!Agilent N5230C: A.08.50.07
!Date: Friday, May 17, 2024 04:41:48
!Correction: S11(Full 2 Port(1,2)) 
!S21(Full 2 Port(1,2)) 
!S12(Full 2 Port(1,2)) 
!S22(Full 2 Port(1,2)) 
!S2P File: Measurements: S11, S21, S12, S22:
# Hz S  MA   R 50
300000 1.004994e+000 -3.722499e-001 1.068993e-005 -9.812469e+001 1.356918e-005 -4.485129e+001 1.012688e+000 -6.685483e-001
1049985 1.000709e+000 -2.633274e-001 5.499955e-006 -1.261277e+002 4.758921e-005 1.768658e+002 1.000723e+000 -4.117382e-001
1799970 9.996879e-001 -1.749875e-001 9.119659e-006 -4.614059e+001 1.581832e-005 6.982627e+001 9.989883e-001 -3.501857e-001
2549955 9.994239e-001 -1.480082e-001 8.862965e-005 -1.155057e+002 1.636122e-004 -1.368430e+002 9.994479e-001 -2.554049e-001
3299940 1.000126e+000 -1.470255e-001 4.154231e-006 1.685766e+002 2.656663e-005 -1.761455e+002 9.980913e-001 -2.718141e-001
4049925 9.998488e-001 -1.954239e-001 1.732117e-005 1.525957e+002 1.917816e-005 9.924640e+000 9.991147e-001 -2.528955e-001
4799910 1.000076e+000 -1.835302e-001 1.236688e-005 -1.674251e+002 3.338997e-005 1.504941e+002 9.995623e-001 -2.709826e-001
5549895 9.998384e-001 -1.931242e-001 1.282327e-005 7.864809e+001 1.786773e-006 8.392152e+001 9.995049e-001 -2.521543e-001
6299880 9.997066e-001 -1.805683e-001 1.346811e-005 9.356808e+001 3.007286e-005 1.063356e+002 9.998443e-001 -3.014895e-001
7049865 9.994500e-001 -2.046776e-001 1.327173e-005 1.668451e+002 2.445709e-005 1.286924e+002 9.992651e-001 -3.416670e-001
7799850 9.998977e-001 -2.261459e-001 1.023897e-005 6.988641e+001 1.336513e-005 7.136662e+001 9.980654e-001 -3.591694e-001
8549835 9.996087e-001 -2.288886e-001 2.503811e-006 2.998540e+001 1.237988e-005 7.552821e+001 9.988973e-001 -4.197018e-001
9299820 9.997739e-001 -2.432528e-001 1.624837e-005 1.022105e+002 5.084438e-005 8.826411e+001 9.985469e-001 -4.045770e-001
10049805 9.997858e-001 -2.637210e-001 1.237648e-005 8.322044e+001 3.872846e-005 6.042548e+001 9.983916e-001 -4.251357e-001
10799790 9.993442e-001 -2.410802e-001 1.693281e-005 1.053076e+002 3.338912e-005 7.269909e+001 9.987065e-001 -4.177968e-001
11549775 9.997044e-001 -2.686338e-001 1.139161e-005 6.978786e+001 2.651947e-005 8.371584e+001 9.983890e-001 -4.206975e-001
12299760 9.995593e-001 -2.782679e-001 2.193049e-005 8.754421e+001 5.810430e-005 8.638785e+001 9.998838e-001 -4.401897e-001
13049745 9.998357e-001 -3.267648e-001 2.339835e-005 9.382144e+001 6.953334e-005 6.252361e+001 9.986681e-001 -4.955885e-001
13799730 9.996426e-001 -3.380327e-001 2.190271e-005 6.948765e+001 4.128798e-005 5.842230e+001 9.977980e-001 -5.307068e-001
14549715 9.998371e-001 -3.529215e-001 2.143621e-005 9.328909e+001 2.911084e-005 9.270603e+001 9.994997e-001 -5.324047e-001
15299700 9.990566e-001 -3.444846e-001 2.145411e-005 8.547009e+001 8.772971e-005 1.233928e+002 9.982799e-001 -5.993707e-001
16049685 9.998422e-001 -3.501973e-001 6.686180e-006 1.344688e+002 6.151618e-005 5.285243e+001 9.993151e-001 -5.758390e-001
16799670 9.994028e-001 -3.582828e-001 2.029488e-005 9.621931e+001 3.785068e-005 6.756441e+001 1.000342e+000 -6.176071e-001
17549655 9.996096e-001 -4.141361e-001 3.144380e-005 9.317863e+001 5.677616e-005 1.119079e+002 9.995632e-001 -6.182728e-001
18299640 9.994580e-001 -3.899594e-001 1.782350e-005 9.946963e+001 3.169724e-005 1.059857e+001 9.989777e-001 -7.085236e-001
19049625 9.996223e-001 -4.359121e-001 2.913583e-005 7.371390e+001 6.424042e-005 1.263580e+002 9.984676e-001 -6.367797e-001
19799610 1.000052e+000 -4.177305e-001 2.182900e-005 8.742168e+001 6.810415e-005 8.777649e+001 9.982100e-001 -6.734136e-001
20549595 9.990698e-001 -4.207335e-001 2.917042e-005 9.305689e+001 1.496877e-005 1.023785e+002 9.980578e-001 -7.606788e-001
21299580 9.989211e-001 -4.388184e-001 3.527197e-005 1.011094e+002 5.074414e-005 1.299697e+002 9.978497e-001 -6.805494e-001
22049565 9.990879e-001 -4.844458e-001 2.535140e-005 8.331089e+001 6.374251e-005 7.272153e+001 9.981587e-001 -7.345434e-001
22799550 9.998379e-001 -4.624469e-001 3.508026e-005 8.648215e+001 3.936482e-005 8.253829e+001 9.996473e-001 -8.057295e-001
23549535 9.997551e-001 -5.083989e-001 4.160494e-005 9.192487e+001 7.525659e-005 9.445053e+001 9.987324e-001 -8.118289e-001
24299520 9.994920e-001 -5.273181e-001 5.048480e-005 7.635904e+001 4.443368e-005 6.785950e+001 9.974792e-001 -8.427335e-001
25049505 9.996327e-001 -5.490392e-001 3.468262e-005 1.106616e+002 8.443970e-005 9.480596e+001 9.988788e-001 -8.829172e-001
25799490 9.993486e-001 -5.447063e-001 4.262758e-005 7.994852e+001 8.220875e-005 7.438979e+001 9.983356e-001 -9.526293e-001
26549475 1.000192e+000 -5.527245e-001 3.923213e-005 8.809232e+001 5.612728e-005 9.746250e+001 9.994708e-001 -9.340028e-001
27299460 9.995840e-001 -5.532838e-001 3.445975e-005 8.988909e+001 9.293359e-005 1.021537e+002 9.988402e-001 -9.488281e-001
28049445 9.994074e-001 -5.573978e-001 2.659280e-005 1.009538e+002 7.161052e-005 6.784493e+001 1.000380e+000 -9.768413e-001
28799430 9.991934e-001 -6.279702e-001 3.338742e-005 8.023465e+001 6.571018e-005 1.045199e+002 9.982935e-001 -1.054822e+000
29549415 9.994192e-001 -5.737193e-001 5.030454e-005 9.601682e+001 1.156611e-004 9.431524e+001 9.997826e-001 -9.858717e-001
30299400 9.993797e-001 -6.079819e-001 4.669219e-005 9.882389e+001 1.073734e-004 1.019578e+002 1.000346e+000 -1.062302e+000
31049385 9.996703e-001 -5.846067e-001 2.539645e-005 1.007846e+002 7.194206e-005 9.042234e+001 9.985297e-001 -1.091467e+000
31799370 9.995619e-001 -6.808654e-001 4.489230e-005 9.209280e+001 8.612441e-005 9.388468e+001 9.996595e-001 -1.070733e+000
32549355 1.000086e+000 -6.630320e-001 6.134212e-005 8.598335e+001 1.039784e-004 8.105676e+001 9.997114e-001 -1.081672e+000
33299340 9.997053e-001 -6.637977e-001 4.283992e-005 8.519128e+001 1.101995e-004 9.182372e+001 9.991248e-001 -1.128345e+000
34049325 9.990609e-001 -7.016030e-001 4.359194e-005 1.014365e+002 8.175043e-005 8.587944e+001 9.989187e-001 -1.156232e+000
34799310 9.993231e-001 -7.223256e-001 4.412243e-005 8.728495e+001 7.653786e-005 9.062528e+001 9.978434e-001 -1.173893e+000
35549295 9.993622e-001 -7.645050e-001 5.432263e-005 8.242371e+001 1.129171e-004 9.426717e+001 1.000257e+000 -1.172071e+000
36299280 9.994574e-001 -7.497444e-001 4.343666e-005 1.097827e+002 9.474761e-005 8.581803e+001 9.992567e-001 -1.241898e+000
37049265 9.999671e-001 -7.544910e-001 4.959282e-005 8.920639e+001 8.812105e-005 1.015199e+002 9.989378e-001 -1.244609e+000
37799250 9.994006e-001 -7.510647e-001 6.068375e-005 7.881709e+001 1.167174e-004 9.124768e+001 9.993366e-001 -1.260003e+000
38549235 9.990827e-001 -7.714777e-001 2.160038e-005 1.073641e+002 9.496308e-005 7.496053e+001 9.984366e-001 -1.340407e+000
39299220 9.998354e-001 -7.833523e-001 5.810694e-005 9.346274e+001 9.442039e-005 9.299298e+001 9.987832e-001 -1.286427e+000
40049205 9.995711e-001 -7.631174e-001 1.143549e-005 7.145367e+001 1.124853e-004 7.686012e+001 1.000356e+000 -1.360616e+000
40799190 9.999397e-001 -8.225536e-001 8.282232e-005 9.871009e+001 1.077225e-004 8.275366e+001 1.000342e+000 -1.408348e+000
41549175 9.988374e-001 -7.924870e-001 6.434706e-005 1.020019e+002 1.141632e-004 7.921171e+001 9.988052e-001 -1.422184e+000
42299160 9.993590e-001 -8.306476e-001 6.447011e-005 8.409241e+001 1.423157e-004 7.969598e+001 9.989487e-001 -1.361547e+000
43049145 1.000028e+000 -8.414815e-001 5.915950e-005 7.184462e+001 1.051125e-004 9.878043e+001 9.993801e-001 -1.453629e+000
43799130 9.994241e-001 -8.638624e-001 6.451314e-005 8.473917e+001 1.003280e-004 9.549586e+001 9.982939e-001 -1.452036e+000
44549115 9.999794e-001 -8.374318e-001 6.076126e-005 1.032344e+002 1.305421e-004 9.416116e+001 9.994605e-001 -1.499441e+000
45299100 1.000411e+000 -9.225514e-001 4.942304e-005 9.038340e+001 1.391476e-004 9.077413e+001 1.000366e+000 -1.491326e+000
46049085 1.000429e+000 -9.027246e-001 7.273738e-005 9.128093e+001 1.239924e-004 7.573602e+001 1.000594e+000 -1.474997e+000
46799070 1.000308e+000 -9.073547e-001 4.416928e-005 8.455596e+001 1.148847e-004 8.080762e+001 9.995210e-001 -1.534417e+000
47549055 1.000081e+000 -9.536332e-001 6.511922e-005 8.582619e+001 1.646682e-004 8.586404e+001 9.984609e-001 -1.619826e+000
48299040 1.000496e+000 -9.352251e-001 5.860561e-005 9.056520e+001 1.724918e-004 9.432436e+001 9.987983e-001 -1.558794e+000
49049025 1.000526e+000 -9.594015e-001 7.636504e-005 9.269529e+001 1.451914e-004 8.276567e+001 1.000584e+000 -1.545500e+000
49799010 9.992582e-001 -9.886571e-001 5.411082e-005 9.133839e+001 1.625928e-004 8.227280e+001 9.993062e-001 -1.573436e+000
50548995 9.990009e-001 -1.005678e+000 6.312711e-005 1.019122e+002 8.489666e-005 1.050230e+002 1.000114e+000 -1.677035e+000
51298980 1.000669e+000 -1.020098e+000 7.006055e-005 8.284271e+001 1.166221e-004 8.349081e+001 9.981145e-001 -1.656694e+000
52048965 9.994205e-001 -1.006132e+000 6.453117e-005 9.311063e+001 1.612729e-004 8.734707e+001 9.991444e-001 -1.588638e+000
52798950 9.997838e-001 -9.883854e-001 7.808079e-005 8.336989e+001 1.355431e-004 5.592389e+001 1.000197e+000 -1.741481e+000
53548935 1.001295e+000 -1.079338e+000 8.085366e-005 8.842331e+001 1.710045e-004 8.140668e+001 9.996402e-001 -1.734252e+000
54298920 9.999911e-001 -1.049818e+000 6.985290e-005 9.490617e+001 1.196373e-004 7.964081e+001 9.978907e-001 -1.791080e+000
55048905 9.998784e-001 -1.033697e+000 6.791244e-005 9.877834e+001 1.572336e-004 8.134216e+001 9.967448e-001 -1.823260e+000
55798890 9.996982e-001 -1.072627e+000 8.277599e-005 1.074620e+002 1.714801e-004 8.397972e+001 9.992690e-001 -1.978297e+000
56548875 1.000047e+000 -1.103360e+000 6.595001e-005 8.608188e+001 1.760536e-004 8.802505e+001 9.974692e-001 -1.814706e+000
57298860 1.000863e+000 -1.127075e+000 6.631625e-005 9.144972e+001 1.674321e-004 8.169241e+001 9.997357e-001 -1.766221e+000
58048845 9.997121e-001 -1.147709e+000 7.180187e-005 1.058117e+002 1.279001e-004 7.632170e+001 9.990323e-001 -1.743441e+000
58798830 9.995840e-001 -1.078635e+000 7.794489e-005 8.597649e+001 1.703564e-004 7.482255e+001 9.993918e-001 -1.796988e+000
59548815 1.000208e+000 -1.191420e+000 8.761143e-005 9.218415e+001 2.018670e-004 8.800470e+001 9.993666e-001 -1.892068e+000
60298800 1.000303e+000 -1.156802e+000 6.667398e-005 9.020899e+001 1.441667e-004 7.180024e+001 9.995529e-001 -1.951746e+000
61048785 1.001320e+000 -1.148860e+000 9.132480e-005 9.543133e+001 1.572385e-004 9.989064e+001 1.000343e+000 -1.826207e+000
61798770 1.000130e+000 -1.195393e+000 8.509256e-005 9.468208e+001 1.349816e-004 7.849643e+001 1.000672e+000 -2.044245e+000
62548755 1.000533e+000 -1.153057e+000 7.201881e-005 9.006638e+001 1.634828e-004 9.490746e+001 9.990848e-001 -1.984589e+000
63298740 1.000909e+000 -1.184775e+000 7.800974e-005 8.206516e+001 1.572924e-004 8.806695e+001 9.997689e-001 -1.962273e+000
64048725 1.000501e+000 -1.145452e+000 8.982103e-005 9.051476e+001 1.294650e-004 1.031903e+002 9.987978e-001 -1.907893e+000
64798710 9.998909e-001 -1.246298e+000 7.234372e-005 9.769431e+001 2.024115e-004 1.023913e+002 9.991017e-001 -2.149661e+000
65548695 1.000569e+000 -1.278603e+000 8.800351e-005 8.932825e+001 1.667419e-004 8.754155e+001 9.999677e-001 -1.935343e+000
66298680 1.000877e+000 -1.267708e+000 8.208856e-005 9.202322e+001 1.703645e-004 9.127973e+001 9.991279e-001 -2.097629e+000
67048665 1.001021e+000 -1.217226e+000 8.243950e-005 9.621257e+001 2.121578e-004 9.630338e+001 9.999343e-001 -2.111178e+000
67798650 1.000324e+000 -1.248445e+000 1.005638e-004 9.605293e+001 1.915081e-004 8.188280e+001 9.996358e-001 -2.151009e+000
68548635 1.000068e+000 -1.267498e+000 8.526674e-005 9.183640e+001 1.518079e-004 1.002856e+002 1.001338e+000 -2.096179e+000
69298620 1.000998e+000 -1.293952e+000 9.884343e-005 8.660295e+001 1.918000e-004 8.057187e+001 1.000067e+000 -2.084206e+000
70048605 1.000709e+000 -1.296265e+000 9.100608e-005 8.432136e+001 2.121927e-004 9.184055e+001 1.000812e+000 -2.228210e+000
70798590 1.000977e+000 -1.278602e+000 8.268497e-005 8.615488e+001 1.626743e-004 7.315037e+001 9.987468e-001 -2.243068e+000
71548575 1.000764e+000 -1.298614e+000 9.543899e-005 7.854900e+001 1.990230e-004 8.713894e+001 9.988056e-001 -2.318483e+000
72298560 1.000816e+000 -1.338589e+000 1.061481e-004 8.838692e+001 1.393526e-004 7.189691e+001 9.989867e-001 -2.390273e+000
73048545 1.000721e+000 -1.367355e+000 1.158856e-004 8.266309e+001 1.726814e-004 9.554524e+001 1.000929e+000 -2.238570e+000
73798530 1.000466e+000 -1.299044e+000 8.305130e-005 9.791005e+001 2.028090e-004 9.024191e+001 1.000668e+000 -2.385367e+000
74548515 1.001234e+000 -1.420184e+000 1.017057e-004 8.368036e+001 1.754668e-004 8.056975e+001 1.000069e+000 -2.348257e+000
75298500 1.001278e+000 -1.393813e+000 9.145316e-005 1.006636e+002 1.734718e-004 9.627834e+001 9.991007e-001 -2.367865e+000
76048485 1.001074e+000 -1.386266e+000 1.314874e-004 8.573215e+001 1.520286e-004 7.089618e+001 1.000527e+000 -2.400857e+000
76798470 1.001069e+000 -1.355562e+000 9.638380e-005 1.027097e+002 1.943021e-004 9.403547e+001 9.992105e-001 -2.372776e+000
77548455 1.000442e+000 -1.427381e+000 9.570928e-005 9.865354e+001 1.722616e-004 8.887442e+001 1.001971e+000 -2.387022e+000
78298440 1.001237e+000 -1.427985e+000 1.124690e-004 8.370875e+001 2.034893e-004 8.737022e+001 9.996355e-001 -2.462087e+000
79048425 1.001318e+000 -1.458728e+000 1.028328e-004 8.484827e+001 2.262565e-004 8.320492e+001 1.001234e+000 -2.470675e+000
79798410 1.001413e+000 -1.441026e+000 1.096025e-004 8.611266e+001 2.158782e-004 8.200928e+001 9.994313e-001 -2.419261e+000
80548395 1.001345e+000 -1.448305e+000 1.010551e-004 8.186297e+001 1.845890e-004 9.423090e+001 9.988036e-001 -2.550137e+000
81298380 1.000771e+000 -1.510551e+000 1.041345e-004 8.256244e+001 2.368116e-004 8.579057e+001 1.000107e+000 -2.464124e+000
82048365 1.000637e+000 -1.447593e+000 1.009461e-004 9.674922e+001 1.975410e-004 7.000419e+001 1.001783e+000 -2.511825e+000
82798350 1.001737e+000 -1.453336e+000 8.585142e-005 9.120499e+001 2.215203e-004 9.033751e+001 1.001039e+000 -2.544465e+000
83548335 1.000584e+000 -1.494378e+000 1.193483e-004 7.863186e+001 1.839164e-004 7.738645e+001 9.994435e-001 -2.597831e+000
84298320 1.001527e+000 -1.544353e+000 8.938288e-005 9.292101e+001 1.875040e-004 8.962405e+001 1.000336e+000 -2.563733e+000
85048305 1.000441e+000 -1.543175e+000 9.230728e-005 9.437367e+001 2.356236e-004 9.896663e+001 1.000800e+000 -2.626675e+000
85798290 1.000278e+000 -1.564395e+000 1.011480e-004 8.046436e+001 2.095836e-004 8.434928e+001 1.001206e+000 -2.592965e+000
86548275 1.001070e+000 -1.562507e+000 1.049659e-004 9.278992e+001 2.029421e-004 8.240544e+001 1.000109e+000 -2.599747e+000
87298260 1.000482e+000 -1.554031e+000 1.238260e-004 1.043641e+002 2.476090e-004 9.143893e+001 1.001992e+000 -2.650096e+000
88048245 1.000513e+000 -1.523941e+000 1.127819e-004 9.475290e+001 2.488503e-004 8.371786e+001 1.001097e+000 -2.734123e+000
88798230 1.001656e+000 -1.588118e+000 1.149610e-004 8.329332e+001 2.158416e-004 8.417288e+001 1.001785e+000 -2.724760e+000
89548215 1.001470e+000 -1.579220e+000 1.189753e-004 1.041343e+002 2.000714e-004 8.439213e+001 9.993543e-001 -2.724896e+000
90298200 1.000334e+000 -1.619432e+000 1.274960e-004 8.986036e+001 2.288341e-004 8.883660e+001 1.001603e+000 -2.592793e+000
91048185 1.000962e+000 -1.651922e+000 1.143908e-004 8.018706e+001 2.459586e-004 8.455253e+001 1.000154e+000 -2.685432e+000
91798170 1.001260e+000 -1.614661e+000 1.169272e-004 9.087939e+001 2.123336e-004 9.351112e+001 1.001364e+000 -2.806174e+000
92548155 1.001910e+000 -1.638818e+000 1.168274e-004 1.014885e+002 2.310114e-004 9.068571e+001 1.001677e+000 -2.816883e+000
93298140 1.002136e+000 -1.653967e+000 1.186712e-004 8.422131e+001 2.325770e-004 9.114263e+001 1.001516e+000 -2.726143e+000
94048125 1.001504e+000 -1.706999e+000 1.215505e-004 9.097716e+001 2.625088e-004 9.668465e+001 1.002579e+000 -2.840051e+000
94798110 1.001635e+000 -1.642077e+000 1.024593e-004 8.746255e+001 2.446465e-004 8.766116e+001 1.001072e+000 -2.829479e+000
95548095 1.001421e+000 -1.660807e+000 1.346855e-004 9.640058e+001 2.664927e-004 8.805779e+001 1.000093e+000 -2.808403e+000
96298080 1.001481e+000 -1.644538e+000 1.491653e-004 8.563855e+001 2.706085e-004 8.551191e+001 1.000716e+000 -2.840934e+000
97048065 1.000672e+000 -1.718762e+000 1.262337e-004 8.381351e+001 2.599924e-004 8.695483e+001 1.000832e+000 -2.850669e+000
97798050 1.001226e+000 -1.640833e+000 1.449362e-004 8.587578e+001 2.487571e-004 8.083370e+001 1.002315e+000 -2.968360e+000
98548035 1.001780e+000 -1.699788e+000 1.130744e-004 9.045683e+001 2.485497e-004 8.054195e+001 1.001577e+000 -2.931831e+000
99298020 1.001769e+000 -1.695390e+000 1.229159e-004 1.001159e+002 2.355387e-004 8.822558e+001 1.001862e+000 -3.016007e+000
100048005 1.002081e+000 -1.727066e+000 1.435892e-004 9.420426e+001 2.755607e-004 8.318223e+001 1.000450e+000 -2.987522e+000
100797990 1.001911e+000 -1.716352e+000 1.492755e-004 9.205536e+001 2.557405e-004 9.524071e+001 1.001235e+000 -2.897101e+000
101547975 1.001172e+000 -1.737589e+000 1.419937e-004 8.471229e+001 3.161655e-004 9.037037e+001 9.997738e-001 -2.940705e+000
102297960 1.002798e+000 -1.716993e+000 1.269945e-004 8.469739e+001 2.525590e-004 8.680402e+001 1.002276e+000 -2.916340e+000
103047945 1.001624e+000 -1.742584e+000 1.244484e-004 8.874477e+001 3.113890e-004 7.722015e+001 1.000710e+000 -2.962068e+000
103797930 1.001377e+000 -1.765907e+000 1.309512e-004 8.662564e+001 2.266556e-004 7.846350e+001 1.002615e+000 -3.046604e+000
104547915 1.001633e+000 -1.743697e+000 1.485405e-004 8.654169e+001 2.099645e-004 8.938805e+001 1.002915e+000 -2.961704e+000
105297900 1.001283e+000 -1.789840e+000 1.284625e-004 8.582116e+001 2.328828e-004 9.347679e+001 1.003040e+000 -2.935386e+000
106047885 1.002341e+000 -1.772821e+000 1.194049e-004 8.817969e+001 2.541590e-004 9.545644e+001 1.002251e+000 -3.136056e+000
106797870 1.002292e+000 -1.797236e+000 1.170708e-004 8.537791e+001 2.565944e-004 8.193730e+001 1.002357e+000 -3.121309e+000
107547855 1.002468e+000 -1.844797e+000 1.279710e-004 9.395326e+001 2.716192e-004 1.024324e+002 1.002489e+000 -2.967108e+000
108297840 1.001792e+000 -1.827217e+000 1.361296e-004 9.512741e+001 3.002804e-004 9.312179e+001 1.001355e+000 -3.155872e+000
109047825 1.001935e+000 -1.858885e+000 1.402383e-004 9.214494e+001 2.633411e-004 8.858660e+001 1.003647e+000 -3.221888e+000
109797810 1.001460e+000 -1.901187e+000 1.518143e-004 8.004366e+001 2.536601e-004 9.076627e+001 1.003214e+000 -3.097001e+000
110547795 1.001620e+000 -1.839657e+000 1.532587e-004 8.346546e+001 3.060285e-004 9.365708e+001 1.002776e+000 -3.186891e+000
111297780 1.002042e+000 -1.849711e+000 1.366619e-004 8.278528e+001 2.858519e-004 9.399095e+001 1.001617e+000 -3.069783e+000
112047765 1.001069e+000 -1.892133e+000 1.262383e-004 8.627966e+001 3.147267e-004 9.206365e+001 1.001206e+000 -3.123671e+000
112797750 1.001825e+000 -1.909132e+000 1.581222e-004 8.588085e+001 2.903773e-004 8.165347e+001 1.001673e+000 -3.182379e+000
113547735 1.002210e+000 -1.883491e+000 1.525650e-004 9.373867e+001 3.155469e-004 8.350472e+001 1.001508e+000 -3.181600e+000
114297720 1.000937e+000 -1.896093e+000 1.451299e-004 9.137003e+001 3.188848e-004 7.889309e+001 1.003946e+000 -3.262647e+000
115047705 1.002199e+000 -1.901955e+000 1.193099e-004 7.953206e+001 2.853499e-004 8.417625e+001 1.002513e+000 -3.274452e+000
115797690 1.002521e+000 -1.914522e+000 1.531495e-004 8.502725e+001 3.164778e-004 8.666521e+001 1.002771e+000 -3.369062e+000
116547675 1.002472e+000 -1.958214e+000 1.505024e-004 8.793974e+001 2.783362e-004 9.619641e+001 1.002288e+000 -3.262262e+000
117297660 1.002465e+000 -1.924596e+000 1.480551e-004 8.941834e+001 3.037069e-004 1.016492e+002 1.002665e+000 -3.309727e+000
118047645 1.001918e+000 -1.954622e+000 1.730537e-004 9.147242e+001 2.909632e-004 8.573829e+001 1.003252e+000 -3.280975e+000
