!Agilent Technologies,N5230C,SG49000117,A.08.50.07
!Agilent N5230C: A.08.50.07
!Date: Friday, May 17, 2024 04:44:07
!Correction: S11(Full 2 Port(1,2)) 
!S21(Full 2 Port(1,2)) 
!S12(Full 2 Port(1,2)) 
!S22(Full 2 Port(1,2)) 
!S2P File: Measurements: S11, S21, S12, S22:
# Hz S  MA   R 50
300000 1.005337e+000 -4.025145e-001 1.101365e-005 -9.835543e+000 4.520056e-005 1.822204e+000 1.013342e+000 -7.110817e-001
1049985 1.000771e+000 -2.762552e-001 1.706511e-005 -1.604722e+002 2.405918e-005 1.388905e+002 1.000612e+000 -4.204905e-001
1799970 9.996700e-001 -1.881910e-001 6.842400e-006 -3.365508e+001 1.830536e-005 1.555062e+002 9.991071e-001 -3.596438e-001
2549955 9.993400e-001 -1.541754e-001 9.748743e-005 -1.156844e+002 1.625561e-004 -1.335664e+002 9.994593e-001 -2.725706e-001
3299940 1.000089e+000 -1.561717e-001 7.469290e-006 -1.788144e+002 2.599339e-005 1.298151e+002 9.982246e-001 -2.837319e-001
4049925 9.997128e-001 -2.058012e-001 3.839598e-006 -1.446436e+002 5.453510e-006 1.423731e+002 9.992577e-001 -2.684937e-001
4799910 1.000037e+000 -1.908451e-001 9.238545e-006 1.023637e+002 1.971826e-005 5.868799e+001 9.997487e-001 -2.922631e-001
5549895 9.997919e-001 -2.005405e-001 1.061597e-005 4.160855e+001 3.666114e-005 5.114545e+001 9.996364e-001 -2.680782e-001
6299880 9.996184e-001 -1.945077e-001 2.319552e-005 9.665701e+001 4.911426e-005 9.736346e+001 9.999204e-001 -3.280798e-001
7049865 9.993622e-001 -2.182353e-001 2.162682e-005 9.549539e+001 2.966970e-005 1.169313e+002 9.994670e-001 -3.688534e-001
7799850 9.997945e-001 -2.425257e-001 1.400737e-005 7.526703e+001 4.341115e-005 8.051389e+001 9.983024e-001 -3.861330e-001
8549835 9.995447e-001 -2.470187e-001 1.806232e-005 6.212436e+001 2.579767e-005 8.521336e+001 9.990043e-001 -4.523910e-001
9299820 9.995977e-001 -2.599803e-001 1.129358e-005 6.790629e+001 1.510941e-005 4.752607e+001 9.985657e-001 -4.381404e-001
10049805 9.998218e-001 -2.814366e-001 2.251165e-005 8.719920e+001 1.785159e-005 1.706509e+001 9.984863e-001 -4.646192e-001
10799790 9.993598e-001 -2.626156e-001 1.200706e-005 1.588044e+002 4.838360e-005 1.062292e+002 9.986410e-001 -4.533010e-001
11549775 9.996820e-001 -2.851708e-001 1.083621e-005 3.406214e+001 3.493692e-005 9.898402e+001 9.985849e-001 -4.572742e-001
12299760 9.994379e-001 -2.933781e-001 1.505971e-005 6.253016e+001 4.151648e-005 1.091757e+002 9.999241e-001 -4.868744e-001
13049745 9.996245e-001 -3.524334e-001 1.747042e-005 1.123154e+002 5.141877e-005 1.119754e+002 9.987327e-001 -5.396903e-001
13799730 9.995378e-001 -3.677177e-001 2.887189e-005 8.393039e+001 5.099855e-005 1.428247e+002 9.978902e-001 -5.854315e-001
14549715 9.997923e-001 -3.822402e-001 2.314975e-005 8.557879e+001 7.244504e-005 7.036640e+001 9.995679e-001 -5.763623e-001
15299700 9.990440e-001 -3.730738e-001 3.123283e-005 9.075959e+001 3.035608e-005 1.782160e+002 9.982746e-001 -6.534276e-001
16049685 9.996497e-001 -3.758424e-001 3.534167e-005 1.026389e+002 1.029519e-004 7.260274e+001 9.995039e-001 -6.277823e-001
16799670 9.993491e-001 -3.885785e-001 3.113101e-005 9.037239e+001 1.799572e-005 4.814388e+001 1.000498e+000 -6.766756e-001
17549655 9.995462e-001 -4.489766e-001 3.256887e-005 8.885073e+001 6.551535e-005 1.314830e+002 9.996448e-001 -6.629102e-001
18299640 9.992982e-001 -4.213728e-001 2.265850e-005 1.019317e+002 9.065214e-005 6.111470e+001 9.989029e-001 -7.703477e-001
19049625 9.995425e-001 -4.690126e-001 4.152698e-005 7.978526e+001 6.707466e-005 9.829501e+001 9.986358e-001 -6.917851e-001
19799610 9.999734e-001 -4.556805e-001 1.464200e-005 1.069182e+002 8.221513e-005 1.096399e+002 9.983766e-001 -7.250628e-001
20549595 9.989519e-001 -4.600667e-001 3.683188e-005 8.600020e+001 8.071547e-005 6.540337e+001 9.979283e-001 -8.288671e-001
21299580 9.989384e-001 -4.719305e-001 2.012384e-005 1.095760e+002 4.234830e-005 1.124446e+002 9.980139e-001 -7.462840e-001
22049565 9.990917e-001 -5.252408e-001 3.441299e-005 8.310785e+001 1.004211e-004 9.406138e+001 9.980260e-001 -8.091643e-001
22799550 9.996895e-001 -4.966136e-001 3.515411e-005 7.638400e+001 5.521983e-005 6.840585e+001 9.995326e-001 -8.779617e-001
23549535 9.997019e-001 -5.526167e-001 2.821175e-005 8.425147e+001 8.193493e-005 9.847699e+001 9.987267e-001 -8.844111e-001
24299520 9.993415e-001 -5.627444e-001 2.664640e-005 1.032041e+002 7.952368e-005 6.432727e+001 9.974455e-001 -9.218423e-001
25049505 9.995348e-001 -5.923506e-001 3.643437e-005 8.610382e+001 8.421327e-005 1.088970e+002 9.990094e-001 -9.591814e-001
25799490 9.992880e-001 -5.923278e-001 3.335010e-005 7.425176e+001 9.887638e-005 7.772222e+001 9.985617e-001 -1.034810e+000
26549475 1.000066e+000 -5.864825e-001 3.637653e-005 1.046532e+002 6.489890e-005 1.005179e+002 9.995072e-001 -1.009831e+000
27299460 9.995262e-001 -5.975051e-001 5.227976e-005 8.063828e+001 1.056100e-004 9.735740e+001 9.988756e-001 -1.036985e+000
28049445 9.993793e-001 -6.082577e-001 4.294076e-005 8.229143e+001 7.159360e-005 1.208968e+002 1.000303e+000 -1.065973e+000
28799430 9.991148e-001 -6.744950e-001 4.315227e-005 7.635940e+001 9.252586e-005 8.189663e+001 9.981524e-001 -1.136094e+000
29549415 9.993200e-001 -6.219412e-001 4.163661e-005 5.392440e+001 4.568407e-005 9.359116e+001 9.997463e-001 -1.074383e+000
30299400 9.993036e-001 -6.607920e-001 4.063743e-005 7.909103e+001 1.232565e-004 9.708633e+001 1.000224e+000 -1.154186e+000
31049385 9.996290e-001 -6.365836e-001 4.479707e-005 8.934768e+001 7.031210e-005 6.669970e+001 9.986144e-001 -1.182637e+000
31799370 9.995338e-001 -7.283701e-001 5.104361e-005 8.878952e+001 8.996638e-005 1.079137e+002 9.998147e-001 -1.154985e+000
32549355 1.000059e+000 -7.227107e-001 4.857769e-005 8.834073e+001 1.194312e-004 7.742171e+001 9.996998e-001 -1.181910e+000
33299340 9.995750e-001 -7.183877e-001 5.720366e-005 8.311050e+001 8.261572e-005 1.141646e+002 9.991581e-001 -1.235601e+000
34049325 9.990256e-001 -7.595173e-001 5.712058e-005 8.163408e+001 1.315986e-004 1.060445e+002 9.988351e-001 -1.252457e+000
34799310 9.990813e-001 -7.822078e-001 5.311920e-005 8.215437e+001 1.045398e-004 7.255442e+001 9.979459e-001 -1.271674e+000
35549295 9.992304e-001 -8.203768e-001 5.318479e-005 8.783834e+001 1.168919e-004 9.301395e+001 1.000101e+000 -1.272920e+000
36299280 9.992393e-001 -8.118598e-001 5.901082e-005 8.691795e+001 1.288049e-004 8.391753e+001 9.992076e-001 -1.355589e+000
37049265 9.999065e-001 -8.085283e-001 5.870146e-005 7.302129e+001 9.517124e-005 9.548981e+001 9.989761e-001 -1.364259e+000
37799250 9.993202e-001 -8.095683e-001 5.211130e-005 7.560826e+001 1.146506e-004 7.907000e+001 9.993954e-001 -1.373563e+000
38549235 9.990001e-001 -8.374990e-001 5.547798e-005 8.878848e+001 7.715540e-005 9.009103e+001 9.984674e-001 -1.465976e+000
39299220 9.997107e-001 -8.461760e-001 5.411395e-005 8.279087e+001 1.220287e-004 9.509251e+001 9.984949e-001 -1.406468e+000
40049205 9.994586e-001 -8.348267e-001 5.248391e-005 1.099429e+002 8.911540e-005 7.027574e+001 1.000317e+000 -1.482276e+000
40799190 9.999012e-001 -8.847384e-001 3.794512e-005 8.902344e+001 1.134309e-004 7.943838e+001 1.000199e+000 -1.529625e+000
41549175 9.986190e-001 -8.585459e-001 4.072928e-005 7.894010e+001 1.343685e-004 8.014446e+001 9.987095e-001 -1.557688e+000
42299160 9.993316e-001 -9.025302e-001 7.222913e-005 9.381637e+001 1.314165e-004 1.259986e+002 9.987552e-001 -1.501870e+000
43049145 9.999931e-001 -9.106149e-001 5.082194e-005 7.641360e+001 1.293222e-004 1.025259e+002 9.991859e-001 -1.584019e+000
43799130 9.994121e-001 -9.342328e-001 7.007514e-005 1.022050e+002 1.053448e-004 8.495505e+001 9.982478e-001 -1.590105e+000
44549115 9.998098e-001 -9.198338e-001 4.453111e-005 9.002452e+001 1.584139e-004 9.542417e+001 9.993663e-001 -1.625879e+000
45299100 1.000263e+000 -9.915531e-001 7.713849e-005 7.483318e+001 1.199710e-004 1.001895e+002 1.000359e+000 -1.630449e+000
46049085 1.000235e+000 -9.723334e-001 6.849366e-005 8.667095e+001 1.170009e-004 8.725237e+001 1.000247e+000 -1.597157e+000
46799070 9.999737e-001 -9.794586e-001 5.604672e-005 8.227274e+001 1.347760e-004 8.966753e+001 9.994568e-001 -1.674280e+000
47549055 9.998880e-001 -1.028846e+000 7.663265e-005 9.794370e+001 1.563180e-004 9.729253e+001 9.983083e-001 -1.758632e+000
48299040 1.000127e+000 -1.014221e+000 6.554205e-005 6.610265e+001 1.645951e-004 9.701883e+001 9.986358e-001 -1.724200e+000
49049025 1.000481e+000 -1.030648e+000 4.882872e-005 9.243747e+001 1.096449e-004 9.376389e+001 1.000473e+000 -1.686451e+000
49799010 9.990405e-001 -1.071322e+000 6.141394e-005 9.805250e+001 9.358027e-005 8.769962e+001 9.993314e-001 -1.725049e+000
50548995 9.988176e-001 -1.087044e+000 9.809475e-005 9.060646e+001 1.856088e-004 7.812249e+001 1.000085e+000 -1.819503e+000
51298980 1.000495e+000 -1.100249e+000 9.485793e-005 9.636103e+001 2.007189e-004 8.401099e+001 9.981145e-001 -1.804945e+000
52048965 9.993312e-001 -1.087083e+000 6.192761e-005 8.754929e+001 1.470522e-004 7.702811e+001 9.988046e-001 -1.745163e+000
52798950 9.997691e-001 -1.081903e+000 8.760738e-005 9.187888e+001 1.323419e-004 8.869577e+001 9.997435e-001 -1.898627e+000
53548935 1.001149e+000 -1.175128e+000 8.337366e-005 8.913163e+001 1.685183e-004 8.889441e+001 9.997374e-001 -1.900660e+000
54298920 9.997748e-001 -1.144019e+000 7.150874e-005 6.955891e+001 1.980126e-004 9.119154e+001 9.978344e-001 -1.938450e+000
55048905 9.998233e-001 -1.115098e+000 5.767829e-005 8.506760e+001 1.298129e-004 7.690722e+001 9.969373e-001 -1.986068e+000
55798890 9.995634e-001 -1.163339e+000 9.261411e-005 1.026378e+002 1.921750e-004 6.927685e+001 9.993370e-001 -2.129494e+000
56548875 9.998164e-001 -1.202834e+000 8.013878e-005 8.121150e+001 1.152201e-004 8.431163e+001 9.975088e-001 -1.963190e+000
57298860 1.000837e+000 -1.229287e+000 7.410334e-005 7.929436e+001 2.237833e-004 7.648089e+001 9.998112e-001 -1.941241e+000
58048845 9.996048e-001 -1.241916e+000 8.068249e-005 8.818946e+001 1.956874e-004 7.649672e+001 9.988014e-001 -1.927477e+000
58798830 9.994554e-001 -1.176439e+000 6.988576e-005 8.829898e+001 1.188457e-004 6.496612e+001 9.992653e-001 -1.965492e+000
59548815 9.999665e-001 -1.287489e+000 6.789225e-005 9.381342e+001 1.824251e-004 8.230095e+001 9.990798e-001 -2.071871e+000
60298800 1.000095e+000 -1.253322e+000 8.660545e-005 8.853500e+001 1.902397e-004 8.541492e+001 9.994350e-001 -2.141253e+000
61048785 1.001036e+000 -1.248806e+000 9.755415e-005 8.834283e+001 2.141397e-004 9.711594e+001 9.996564e-001 -2.011748e+000
61798770 9.999533e-001 -1.297380e+000 8.553893e-005 9.289069e+001 2.031933e-004 8.965958e+001 1.000588e+000 -2.210355e+000
62548755 1.000405e+000 -1.249624e+000 9.074686e-005 9.396271e+001 2.174109e-004 8.616712e+001 9.989235e-001 -2.162761e+000
63298740 1.000673e+000 -1.290951e+000 8.752799e-005 8.065587e+001 2.187485e-004 9.529452e+001 9.998129e-001 -2.148747e+000
64048725 1.000298e+000 -1.252842e+000 9.712078e-005 8.634672e+001 1.822578e-004 8.767486e+001 9.989158e-001 -2.090935e+000
64798710 9.996793e-001 -1.349455e+000 7.485726e-005 1.095460e+002 1.855497e-004 8.763670e+001 9.988897e-001 -2.345526e+000
65548695 1.000322e+000 -1.377409e+000 7.983348e-005 8.501879e+001 1.945614e-004 9.539670e+001 9.998881e-001 -2.150595e+000
66298680 1.000757e+000 -1.367277e+000 8.299047e-005 8.957460e+001 2.201748e-004 1.009530e+002 9.988299e-001 -2.304911e+000
67048665 1.000682e+000 -1.324932e+000 8.713666e-005 8.737106e+001 1.720474e-004 7.705783e+001 9.998206e-001 -2.324073e+000
67798650 1.000139e+000 -1.351394e+000 1.093397e-004 8.868108e+001 2.007256e-004 9.495050e+001 9.994679e-001 -2.320167e+000
68548635 9.999303e-001 -1.381048e+000 9.676201e-005 8.621740e+001 1.369456e-004 9.334078e+001 1.000976e+000 -2.302154e+000
69298620 1.000851e+000 -1.400138e+000 8.577281e-005 9.386983e+001 2.093687e-004 8.156768e+001 1.000207e+000 -2.311882e+000
70048605 1.000434e+000 -1.415513e+000 8.816524e-005 9.485166e+001 1.794843e-004 8.808475e+001 1.000695e+000 -2.433624e+000
70798590 1.000828e+000 -1.384733e+000 9.058728e-005 9.461140e+001 2.108739e-004 8.676623e+001 9.987373e-001 -2.431112e+000
71548575 1.000540e+000 -1.419640e+000 9.815967e-005 8.242147e+001 2.084140e-004 1.083463e+002 9.986411e-001 -2.511157e+000
72298560 1.000641e+000 -1.458033e+000 8.150686e-005 7.278242e+001 2.221044e-004 9.212511e+001 9.987583e-001 -2.594263e+000
73048545 1.000434e+000 -1.467740e+000 8.038197e-005 7.967022e+001 2.084390e-004 8.738201e+001 1.000820e+000 -2.440565e+000
73798530 1.000408e+000 -1.415183e+000 1.067100e-004 8.661700e+001 2.392176e-004 8.518008e+001 1.000813e+000 -2.599528e+000
74548515 1.001062e+000 -1.534336e+000 9.222622e-005 9.104031e+001 2.305140e-004 8.427641e+001 9.999691e-001 -2.568655e+000
75298500 1.001031e+000 -1.506253e+000 1.140196e-004 8.267332e+001 2.414402e-004 8.664867e+001 9.987959e-001 -2.593157e+000
76048485 1.000923e+000 -1.497087e+000 1.107474e-004 9.226440e+001 2.213132e-004 7.747336e+001 1.000209e+000 -2.627649e+000
76798470 1.000685e+000 -1.479898e+000 1.110623e-004 9.614093e+001 1.934394e-004 7.313671e+001 9.992703e-001 -2.594811e+000
77548455 1.000291e+000 -1.552466e+000 1.039433e-004 8.384839e+001 2.473001e-004 8.920107e+001 1.001727e+000 -2.614149e+000
78298440 1.000904e+000 -1.552715e+000 9.552026e-005 8.860609e+001 1.979589e-004 9.169073e+001 9.994719e-001 -2.685844e+000
79048425 1.001101e+000 -1.587981e+000 8.361031e-005 9.622795e+001 2.281995e-004 8.501699e+001 1.001229e+000 -2.691327e+000
79798410 1.001363e+000 -1.569383e+000 1.116857e-004 8.623692e+001 2.201339e-004 9.362799e+001 9.994144e-001 -2.653786e+000
80548395 1.001188e+000 -1.566737e+000 1.110895e-004 8.700115e+001 2.155178e-004 7.363589e+001 9.987487e-001 -2.789936e+000
81298380 1.000621e+000 -1.629366e+000 1.253486e-004 9.226353e+001 2.356174e-004 8.527914e+001 9.999787e-001 -2.677345e+000
82048365 1.000611e+000 -1.580023e+000 1.325025e-004 8.950340e+001 2.007733e-004 8.489191e+001 1.001824e+000 -2.758601e+000
82798350 1.001629e+000 -1.577875e+000 1.368932e-004 9.455508e+001 1.875990e-004 9.416529e+001 1.001067e+000 -2.786919e+000
83548335 1.000169e+000 -1.632258e+000 1.083868e-004 9.589231e+001 2.001812e-004 8.452570e+001 9.994346e-001 -2.834147e+000
84298320 1.001456e+000 -1.669747e+000 9.630317e-005 9.958732e+001 1.806227e-004 8.329476e+001 1.000522e+000 -2.804846e+000
85048305 1.000151e+000 -1.666256e+000 1.235256e-004 8.183494e+001 2.075185e-004 9.047722e+001 1.000709e+000 -2.870123e+000
85798290 1.000012e+000 -1.692858e+000 1.396336e-004 9.466891e+001 2.234189e-004 1.010131e+002 1.000881e+000 -2.852475e+000
86548275 1.000921e+000 -1.688394e+000 1.333589e-004 8.024117e+001 2.700655e-004 8.560559e+001 1.000037e+000 -2.851677e+000
87298260 1.000327e+000 -1.691000e+000 1.122556e-004 7.725336e+001 2.454825e-004 9.476520e+001 1.001830e+000 -2.897135e+000
88048245 1.000550e+000 -1.667644e+000 1.267075e-004 8.091742e+001 2.007375e-004 8.452884e+001 1.000953e+000 -2.991980e+000
88798230 1.001593e+000 -1.721853e+000 1.495209e-004 8.583347e+001 2.531323e-004 8.887772e+001 1.001798e+000 -2.965866e+000
89548215 1.001359e+000 -1.715468e+000 1.172603e-004 9.138027e+001 2.515234e-004 8.767458e+001 9.992458e-001 -2.983245e+000
90298200 9.999787e-001 -1.747997e+000 1.282052e-004 9.245946e+001 2.107519e-004 8.375726e+001 1.001329e+000 -2.848060e+000
91048185 1.000827e+000 -1.789506e+000 1.262389e-004 9.055390e+001 2.294353e-004 9.432811e+001 1.000176e+000 -2.955480e+000
91798170 1.000982e+000 -1.769443e+000 1.340223e-004 9.534093e+001 2.794667e-004 8.552002e+001 1.001319e+000 -3.076832e+000
92548155 1.001788e+000 -1.781028e+000 1.535247e-004 9.211786e+001 2.877778e-004 9.483199e+001 1.001550e+000 -3.087189e+000
93298140 1.001926e+000 -1.796292e+000 1.178904e-004 9.326252e+001 2.842182e-004 9.315746e+001 1.001765e+000 -2.999641e+000
94048125 1.001149e+000 -1.850591e+000 1.056829e-004 7.921490e+001 2.726501e-004 8.752139e+001 1.002613e+000 -3.125089e+000
94798110 1.001466e+000 -1.777049e+000 1.379327e-004 9.362208e+001 2.578517e-004 8.886549e+001 1.000686e+000 -3.102127e+000
95548095 1.001155e+000 -1.808840e+000 1.619205e-004 9.574258e+001 2.511982e-004 8.936776e+001 9.997270e-001 -3.073236e+000
96298080 1.001320e+000 -1.795189e+000 1.377436e-004 8.480678e+001 2.256733e-004 8.379676e+001 1.000396e+000 -3.120086e+000
97048065 1.000572e+000 -1.861183e+000 1.139239e-004 8.897489e+001 2.185735e-004 8.423390e+001 1.000731e+000 -3.129162e+000
97798050 1.000940e+000 -1.790726e+000 1.271118e-004 9.674082e+001 2.384999e-004 8.036166e+001 1.001982e+000 -3.227767e+000
98548035 1.001603e+000 -1.853155e+000 1.315592e-004 8.598145e+001 2.589520e-004 7.675168e+001 1.001465e+000 -3.213643e+000
99298020 1.001720e+000 -1.868166e+000 1.148460e-004 8.525717e+001 2.916638e-004 8.723243e+001 1.001818e+000 -3.305806e+000
100048005 1.001740e+000 -1.878964e+000 1.292891e-004 8.366179e+001 2.933598e-004 8.377081e+001 1.000323e+000 -3.270775e+000
100797990 1.001724e+000 -1.872584e+000 1.557226e-004 9.464434e+001 2.956881e-004 7.468501e+001 1.001438e+000 -3.189284e+000
101547975 1.001050e+000 -1.900149e+000 1.301920e-004 9.475033e+001 3.740223e-004 7.879572e+001 9.992722e-001 -3.244586e+000
102297960 1.002668e+000 -1.881178e+000 1.509458e-004 8.359861e+001 2.696443e-004 8.665822e+001 1.001979e+000 -3.212886e+000
103047945 1.001414e+000 -1.899677e+000 1.473108e-004 9.063655e+001 2.814405e-004 8.848100e+001 1.000661e+000 -3.261060e+000
103797930 1.001042e+000 -1.916662e+000 1.530980e-004 8.322424e+001 2.713337e-004 9.739125e+001 1.002354e+000 -3.348895e+000
104547915 1.001379e+000 -1.891338e+000 1.641596e-004 9.149669e+001 2.333627e-004 9.833612e+001 1.002784e+000 -3.255950e+000
105297900 1.000924e+000 -1.954197e+000 1.551980e-004 8.152868e+001 3.261536e-004 7.985413e+001 1.002865e+000 -3.237589e+000
106047885 1.002167e+000 -1.938038e+000 1.714960e-004 8.276667e+001 3.158381e-004 8.209909e+001 1.001803e+000 -3.450430e+000
106797870 1.002267e+000 -1.962828e+000 1.435134e-004 9.164246e+001 2.477611e-004 8.572669e+001 1.002426e+000 -3.419569e+000
107547855 1.002325e+000 -2.008661e+000 1.455748e-004 9.070846e+001 2.464134e-004 1.037441e+002 1.002119e+000 -3.289315e+000
108297840 1.001818e+000 -1.988127e+000 1.502247e-004 8.454958e+001 2.945400e-004 8.825903e+001 1.001420e+000 -3.464513e+000
109047825 1.001758e+000 -2.031488e+000 1.459091e-004 8.732751e+001 3.079899e-004 7.590153e+001 1.003217e+000 -3.541601e+000
109797810 1.001276e+000 -2.072689e+000 1.398445e-004 8.974000e+001 2.675107e-004 7.284502e+001 1.002823e+000 -3.428603e+000
110547795 1.001327e+000 -2.008183e+000 1.371688e-004 9.429736e+001 3.168715e-004 8.194306e+001 1.002257e+000 -3.519439e+000
111297780 1.001900e+000 -2.014973e+000 1.615460e-004 9.570309e+001 3.638120e-004 9.050738e+001 1.001380e+000 -3.367224e+000
112047765 1.000879e+000 -2.060963e+000 1.436082e-004 8.635024e+001 3.188573e-004 8.983556e+001 1.000943e+000 -3.447826e+000
112797750 1.001587e+000 -2.088770e+000 1.516134e-004 9.075810e+001 3.516970e-004 7.953239e+001 1.001443e+000 -3.500293e+000
113547735 1.002112e+000 -2.060997e+000 1.692005e-004 9.373300e+001 3.084766e-004 8.457887e+001 1.001578e+000 -3.500661e+000
114297720 1.000894e+000 -2.078111e+000 1.656511e-004 8.198891e+001 2.681029e-004 9.016979e+001 1.003746e+000 -3.594117e+000
115047705 1.001902e+000 -2.072321e+000 1.484631e-004 9.123573e+001 2.690892e-004 8.644598e+001 1.002334e+000 -3.623502e+000
115797690 1.002146e+000 -2.086070e+000 1.556447e-004 8.643957e+001 2.903447e-004 8.967744e+001 1.002748e+000 -3.695948e+000
116547675 1.002373e+000 -2.132204e+000 1.878776e-004 8.725249e+001 3.094042e-004 8.642418e+001 1.001868e+000 -3.598910e+000
117297660 1.002237e+000 -2.102169e+000 1.880487e-004 9.284479e+001 2.760665e-004 8.252003e+001 1.002496e+000 -3.636677e+000
118047645 1.001876e+000 -2.130697e+000 1.691198e-004 8.314975e+001 3.166510e-004 7.855620e+001 1.003016e+000 -3.591797e+000
