!Agilent Technologies,N5230C,SG49000117,A.08.50.07
!Agilent N5230C: A.08.50.07
!Date: Wednesday, December 06, 2023 22:02:28
!Correction: S11(Full 2 Port(1,2)) 
!S21(Full 2 Port(1,2)) 
!S12(Full 2 Port(1,2)) 
!S22(Full 2 Port(1,2)) 
!S2P File: Measurements: S11, S21, S12, S22:
# Hz S  RI   R 50
300000 1.015410e+000 -1.028120e-002 -3.065854e-004 -3.175263e-004 -3.771201e-005 -1.698074e-004 1.026368e+000 -1.799474e-002
374985 9.984591e-001 -6.621263e-003 1.740606e-004 3.590431e-005 -3.913116e-004 1.754242e-005 9.868245e-001 -1.856364e-002
449970 9.861077e-001 1.521565e-004 -1.049215e-005 5.648906e-006 2.497291e-004 -2.222034e-004 9.559754e-001 -1.130603e-002
524955 9.772326e-001 5.737142e-003 5.345410e-005 -3.454227e-005 -2.455731e-004 3.968428e-005 9.287322e-001 -3.386550e-003
599940 9.805995e-001 4.685873e-003 1.566464e-005 7.190696e-005 -3.189622e-004 -6.539503e-005 9.413642e-001 4.183921e-003
674925 9.784063e-001 3.553024e-003 8.098555e-005 -7.474019e-005 1.621435e-004 5.790110e-005 9.361136e-001 -1.485668e-002
749910 9.783440e-001 4.984258e-003 -4.837927e-005 -1.933371e-005 -1.184146e-004 2.602759e-004 9.311068e-001 -8.354823e-003
824895 9.852309e-001 3.313403e-003 -5.189118e-005 -7.122954e-005 2.099983e-004 6.690087e-005 9.353759e-001 -9.589256e-003
899880 9.867272e-001 3.900010e-004 3.272383e-005 -7.038545e-005 -2.136398e-004 1.385625e-004 9.419138e-001 -1.380976e-002
974865 9.887084e-001 -1.182693e-003 3.540980e-005 -4.354678e-006 3.372924e-006 -7.016146e-005 9.499568e-001 -9.972079e-003
1049850 9.933026e-001 -2.806758e-003 8.491364e-005 1.042978e-005 -1.610303e-005 6.586765e-005 9.587030e-001 -1.282815e-002
1124835 9.975830e-001 -6.727783e-003 9.621707e-005 5.261013e-005 -1.550411e-004 2.776868e-005 9.682165e-001 -1.302939e-002
1199820 1.001582e+000 -9.860569e-003 9.689869e-007 -4.860467e-005 -2.333415e-004 -2.843837e-004 9.771172e-001 -1.145572e-002
1274805 1.006487e+000 -1.313402e-002 7.724448e-005 1.741197e-005 -7.291460e-005 3.480987e-005 9.887770e-001 -1.061780e-002
1349790 9.994447e-001 -6.199033e-003 4.427243e-005 1.064629e-005 1.050728e-004 -6.955440e-005 1.003200e+000 -1.196149e-002
1424775 9.982831e-001 -5.913678e-003 3.711614e-005 2.060589e-005 -2.089778e-004 -5.476440e-005 1.001606e+000 -1.394563e-002
1499760 9.981707e-001 -6.382865e-003 -1.996521e-005 4.999512e-005 -1.644833e-004 8.569664e-005 1.004673e+000 -9.476633e-003
1574745 9.976958e-001 -4.449492e-003 -9.206391e-005 -3.056132e-005 6.195605e-006 7.741971e-005 9.979144e-001 -1.130959e-002
1649730 9.978884e-001 -5.330814e-003 -7.131638e-005 -1.337146e-004 5.473787e-005 -6.627590e-005 1.000600e+000 -1.255652e-002
1724715 9.968102e-001 -5.676361e-003 -1.844360e-005 5.973117e-005 5.498032e-005 1.858101e-004 1.001225e+000 -1.523960e-002
1799700 9.950118e-001 -6.378110e-003 1.061994e-004 1.590893e-005 -7.040578e-005 1.477927e-005 1.003692e+000 -1.512494e-002
1874685 9.948912e-001 -4.232375e-003 8.592865e-005 -6.928871e-005 -1.188693e-004 5.538076e-006 1.000378e+000 -1.172983e-002
1949670 9.935588e-001 -2.674206e-003 -2.118691e-004 7.536339e-005 4.293314e-004 -1.414168e-004 9.985968e-001 -8.892190e-003
2024655 9.945577e-001 -2.986640e-003 -7.175984e-005 -5.061926e-005 -2.954101e-004 -1.662763e-004 9.977341e-001 -6.839919e-003
2099640 9.936118e-001 -2.812253e-003 2.321390e-005 -9.948120e-006 1.383104e-004 2.942607e-004 9.980134e-001 -7.889918e-003
2174625 9.938263e-001 -4.432923e-003 3.709686e-005 -5.971675e-005 -2.751692e-004 -1.157463e-004 9.995020e-001 -1.022454e-002
2249610 9.939023e-001 -3.453456e-003 5.907809e-005 -2.027885e-005 3.765590e-005 -5.239209e-005 9.975490e-001 -8.668440e-003
2324595 9.989657e-001 -5.450712e-003 7.707604e-006 9.578023e-005 5.431809e-005 1.426719e-004 9.981583e-001 -9.140568e-003
2399580 9.988241e-001 -5.030445e-003 8.402602e-005 1.511960e-004 -3.448581e-004 -2.975566e-006 1.000430e+000 -7.401930e-003
2474565 9.980320e-001 -2.669687e-003 -8.123797e-005 1.839963e-005 -1.005995e-004 -2.558775e-004 9.971964e-001 -7.559760e-003
2549550 9.994267e-001 -4.337028e-003 -6.403404e-005 -6.654715e-005 -1.966109e-004 9.773712e-005 9.952990e-001 -9.231806e-003
2624535 9.998640e-001 -4.386159e-003 -1.215809e-005 -1.358787e-005 1.826087e-004 4.965355e-005 9.967298e-001 -7.862959e-003
2699520 9.989298e-001 -5.794865e-003 7.601301e-005 -2.348248e-005 -2.377654e-004 3.014567e-004 9.925972e-001 -7.356035e-003
2774505 9.979994e-001 -4.050518e-003 8.424459e-006 8.351881e-005 4.294315e-005 -1.597800e-004 9.970706e-001 -1.266462e-002
2849490 9.996845e-001 -4.383540e-003 -2.380884e-005 -9.302316e-006 2.730193e-004 -8.449731e-005 9.943432e-001 -6.331925e-003
2924475 9.998250e-001 -4.644672e-003 7.512036e-005 8.977757e-005 2.000857e-005 7.570089e-005 1.000471e+000 -8.361508e-003
2999460 9.996669e-001 -4.751139e-003 -1.392874e-005 4.505819e-005 2.511010e-004 1.181403e-004 9.956167e-001 -7.763750e-003
3074445 9.990116e-001 -4.006414e-003 3.568097e-006 -8.843082e-006 1.231667e-004 6.668612e-005 9.970191e-001 -6.617956e-003
3149430 9.992473e-001 -3.956215e-003 8.347163e-005 3.572339e-005 5.513426e-005 -1.441119e-004 9.965606e-001 -7.082237e-003
3224415 9.992236e-001 -4.106060e-003 -2.069283e-007 -3.362723e-005 -3.176892e-004 -5.697065e-005 9.955915e-001 -7.761367e-003
3299400 9.992406e-001 -4.879895e-003 8.524267e-005 7.350091e-005 1.408754e-005 5.264519e-007 9.955193e-001 -9.566795e-003
3374385 9.990106e-001 -4.829638e-003 -8.870437e-006 -9.672473e-005 5.746352e-005 -2.839372e-005 9.960635e-001 -8.375742e-003
3449370 9.984183e-001 -4.552283e-003 9.367052e-005 -1.142119e-005 -1.094011e-004 -2.604771e-005 9.934025e-001 -7.481342e-003
3524355 9.993341e-001 -3.582843e-003 -2.015313e-005 2.030017e-005 9.920786e-005 6.659759e-005 9.960344e-001 -6.742929e-003
3599340 9.990374e-001 -3.475393e-003 -3.406125e-006 6.133792e-005 -6.988982e-005 -5.019777e-005 9.957753e-001 -7.439813e-003
3674325 9.984409e-001 -3.985187e-003 -7.705561e-005 -1.030145e-004 1.095310e-004 3.227658e-005 9.947754e-001 -8.983115e-003
3749310 9.992565e-001 -4.165967e-003 6.516134e-005 -6.860698e-005 -1.302799e-004 7.546790e-006 9.959108e-001 -1.006906e-002
3824295 9.996554e-001 -4.329862e-003 1.639036e-004 -7.639181e-005 -6.804997e-005 -7.592898e-005 9.955276e-001 -9.324146e-003
3899280 9.993641e-001 -5.706062e-003 8.665874e-006 7.398638e-005 -5.102038e-005 -1.000067e-004 9.963543e-001 -9.579278e-003
3974265 9.990079e-001 -5.251949e-003 5.601421e-005 8.132569e-005 4.166221e-005 -5.271306e-005 9.964828e-001 -9.935894e-003
4049250 9.992340e-001 -5.357181e-003 3.393212e-005 -7.269176e-005 -2.839275e-004 1.964005e-005 9.964450e-001 -9.016547e-003
4124235 9.994147e-001 -5.409806e-003 3.107836e-005 -1.038023e-004 2.075516e-004 7.358190e-005 9.945630e-001 -9.374047e-003
4199220 9.985586e-001 -4.797210e-003 -3.500138e-005 3.175584e-005 4.022374e-004 -1.325784e-004 9.961902e-001 -7.947775e-003
4274205 9.982865e-001 -5.567446e-003 -6.197432e-005 -7.703497e-005 9.691782e-005 2.706419e-004 9.951284e-001 -6.929831e-003
4349190 9.988266e-001 -5.236173e-003 8.707136e-006 -2.474935e-005 -3.207837e-004 1.449441e-004 9.964641e-001 -9.296873e-003
4424175 9.983085e-001 -5.092779e-003 1.153695e-005 -6.316890e-005 -3.193516e-006 -1.143383e-004 9.951466e-001 -9.488151e-003
4499160 9.990153e-001 -4.200941e-003 -1.818753e-004 8.468942e-005 3.746491e-005 -1.774900e-005 9.954931e-001 -7.229379e-003
4574145 9.988700e-001 -4.739059e-003 9.403368e-005 1.056431e-005 -2.141356e-004 -3.205918e-006 9.955807e-001 -8.050825e-003
4649130 9.989967e-001 -5.731419e-003 1.091708e-004 -5.419993e-005 1.426744e-004 -2.337527e-004 9.949338e-001 -7.321758e-003
4724115 9.986901e-001 -4.769945e-003 4.325789e-005 -2.844136e-005 3.596289e-005 1.519627e-004 9.946036e-001 -7.763053e-003
4799100 9.980339e-001 -5.259020e-003 -1.370667e-005 2.153811e-005 1.103964e-004 3.724248e-004 9.933906e-001 -7.661066e-003
4874085 9.987053e-001 -4.819378e-003 -1.135670e-004 -1.463884e-004 2.106796e-004 -3.766857e-005 9.945812e-001 -6.670844e-003
4949070 9.987612e-001 -4.556896e-003 -9.307735e-006 -2.717973e-005 -2.138902e-004 1.163679e-004 9.944333e-001 -6.801825e-003
5024055 9.984458e-001 -4.537147e-003 -4.206281e-005 4.146979e-005 4.636482e-005 -2.346912e-004 9.948894e-001 -5.718235e-003
5099040 9.984270e-001 -4.805821e-003 -3.925720e-006 -5.607770e-005 -2.120404e-005 1.292739e-004 9.950199e-001 -6.376290e-003
5174025 9.979147e-001 -4.678507e-003 -2.150431e-005 3.097059e-005 -2.320896e-004 -3.875095e-005 9.955595e-001 -6.722677e-003
5249010 9.991506e-001 -5.529346e-003 1.427917e-005 1.216299e-004 -4.767485e-005 -1.863841e-004 9.955758e-001 -6.456853e-003
5323995 9.974334e-001 -5.171483e-003 -3.883106e-005 -8.589091e-005 1.256619e-004 2.864907e-007 9.933539e-001 -6.569927e-003
5398980 9.988436e-001 -5.071777e-003 -3.248011e-006 4.148961e-006 4.483273e-005 9.782361e-005 9.935101e-001 -7.168530e-003
5473965 9.977940e-001 -4.764289e-003 -6.103032e-005 -2.892331e-005 -9.684620e-005 6.756730e-005 9.960309e-001 -7.717039e-003
5548950 9.977261e-001 -5.075094e-003 1.673683e-004 1.207376e-004 -9.315222e-005 8.468531e-005 9.938642e-001 -8.190462e-003
5623935 9.981980e-001 -4.693983e-003 -2.441211e-005 -2.198600e-005 -1.396930e-004 -7.749078e-005 9.951510e-001 -8.460224e-003
5698920 9.981646e-001 -4.071316e-003 1.173437e-004 2.544641e-005 -2.028877e-004 -1.133277e-004 9.951364e-001 -6.293205e-003
5773905 9.981421e-001 -5.395934e-003 -8.007445e-005 2.920165e-006 7.753413e-005 1.146957e-004 9.935136e-001 -8.992418e-003
5848890 9.982534e-001 -5.356112e-003 5.625412e-005 6.158964e-005 6.065447e-006 9.802264e-005 9.954453e-001 -7.161089e-003
5923875 9.978960e-001 -5.935880e-003 -2.105025e-005 -4.140320e-005 1.355767e-004 1.994385e-004 9.938436e-001 -8.531350e-003
5998860 9.980289e-001 -5.839830e-003 5.385572e-006 7.222773e-005 2.038947e-005 -9.289727e-005 9.942510e-001 -9.169725e-003
6073845 9.977500e-001 -5.125249e-003 6.034595e-005 2.831978e-006 6.742949e-006 -1.132380e-004 9.955909e-001 -8.719848e-003
6148830 9.977826e-001 -5.217616e-003 -5.063707e-005 7.653685e-005 -2.144764e-005 1.357231e-004 9.964575e-001 -8.239786e-003
6223815 9.981098e-001 -5.152920e-003 2.706616e-005 5.234683e-005 -1.989086e-004 3.657127e-005 9.932410e-001 -8.098499e-003
6298800 9.979765e-001 -5.298951e-003 -1.035243e-004 1.003105e-005 -3.223977e-004 -2.040181e-004 9.957736e-001 -8.467930e-003
6373785 9.978485e-001 -4.869580e-003 -1.802851e-005 6.056712e-005 3.112207e-005 1.459647e-005 9.947352e-001 -8.707160e-003
6448770 9.976627e-001 -5.694036e-003 6.602320e-005 1.200081e-004 -4.362180e-005 -9.124623e-005 9.934960e-001 -8.443178e-003
6523755 9.972520e-001 -5.551341e-003 8.261105e-005 1.174498e-004 9.066900e-005 2.096512e-005 9.950247e-001 -1.046113e-002
6598740 9.976228e-001 -5.843839e-003 -5.620770e-005 -2.958445e-005 2.363404e-005 -1.734992e-004 9.943842e-001 -9.988246e-003
6673725 9.976003e-001 -5.233838e-003 -1.429116e-005 1.015728e-005 1.254078e-004 1.136475e-004 9.945628e-001 -8.945514e-003
6748710 9.981577e-001 -5.189328e-003 -1.425609e-004 7.330193e-005 8.812701e-005 2.005980e-007 9.934888e-001 -1.076181e-002
6823695 9.971824e-001 -5.178372e-003 5.627725e-006 6.973983e-005 -8.592811e-005 -7.856909e-006 9.949772e-001 -1.042910e-002
6898680 9.978898e-001 -4.747157e-003 -1.390173e-004 1.400102e-005 1.553027e-004 1.011423e-004 9.954487e-001 -1.021832e-002
6973665 9.976621e-001 -5.267143e-003 5.181773e-005 -4.841348e-005 4.431984e-005 1.075476e-004 9.951543e-001 -1.029944e-002
7048650 9.978936e-001 -5.064248e-003 1.031655e-004 -4.862725e-005 -7.542487e-005 -1.814154e-004 9.944974e-001 -1.192646e-002
7123635 9.980894e-001 -4.898436e-003 -5.195446e-005 -3.170840e-005 -2.453860e-004 -2.205159e-006 9.937084e-001 -9.325317e-003
7198620 9.970855e-001 -5.479198e-003 -1.333046e-004 4.212747e-005 -6.863639e-005 -1.193611e-004 9.954938e-001 -9.963002e-003
7273605 9.973775e-001 -4.850463e-003 5.314305e-005 6.625552e-005 1.233164e-005 -4.767180e-005 9.946207e-001 -9.233791e-003
7348590 9.971840e-001 -5.820874e-003 -1.815354e-005 -1.074943e-004 -3.830464e-005 4.911977e-006 9.942175e-001 -1.065290e-002
7423575 9.974040e-001 -5.694718e-003 9.667945e-005 7.750314e-005 1.675294e-004 3.586738e-005 9.941012e-001 -9.621373e-003
7498560 9.973388e-001 -5.357912e-003 -4.438867e-005 2.525953e-005 -1.478601e-004 -2.445370e-004 9.933603e-001 -9.573954e-003
7573545 9.974157e-001 -5.378009e-003 3.919674e-005 -1.345600e-005 5.856339e-005 -2.055501e-004 9.938744e-001 -8.764000e-003
7648530 9.958907e-001 -5.972823e-003 8.506038e-005 -1.092353e-004 -1.864646e-004 -2.212581e-004 9.950933e-001 -1.062100e-002
7723515 9.976668e-001 -5.118319e-003 3.342909e-005 -4.098721e-005 -9.995202e-005 1.044910e-004 9.930683e-001 -1.011250e-002
7798500 9.974866e-001 -5.103038e-003 -8.941493e-006 1.524313e-005 -1.605588e-004 1.732888e-004 9.926445e-001 -1.105015e-002
7873485 9.970933e-001 -5.389325e-003 -3.732122e-005 -5.017901e-006 -4.593585e-005 -2.418336e-004 9.930739e-001 -1.021976e-002
7948470 9.975925e-001 -5.565278e-003 -9.798337e-006 -3.679785e-005 2.341186e-004 2.037095e-004 9.937844e-001 -9.039210e-003
8023455 9.968494e-001 -5.735289e-003 4.103424e-005 1.008205e-004 -4.794235e-005 2.023360e-004 9.934441e-001 -1.068564e-002
8098440 9.975659e-001 -5.612148e-003 -2.905579e-005 -1.019252e-004 -1.289099e-004 4.710837e-005 9.914677e-001 -8.707188e-003
8173425 9.975550e-001 -6.078317e-003 7.384676e-005 -4.415169e-006 1.533577e-005 8.519432e-005 9.946232e-001 -8.609912e-003
8248410 9.967856e-001 -5.762624e-003 1.254296e-004 -6.555932e-007 -3.350476e-004 5.492502e-005 9.939536e-001 -9.444858e-003
8323395 9.971051e-001 -5.559913e-003 -1.933567e-005 -5.079536e-005 -2.108231e-004 1.163708e-004 9.951413e-001 -7.941257e-003
8398380 9.971014e-001 -5.323085e-003 -9.370639e-008 2.658174e-006 -1.035021e-005 9.790383e-005 9.936514e-001 -9.281304e-003
8473365 9.969730e-001 -5.822649e-003 -5.163585e-005 -4.632081e-005 -2.318221e-004 -2.276336e-005 9.948899e-001 -8.964652e-003
8548350 9.971915e-001 -6.027974e-003 3.275352e-005 -7.175178e-005 -1.954315e-004 -4.418735e-005 9.938028e-001 -9.175881e-003
8623335 9.963464e-001 -6.423503e-003 -7.617334e-005 1.174251e-004 1.326187e-004 -1.865597e-004 9.933609e-001 -8.988700e-003
8698320 9.960815e-001 -6.095957e-003 -7.300308e-005 1.641348e-005 5.894041e-005 -1.956707e-004 9.930501e-001 -9.476312e-003
8773305 9.970743e-001 -5.896127e-003 -5.639221e-005 5.343346e-005 7.753504e-005 -1.395221e-004 9.941614e-001 -9.230664e-003
8848290 9.972441e-001 -6.474762e-003 4.653465e-005 -8.720075e-005 -9.328248e-005 -2.172089e-005 9.938432e-001 -1.089771e-002
8923275 9.966528e-001 -6.808300e-003 -8.436882e-005 5.254372e-005 -1.106175e-005 -8.468941e-005 9.931337e-001 -1.076606e-002
8998260 9.965857e-001 -7.325946e-003 -2.502938e-005 1.171209e-004 -1.052779e-004 5.481575e-007 9.932840e-001 -1.135939e-002
9073245 9.971951e-001 -5.905990e-003 8.064843e-005 -5.717839e-005 6.643417e-005 6.597462e-005 9.925072e-001 -1.307391e-002
9148230 9.970086e-001 -6.698004e-003 -1.619572e-004 1.453480e-004 7.636945e-005 1.086090e-004 9.929321e-001 -1.078437e-002
9223215 9.966713e-001 -6.862562e-003 -6.197143e-006 3.829249e-005 1.012314e-004 1.156429e-004 9.943157e-001 -1.205551e-002
9298200 9.971774e-001 -6.351999e-003 -9.505177e-006 -1.181874e-004 -1.603088e-005 -3.934423e-005 9.939812e-001 -9.984145e-003
9373185 9.964833e-001 -6.645889e-003 5.578966e-005 5.382577e-005 -1.170651e-004 1.507767e-004 9.928199e-001 -1.106750e-002
9448170 9.969367e-001 -6.639348e-003 -5.599090e-005 -7.891196e-005 -3.400939e-005 9.979510e-005 9.941807e-001 -1.131918e-002
9523155 9.968075e-001 -7.058781e-003 1.021277e-004 3.831664e-005 -2.687305e-004 1.867538e-004 9.938136e-001 -1.143806e-002
9598140 9.967036e-001 -7.180367e-003 3.420103e-005 4.713963e-005 -1.203542e-004 -2.262631e-004 9.927133e-001 -1.229744e-002
9673125 9.959661e-001 -7.733079e-003 5.794860e-005 3.821540e-005 -1.148349e-004 -6.399772e-005 9.938603e-001 -1.303015e-002
9748110 9.972503e-001 -7.316831e-003 2.475660e-006 4.737443e-005 7.502354e-005 2.861423e-004 9.929428e-001 -1.149716e-002
9823095 9.971679e-001 -7.259067e-003 -8.646306e-005 7.863961e-006 -1.993880e-004 8.487201e-005 9.937786e-001 -1.416865e-002
9898080 9.963363e-001 -7.570184e-003 -6.041870e-005 -5.347453e-005 2.026927e-004 -5.524857e-005 9.941421e-001 -1.205951e-002
9973065 9.969596e-001 -7.987028e-003 5.357576e-005 1.457202e-005 -1.748720e-004 -1.097314e-004 9.933199e-001 -1.352802e-002
10048050 9.963027e-001 -7.607041e-003 7.329643e-005 1.232564e-004 -1.015301e-004 2.585758e-004 9.947497e-001 -1.493813e-002
10123035 9.970212e-001 -8.338540e-003 -9.532645e-005 -7.704017e-005 1.643403e-004 6.318540e-006 9.933653e-001 -1.348062e-002
10198020 9.964446e-001 -8.069844e-003 -1.919127e-006 1.218805e-004 5.122259e-005 7.874741e-005 9.950446e-001 -1.404246e-002
10273005 9.954467e-001 -8.858273e-003 3.804432e-006 -1.318143e-004 -6.738781e-006 -1.047939e-004 9.950781e-001 -1.335840e-002
10347990 9.961329e-001 -8.804290e-003 -5.798278e-005 -3.899246e-005 1.903038e-004 1.262436e-005 9.951673e-001 -1.452861e-002
10422975 9.969220e-001 -8.162562e-003 2.463050e-005 -5.340648e-005 -2.081003e-004 -2.419123e-004 9.944311e-001 -1.598070e-002
10497960 9.964115e-001 -8.715569e-003 8.270667e-006 1.009381e-005 5.331064e-005 5.943614e-005 9.946306e-001 -1.443219e-002
10572945 9.964198e-001 -8.549582e-003 2.249126e-005 1.037197e-004 -2.395222e-005 -3.644409e-004 9.947472e-001 -1.414232e-002
10647930 9.956467e-001 -8.481153e-003 -3.106480e-005 -2.025055e-005 1.252608e-004 5.994720e-006 9.943643e-001 -1.648719e-002
10722915 9.959421e-001 -8.669881e-003 8.833473e-005 4.371410e-005 1.196444e-004 3.342313e-004 9.932820e-001 -1.608629e-002
10797900 9.956865e-001 -8.733459e-003 1.250123e-005 9.378404e-005 2.970367e-004 2.554473e-004 9.933832e-001 -1.700690e-002
10872885 9.959002e-001 -8.833816e-003 -1.165685e-004 4.428134e-005 1.303188e-004 6.377036e-005 9.936861e-001 -1.665494e-002
10947870 9.961091e-001 -8.407977e-003 9.199459e-005 1.802132e-004 5.753992e-005 -1.462554e-004 9.938863e-001 -1.864125e-002
11022855 9.961016e-001 -8.294025e-003 1.624977e-004 9.885576e-005 -5.841271e-005 1.742305e-004 9.942332e-001 -1.648215e-002
11097840 9.961933e-001 -8.565997e-003 8.105118e-005 -9.924849e-006 2.572394e-004 -1.042551e-004 9.936697e-001 -1.896481e-002
11172825 9.954205e-001 -8.577284e-003 -7.325935e-005 2.364104e-005 -2.586629e-004 4.545237e-004 9.931992e-001 -1.759317e-002
11247810 9.963671e-001 -9.102852e-003 -2.106836e-005 4.201824e-005 2.767471e-005 1.552269e-004 9.938911e-001 -1.653864e-002
11322795 9.960584e-001 -8.472000e-003 7.082900e-006 -5.161375e-005 2.977937e-005 5.919527e-005 9.941140e-001 -1.654587e-002
11397780 9.964219e-001 -8.649300e-003 -9.464189e-005 1.031461e-005 3.379506e-004 8.607916e-005 9.937282e-001 -1.709149e-002
11472765 9.957810e-001 -9.416915e-003 6.928236e-005 1.319938e-004 1.172652e-004 1.867523e-005 9.927886e-001 -1.680729e-002
11547750 9.956275e-001 -8.658515e-003 -6.672859e-005 -1.227674e-004 -2.962181e-005 3.291138e-004 9.930042e-001 -1.560206e-002
11622735 9.956907e-001 -8.526769e-003 -5.898102e-005 -2.067988e-005 5.626889e-005 -1.359684e-004 9.925632e-001 -1.497885e-002
11697720 9.961449e-001 -8.800647e-003 -5.912299e-005 1.400421e-005 -9.103511e-005 -2.000183e-004 9.954291e-001 -1.673811e-002
11772705 9.955340e-001 -9.169362e-003 1.159325e-004 6.827816e-005 2.500681e-004 -1.452732e-004 9.944066e-001 -1.726291e-002
11847690 9.958605e-001 -9.251261e-003 -9.080592e-006 9.431968e-005 9.074666e-005 -1.268687e-004 9.950115e-001 -1.688761e-002
11922675 9.956781e-001 -8.993712e-003 1.061182e-004 -9.766842e-005 1.934326e-004 3.299305e-004 9.950455e-001 -1.699296e-002
11997660 9.960759e-001 -8.890796e-003 -8.747244e-006 -5.626875e-005 8.561968e-005 -1.302841e-004 9.946923e-001 -1.720605e-002
