!Agilent Technologies,N5230C,SG49000117,A.08.50.07
!Agilent N5230C: A.08.50.07
!Date: Sunday, March 17, 2024 01:22:54
!Correction: S11(Off) 
!S21(Off) 
!S12(Off) 
!S22(Full 1 Port(2)) 
!S2P File: Measurements: S11, S21, S12, S22:
# Hz S  RI   R 50
300000000 -2.807734e-005 -5.060129e-005 -6.789695e-001 -5.645521e-001 5.966967e-005 -2.480374e-005 9.404033e-001 -3.987651e-001
300285000 -2.088440e-005 2.926995e-005 -6.914361e-001 -5.406890e-001 7.897682e-006 -8.789561e-005 9.409608e-001 -3.994942e-001
300570000 -5.168919e-005 -2.538178e-005 -7.027788e-001 -5.168908e-001 2.800957e-005 -3.937234e-005 9.417921e-001 -4.010350e-001
300855000 5.087982e-005 -1.486766e-005 -7.132097e-001 -4.934152e-001 -4.536686e-005 3.669539e-005 9.414485e-001 -4.002460e-001
301140000 7.125342e-005 4.429469e-007 -7.233793e-001 -4.689382e-001 3.947077e-005 -1.974087e-005 9.407337e-001 -4.011661e-001
301425000 3.011527e-005 -3.969292e-005 -7.321674e-001 -4.452406e-001 -2.863187e-005 1.942004e-004 9.411032e-001 -4.004638e-001
301710000 -1.537109e-005 9.998601e-005 -7.408029e-001 -4.210360e-001 -3.882454e-005 1.016738e-004 9.413702e-001 -4.033037e-001
301995000 9.372160e-005 8.308502e-005 -7.483830e-001 -3.979787e-001 1.542067e-005 2.991611e-005 9.401460e-001 -4.012339e-001
302280000 -1.081490e-005 3.924782e-005 -7.548602e-001 -3.742162e-001 3.275712e-006 -7.218701e-005 9.407170e-001 -4.033972e-001
302565000 -1.554196e-004 7.283028e-005 -7.609744e-001 -3.505130e-001 -4.087132e-005 -6.837445e-005 9.408300e-001 -4.035228e-001
302850000 5.511633e-006 7.463998e-005 -7.673717e-001 -3.277914e-001 1.505991e-004 2.404830e-005 9.407135e-001 -4.012317e-001
303135000 7.622406e-006 -4.648317e-005 -7.724034e-001 -3.043224e-001 9.795807e-005 6.214870e-006 9.400888e-001 -4.032269e-001
303420000 -4.908981e-005 4.434928e-005 -7.763342e-001 -2.811518e-001 1.144211e-004 -2.334748e-006 9.383481e-001 -4.032619e-001
303705000 1.123533e-005 2.992985e-005 -7.801915e-001 -2.586956e-001 6.437333e-006 3.552945e-005 9.408439e-001 -4.049903e-001
303990000 3.722157e-005 -9.483902e-005 -7.839680e-001 -2.353735e-001 8.835645e-005 6.701828e-005 9.384988e-001 -4.032699e-001
304275000 9.955608e-005 -3.641381e-005 -7.860896e-001 -2.131221e-001 -6.328156e-005 1.695696e-005 9.398143e-001 -4.052168e-001
304560000 -2.133470e-006 6.000863e-005 -7.888276e-001 -1.907891e-001 -2.555740e-006 -1.161888e-006 9.388888e-001 -4.048725e-001
304845000 1.157336e-005 -9.108247e-006 -7.900392e-001 -1.687929e-001 -2.063412e-005 -3.693722e-006 9.384483e-001 -4.046647e-001
305130000 7.928984e-005 -7.786309e-005 -7.915189e-001 -1.470100e-001 9.833264e-005 8.443554e-005 9.367231e-001 -4.041687e-001
305415000 -1.592473e-005 7.061139e-005 -7.921261e-001 -1.249080e-001 3.167467e-005 1.320072e-004 9.394234e-001 -4.060879e-001
305700000 -1.758853e-006 -4.325493e-005 -7.925687e-001 -1.034154e-001 4.153138e-005 -3.383659e-005 9.397352e-001 -4.055405e-001
305985000 4.353941e-005 -2.430207e-005 -7.920530e-001 -8.177309e-002 4.372738e-005 9.597564e-006 9.375857e-001 -4.073742e-001
306270000 2.727794e-005 -7.822517e-006 -7.913352e-001 -6.044024e-002 -4.647839e-005 7.680422e-005 9.389957e-001 -4.067577e-001
306555000 -2.785573e-005 1.363956e-004 -7.902700e-001 -3.947014e-002 1.077298e-004 5.652888e-005 9.387432e-001 -4.084972e-001
306840000 -7.625520e-005 1.097810e-004 -7.887613e-001 -1.810431e-002 4.023763e-005 -2.757396e-005 9.379596e-001 -4.080352e-001
307125000 -3.258340e-005 -4.634426e-005 -7.867606e-001 2.216240e-003 -5.429038e-005 -2.192543e-005 9.369541e-001 -4.076613e-001
307410000 -1.439428e-005 -3.404924e-005 -7.846868e-001 2.331414e-002 -1.784719e-005 1.980699e-005 9.381068e-001 -4.090643e-001
307695000 6.503393e-006 -6.108682e-005 -7.818832e-001 4.378316e-002 -4.301741e-005 -1.593564e-005 9.383092e-001 -4.108289e-001
307980000 -1.036027e-004 -4.097161e-005 -7.788110e-001 6.429234e-002 -2.529300e-005 7.202623e-005 9.362457e-001 -4.099116e-001
308265000 -1.767849e-005 2.914231e-005 -7.752895e-001 8.456845e-002 1.275447e-005 -3.523580e-005 9.357138e-001 -4.096551e-001
308550000 -9.752623e-005 -2.591843e-005 -7.716013e-001 1.049004e-001 -1.914305e-005 -7.575266e-005 9.362786e-001 -4.104346e-001
308835000 2.136877e-005 1.738647e-005 -7.676802e-001 1.249145e-001 8.793979e-005 2.602140e-006 9.361773e-001 -4.106666e-001
309120000 -1.322418e-005 -6.386638e-005 -7.634916e-001 1.444874e-001 1.096857e-004 -3.934422e-005 9.366083e-001 -4.105360e-001
309405000 6.942509e-005 -1.057363e-004 -7.584601e-001 1.642831e-001 9.750535e-005 1.289295e-005 9.384746e-001 -4.108309e-001
309690000 5.567410e-005 1.499376e-005 -7.532014e-001 1.835934e-001 6.660375e-005 4.491816e-006 9.368377e-001 -4.117817e-001
309975000 6.332217e-005 -6.919891e-005 -7.476145e-001 2.030039e-001 -6.691231e-005 4.935517e-005 9.354672e-001 -4.119216e-001
310260000 3.669245e-005 -8.012852e-005 -7.415854e-001 2.228312e-001 -1.810845e-004 2.450266e-005 9.374988e-001 -4.126536e-001
310545000 7.311070e-005 7.929959e-005 -7.350095e-001 2.419092e-001 -6.491208e-005 1.105564e-004 9.353554e-001 -4.124388e-001
310830000 4.517137e-005 6.154605e-006 -7.286157e-001 2.612673e-001 -6.083770e-005 8.283474e-005 9.378855e-001 -4.129826e-001
311115000 5.599756e-005 7.807041e-005 -7.216341e-001 2.803671e-001 9.952800e-005 4.796699e-005 9.351342e-001 -4.120999e-001
311400000 -9.527764e-005 -4.796500e-005 -7.142698e-001 2.995479e-001 -2.821441e-005 -3.398649e-005 9.353779e-001 -4.159063e-001
311685000 4.776759e-005 1.194824e-004 -7.063577e-001 3.179638e-001 -4.539683e-005 -4.240168e-005 9.356346e-001 -4.137002e-001
311970000 1.516908e-005 -2.984733e-005 -6.983519e-001 3.367967e-001 8.378799e-005 -6.148824e-005 9.335939e-001 -4.136427e-001
312255000 -6.905469e-005 -6.679200e-005 -6.899146e-001 3.555504e-001 1.132924e-005 -8.892380e-005 9.351585e-001 -4.130450e-001
312540000 -5.144514e-005 5.860957e-006 -6.808614e-001 3.739136e-001 7.095140e-005 -9.843999e-005 9.348172e-001 -4.143355e-001
312825000 -1.327970e-006 1.303593e-004 -6.716638e-001 3.927732e-001 -1.508716e-004 6.629315e-007 9.342360e-001 -4.146042e-001
313110000 6.252275e-006 -9.383595e-005 -6.622458e-001 4.108186e-001 2.219902e-005 -3.778487e-005 9.347055e-001 -4.163961e-001
313395000 -3.993858e-005 -3.574524e-005 -6.521135e-001 4.288964e-001 2.761634e-005 -5.699601e-005 9.350483e-001 -4.152800e-001
313680000 -4.030903e-006 -1.440903e-005 -6.414739e-001 4.475089e-001 3.070909e-005 -6.418477e-005 9.346550e-001 -4.169748e-001
313965000 -1.139543e-005 -4.517371e-005 -6.308408e-001 4.654624e-001 -1.956842e-005 -7.431836e-005 9.358119e-001 -4.161465e-001
314250000 1.626977e-005 -6.954972e-005 -6.194299e-001 4.828506e-001 -6.152999e-007 1.946506e-006 9.324038e-001 -4.171819e-001
314535000 -1.128498e-005 -1.663764e-004 -6.075796e-001 5.009823e-001 9.040568e-005 -3.770063e-005 9.338238e-001 -4.168002e-001
314820000 4.232894e-005 1.058346e-004 -5.953860e-001 5.188156e-001 2.216314e-005 2.977105e-005 9.337152e-001 -4.192705e-001
315105000 3.711502e-005 1.663826e-005 -5.831608e-001 5.365710e-001 1.282695e-004 2.919491e-005 9.313914e-001 -4.177155e-001
315390000 3.693736e-005 8.102164e-005 -5.699469e-001 5.537150e-001 8.652911e-005 -4.497168e-005 9.332518e-001 -4.188710e-001
315675000 2.702883e-006 9.838173e-005 -5.562547e-001 5.710391e-001 9.965462e-005 -7.297707e-005 9.332929e-001 -4.181904e-001
315960000 1.202102e-004 -2.187635e-005 -5.418038e-001 5.878391e-001 6.173275e-005 -8.526978e-006 9.323409e-001 -4.179990e-001
316245000 4.715978e-005 5.502767e-005 -5.278569e-001 6.056004e-001 -1.020607e-004 6.128307e-006 9.324492e-001 -4.189507e-001
316530000 -3.853836e-005 -6.948368e-005 -5.121171e-001 6.221846e-001 -3.763186e-005 4.760591e-005 9.321680e-001 -4.192687e-001
316815000 8.083276e-006 1.522690e-005 -4.967075e-001 6.389959e-001 -5.583460e-005 7.256391e-005 9.327763e-001 -4.205064e-001
317100000 -1.705000e-006 -1.129125e-004 -4.800594e-001 6.553985e-001 -1.370132e-004 4.956009e-005 9.316094e-001 -4.197295e-001
317385000 -7.207687e-005 -3.319566e-005 -4.639030e-001 6.722603e-001 -4.448900e-005 4.098538e-005 9.343507e-001 -4.199263e-001
317670000 -5.596899e-005 1.115449e-004 -4.464353e-001 6.886435e-001 -7.776084e-005 1.037314e-004 9.324136e-001 -4.212878e-001
317955000 -9.684820e-006 -2.745726e-005 -4.284776e-001 7.038745e-001 -2.254840e-005 -2.570628e-005 9.342433e-001 -4.214451e-001
318240000 -6.414693e-006 -5.392998e-006 -4.094437e-001 7.192565e-001 -5.044696e-005 -1.301879e-005 9.310442e-001 -4.227120e-001
318525000 -7.268807e-006 2.927262e-005 -3.904751e-001 7.350590e-001 6.605770e-006 -3.347233e-005 9.319801e-001 -4.219898e-001
318810000 4.184521e-005 7.851751e-005 -3.704311e-001 7.500623e-001 1.489613e-004 -1.017064e-005 9.318622e-001 -4.213736e-001
319095000 4.362351e-005 7.442968e-005 -3.501360e-001 7.643359e-001 5.526476e-005 1.112218e-004 9.323319e-001 -4.227158e-001
319380000 6.513533e-005 -4.504695e-005 -3.290918e-001 7.786537e-001 -2.969655e-006 1.262799e-005 9.319904e-001 -4.237425e-001
319665000 1.164556e-005 -6.609435e-005 -3.074528e-001 7.925675e-001 1.073779e-005 -5.243858e-005 9.313483e-001 -4.227522e-001
319950000 7.750669e-005 1.337476e-004 -2.840648e-001 8.065145e-001 8.961848e-005 7.527258e-005 9.311967e-001 -4.252674e-001
320235000 1.288898e-004 -1.978752e-005 -2.613852e-001 8.199551e-001 3.777722e-005 -1.776006e-004 9.309003e-001 -4.234807e-001
320520000 -1.801866e-005 2.032040e-005 -2.368939e-001 8.321148e-001 4.963033e-005 3.630985e-005 9.298568e-001 -4.253364e-001
320805000 -3.779992e-005 1.071008e-005 -2.125863e-001 8.444859e-001 -3.559046e-006 5.702656e-005 9.299497e-001 -4.245599e-001
321090000 -6.592724e-005 4.613369e-005 -1.869310e-001 8.555906e-001 -1.028865e-004 -9.106821e-005 9.301898e-001 -4.252507e-001
321375000 2.091073e-006 5.826907e-005 -1.603080e-001 8.665188e-001 -3.876879e-005 2.774147e-005 9.302992e-001 -4.252659e-001
321660000 1.470807e-005 8.281431e-005 -1.338015e-001 8.771781e-001 -6.574701e-005 2.678511e-005 9.305525e-001 -4.259885e-001
321945000 -8.492393e-005 -4.003230e-005 -1.062739e-001 8.860924e-001 -4.425020e-005 3.106564e-005 9.297470e-001 -4.262705e-001
322230000 -3.170915e-005 -9.011125e-005 -7.808595e-002 8.945010e-001 -3.393308e-006 -2.847936e-005 9.293012e-001 -4.271463e-001
322515000 5.295156e-005 5.995527e-005 -4.842256e-002 9.030529e-001 7.404851e-005 -3.481752e-005 9.283614e-001 -4.275701e-001
322800000 1.127749e-005 -4.121108e-006 -1.862324e-002 9.101220e-001 1.021120e-005 6.780095e-005 9.296519e-001 -4.285215e-001
323085000 1.122794e-005 -5.213079e-005 1.127165e-002 9.154417e-001 1.391278e-005 -5.527558e-005 9.288857e-001 -4.277763e-001
323370000 -2.695918e-005 -3.837438e-005 4.325503e-002 9.208815e-001 -2.567898e-005 -3.051953e-005 9.298828e-001 -4.293896e-001
323655000 1.947010e-005 8.984074e-005 7.508875e-002 9.247475e-001 -3.434286e-005 -9.475079e-005 9.284279e-001 -4.287156e-001
323940000 -4.059358e-005 2.034158e-005 1.067177e-001 9.273856e-001 -1.757815e-004 -1.791940e-005 9.277677e-001 -4.294594e-001
324225000 -4.476579e-005 -7.860440e-005 1.394267e-001 9.289614e-001 5.861785e-005 2.894935e-005 9.263337e-001 -4.280172e-001
324510000 -5.061562e-005 -2.483719e-005 1.733909e-001 9.298466e-001 8.850675e-005 2.858948e-005 9.291466e-001 -4.318879e-001
324795000 -5.903183e-005 5.150971e-005 2.070982e-001 9.287230e-001 8.512057e-005 8.313072e-006 9.281083e-001 -4.310950e-001
325080000 5.661463e-005 1.386265e-005 2.423725e-001 9.261445e-001 6.442220e-005 -1.214321e-004 9.282888e-001 -4.302668e-001
325365000 -3.288861e-005 2.549050e-005 2.761361e-001 9.220220e-001 -2.144947e-005 -2.106262e-005 9.285721e-001 -4.314458e-001
325650000 1.487388e-005 -3.185297e-005 3.120587e-001 9.167187e-001 -1.241877e-005 1.015694e-004 9.284106e-001 -4.321386e-001
325935000 1.430499e-005 -6.093377e-005 3.468212e-001 9.101529e-001 -4.880842e-005 4.513168e-005 9.280387e-001 -4.326088e-001
326220000 -7.544905e-005 3.851465e-005 3.826275e-001 9.018058e-001 -3.146788e-005 8.223768e-006 9.270898e-001 -4.331070e-001
326505000 -9.265303e-005 -1.552616e-005 4.173086e-001 8.912461e-001 1.872135e-005 3.927749e-005 9.274017e-001 -4.331498e-001
326790000 -6.174088e-005 2.232853e-005 4.530048e-001 8.793738e-001 3.834095e-005 -1.185135e-004 9.269843e-001 -4.324777e-001
327075000 2.294637e-005 1.532115e-005 4.878976e-001 8.660721e-001 -7.518208e-005 -1.814423e-005 9.260446e-001 -4.342288e-001
327360000 3.866066e-005 -5.892060e-005 5.235546e-001 8.509946e-001 -9.302450e-005 -3.216942e-005 9.279013e-001 -4.338960e-001
327645000 7.013661e-005 -6.482578e-005 5.573048e-001 8.339959e-001 -1.031597e-004 -1.154725e-005 9.277838e-001 -4.338304e-001
327930000 5.923295e-005 -3.301989e-005 5.913740e-001 8.151148e-001 6.968707e-005 -3.216624e-005 9.263201e-001 -4.345143e-001
328215000 -4.450994e-005 1.274798e-004 6.246854e-001 7.947438e-001 1.466053e-004 -4.344094e-005 9.260685e-001 -4.342783e-001
328500000 6.174822e-005 3.421092e-005 6.575637e-001 7.723411e-001 8.061364e-005 -3.855076e-005 9.254336e-001 -4.351254e-001
328785000 -3.795347e-005 2.201805e-005 6.896361e-001 7.487096e-001 -3.728582e-005 -8.235839e-006 9.256120e-001 -4.348956e-001
329070000 8.360365e-006 -2.263439e-005 7.201775e-001 7.229469e-001 -6.265254e-005 -4.848421e-006 9.256154e-001 -4.359059e-001
329355000 -1.323691e-006 -1.176094e-004 7.498108e-001 6.954667e-001 2.729469e-005 -2.299196e-006 9.253199e-001 -4.359058e-001
329640000 2.866690e-005 3.886083e-005 7.785578e-001 6.672108e-001 1.945542e-005 2.597434e-006 9.250082e-001 -4.370000e-001
329925000 4.665230e-005 -4.143063e-005 8.058594e-001 6.371227e-001 7.909670e-006 -3.864426e-005 9.255035e-001 -4.373231e-001
330210000 -4.281578e-005 -4.928574e-005 8.320032e-001 6.053064e-001 -5.421990e-005 -1.220612e-005 9.237952e-001 -4.370938e-001
330495000 5.575512e-005 -8.931552e-005 8.557785e-001 5.723538e-001 -6.340560e-005 -1.240104e-004 9.255728e-001 -4.370584e-001
330780000 3.525307e-005 -1.198783e-004 8.784640e-001 5.381454e-001 -1.578775e-005 -6.327153e-005 9.244902e-001 -4.384817e-001
331065000 6.268472e-005 -7.783221e-005 8.993438e-001 5.031490e-001 -9.309233e-005 -7.706854e-005 9.237913e-001 -4.359269e-001
331350000 9.192042e-006 -1.961829e-005 9.186419e-001 4.661967e-001 1.114853e-004 8.216123e-005 9.239227e-001 -4.377744e-001
331635000 -7.995511e-005 -9.532808e-006 9.357303e-001 4.295749e-001 7.049966e-005 1.223229e-005 9.251982e-001 -4.384870e-001
331920000 1.380714e-005 -5.321960e-005 9.513011e-001 3.924465e-001 1.316876e-005 2.281658e-005 9.241611e-001 -4.398591e-001
332205000 9.343222e-006 8.273042e-005 9.652852e-001 3.537926e-001 -7.187555e-005 3.317907e-005 9.231350e-001 -4.402550e-001
332490000 -5.106198e-005 2.448006e-005 9.767760e-001 3.141727e-001 3.032111e-005 6.957549e-005 9.249276e-001 -4.393204e-001
332775000 -2.382477e-005 -1.378885e-005 9.864472e-001 2.753755e-001 -6.550089e-005 -2.540005e-005 9.243323e-001 -4.413129e-001
333060000 1.017731e-005 1.703019e-005 9.941660e-001 2.356362e-001 -8.436051e-005 4.845430e-005 9.233683e-001 -4.409727e-001
333345000 -4.049054e-005 1.661004e-005 9.996004e-001 1.962107e-001 -6.146472e-005 3.719301e-005 9.247836e-001 -4.408033e-001
333630000 -8.318168e-005 -4.774440e-006 1.003454e+000 1.574416e-001 -6.257479e-005 7.082727e-005 9.225368e-001 -4.421322e-001
333915000 1.826648e-006 1.368665e-006 1.006362e+000 1.174579e-001 -1.943077e-006 2.078064e-005 9.227988e-001 -4.428079e-001
334200000 4.517887e-005 -1.406991e-005 1.005975e+000 7.784662e-002 -9.799111e-005 -2.245296e-005 9.233342e-001 -4.434298e-001
334485000 -9.700388e-005 -5.188022e-005 1.003855e+000 3.961264e-002 -3.339137e-005 1.236566e-004 9.231158e-001 -4.424737e-001
334770000 3.762817e-005 -3.822476e-005 1.001201e+000 1.866376e-003 -3.636430e-005 3.541913e-005 9.233951e-001 -4.428060e-001
335055000 2.627477e-005 -1.640212e-005 9.955493e-001 -3.647714e-002 -7.712552e-005 8.636966e-006 9.227276e-001 -4.436985e-001
335340000 -3.551886e-006 -2.494822e-005 9.889908e-001 -7.270786e-002 -1.728101e-005 -2.837581e-005 9.233460e-001 -4.448878e-001
335625000 -1.254848e-004 1.031290e-004 9.815257e-001 -1.089120e-001 2.925215e-005 -2.513552e-005 9.222544e-001 -4.446746e-001
335910000 -1.097188e-004 -1.066546e-005 9.709299e-001 -1.434570e-001 -5.880887e-005 -2.897094e-005 9.230247e-001 -4.437121e-001
336195000 -1.186018e-004 -4.330783e-005 9.604560e-001 -1.789714e-001 -6.606871e-005 -1.275907e-005 9.200636e-001 -4.452077e-001
336480000 5.605694e-005 5.135684e-005 9.477636e-001 -2.120863e-001 -4.618241e-005 -4.145828e-005 9.230033e-001 -4.448210e-001
336765000 6.745976e-005 6.874704e-005 9.341692e-001 -2.446740e-001 -2.771237e-005 -6.752880e-005 9.223119e-001 -4.456220e-001
337050000 4.455822e-005 -8.611798e-006 9.195960e-001 -2.765300e-001 -6.546592e-006 2.938884e-005 9.216148e-001 -4.469544e-001
337335000 -8.895068e-005 2.687717e-005 9.036287e-001 -3.066963e-001 4.598326e-005 -1.275284e-004 9.216746e-001 -4.483318e-001
337620000 -7.044045e-005 -3.339941e-005 8.865867e-001 -3.359680e-001 -2.930045e-005 -1.167266e-004 9.210240e-001 -4.473077e-001
337905000 2.830529e-005 -1.308648e-005 8.703412e-001 -3.647753e-001 -8.229951e-006 5.442332e-007 9.196548e-001 -4.457296e-001
338190000 9.679565e-005 -6.606920e-005 8.515741e-001 -3.912998e-001 -7.358642e-005 -6.798057e-005 9.199640e-001 -4.472598e-001
338475000 9.748208e-005 -9.336057e-006 8.324863e-001 -4.174922e-001 1.471621e-005 8.488714e-006 9.218057e-001 -4.472439e-001
338760000 1.010830e-004 1.007072e-004 8.129633e-001 -4.421116e-001 1.048252e-005 -4.546257e-005 9.204994e-001 -4.475704e-001
339045000 4.544217e-006 3.142378e-006 7.924173e-001 -4.660515e-001 2.549936e-005 5.348157e-006 9.199998e-001 -4.486337e-001
339330000 1.401207e-004 6.812510e-005 7.714543e-001 -4.888102e-001 6.736245e-005 1.244445e-005 9.223008e-001 -4.484744e-001
339615000 -9.399141e-005 3.452683e-005 7.508437e-001 -5.113910e-001 2.352274e-006 6.879553e-005 9.208258e-001 -4.486191e-001
339900000 7.612044e-006 2.162995e-006 7.285275e-001 -5.316631e-001 5.421613e-005 8.501666e-005 9.193497e-001 -4.502460e-001
340185000 4.285390e-005 2.146015e-005 7.069213e-001 -5.514119e-001 -4.920701e-005 5.227753e-005 9.192536e-001 -4.511583e-001
340470000 -5.000606e-005 -3.501082e-005 6.850629e-001 -5.698016e-001 6.569632e-005 5.500135e-005 9.204040e-001 -4.495755e-001
340755000 2.275567e-005 -3.487818e-005 6.621019e-001 -5.875532e-001 -3.344439e-005 1.876382e-005 9.201660e-001 -4.515824e-001
341040000 1.504324e-005 1.116414e-005 6.400138e-001 -6.041587e-001 2.279757e-005 -3.463411e-005 9.187137e-001 -4.509568e-001
341325000 -1.057111e-004 -2.008582e-005 6.169587e-001 -6.202583e-001 2.955351e-005 -2.506658e-005 9.205732e-001 -4.496577e-001
341610000 -3.876326e-005 3.949282e-005 5.939931e-001 -6.346551e-001 9.280420e-005 5.206962e-005 9.200380e-001 -4.512383e-001
341895000 4.917425e-005 6.224451e-005 5.714891e-001 -6.487357e-001 -1.752273e-006 9.632533e-005 9.190926e-001 -4.529482e-001
342180000 -1.996226e-006 1.250553e-004 5.481828e-001 -6.613263e-001 7.995671e-005 -4.751367e-005 9.186183e-001 -4.532225e-001
342465000 -1.235916e-004 6.397584e-005 5.257913e-001 -6.738746e-001 3.329369e-005 9.502242e-005 9.185101e-001 -4.541075e-001
342750000 3.060914e-005 1.424074e-004 5.015189e-001 -6.855045e-001 3.711811e-005 8.368192e-005 9.201291e-001 -4.541377e-001
343035000 -5.674928e-005 5.099824e-005 4.792018e-001 -6.960154e-001 -3.027816e-005 7.148439e-005 9.163930e-001 -4.544058e-001
343320000 -9.874183e-005 8.192991e-005 4.561497e-001 -7.065285e-001 -1.801035e-006 3.006367e-005 9.164560e-001 -4.539765e-001
343605000 3.251062e-005 1.458902e-005 4.331762e-001 -7.152316e-001 -8.968623e-005 1.633954e-005 9.183936e-001 -4.539276e-001
343890000 -7.235236e-005 -1.313294e-005 4.101788e-001 -7.236833e-001 -5.277628e-005 -1.125539e-004 9.176800e-001 -4.553953e-001
