!Agilent Technologies,N5230C,SG49000117,A.08.50.07
!Agilent N5230C: A.08.50.07
!Date: Sunday, March 17, 2024 06:42:09
!Correction: S11(Off) 
!S21(Off) 
!S12(Off) 
!S22(Off) 
!S2P File: Measurements: S11, S21, S12, S22:
# Hz S  RI   R 50
300000000 -3.824397e-007 -6.558611e-006 -6.946801e-001 -5.340447e-001 -3.915537e-007 -9.922231e-007 -6.972870e-001 -5.359681e-001
300285000 1.978548e-005 -4.097883e-006 -7.058537e-001 -5.101418e-001 1.989512e-006 -6.707612e-006 -7.084931e-001 -5.120291e-001
300570000 -6.943216e-006 6.721544e-006 -7.162945e-001 -4.861488e-001 3.195614e-006 2.022883e-005 -7.189224e-001 -4.879461e-001
300855000 -5.907315e-006 1.006876e-005 -7.259327e-001 -4.622132e-001 -1.371850e-005 3.478176e-006 -7.286259e-001 -4.639777e-001
301140000 1.364219e-005 -5.455654e-006 -7.348571e-001 -4.382828e-001 7.849048e-006 1.143164e-007 -7.375876e-001 -4.399947e-001
301425000 3.063189e-006 1.143230e-005 -7.430162e-001 -4.144447e-001 4.662492e-006 5.887319e-006 -7.457529e-001 -4.160334e-001
301710000 -4.974937e-006 2.090147e-006 -7.504706e-001 -3.907370e-001 -1.592707e-006 7.008333e-006 -7.532194e-001 -3.922189e-001
301995000 -1.920130e-006 1.826401e-005 -7.572125e-001 -3.671726e-001 -4.393780e-006 -4.996189e-006 -7.600451e-001 -3.685391e-001
302280000 4.964496e-006 1.860523e-006 -7.632135e-001 -3.436697e-001 1.327750e-006 -9.379041e-006 -7.660864e-001 -3.450197e-001
302565000 2.700685e-006 -1.581451e-008 -7.686886e-001 -3.203937e-001 -1.223538e-005 3.906392e-006 -7.715768e-001 -3.215233e-001
302850000 -5.212839e-006 6.507702e-006 -7.734573e-001 -2.971894e-001 5.473972e-006 -3.941681e-006 -7.763632e-001 -2.982609e-001
303135000 -1.036351e-005 2.820649e-006 -7.777432e-001 -2.741529e-001 -3.656503e-006 -4.128613e-006 -7.805644e-001 -2.751867e-001
303420000 -7.814703e-006 -1.081642e-005 -7.813116e-001 -2.512883e-001 2.377555e-006 -3.151898e-006 -7.842612e-001 -2.521999e-001
303705000 1.763640e-005 2.093318e-008 -7.843418e-001 -2.286080e-001 -7.983809e-006 1.003157e-005 -7.874011e-001 -2.295274e-001
303990000 1.275593e-005 8.959323e-006 -7.868848e-001 -2.060641e-001 -9.307139e-006 1.519796e-006 -7.898631e-001 -2.068148e-001
304275000 -1.892269e-006 -4.458757e-006 -7.888377e-001 -1.837413e-001 -4.090863e-006 2.843361e-006 -7.919120e-001 -1.844776e-001
304560000 8.211028e-006 1.128608e-005 -7.904301e-001 -1.615116e-001 -1.870377e-006 5.605417e-006 -7.934316e-001 -1.621657e-001
304845000 3.390232e-006 7.751458e-006 -7.914440e-001 -1.394935e-001 -8.237434e-006 1.332325e-005 -7.944521e-001 -1.401369e-001
305130000 1.501053e-005 -4.123252e-006 -7.919838e-001 -1.177566e-001 -1.647788e-007 6.962195e-006 -7.950247e-001 -1.182029e-001
305415000 -8.735778e-006 1.251787e-005 -7.920253e-001 -9.605739e-002 -6.419979e-006 1.617659e-006 -7.950777e-001 -9.636161e-002
305700000 -4.038571e-006 2.688606e-006 -7.916166e-001 -7.453170e-002 1.207956e-006 -9.567462e-006 -7.946634e-001 -7.478143e-002
305985000 -1.260138e-005 -5.064202e-006 -7.907574e-001 -5.313696e-002 -3.492610e-006 -1.879530e-005 -7.938561e-001 -5.332102e-002
306270000 -7.215995e-006 -1.441009e-005 -7.895001e-001 -3.197511e-002 7.207405e-006 -1.926436e-005 -7.926313e-001 -3.209880e-002
306555000 -4.719489e-006 -1.636278e-005 -7.878826e-001 -1.090047e-002 8.042259e-006 -7.563242e-006 -7.909363e-001 -1.095543e-002
306840000 -1.659728e-006 -3.037493e-006 -7.857237e-001 9.935021e-003 8.490421e-006 -1.444588e-005 -7.888213e-001 9.980154e-003
307125000 -1.845857e-005 -1.159531e-005 -7.832582e-001 3.067388e-002 4.229729e-006 1.347292e-005 -7.863580e-001 3.076691e-002
307410000 5.580580e-006 -3.997881e-006 -7.804481e-001 5.116921e-002 1.288937e-005 4.420212e-006 -7.834449e-001 5.138170e-002
307695000 9.119261e-007 -1.051157e-006 -7.771762e-001 7.160261e-002 -9.780446e-006 6.552322e-006 -7.802056e-001 7.188122e-002
307980000 6.400706e-006 -2.371161e-005 -7.735655e-001 9.181070e-002 5.794661e-006 8.425870e-006 -7.766051e-001 9.227012e-002
308265000 4.659672e-006 -2.408540e-006 -7.695882e-001 1.119243e-001 -9.722990e-006 9.373978e-006 -7.726135e-001 1.123429e-001
308550000 2.041937e-005 1.038620e-007 -7.652619e-001 1.319450e-001 -2.044856e-005 -3.754567e-006 -7.682157e-001 1.324800e-001
308835000 1.268923e-006 -2.232370e-006 -7.605610e-001 1.517228e-001 -6.286836e-006 8.643834e-006 -7.634836e-001 1.523318e-001
309120000 -5.306139e-006 -1.403510e-006 -7.554229e-001 1.714509e-001 -1.518711e-005 2.033969e-006 -7.584282e-001 1.721121e-001
309405000 -1.912391e-006 1.060142e-005 -7.500693e-001 1.909972e-001 -1.294043e-005 -1.335753e-005 -7.529505e-001 1.918001e-001
309690000 1.898260e-006 4.379994e-006 -7.443037e-001 2.103658e-001 -1.307171e-005 5.320486e-006 -7.472528e-001 2.112564e-001
309975000 5.635086e-007 -4.512915e-007 -7.381372e-001 2.297611e-001 1.150750e-006 -8.469873e-006 -7.410358e-001 2.306739e-001
310260000 -2.155864e-006 -1.086983e-005 -7.316741e-001 2.489772e-001 6.500486e-006 -1.281079e-005 -7.345063e-001 2.499181e-001
310545000 -1.629963e-006 6.528928e-006 -7.247583e-001 2.680323e-001 7.710695e-008 -4.478809e-007 -7.276028e-001 2.691041e-001
310830000 -2.150149e-006 -1.045715e-006 -7.176067e-001 2.870360e-001 2.136971e-006 1.117814e-007 -7.204045e-001 2.881761e-001
311115000 -9.240863e-006 4.200036e-006 -7.100753e-001 3.058784e-001 1.912952e-005 -1.479915e-005 -7.128192e-001 3.070878e-001
311400000 -1.829035e-005 -7.570197e-006 -7.021263e-001 3.246537e-001 3.678911e-006 -2.591258e-005 -7.048985e-001 3.259276e-001
311685000 6.315904e-007 -2.626133e-006 -6.937728e-001 3.433598e-001 1.039361e-005 5.802990e-006 -6.965332e-001 3.446399e-001
311970000 8.663786e-006 -3.471991e-006 -6.851043e-001 3.618653e-001 5.690209e-006 4.732445e-006 -6.878858e-001 3.632492e-001
312255000 9.841652e-006 -9.507893e-006 -6.761072e-001 3.803366e-001 6.145018e-006 5.543687e-006 -6.787758e-001 3.817617e-001
312540000 -1.402652e-005 -2.003383e-005 -6.666435e-001 3.986422e-001 2.923569e-006 9.721039e-007 -6.692377e-001 4.002786e-001
312825000 1.606541e-006 -1.313625e-006 -6.567330e-001 4.168762e-001 4.216088e-006 1.533789e-005 -6.594411e-001 4.185725e-001
313110000 -4.119410e-006 -9.755238e-006 -6.465639e-001 4.350654e-001 -1.093227e-007 7.922091e-006 -6.491496e-001 4.367829e-001
313395000 9.539375e-007 -7.704151e-007 -6.359256e-001 4.530766e-001 6.002836e-006 1.976711e-005 -6.384637e-001 4.548656e-001
313680000 -2.472932e-006 -1.665550e-006 -6.248611e-001 4.710752e-001 -1.353354e-005 4.963183e-006 -6.273394e-001 4.728861e-001
313965000 -5.772592e-006 6.467841e-006 -6.133847e-001 4.888542e-001 4.079894e-006 6.783809e-006 -6.158301e-001 4.907345e-001
314250000 -5.430538e-006 -5.318679e-006 -6.014345e-001 5.065858e-001 -1.672219e-005 8.883788e-006 -6.038358e-001 5.085533e-001
314535000 6.238294e-006 3.980430e-006 -5.890601e-001 5.241144e-001 -1.321973e-005 6.471473e-006 -5.914267e-001 5.262425e-001
314820000 6.045179e-007 2.378988e-006 -5.762184e-001 5.415855e-001 -1.743990e-005 -1.838782e-007 -5.785158e-001 5.437640e-001
315105000 -3.753014e-006 4.460999e-006 -5.629080e-001 5.589673e-001 1.324292e-005 -1.010084e-005 -5.651249e-001 5.611932e-001
315390000 -1.220627e-005 3.559081e-007 -5.490271e-001 5.761314e-001 -3.671552e-006 1.924941e-006 -5.513521e-001 5.784690e-001
315675000 -4.732923e-006 1.861355e-006 -5.347807e-001 5.932023e-001 1.423821e-005 -1.323422e-005 -5.370019e-001 5.956532e-001
315960000 -6.976207e-006 -1.888364e-005 -5.199203e-001 6.101212e-001 9.174848e-006 -2.137769e-005 -5.220782e-001 6.125695e-001
316245000 6.647346e-006 -9.332051e-006 -5.046766e-001 6.267906e-001 1.730784e-005 -1.617455e-006 -5.066790e-001 6.294162e-001
316530000 1.782067e-006 1.536770e-006 -4.887769e-001 6.434547e-001 6.427235e-007 -1.136626e-005 -4.907749e-001 6.459558e-001
316815000 -8.927119e-006 -7.631246e-006 -4.723873e-001 6.597300e-001 1.089390e-005 3.297336e-006 -4.742875e-001 6.624296e-001
317100000 -1.273560e-005 -6.740027e-006 -4.553614e-001 6.759337e-001 9.238448e-006 -4.616590e-006 -4.572138e-001 6.786866e-001
317385000 9.651363e-007 -1.341323e-005 -4.377227e-001 6.918568e-001 -6.074915e-006 -4.998978e-007 -4.395574e-001 6.946864e-001
317670000 -1.954438e-006 -1.620304e-005 -4.196027e-001 7.074975e-001 7.408178e-006 1.714659e-006 -4.212974e-001 7.104563e-001
317955000 2.712356e-006 6.553063e-006 -4.007192e-001 7.229974e-001 7.341319e-006 4.859786e-006 -4.024540e-001 7.258937e-001
318240000 -3.000904e-006 -2.027359e-005 -3.813579e-001 7.381388e-001 -7.994381e-006 7.157370e-006 -3.829480e-001 7.410958e-001
318525000 7.415544e-006 -3.979632e-006 -3.612729e-001 7.529165e-001 -1.183020e-005 -8.157993e-006 -3.627748e-001 7.559268e-001
318810000 2.590593e-005 -3.348691e-006 -3.406246e-001 7.673792e-001 5.433849e-006 4.348518e-006 -3.419725e-001 7.705517e-001
319095000 1.027212e-006 -9.280316e-006 -3.191480e-001 7.815238e-001 -1.537105e-005 1.889299e-005 -3.204741e-001 7.847294e-001
319380000 7.158864e-006 4.855524e-006 -2.971581e-001 7.952120e-001 4.527466e-006 -3.280414e-006 -2.982822e-001 7.984653e-001
319665000 1.103502e-007 8.849247e-006 -2.743390e-001 8.084858e-001 -1.144443e-005 -3.236139e-006 -2.754627e-001 8.117638e-001
319950000 -1.400187e-005 1.320193e-005 -2.508173e-001 8.212597e-001 -1.343314e-005 -7.774742e-006 -2.518262e-001 8.246958e-001
320235000 -3.692586e-006 1.178434e-005 -2.266799e-001 8.335480e-001 -1.898973e-005 -3.898594e-006 -2.276589e-001 8.369787e-001
320520000 1.666526e-006 -9.583705e-006 -2.017655e-001 8.453392e-001 -1.293660e-005 -3.320159e-006 -2.026723e-001 8.487890e-001
320805000 -9.675373e-006 -1.152514e-006 -1.762181e-001 8.564466e-001 4.687605e-006 -9.186587e-006 -1.769777e-001 8.599629e-001
321090000 2.914220e-006 -6.710021e-006 -1.498385e-001 8.669522e-001 6.012879e-006 -2.255435e-005 -1.505001e-001 8.705437e-001
321375000 -3.851407e-006 1.037832e-005 -1.227833e-001 8.768594e-001 6.620797e-006 3.022619e-007 -1.232969e-001 8.804534e-001
321660000 -7.924364e-006 -1.162286e-005 -9.500030e-002 8.858665e-001 1.517117e-005 -5.825101e-006 -9.543537e-002 8.895061e-001
321945000 -6.523614e-006 -7.513106e-006 -6.647777e-002 8.941339e-001 -8.117406e-006 3.238441e-006 -6.681015e-002 8.978343e-001
322230000 -6.986986e-006 -1.161932e-005 -3.730488e-002 9.016052e-001 -1.584158e-005 3.678399e-006 -3.752315e-002 9.053017e-001
322515000 -5.635309e-006 -5.703749e-006 -7.380367e-003 9.081578e-001 9.293541e-007 -2.004329e-008 -7.462420e-003 9.119368e-001
322800000 1.310614e-005 -3.613761e-006 2.317408e-002 9.136622e-001 3.277299e-007 6.147986e-006 2.317774e-002 9.175041e-001
323085000 4.974094e-006 -5.163754e-006 5.445568e-002 9.182758e-001 -1.446843e-005 1.996766e-006 5.458339e-002 9.220599e-001
323370000 6.477065e-006 -1.147196e-005 8.629627e-002 9.217148e-001 6.686333e-006 -5.563463e-006 8.662042e-002 9.256052e-001
323655000 1.531905e-005 -1.180026e-005 1.185584e-001 9.240935e-001 -1.677395e-005 -1.160205e-005 1.190776e-001 9.278914e-001
323940000 -9.957697e-007 -1.533995e-005 1.516167e-001 9.251111e-001 -1.162141e-005 -8.166201e-006 1.522436e-001 9.290698e-001
324225000 8.002033e-006 -1.010675e-005 1.850850e-001 9.250518e-001 -5.566689e-006 -5.131083e-008 1.858115e-001 9.288533e-001
324510000 7.790657e-006 1.784190e-005 2.190957e-001 9.234602e-001 -1.004296e-005 -1.158610e-005 2.199482e-001 9.274274e-001
324795000 6.424223e-006 1.760980e-006 2.533894e-001 9.206868e-001 7.399263e-007 -5.426586e-006 2.544623e-001 9.244555e-001
325080000 2.721954e-007 1.460322e-005 2.880703e-001 9.162273e-001 -1.082522e-005 -7.525719e-006 2.892092e-001 9.201731e-001
325365000 -4.873970e-006 1.713432e-005 3.230080e-001 9.104921e-001 -1.348044e-005 8.240127e-006 3.243521e-001 9.143255e-001
325650000 9.329614e-007 1.089084e-005 3.580668e-001 9.030109e-001 -4.196403e-007 -4.991999e-006 3.595426e-001 9.069074e-001
325935000 -8.779166e-006 4.192902e-006 3.932913e-001 8.941002e-001 2.533376e-008 -2.941948e-006 3.949189e-001 8.978981e-001
326220000 1.171310e-005 -8.328306e-006 4.284567e-001 8.835220e-001 -4.021234e-006 2.950286e-006 4.302961e-001 8.872144e-001
326505000 -8.534104e-006 4.340895e-006 4.634955e-001 8.711221e-001 2.151159e-006 -1.220824e-005 4.655789e-001 8.748502e-001
326790000 -1.042403e-005 2.649324e-006 4.985713e-001 8.572090e-001 -4.542429e-006 1.571786e-005 5.006027e-001 8.608600e-001
327075000 -2.910741e-006 7.509763e-006 5.331592e-001 8.414444e-001 8.279473e-006 9.227287e-006 5.353259e-001 8.449871e-001
327360000 -1.718780e-005 1.020908e-005 5.673969e-001 8.239877e-001 -5.668292e-006 1.229877e-005 5.697757e-001 8.274534e-001
327645000 7.287947e-006 -3.841863e-006 6.010441e-001 8.047900e-001 -9.898327e-006 4.046901e-006 6.036485e-001 8.082008e-001
327930000 5.181533e-007 2.543588e-006 6.341181e-001 7.838268e-001 6.476122e-006 -5.356746e-008 6.368208e-001 7.871491e-001
328215000 1.424980e-007 1.095199e-005 6.663907e-001 7.611810e-001 3.660424e-006 -1.285260e-005 6.692157e-001 7.644100e-001
328500000 -6.448161e-006 -2.409798e-006 6.977474e-001 7.368802e-001 1.273451e-006 -1.128247e-005 7.007167e-001 7.400383e-001
328785000 -3.094161e-006 -4.152898e-006 7.282001e-001 7.108803e-001 -3.789823e-006 -4.015283e-006 7.312556e-001 7.140023e-001
329070000 -1.165753e-005 -6.097119e-006 7.574738e-001 6.833709e-001 -1.288065e-005 -2.916791e-006 7.606612e-001 6.862732e-001
329355000 -1.796216e-005 -2.758464e-006 7.856035e-001 6.542079e-001 2.826244e-006 -1.049837e-005 7.889141e-001 6.570183e-001
329640000 -1.151369e-005 8.960680e-006 8.122082e-001 6.237173e-001 -4.973224e-006 -1.553802e-005 8.157672e-001 6.264632e-001
329925000 -5.705700e-006 4.290971e-006 8.374884e-001 5.917317e-001 -9.213361e-006 1.343455e-005 8.410498e-001 5.943228e-001
330210000 -3.210490e-006 1.547526e-005 8.611867e-001 5.585817e-001 8.996579e-007 -7.930113e-006 8.649474e-001 5.609095e-001
330495000 1.932203e-006 1.411616e-005 8.832790e-001 5.242069e-001 -3.254430e-006 -5.974696e-006 8.871498e-001 5.264593e-001
330780000 -7.965193e-006 1.473036e-005 9.036660e-001 4.887132e-001 -9.423862e-006 -2.760084e-006 9.075716e-001 4.908891e-001
331065000 -3.553454e-006 9.192562e-008 9.223369e-001 4.524054e-001 5.890143e-007 1.346253e-005 9.263770e-001 4.542901e-001
331350000 -8.040223e-006 -5.060175e-006 9.390789e-001 4.150565e-001 5.120592e-006 4.740328e-006 9.431210e-001 4.169290e-001
331635000 1.587351e-007 6.965768e-006 9.539014e-001 3.771485e-001 6.864333e-006 -3.752639e-006 9.581072e-001 3.787776e-001
331920000 5.096321e-006 -5.611882e-006 9.668428e-001 3.386020e-001 -7.419339e-006 -7.671865e-006 9.710658e-001 3.400669e-001
332205000 -2.771950e-006 5.901955e-007 9.779766e-001 2.996902e-001 -8.163999e-006 2.725998e-006 9.821391e-001 3.009065e-001
332490000 -3.205292e-006 5.997405e-006 9.869109e-001 2.604202e-001 -1.847511e-005 -3.501726e-006 9.913030e-001 2.615641e-001
332775000 -9.407504e-006 -2.244265e-006 9.941798e-001 2.208475e-001 1.905643e-007 -1.329600e-005 9.984612e-001 2.218949e-001
333060000 8.246674e-006 -5.791524e-006 9.992737e-001 1.814018e-001 -2.406026e-005 -2.696684e-006 1.003724e+000 1.822311e-001
333345000 -2.514077e-006 7.869854e-006 1.002623e+000 1.419133e-001 -1.863403e-005 -7.775820e-006 1.006896e+000 1.425390e-001
333630000 6.045931e-006 -5.370508e-006 1.003993e+000 1.026629e-001 -1.267497e-005 4.600191e-006 1.008463e+000 1.032222e-001
333915000 1.927536e-005 -3.902833e-006 1.003579e+000 6.381984e-002 -1.507270e-005 -2.334430e-006 1.007990e+000 6.402376e-002
334200000 4.245685e-006 1.844186e-005 1.001314e+000 2.525509e-002 -1.002852e-005 -1.453647e-006 1.005786e+000 2.539903e-002
334485000 -3.017892e-006 5.697210e-006 9.974546e-001 -1.281322e-002 -4.879374e-006 1.140827e-005 1.001799e+000 -1.279491e-002
334770000 9.862243e-006 2.746178e-006 9.917827e-001 -5.019182e-002 -6.200410e-006 -1.508825e-006 9.962294e-001 -5.038446e-002
335055000 -1.251903e-006 -6.075726e-007 9.846126e-001 -8.683874e-002 -2.607293e-006 9.633340e-006 9.889928e-001 -8.723952e-002
335340000 -2.987954e-006 -6.633323e-006 9.758990e-001 -1.227798e-001 -1.751031e-007 6.693051e-006 9.801521e-001 -1.232638e-001
335625000 -4.348729e-006 8.743830e-006 9.656521e-001 -1.577843e-001 -1.736761e-005 1.567005e-005 9.698889e-001 -1.584587e-001
335910000 -1.041640e-005 1.157853e-005 9.541163e-001 -1.918978e-001 -4.774838e-006 -2.315709e-006 9.583364e-001 -1.926908e-001
336195000 -8.061914e-006 1.261756e-005 9.413629e-001 -2.250404e-001 4.515247e-006 -1.707790e-005 9.454873e-001 -2.259858e-001
336480000 -1.586318e-005 2.932640e-006 9.273837e-001 -2.572920e-001 1.010990e-005 -9.829657e-007 9.314736e-001 -2.583676e-001
336765000 -3.431288e-006 7.345592e-006 9.123420e-001 -2.883495e-001 9.633915e-006 -5.518106e-006 9.163006e-001 -2.896331e-001
337050000 -1.372336e-005 1.629590e-005 8.962851e-001 -3.185111e-001 -1.187069e-006 6.295953e-006 9.001287e-001 -3.198145e-001
337335000 -2.283593e-006 1.043228e-005 8.792778e-001 -3.474414e-001 6.874081e-006 -3.368800e-006 8.831128e-001 -3.490170e-001
337620000 -5.250359e-006 -7.311699e-007 8.614116e-001 -3.753922e-001 -7.658083e-006 8.101076e-006 8.651987e-001 -3.770239e-001
337905000 4.959132e-007 -4.039558e-006 8.427126e-001 -4.022248e-001 1.343754e-005 -2.295887e-006 8.464574e-001 -4.039052e-001
338190000 9.289955e-006 -4.286909e-006 8.234836e-001 -4.278332e-001 4.119005e-006 5.951420e-006 8.270056e-001 -4.297405e-001
338475000 7.218362e-006 1.682811e-006 8.035086e-001 -4.525424e-001 -3.813603e-006 -1.945839e-006 8.069686e-001 -4.544266e-001
338760000 5.101935e-006 -9.830167e-006 7.830073e-001 -4.760482e-001 -2.951260e-006 -1.446530e-006 7.863529e-001 -4.780716e-001
339045000 9.730245e-006 -6.792606e-006 7.620118e-001 -4.984428e-001 -2.269275e-006 3.991333e-006 7.652608e-001 -5.005703e-001
339330000 2.930781e-006 9.955397e-007 7.405761e-001 -5.197599e-001 2.063436e-006 1.531144e-005 7.437911e-001 -5.220340e-001
339615000 3.305332e-006 -4.392723e-006 7.188041e-001 -5.400853e-001 -7.965568e-006 4.444169e-006 7.218921e-001 -5.424305e-001
339900000 -4.044108e-008 1.494006e-005 6.967120e-001 -5.593772e-001 -2.534468e-006 5.359288e-006 6.997364e-001 -5.617750e-001
340185000 7.568024e-006 -6.651116e-006 6.743495e-001 -5.776475e-001 6.861189e-006 1.221831e-005 6.772343e-001 -5.800399e-001
340470000 -2.511416e-008 5.929329e-006 6.517863e-001 -5.948144e-001 3.309302e-007 5.225076e-006 6.545255e-001 -5.974056e-001
340755000 -6.085999e-006 7.276292e-006 6.289940e-001 -6.112395e-001 1.063500e-006 -9.005093e-006 6.316820e-001 -6.138530e-001
341040000 1.010391e-005 -2.402984e-005 6.060372e-001 -6.265078e-001 -4.550962e-006 7.664136e-006 6.087040e-001 -6.291844e-001
341325000 -7.154357e-006 -7.656287e-006 5.830778e-001 -6.409722e-001 4.577460e-006 9.971983e-008 5.855703e-001 -6.437643e-001
341610000 5.802272e-006 -2.018543e-006 5.598984e-001 -6.546212e-001 -4.980002e-006 -2.000234e-006 5.623232e-001 -6.574586e-001
341895000 -8.495652e-007 4.403986e-006 5.368562e-001 -6.673833e-001 8.424800e-006 6.474475e-007 5.391402e-001 -6.701401e-001
342180000 1.543068e-006 2.256342e-006 5.136775e-001 -6.792212e-001 -1.060329e-005 2.116800e-006 5.158474e-001 -6.820233e-001
342465000 -1.740218e-006 -8.320446e-006 4.905704e-001 -6.902882e-001 -6.752989e-006 2.145561e-006 4.925948e-001 -6.932136e-001
342750000 3.937895e-006 3.249239e-006 4.674755e-001 -7.006309e-001 9.366903e-006 -4.060601e-006 4.694925e-001 -7.035974e-001
343035000 1.413348e-005 8.600098e-006 4.444013e-001 -7.101439e-001 2.176443e-005 2.253041e-005 4.463909e-001 -7.132317e-001
343320000 -5.071171e-006 5.197361e-006 4.214551e-001 -7.190134e-001 8.850372e-006 3.237276e-006 4.231979e-001 -7.220749e-001
343605000 4.518590e-006 -6.844512e-007 3.985553e-001 -7.272118e-001 7.994479e-006 2.319576e-006 4.001734e-001 -7.302085e-001
343890000 -5.704464e-006 1.275090e-005 3.757668e-001 -7.347091e-001 5.465580e-006 2.137446e-006 3.773295e-001 -7.377582e-001
