!Agilent Technologies,N5230C,SG49000117,A.08.50.07
!Agilent N5230C: A.08.50.07
!Date: Sunday, March 17, 2024 08:45:19
!Correction: S11(Off) 
!S21(Off) 
!S12(Off) 
!S22(Full 1 Port(2)) 
!S2P File: Measurements: S11, S21, S12, S22:
# Hz S  RI   R 50
300000000 -8.090802e-005 -3.343621e-005 -7.110119e-001 -4.970286e-001 4.138596e-005 5.200730e-005 8.481318e-001 -5.500821e-001
300285000 -5.456969e-005 7.541997e-007 -7.207829e-001 -4.729338e-001 -3.298200e-005 5.364484e-005 8.502126e-001 -5.506696e-001
300570000 8.275921e-006 -4.964782e-005 -7.307261e-001 -4.492054e-001 7.559809e-005 -9.915561e-005 8.487529e-001 -5.520611e-001
300855000 2.636844e-005 -8.485883e-005 -7.390873e-001 -4.256182e-001 -7.213192e-005 -4.207512e-005 8.498229e-001 -5.519074e-001
301140000 9.684441e-006 1.108022e-004 -7.463945e-001 -4.015949e-001 1.312680e-005 -4.265796e-005 8.486668e-001 -5.520914e-001
301425000 1.311883e-004 6.147933e-005 -7.534942e-001 -3.778159e-001 -2.224861e-005 -1.019606e-004 8.480695e-001 -5.532866e-001
301710000 7.704935e-005 -6.326645e-005 -7.608412e-001 -3.541714e-001 4.719396e-005 -1.128807e-004 8.476542e-001 -5.554179e-001
301995000 5.231810e-005 7.483883e-005 -7.658577e-001 -3.304030e-001 6.185950e-005 -1.997475e-005 8.465741e-001 -5.546963e-001
302280000 -4.759830e-005 7.405314e-005 -7.711325e-001 -3.068568e-001 2.324704e-005 4.172755e-005 8.486946e-001 -5.552800e-001
302565000 9.268029e-006 3.290262e-005 -7.753437e-001 -2.842402e-001 -6.499512e-005 7.845387e-005 8.474061e-001 -5.560225e-001
302850000 -2.467965e-006 8.709505e-005 -7.789344e-001 -2.613306e-001 7.595580e-005 2.740992e-005 8.475184e-001 -5.547669e-001
303135000 -1.030418e-004 5.536279e-005 -7.828696e-001 -2.379950e-001 -6.671190e-005 -2.012180e-005 8.461759e-001 -5.562468e-001
303420000 -1.241677e-005 8.160382e-005 -7.854097e-001 -2.156421e-001 -1.975918e-005 3.709578e-005 8.457101e-001 -5.572144e-001
303705000 5.382898e-007 -5.564274e-005 -7.880349e-001 -1.930005e-001 1.994954e-005 -1.196740e-004 8.467501e-001 -5.585423e-001
303990000 -1.495081e-004 -2.676901e-007 -7.894006e-001 -1.701338e-001 -3.846403e-006 -3.394595e-005 8.449403e-001 -5.562298e-001
304275000 -4.889465e-005 -1.420666e-004 -7.901693e-001 -1.485498e-001 -1.013177e-004 1.035556e-004 8.447977e-001 -5.582451e-001
304560000 -7.436219e-005 5.443509e-006 -7.910675e-001 -1.265757e-001 -1.447656e-004 8.637476e-005 8.449736e-001 -5.584853e-001
304845000 -1.487600e-004 -1.817368e-005 -7.914350e-001 -1.046755e-001 -1.123917e-006 7.155169e-005 8.452884e-001 -5.577485e-001
305130000 -4.841851e-005 -1.496588e-005 -7.906820e-001 -8.259244e-002 -1.080139e-004 1.610656e-005 8.433349e-001 -5.581387e-001
305415000 8.782233e-005 -6.985345e-005 -7.903103e-001 -6.137838e-002 -6.960095e-005 -2.218622e-005 8.447662e-001 -5.592082e-001
305700000 -1.525703e-005 -5.936491e-006 -7.897540e-001 -3.997639e-002 1.876295e-005 2.072081e-005 8.457933e-001 -5.605019e-001
305985000 1.245367e-004 -2.310510e-005 -7.878238e-001 -1.933094e-002 5.099332e-005 -7.138901e-005 8.442593e-001 -5.612762e-001
306270000 1.399609e-004 8.753242e-006 -7.861241e-001 1.561817e-003 1.745088e-005 -8.979740e-005 8.459994e-001 -5.604858e-001
306555000 -4.723473e-005 -4.969825e-005 -7.833720e-001 2.276293e-002 -2.630453e-005 -8.832001e-005 8.436384e-001 -5.633445e-001
306840000 2.934277e-005 8.067615e-005 -7.805126e-001 4.321879e-002 5.252036e-005 2.368583e-005 8.436015e-001 -5.602570e-001
307125000 -2.797956e-005 5.306343e-005 -7.773466e-001 6.352045e-002 6.575422e-005 -2.238817e-005 8.424169e-001 -5.623088e-001
307410000 -1.142100e-006 -3.589679e-005 -7.740124e-001 8.387097e-002 -4.735430e-005 2.472196e-005 8.425239e-001 -5.621743e-001
307695000 -7.693712e-005 1.038614e-005 -7.702109e-001 1.045743e-001 4.634228e-005 6.718071e-005 8.427070e-001 -5.637287e-001
307980000 2.044094e-005 -9.471706e-006 -7.657238e-001 1.243076e-001 -1.781564e-005 -4.859224e-006 8.413150e-001 -5.632520e-001
308265000 -5.985562e-005 -6.098029e-005 -7.606047e-001 1.438867e-001 9.622094e-005 5.391788e-005 8.421078e-001 -5.634356e-001
308550000 -2.056613e-006 -4.320313e-006 -7.561930e-001 1.635679e-001 4.101766e-006 -1.769542e-005 8.387870e-001 -5.624868e-001
308835000 -8.874460e-005 -1.032218e-005 -7.509498e-001 1.834177e-001 -1.164417e-004 1.452103e-004 8.400244e-001 -5.653982e-001
309120000 -7.106435e-005 -8.482618e-005 -7.448507e-001 2.034272e-001 -3.670566e-005 5.261560e-005 8.418432e-001 -5.658031e-001
309405000 1.386833e-005 -7.130015e-005 -7.388666e-001 2.225411e-001 -3.544271e-005 -8.450918e-005 8.418385e-001 -5.660352e-001
309690000 8.030224e-005 8.526637e-005 -7.325161e-001 2.416636e-001 -1.005569e-005 1.662593e-005 8.405043e-001 -5.664444e-001
309975000 6.933876e-005 1.975325e-005 -7.257394e-001 2.604344e-001 1.402093e-005 -3.247417e-006 8.396230e-001 -5.666022e-001
310260000 1.059824e-004 9.010144e-005 -7.186088e-001 2.798119e-001 2.549121e-005 -4.561435e-005 8.412810e-001 -5.673569e-001
310545000 -9.250290e-006 7.553339e-005 -7.108130e-001 2.984291e-001 -1.292167e-005 8.157312e-006 8.398447e-001 -5.676291e-001
310830000 7.832253e-005 2.552597e-005 -7.033541e-001 3.175142e-001 9.466787e-006 -9.954160e-005 8.390357e-001 -5.710056e-001
311115000 2.620155e-005 5.909209e-005 -6.948665e-001 3.359154e-001 -3.707371e-006 4.339552e-005 8.377656e-001 -5.678451e-001
311400000 6.051560e-005 4.212533e-006 -6.862841e-001 3.543597e-001 6.884448e-005 5.001388e-005 8.377787e-001 -5.688683e-001
311685000 3.501238e-005 1.175632e-005 -6.771041e-001 3.728010e-001 5.272767e-005 -6.134962e-005 8.383594e-001 -5.689451e-001
311970000 -6.153526e-005 1.379265e-006 -6.678473e-001 3.910837e-001 3.594791e-005 -5.264112e-005 8.378440e-001 -5.702664e-001
312255000 2.108757e-005 -6.194121e-005 -6.579544e-001 4.095355e-001 1.382315e-005 -7.158686e-006 8.364807e-001 -5.695958e-001
312540000 -1.674159e-005 6.450107e-005 -6.482456e-001 4.274043e-001 4.671764e-006 -9.663176e-005 8.378461e-001 -5.707629e-001
312825000 -1.896457e-005 4.078295e-005 -6.376270e-001 4.450074e-001 3.102807e-005 -6.227662e-006 8.359902e-001 -5.711699e-001
313110000 -1.301216e-004 -1.567246e-005 -6.269112e-001 4.637375e-001 8.222865e-005 1.984939e-005 8.361394e-001 -5.723089e-001
313395000 4.468204e-006 2.572662e-005 -6.150508e-001 4.809942e-001 -4.981439e-005 4.340752e-005 8.365684e-001 -5.719253e-001
313680000 -6.417098e-005 -7.287470e-005 -6.034731e-001 4.987265e-001 -6.533142e-005 7.119311e-005 8.364641e-001 -5.723506e-001
313965000 4.600624e-005 -2.809567e-005 -5.911685e-001 5.166271e-001 3.106625e-005 3.667757e-005 8.367373e-001 -5.735210e-001
314250000 -3.960936e-005 -3.955063e-005 -5.782766e-001 5.337967e-001 1.099968e-005 3.135604e-005 8.343289e-001 -5.730441e-001
314535000 4.136223e-005 -6.367586e-005 -5.650721e-001 5.508149e-001 -4.447854e-005 -1.838744e-005 8.350927e-001 -5.733705e-001
314820000 2.865051e-005 -1.440639e-005 -5.518010e-001 5.674892e-001 -5.885872e-005 6.271882e-005 8.342911e-001 -5.750765e-001
315105000 4.496718e-005 9.624090e-005 -5.373908e-001 5.851274e-001 -9.702792e-006 -2.612886e-005 8.326708e-001 -5.727608e-001
315390000 -2.003085e-006 1.207981e-005 -5.228485e-001 6.018285e-001 9.799529e-006 -9.554881e-005 8.349878e-001 -5.741585e-001
315675000 2.464472e-005 -1.554336e-005 -5.076547e-001 6.187373e-001 -4.724976e-005 -8.011361e-005 8.333310e-001 -5.731418e-001
315960000 -7.173763e-005 -4.972853e-005 -4.923225e-001 6.352746e-001 -1.035789e-004 -1.143745e-005 8.338965e-001 -5.749715e-001
316245000 -1.155138e-004 -4.917412e-007 -4.759441e-001 6.513731e-001 -4.021417e-005 -8.263960e-005 8.328427e-001 -5.754467e-001
316530000 -6.553420e-005 -1.758083e-005 -4.590941e-001 6.676546e-001 -2.949710e-005 -6.649984e-005 8.325567e-001 -5.780841e-001
316815000 -2.812954e-005 4.586239e-005 -4.418015e-001 6.831996e-001 -6.574124e-006 -4.241973e-006 8.328546e-001 -5.780081e-001
317100000 -5.305541e-005 -1.380455e-005 -4.234347e-001 6.990737e-001 -1.030765e-004 3.001891e-006 8.326812e-001 -5.762360e-001
317385000 -7.957329e-005 5.074295e-005 -4.059813e-001 7.141536e-001 1.024279e-004 -2.612686e-005 8.343244e-001 -5.782542e-001
317670000 -5.479412e-005 -7.318518e-005 -3.861218e-001 7.299798e-001 1.605962e-005 -4.686265e-005 8.322951e-001 -5.783651e-001
317955000 -5.222551e-005 -1.819551e-005 -3.661356e-001 7.440578e-001 2.888205e-005 -4.361854e-005 8.324773e-001 -5.795707e-001
318240000 5.518545e-005 -6.615501e-005 -3.454645e-001 7.587351e-001 5.257640e-005 2.422526e-005 8.320413e-001 -5.803739e-001
318525000 -2.036444e-005 8.669354e-006 -3.251238e-001 7.727477e-001 1.329534e-004 -8.468582e-005 8.311477e-001 -5.803315e-001
318810000 1.167166e-005 2.203349e-005 -3.031468e-001 7.865934e-001 1.284388e-004 -2.361010e-005 8.302184e-001 -5.795582e-001
319095000 2.634778e-005 -8.269300e-005 -2.807831e-001 7.995518e-001 -1.059452e-005 3.722783e-005 8.291044e-001 -5.794490e-001
319380000 -1.502943e-005 3.155150e-005 -2.578536e-001 8.126121e-001 6.108762e-005 2.478990e-006 8.297768e-001 -5.817382e-001
319665000 -3.966942e-005 1.349767e-004 -2.342501e-001 8.251036e-001 -9.050083e-006 1.523624e-004 8.302580e-001 -5.809054e-001
319950000 -5.232710e-006 1.556549e-004 -2.091284e-001 8.369023e-001 -5.676972e-005 -1.547578e-004 8.285340e-001 -5.836825e-001
320235000 -2.385263e-005 -2.690323e-005 -1.843082e-001 8.476883e-001 -5.939337e-005 -3.635845e-005 8.287104e-001 -5.834498e-001
320520000 -5.487864e-005 8.533221e-005 -1.580578e-001 8.581436e-001 -6.890740e-006 -5.730112e-005 8.282844e-001 -5.832509e-001
320805000 -1.120769e-005 3.538599e-005 -1.314033e-001 8.685574e-001 9.204492e-005 -1.471269e-005 8.265700e-001 -5.818874e-001
321090000 -2.718418e-006 9.075659e-005 -1.043358e-001 8.781054e-001 2.901312e-005 -3.849001e-005 8.279436e-001 -5.828345e-001
321375000 -1.898894e-005 -4.504707e-005 -7.609580e-002 8.865818e-001 4.687532e-006 9.908666e-005 8.282310e-001 -5.833369e-001
321660000 -1.487095e-005 -1.142569e-004 -4.786386e-002 8.936652e-001 6.115464e-006 1.722657e-005 8.270391e-001 -5.842851e-001
321945000 -9.892700e-005 3.107773e-005 -1.818748e-002 9.006056e-001 1.049515e-004 8.075562e-005 8.257099e-001 -5.863222e-001
322230000 7.972499e-005 5.611901e-005 1.185328e-002 9.066172e-001 8.358345e-005 -2.575299e-005 8.263747e-001 -5.857999e-001
322515000 1.975295e-005 9.651326e-005 4.327710e-002 9.116760e-001 1.726849e-005 -7.861651e-005 8.250690e-001 -5.850668e-001
322800000 -1.908247e-005 1.110031e-005 7.459165e-002 9.154371e-001 6.693618e-005 -9.085209e-005 8.259467e-001 -5.870913e-001
323085000 -1.097357e-004 8.373598e-005 1.061145e-001 9.178059e-001 1.061171e-005 7.948318e-005 8.260776e-001 -5.870414e-001
323370000 4.994707e-006 -4.424103e-005 1.387182e-001 9.195226e-001 -2.073066e-005 8.964624e-005 8.257290e-001 -5.869728e-001
323655000 -9.421098e-005 2.726150e-005 1.714052e-001 9.202926e-001 -5.410776e-006 -3.883290e-005 8.246432e-001 -5.880631e-001
323940000 7.958025e-005 -2.201488e-005 2.053506e-001 9.186668e-001 -4.882666e-005 8.802919e-006 8.240178e-001 -5.886368e-001
324225000 2.967928e-005 -6.870243e-005 2.386069e-001 9.164788e-001 -2.193383e-005 -8.971874e-005 8.225212e-001 -5.886576e-001
324510000 5.626651e-005 3.444961e-005 2.735207e-001 9.128489e-001 -6.315624e-005 -2.115419e-005 8.231245e-001 -5.906121e-001
324795000 -2.472698e-005 -1.260529e-004 3.085535e-001 9.077294e-001 7.722202e-006 1.740691e-005 8.232313e-001 -5.891889e-001
325080000 4.453223e-005 -9.803860e-005 3.424976e-001 9.013178e-001 -2.857026e-005 -4.772592e-005 8.224975e-001 -5.899992e-001
325365000 9.884141e-006 8.850754e-005 3.776640e-001 8.926147e-001 1.910097e-005 -8.950314e-006 8.234199e-001 -5.910890e-001
325650000 8.690447e-005 2.627833e-005 4.129241e-001 8.828489e-001 1.328846e-005 8.630927e-005 8.223853e-001 -5.903891e-001
325935000 1.305204e-005 2.948718e-005 4.471380e-001 8.711763e-001 7.100109e-005 1.538165e-004 8.219221e-001 -5.912598e-001
326220000 -1.391852e-005 -2.655659e-005 4.825510e-001 8.578419e-001 -7.854987e-005 7.360226e-005 8.219628e-001 -5.919968e-001
326505000 -8.528774e-005 2.463622e-005 5.164548e-001 8.433493e-001 -5.907584e-005 4.823898e-005 8.212555e-001 -5.916717e-001
326790000 1.367737e-006 -8.913912e-006 5.513369e-001 8.268122e-001 -5.857052e-005 -9.389394e-005 8.199017e-001 -5.913655e-001
327075000 -1.033166e-004 -7.463356e-005 5.851921e-001 8.083473e-001 -4.078377e-005 -4.989234e-005 8.195071e-001 -5.934168e-001
327360000 -1.212850e-005 -6.712594e-005 6.178605e-001 7.878658e-001 -1.347573e-005 -5.586675e-005 8.209160e-001 -5.947882e-001
327645000 -1.515425e-004 -3.630298e-005 6.504707e-001 7.661505e-001 2.472184e-005 -1.132725e-004 8.200260e-001 -5.944896e-001
327930000 -4.727909e-005 -3.578431e-005 6.822662e-001 7.431289e-001 1.558572e-005 -1.071846e-004 8.196731e-001 -5.944922e-001
328215000 7.321528e-005 -1.293119e-005 7.132083e-001 7.176534e-001 6.598217e-005 6.022936e-005 8.199571e-001 -5.947258e-001
328500000 3.022560e-005 -1.185070e-004 7.430725e-001 6.908967e-001 1.358226e-005 4.638829e-006 8.180147e-001 -5.956178e-001
328785000 1.562025e-004 6.897461e-006 7.705486e-001 6.628765e-001 -8.423047e-005 3.831928e-005 8.188218e-001 -5.946133e-001
329070000 -1.147998e-005 -1.120626e-006 7.979526e-001 6.331217e-001 1.164357e-005 -9.205852e-006 8.189564e-001 -5.958596e-001
329355000 1.329121e-005 7.867109e-005 8.241311e-001 6.017987e-001 2.173030e-006 4.804551e-005 8.175870e-001 -5.973892e-001
329640000 -4.970857e-005 4.483306e-005 8.481379e-001 5.692115e-001 2.834224e-005 1.722292e-005 8.182176e-001 -5.974893e-001
329925000 -6.853510e-005 -2.063732e-005 8.712579e-001 5.360305e-001 6.358996e-005 6.946296e-005 8.172596e-001 -5.968199e-001
330210000 -3.850674e-005 6.129877e-005 8.916156e-001 5.003471e-001 -9.721432e-005 4.199723e-006 8.161756e-001 -5.975583e-001
330495000 5.815804e-005 -1.236579e-005 9.118605e-001 4.647726e-001 8.100124e-006 -3.385077e-005 8.163815e-001 -5.975128e-001
330780000 -4.819799e-005 4.445237e-005 9.290465e-001 4.280066e-001 1.929709e-005 -1.632260e-005 8.161696e-001 -5.992740e-001
331065000 2.924763e-005 -6.093545e-005 9.449023e-001 3.908210e-001 -3.781616e-005 -1.449949e-004 8.152521e-001 -5.979312e-001
331350000 -5.998605e-006 -1.100760e-004 9.582844e-001 3.521590e-001 -4.803597e-007 1.177767e-004 8.153756e-001 -5.988743e-001
331635000 -5.076745e-005 -7.012290e-005 9.702720e-001 3.137566e-001 -1.065719e-004 -4.467689e-005 8.155903e-001 -6.000801e-001
331920000 3.791980e-005 -4.657203e-005 9.806169e-001 2.743286e-001 1.483894e-004 8.941331e-005 8.148874e-001 -6.004969e-001
332205000 3.146593e-005 -6.313934e-005 9.877003e-001 2.352363e-001 -2.998089e-006 6.345551e-005 8.148569e-001 -6.007010e-001
332490000 1.175184e-004 -1.763550e-005 9.946786e-001 1.964630e-001 -5.401302e-005 6.965132e-005 8.151755e-001 -6.007316e-001
332775000 3.047862e-005 -2.639805e-005 9.986285e-001 1.563525e-001 7.921771e-005 2.255102e-005 8.142324e-001 -6.015777e-001
333060000 3.584820e-005 -6.336228e-005 1.000923e+000 1.173156e-001 6.020898e-005 2.238129e-005 8.145160e-001 -6.026518e-001
333345000 -6.050670e-005 1.833663e-005 1.001372e+000 7.798926e-002 -8.808057e-005 9.553406e-005 8.147555e-001 -6.029478e-001
333630000 4.449325e-005 -7.089353e-005 9.997731e-001 3.964693e-002 -9.088607e-005 6.676224e-005 8.121277e-001 -6.049230e-001
333915000 -1.282777e-004 -2.209044e-005 9.966252e-001 1.483731e-003 -1.488431e-005 1.463383e-005 8.130432e-001 -6.038763e-001
334200000 4.816917e-005 3.318646e-006 9.915442e-001 -3.624454e-002 4.272843e-005 1.735475e-005 8.126572e-001 -6.042169e-001
334485000 2.946485e-006 -1.434741e-005 9.851751e-001 -7.365276e-002 -4.983144e-005 -3.205233e-005 8.130909e-001 -6.030943e-001
334770000 -8.236612e-005 -3.772533e-005 9.774117e-001 -1.099368e-001 2.878716e-005 9.926523e-005 8.126757e-001 -6.054868e-001
335055000 9.581747e-005 -6.253630e-005 9.672831e-001 -1.455360e-001 4.212042e-005 3.740144e-005 8.120841e-001 -6.053023e-001
335340000 -1.218513e-004 -1.364382e-004 9.562145e-001 -1.798825e-001 1.004926e-004 4.432911e-005 8.116130e-001 -6.057240e-001
335625000 -9.164262e-006 -4.100298e-005 9.444522e-001 -2.125187e-001 4.896318e-005 -9.554673e-005 8.101200e-001 -6.067148e-001
335910000 2.504640e-005 8.829407e-005 9.305041e-001 -2.460274e-001 5.135753e-005 2.478023e-005 8.110335e-001 -6.069520e-001
336195000 3.567709e-005 -3.517029e-005 9.151798e-001 -2.771819e-001 -2.715149e-005 5.952933e-005 8.104111e-001 -6.062671e-001
336480000 -3.522882e-005 -1.138890e-005 9.004688e-001 -3.082617e-001 -6.746077e-005 9.566842e-005 8.115022e-001 -6.068509e-001
336765000 8.522347e-005 -2.264132e-005 8.834125e-001 -3.374904e-001 6.348738e-005 -4.169299e-005 8.104347e-001 -6.080777e-001
337050000 -2.261244e-005 7.841531e-006 8.659587e-001 -3.659160e-001 -3.060770e-006 -3.357739e-005 8.105088e-001 -6.081484e-001
337335000 -4.844232e-005 7.548610e-005 8.475820e-001 -3.932525e-001 1.684559e-004 -2.080641e-005 8.078344e-001 -6.099973e-001
337620000 3.196473e-005 1.040712e-004 8.282414e-001 -4.188088e-001 6.753811e-005 -6.844041e-005 8.081479e-001 -6.101941e-001
337905000 3.414436e-005 1.176309e-006 8.089080e-001 -4.446165e-001 7.554731e-005 2.761064e-005 8.085527e-001 -6.076011e-001
338190000 6.386573e-006 7.260259e-005 7.880178e-001 -4.686934e-001 3.866023e-005 -1.604332e-004 8.084165e-001 -6.101426e-001
338475000 -5.371814e-005 1.572337e-004 7.677479e-001 -4.905393e-001 7.660883e-005 -1.105077e-004 8.084819e-001 -6.092597e-001
338760000 1.241360e-005 -2.100195e-005 7.460624e-001 -5.128132e-001 2.578492e-005 -7.170098e-006 8.083912e-001 -6.106780e-001
339045000 1.909415e-005 8.175159e-005 7.244537e-001 -5.335435e-001 9.662839e-005 -9.712316e-005 8.077850e-001 -6.108955e-001
339330000 3.546078e-005 1.437420e-005 7.021402e-001 -5.533835e-001 -6.320397e-005 -5.009210e-006 8.090523e-001 -6.105331e-001
339615000 -9.896805e-005 5.282473e-005 6.797162e-001 -5.719170e-001 -9.871002e-006 6.838381e-005 8.075292e-001 -6.115254e-001
339900000 3.075938e-005 -4.110846e-006 6.568679e-001 -5.902559e-001 -1.538862e-005 2.091799e-005 8.056866e-001 -6.133714e-001
340185000 8.071049e-005 -5.404538e-005 6.344613e-001 -6.063254e-001 2.831969e-005 -1.099160e-004 8.063583e-001 -6.125132e-001
340470000 -7.923988e-005 -6.327682e-006 6.117453e-001 -6.217483e-001 -6.422681e-005 1.668765e-004 8.068821e-001 -6.131955e-001
340755000 2.767755e-005 -1.271989e-005 5.883749e-001 -6.367850e-001 -2.873717e-005 5.597543e-005 8.063559e-001 -6.150527e-001
341040000 -1.748248e-004 -1.378344e-005 5.643969e-001 -6.501993e-001 3.061576e-005 -5.300923e-005 8.042279e-001 -6.139837e-001
341325000 9.394173e-005 -7.012383e-005 5.422058e-001 -6.633404e-001 -5.656831e-005 -7.398280e-005 8.063030e-001 -6.137845e-001
341610000 7.232450e-005 -4.264428e-005 5.186161e-001 -6.755034e-001 -9.156315e-005 -9.928540e-005 8.076794e-001 -6.144987e-001
341895000 4.255396e-005 -1.023306e-005 4.953806e-001 -6.873128e-001 -4.073794e-007 -6.882688e-005 8.035535e-001 -6.149375e-001
342180000 9.483023e-005 -9.595126e-005 4.721276e-001 -6.974100e-001 8.166854e-005 -1.678094e-004 8.039377e-001 -6.158398e-001
342465000 -1.585130e-005 -1.666159e-005 4.489677e-001 -7.073168e-001 4.814184e-005 -7.976620e-005 8.030493e-001 -6.170818e-001
342750000 -5.148794e-005 6.382354e-005 4.258280e-001 -7.155060e-001 -2.854109e-005 -5.029544e-005 8.056414e-001 -6.176376e-001
343035000 6.215775e-005 7.251644e-005 4.033062e-001 -7.241691e-001 -9.834503e-005 4.832008e-005 8.025333e-001 -6.168979e-001
343320000 -4.371227e-005 -1.201389e-005 3.799483e-001 -7.320942e-001 3.172037e-005 -1.635130e-005 8.019928e-001 -6.166475e-001
343605000 -4.504409e-006 6.065015e-005 3.572201e-001 -7.392512e-001 1.928305e-005 -2.243043e-005 8.018409e-001 -6.184984e-001
343890000 4.665328e-005 1.778187e-005 3.344423e-001 -7.454115e-001 2.523146e-005 -4.619526e-005 8.030812e-001 -6.186917e-001
