!Agilent Technologies,N5230C,SG49000117,A.08.50.07
!Agilent N5230C: A.08.50.07
!Date: Sunday, March 17, 2024 06:44:14
!Correction: S11(Off) 
!S21(Off) 
!S12(Off) 
!S22(Off) 
!S2P File: Measurements: S11, S21, S12, S22:
# Hz S  RI   R 50
300000000 -3.778034e-006 1.451612e-005 -7.113534e-001 -4.977481e-001 7.376509e-006 1.111545e-005 -7.138920e-001 -4.996055e-001
300285000 -4.066684e-006 5.456071e-006 -7.213858e-001 -4.737892e-001 7.473387e-006 2.169422e-006 -7.240316e-001 -4.755773e-001
300570000 1.041018e-005 2.972277e-006 -7.306710e-001 -4.498520e-001 3.143105e-006 -1.293905e-005 -7.333594e-001 -4.514793e-001
300855000 -9.855855e-006 -1.305536e-005 -7.390655e-001 -4.259196e-001 7.757246e-006 2.041110e-005 -7.419294e-001 -4.274568e-001
301140000 -1.457722e-005 -2.498673e-006 -7.469754e-001 -4.020696e-001 1.602930e-005 1.395998e-006 -7.497294e-001 -4.034720e-001
301425000 1.642797e-006 -6.059296e-006 -7.539617e-001 -3.782867e-001 -2.298866e-006 4.198825e-007 -7.568572e-001 -3.797320e-001
301710000 3.679559e-006 -7.492605e-006 -7.603748e-001 -3.546532e-001 3.631965e-006 -4.080213e-006 -7.632465e-001 -3.559228e-001
301995000 4.173498e-006 -3.558783e-005 -7.661753e-001 -3.310878e-001 8.937933e-006 -6.871348e-007 -7.690427e-001 -3.323441e-001
302280000 -6.480169e-006 -2.452934e-005 -7.712410e-001 -3.077501e-001 3.005640e-007 -1.353711e-005 -7.740471e-001 -3.088769e-001
302565000 1.831647e-005 -1.753515e-005 -7.756549e-001 -2.845522e-001 -3.582404e-006 -8.979822e-006 -7.786084e-001 -2.856451e-001
302850000 6.890634e-006 -1.903216e-006 -7.795762e-001 -2.615128e-001 7.510822e-006 -1.916646e-005 -7.824284e-001 -2.625447e-001
303135000 3.758598e-006 1.696028e-005 -7.828518e-001 -2.386756e-001 -2.649811e-006 -9.485523e-006 -7.857526e-001 -2.395252e-001
303420000 1.750910e-006 3.052880e-006 -7.855619e-001 -2.159586e-001 -2.504441e-006 -2.460328e-006 -7.885804e-001 -2.167173e-001
303705000 2.419200e-006 1.602915e-005 -7.877721e-001 -1.934189e-001 -2.490644e-006 1.784336e-006 -7.907588e-001 -1.941994e-001
303990000 -3.576383e-006 1.896272e-006 -7.894691e-001 -1.710470e-001 1.985001e-005 -1.074828e-005 -7.924980e-001 -1.717419e-001
304275000 5.077519e-006 1.626488e-005 -7.906622e-001 -1.489294e-001 1.200274e-006 1.733299e-005 -7.936292e-001 -1.494831e-001
304560000 9.299009e-006 5.570387e-006 -7.913738e-001 -1.270132e-001 1.154982e-005 -4.828526e-006 -7.944071e-001 -1.274074e-001
304845000 -9.397638e-006 -1.061434e-006 -7.915800e-001 -1.051753e-001 -3.699939e-006 -1.101332e-005 -7.946133e-001 -1.055798e-001
305130000 2.397587e-006 -7.067137e-006 -7.913137e-001 -8.349153e-002 5.520461e-006 6.724045e-006 -7.944012e-001 -8.379529e-002
305415000 -4.321345e-006 -2.735971e-006 -7.906953e-001 -6.203204e-002 1.185945e-006 -5.281635e-008 -7.936928e-001 -6.231535e-002
305700000 -1.896654e-006 -5.027483e-006 -7.896246e-001 -4.066180e-002 -5.130887e-006 -1.683531e-005 -7.926219e-001 -4.083503e-002
305985000 -1.242604e-005 5.476318e-006 -7.879599e-001 -1.959083e-002 8.160659e-006 -1.219423e-006 -7.910023e-001 -1.964166e-002
306270000 -2.776558e-006 -4.639499e-007 -7.859615e-001 1.425107e-003 4.378900e-006 1.360535e-006 -7.890258e-001 1.392778e-003
306555000 4.017912e-006 6.741556e-006 -7.836550e-001 2.227565e-002 3.930762e-006 -1.279763e-005 -7.866654e-001 2.222811e-002
306840000 -1.513639e-005 8.972835e-006 -7.808275e-001 4.287560e-002 -1.458896e-005 -1.688605e-006 -7.838868e-001 4.308280e-002
307125000 -1.399317e-005 -4.124087e-006 -7.777041e-001 6.341562e-002 1.054898e-005 1.781899e-007 -7.806467e-001 6.369849e-002
307410000 4.258083e-006 6.012765e-006 -7.741661e-001 8.370063e-002 -1.144424e-007 -3.903461e-006 -7.771199e-001 8.402552e-002
307695000 -3.106361e-007 -6.993807e-006 -7.702538e-001 1.038778e-001 -5.147904e-006 9.237130e-006 -7.732468e-001 1.043001e-001
307980000 -1.143068e-005 6.710452e-006 -7.659653e-001 1.239577e-001 8.329401e-006 -6.485854e-006 -7.689290e-001 1.244123e-001
308265000 4.595699e-007 8.315717e-006 -7.613424e-001 1.438528e-001 -1.305878e-005 3.298751e-006 -7.642611e-001 1.443760e-001
308550000 -8.709509e-006 1.943471e-006 -7.562865e-001 1.636252e-001 -5.650407e-006 -1.003250e-005 -7.592525e-001 1.642260e-001
308835000 3.161764e-006 4.033438e-006 -7.509638e-001 1.832589e-001 5.216404e-006 -2.114400e-006 -7.538697e-001 1.839266e-001
309120000 1.837210e-005 -1.657013e-005 -7.452250e-001 2.027852e-001 -1.305915e-005 1.559498e-006 -7.481613e-001 2.035366e-001
309405000 -5.811494e-006 -3.681369e-006 -7.391172e-001 2.221399e-001 1.918890e-006 9.413842e-006 -7.420788e-001 2.228693e-001
309690000 3.562218e-006 -4.363783e-007 -7.327744e-001 2.412853e-001 -8.348183e-006 1.477942e-006 -7.356212e-001 2.422740e-001
309975000 -7.685650e-006 -1.273676e-006 -7.259660e-001 2.604110e-001 1.425940e-006 1.189150e-005 -7.287822e-001 2.614744e-001
310260000 -9.876787e-006 -1.065873e-005 -7.188243e-001 2.793877e-001 4.467674e-006 -7.740072e-006 -7.216497e-001 2.805030e-001
310545000 1.182433e-007 -8.612234e-006 -7.113372e-001 2.983563e-001 -1.259357e-006 1.501503e-006 -7.141062e-001 2.994657e-001
310830000 -4.104227e-006 -1.038694e-005 -7.035118e-001 3.169864e-001 -8.109500e-006 -1.299196e-005 -7.061897e-001 3.182963e-001
311115000 7.687106e-006 -3.683530e-006 -6.951718e-001 3.357632e-001 6.926113e-006 -6.868440e-006 -6.979821e-001 3.369920e-001
311400000 5.805625e-006 -9.262082e-006 -6.865875e-001 3.542108e-001 1.214219e-005 -4.276962e-006 -6.894263e-001 3.555934e-001
311685000 2.031808e-006 -2.047701e-005 -6.776879e-001 3.726504e-001 -5.128820e-007 -1.925821e-006 -6.803592e-001 3.740876e-001
311970000 8.410911e-006 -5.479520e-006 -6.682834e-001 3.910144e-001 3.752234e-006 1.570566e-006 -6.709231e-001 3.925452e-001
312255000 1.806044e-005 7.026352e-006 -6.585529e-001 4.091707e-001 6.621152e-006 -8.324924e-006 -6.611695e-001 4.108312e-001
312540000 4.816001e-006 4.217359e-007 -6.484101e-001 4.273106e-001 1.289098e-005 7.150943e-007 -6.510282e-001 4.289767e-001
312825000 1.129812e-005 1.102760e-005 -6.378658e-001 4.453343e-001 8.945695e-006 1.152725e-006 -6.404637e-001 4.470811e-001
313110000 2.286393e-006 -3.396656e-006 -6.270073e-001 4.631897e-001 1.606907e-005 1.295454e-005 -6.294592e-001 4.650711e-001
313395000 4.306460e-006 -1.285341e-005 -6.155508e-001 4.809681e-001 -1.312025e-006 8.674436e-006 -6.179591e-001 4.828288e-001
313680000 -8.734206e-006 1.590877e-005 -6.037462e-001 4.986079e-001 -1.229071e-005 -2.020625e-007 -6.061853e-001 5.006441e-001
313965000 1.186294e-005 -1.071939e-005 -5.914945e-001 5.161510e-001 -1.516523e-006 -1.090994e-006 -5.938662e-001 5.182130e-001
314250000 -2.198697e-005 -2.851163e-006 -5.787387e-001 5.335418e-001 -9.169592e-006 4.934420e-006 -5.811483e-001 5.356866e-001
314535000 -8.241911e-006 -3.626895e-006 -5.656462e-001 5.508309e-001 8.642156e-006 -1.409886e-005 -5.679642e-001 5.530654e-001
314820000 -9.164217e-006 2.001769e-006 -5.520115e-001 5.680125e-001 -5.183030e-006 2.440631e-006 -5.542889e-001 5.702150e-001
315105000 7.129493e-006 8.869872e-006 -5.378199e-001 5.850222e-001 -1.183692e-005 1.234110e-007 -5.400111e-001 5.873464e-001
315390000 1.544941e-005 -2.312035e-005 -5.232581e-001 6.018397e-001 -1.077404e-005 -6.252396e-006 -5.254190e-001 6.041492e-001
315675000 1.962878e-006 -9.761273e-006 -5.081150e-001 6.185457e-001 -1.762861e-005 -6.213725e-006 -5.102257e-001 6.209862e-001
315960000 -5.484484e-007 -1.475534e-005 -4.924734e-001 6.350386e-001 6.876404e-006 -2.281680e-005 -4.944272e-001 6.375862e-001
316245000 -1.447796e-005 -6.769368e-006 -4.762461e-001 6.512471e-001 7.605160e-006 -4.938062e-006 -4.782138e-001 6.538534e-001
316530000 1.302713e-005 -2.166094e-005 -4.594233e-001 6.674290e-001 -1.456330e-005 -1.854548e-005 -4.613363e-001 6.701477e-001
316815000 4.573707e-006 -9.549218e-006 -4.421586e-001 6.832700e-001 -1.314218e-005 3.803724e-006 -4.439532e-001 6.860023e-001
317100000 1.716902e-005 -8.160134e-007 -4.242497e-001 6.989394e-001 -3.042355e-006 -5.297590e-006 -4.259698e-001 7.017204e-001
317385000 -2.682736e-006 -1.326870e-005 -4.056449e-001 7.142586e-001 -2.006170e-006 1.516682e-005 -4.073963e-001 7.172114e-001
317670000 5.535262e-006 -4.839587e-006 -3.865991e-001 7.294367e-001 1.550420e-006 8.903133e-006 -3.881637e-001 7.323520e-001
317955000 3.434487e-006 6.387396e-007 -3.667734e-001 7.441303e-001 5.687687e-006 -7.780001e-007 -3.682513e-001 7.472427e-001
318240000 7.350164e-006 -6.213164e-006 -3.464643e-001 7.586333e-001 -6.101731e-006 -1.446367e-008 -3.479002e-001 7.617013e-001
318525000 -1.750647e-006 4.969430e-007 -3.253888e-001 7.727504e-001 -6.421044e-006 3.024349e-006 -3.268100e-001 7.759092e-001
318810000 -2.057418e-006 -4.656422e-006 -3.038140e-001 7.864686e-001 2.496717e-006 -2.742933e-006 -3.049759e-001 7.897243e-001
319095000 2.036530e-006 -8.156543e-006 -2.812789e-001 7.998160e-001 1.108264e-005 6.097390e-006 -2.824619e-001 8.030670e-001
319380000 8.671541e-006 -1.915456e-005 -2.582549e-001 8.126497e-001 2.028859e-005 3.158571e-006 -2.592378e-001 8.159898e-001
319665000 4.033665e-007 -1.011477e-005 -2.344762e-001 8.249944e-001 2.100898e-005 1.110176e-005 -2.354697e-001 8.283789e-001
319950000 8.341099e-006 -5.664462e-006 -2.099935e-001 8.367423e-001 -4.305877e-006 1.219896e-005 -2.107759e-001 8.402576e-001
320235000 7.266553e-007 1.417098e-006 -1.846990e-001 8.480515e-001 -2.300334e-006 9.156905e-006 -1.854655e-001 8.515201e-001
320520000 7.749591e-007 1.038064e-005 -1.588384e-001 8.587032e-001 1.453682e-005 1.575759e-005 -1.595192e-001 8.621864e-001
320805000 5.372141e-006 -5.597963e-006 -1.322932e-001 8.686588e-001 -9.494696e-006 -1.402643e-005 -1.328902e-001 8.721884e-001
321090000 9.367428e-007 1.661657e-006 -1.049119e-001 8.779016e-001 -1.063435e-005 2.243169e-006 -1.053939e-001 8.815455e-001
321375000 9.149897e-006 1.060190e-005 -7.691985e-002 8.863872e-001 3.513885e-007 1.558647e-007 -7.722192e-002 8.900082e-001
321660000 -1.148590e-005 -7.726628e-007 -4.816000e-002 8.940557e-001 -5.242249e-007 1.784713e-006 -4.834916e-002 8.978112e-001
321945000 -1.122530e-005 1.270855e-005 -1.874384e-002 9.008747e-001 -7.181465e-006 1.110729e-005 -1.877372e-002 9.046382e-001
322230000 -2.508318e-006 -1.436007e-007 1.139918e-002 9.068179e-001 -1.411221e-005 -9.504510e-006 1.137971e-002 9.106179e-001
322515000 -1.064183e-005 -4.459803e-006 4.210855e-002 9.116917e-001 -7.508288e-006 3.232199e-006 4.230212e-002 9.154755e-001
322800000 1.871366e-006 3.014129e-007 7.352869e-002 9.155270e-001 8.486759e-006 -1.000904e-005 7.377672e-002 9.193614e-001
323085000 1.775349e-006 -3.052823e-006 1.054041e-001 9.183015e-001 -1.300302e-006 -9.649566e-006 1.059412e-001 9.221408e-001
323370000 1.432150e-005 -1.077755e-005 1.379985e-001 9.199201e-001 3.032433e-006 8.555594e-006 1.385374e-001 9.236654e-001
323655000 4.554779e-006 6.999899e-006 1.710313e-001 9.202203e-001 2.128998e-007 3.937095e-006 1.716795e-001 9.241542e-001
323940000 1.219357e-005 -1.216749e-006 2.046072e-001 9.193367e-001 -1.110592e-005 5.543962e-007 2.054119e-001 9.231741e-001
324225000 -1.660937e-005 -1.147708e-005 2.384622e-001 9.169989e-001 8.817392e-006 2.591487e-005 2.394429e-001 9.208727e-001
324510000 6.970461e-006 -2.315867e-006 2.728327e-001 9.132629e-001 -4.939783e-006 8.680213e-006 2.738836e-001 9.171296e-001
324795000 -2.813038e-006 -3.030701e-006 3.073972e-001 9.081922e-001 6.924643e-006 9.962918e-007 3.086060e-001 9.120203e-001
325080000 -6.289605e-006 8.762697e-006 3.422064e-001 9.014674e-001 -5.015754e-006 -1.451685e-005 3.435841e-001 9.053353e-001
325365000 -3.415707e-006 1.847833e-006 3.771223e-001 8.932313e-001 7.317602e-006 -2.205655e-006 3.787416e-001 8.970866e-001
325650000 -2.965611e-006 -1.511226e-005 4.120817e-001 8.833905e-001 1.659681e-006 4.112092e-006 4.139509e-001 8.871334e-001
325935000 -5.937338e-006 -1.751205e-005 4.471133e-001 8.717903e-001 7.007738e-006 -1.018526e-005 4.489974e-001 8.755793e-001
326220000 1.120095e-006 -1.365345e-005 4.819464e-001 8.587252e-001 -3.716908e-006 -2.532224e-007 4.838747e-001 8.623841e-001
326505000 -6.185404e-006 -6.876758e-006 5.164954e-001 8.438011e-001 -2.032558e-006 -2.359060e-006 5.187114e-001 8.474867e-001
326790000 -6.828694e-007 -1.051895e-005 5.507353e-001 8.273007e-001 -1.177131e-006 6.267587e-006 5.531033e-001 8.307567e-001
327075000 -4.483352e-006 3.892927e-006 5.844913e-001 8.089631e-001 -2.107827e-005 9.927580e-006 5.870289e-001 8.124318e-001
327360000 -5.426857e-006 -1.450988e-005 6.177584e-001 7.889287e-001 -9.681741e-006 3.792923e-006 6.202970e-001 7.923341e-001
327645000 5.790087e-006 1.013842e-005 6.501769e-001 7.671594e-001 -1.574769e-005 -8.036571e-006 6.528628e-001 7.704641e-001
327930000 1.054845e-006 -1.704967e-006 6.818109e-001 7.437553e-001 -1.114834e-005 5.752121e-006 6.847951e-001 7.468874e-001
328215000 -1.042604e-005 -1.662480e-006 7.125406e-001 7.185861e-001 -5.193161e-006 -1.376290e-005 7.155558e-001 7.215726e-001
328500000 -4.575552e-006 -6.757062e-006 7.422394e-001 6.918825e-001 -9.846884e-006 -7.064628e-006 7.454134e-001 6.947798e-001
328785000 -2.089481e-006 6.473571e-006 7.707434e-001 6.635797e-001 -2.517844e-006 7.884925e-006 7.740198e-001 6.664851e-001
329070000 -4.552607e-006 4.422450e-006 7.979416e-001 6.338308e-001 -1.112796e-006 1.773337e-006 8.013343e-001 6.365938e-001
329355000 -1.506922e-005 -4.255603e-007 8.238990e-001 6.025562e-001 7.874712e-006 3.650961e-006 8.274081e-001 6.052552e-001
329640000 1.311687e-006 -5.645449e-006 8.481894e-001 5.702005e-001 -8.299502e-006 8.529516e-006 8.518999e-001 5.725930e-001
329925000 6.158220e-006 -7.352025e-006 8.709931e-001 5.364168e-001 8.298796e-006 -9.641741e-006 8.747300e-001 5.387517e-001
330210000 7.971880e-007 5.006536e-006 8.921580e-001 5.016097e-001 7.816778e-006 -8.495382e-006 8.959761e-001 5.038140e-001
330495000 -8.530750e-006 -1.352303e-005 9.115289e-001 4.657246e-001 -1.129873e-005 1.287842e-005 9.154021e-001 4.677159e-001
330780000 -9.448871e-006 -1.925201e-005 9.291663e-001 4.289801e-001 -9.248883e-006 6.287252e-006 9.330688e-001 4.308906e-001
331065000 3.280491e-006 2.337762e-006 9.448107e-001 3.914328e-001 -9.686883e-006 4.752629e-006 9.489816e-001 3.931907e-001
331350000 9.304783e-006 9.217542e-006 9.586949e-001 3.533121e-001 1.087274e-005 8.161475e-006 9.628366e-001 3.547763e-001
331635000 6.740781e-006 1.306432e-005 9.705080e-001 3.145878e-001 3.606805e-006 8.366307e-006 9.746925e-001 3.159467e-001
331920000 8.161292e-006 8.611897e-006 9.805173e-001 2.754982e-001 -8.700192e-006 1.094207e-005 9.848457e-001 2.767280e-001
332205000 -1.436213e-005 1.315102e-005 9.885595e-001 2.361114e-001 -7.683651e-006 5.406354e-006 9.928170e-001 2.372506e-001
332490000 -1.326583e-005 1.027736e-005 9.946928e-001 1.967381e-001 -1.629009e-005 9.378813e-006 9.990326e-001 1.975970e-001
332775000 -1.421352e-005 7.928924e-007 9.988251e-001 1.572470e-001 -7.864878e-006 3.094717e-006 1.003229e+000 1.579706e-001
333060000 -1.227677e-005 -1.076867e-006 1.001013e+000 1.180109e-001 -8.019507e-006 -8.676789e-006 1.005493e+000 1.184017e-001
333345000 -1.056468e-005 3.023040e-006 1.001444e+000 7.890355e-002 -1.040142e-005 5.642100e-006 1.005832e+000 7.928625e-002
333630000 -5.170176e-006 1.763396e-006 9.999948e-001 4.012175e-002 -1.935197e-005 1.355203e-005 1.004342e+000 4.035793e-002
333915000 -2.828301e-006 -5.545885e-006 9.968512e-001 1.941176e-003 -9.919648e-006 1.315149e-005 1.001196e+000 1.960089e-003
334200000 -1.233659e-005 -1.029076e-005 9.920035e-001 -3.577077e-002 -4.855799e-006 1.629166e-005 9.963104e-001 -3.587269e-002
334485000 1.935259e-005 -7.205691e-006 9.854898e-001 -7.278119e-002 6.221749e-006 -4.761754e-006 9.897989e-001 -7.312073e-002
334770000 1.918091e-006 5.947119e-006 9.774376e-001 -1.090364e-001 4.205226e-006 -5.854478e-006 9.817129e-001 -1.095437e-001
335055000 2.837029e-006 9.605475e-006 9.678013e-001 -1.445513e-001 -8.717518e-006 -7.675253e-006 9.720629e-001 -1.452576e-001
335340000 -1.668206e-005 3.309934e-006 9.568911e-001 -1.790923e-001 4.737367e-006 5.772862e-006 9.610750e-001 -1.798834e-001
335625000 -7.063218e-007 4.462016e-006 9.445918e-001 -2.127320e-001 -1.672776e-005 1.826301e-006 9.487395e-001 -2.136032e-001
335910000 -3.777269e-006 -2.418907e-006 9.311160e-001 -2.454295e-001 2.141000e-006 1.090396e-005 9.351435e-001 -2.464556e-001
336195000 1.135405e-005 -4.099563e-006 9.164161e-001 -2.770243e-001 -9.602454e-006 -1.614595e-006 9.204960e-001 -2.781518e-001
336480000 5.540378e-006 -9.790806e-007 9.007329e-001 -3.075390e-001 1.971513e-006 -6.428092e-006 9.046709e-001 -3.089076e-001
336765000 -1.211986e-005 -1.622602e-005 8.840266e-001 -3.371594e-001 4.181783e-006 -1.249395e-005 8.879489e-001 -3.385367e-001
337050000 3.686756e-006 9.584125e-006 8.665839e-001 -3.655376e-001 1.167198e-005 7.880742e-006 8.702815e-001 -3.670740e-001
337335000 1.349576e-005 3.307707e-007 8.480803e-001 -3.928472e-001 8.479007e-007 8.209362e-006 8.517738e-001 -3.945773e-001
337620000 -7.939056e-006 -7.956630e-006 8.289918e-001 -4.189864e-001 6.578326e-006 8.818770e-006 8.326313e-001 -4.208118e-001
337905000 4.618766e-006 -1.374093e-005 8.092023e-001 -4.440614e-001 -8.386352e-007 8.214156e-006 8.126836e-001 -4.460095e-001
338190000 -1.181495e-005 -1.269864e-005 7.887504e-001 -4.679401e-001 3.966371e-006 4.397813e-006 7.923021e-001 -4.700412e-001
338475000 1.346144e-005 -8.951573e-006 7.679172e-001 -4.909195e-001 -1.752424e-005 2.622122e-006 7.712540e-001 -4.929721e-001
338760000 -5.027681e-006 1.322584e-006 7.466167e-001 -5.127652e-001 -4.245094e-006 -7.714054e-006 7.498441e-001 -5.149547e-001
339045000 5.659235e-006 -6.072405e-006 7.248899e-001 -5.334172e-001 -2.292588e-006 -6.725486e-006 7.279927e-001 -5.357611e-001
339330000 -7.278652e-006 1.322986e-005 7.027706e-001 -5.530577e-001 -6.942903e-006 -3.017434e-006 7.057629e-001 -5.555430e-001
339615000 -8.745482e-006 -1.173157e-005 6.804106e-001 -5.717359e-001 4.916638e-006 6.357159e-006 6.833235e-001 -5.741875e-001
339900000 5.569570e-006 -5.338234e-006 6.577865e-001 -5.893720e-001 1.356633e-005 8.482313e-006 6.605610e-001 -5.918022e-001
340185000 -1.620292e-006 1.227506e-005 6.349246e-001 -6.060168e-001 -8.201103e-006 6.381757e-006 6.376852e-001 -6.085557e-001
340470000 -5.378309e-006 1.305455e-005 6.120178e-001 -6.217207e-001 2.632605e-006 -2.813388e-006 6.146408e-001 -6.243846e-001
340755000 -1.092439e-005 -1.003730e-005 5.888540e-001 -6.364595e-001 4.386602e-006 -8.816012e-006 5.914035e-001 -6.391552e-001
341040000 -6.298825e-006 1.364592e-005 5.658367e-001 -6.503244e-001 -3.120186e-006 4.643444e-006 5.681620e-001 -6.530297e-001
341325000 -8.580008e-006 -1.920364e-005 5.424154e-001 -6.633705e-001 -1.490657e-005 4.080342e-006 5.447866e-001 -6.661165e-001
341610000 -1.340767e-005 3.945271e-006 5.193251e-001 -6.754360e-001 6.243657e-006 5.845013e-006 5.214674e-001 -6.783623e-001
341895000 -2.742586e-006 1.771071e-006 4.960249e-001 -6.867839e-001 3.110482e-006 1.104358e-005 4.982136e-001 -6.897687e-001
342180000 -7.315281e-006 -4.381243e-006 4.729077e-001 -6.972954e-001 3.237154e-006 -1.874603e-006 4.748748e-001 -7.002054e-001
342465000 -3.241384e-006 8.108893e-006 4.496459e-001 -7.070450e-001 -2.320847e-007 -6.314269e-007 4.515766e-001 -7.099771e-001
342750000 -4.595641e-006 3.753899e-006 4.265652e-001 -7.160832e-001 -2.014403e-006 7.247972e-006 4.283699e-001 -7.191422e-001
343035000 -5.357366e-006 8.217261e-006 4.035638e-001 -7.244366e-001 -6.353568e-006 -2.621746e-006 4.052584e-001 -7.274582e-001
343320000 -3.920022e-006 -8.531413e-006 3.806133e-001 -7.320280e-001 -1.628281e-005 -8.678591e-006 3.821771e-001 -7.351472e-001
343605000 -1.906024e-007 1.130245e-006 3.578319e-001 -7.390171e-001 4.289246e-006 1.407110e-005 3.593750e-001 -7.421362e-001
343890000 7.650383e-006 -6.799477e-006 3.351083e-001 -7.453889e-001 3.566328e-006 -1.280335e-005 3.365365e-001 -7.485583e-001
