!Agilent Technologies,N5230C,SG49000117,A.08.50.07
!Agilent N5230C: A.08.50.07
!Date: Sunday, March 17, 2024 06:46:36
!Correction: S11(Off) 
!S21(Off) 
!S12(Off) 
!S22(Off) 
!S2P File: Measurements: S11, S21, S12, S22:
# Hz S  RI   R 50
300000000 -1.368721e-006 3.699864e-006 -7.250143e-001 -4.658556e-001 -1.677213e-006 -4.438573e-006 -7.277336e-001 -4.675797e-001
300285000 1.933194e-006 -3.501561e-006 -7.339702e-001 -4.419151e-001 3.749988e-007 7.738604e-006 -7.366949e-001 -4.436022e-001
300570000 1.368779e-005 -1.030158e-005 -7.422397e-001 -4.179139e-001 4.366483e-006 -9.954701e-006 -7.450059e-001 -4.195066e-001
300855000 -1.897268e-006 -7.363605e-006 -7.498482e-001 -3.940601e-001 -1.239940e-006 -9.885295e-006 -7.526016e-001 -3.955270e-001
301140000 2.777971e-006 -1.162485e-006 -7.566363e-001 -3.702175e-001 1.096502e-005 -1.080954e-005 -7.594825e-001 -3.715390e-001
301425000 7.559074e-007 2.182587e-007 -7.628060e-001 -3.465080e-001 -6.018164e-006 -3.200332e-006 -7.656320e-001 -3.478161e-001
301710000 6.140799e-006 9.252093e-006 -7.683628e-001 -3.229651e-001 1.503920e-005 -6.753722e-007 -7.711872e-001 -3.241177e-001
301995000 7.056264e-006 -8.938683e-006 -7.731993e-001 -2.995547e-001 5.347124e-006 -2.884347e-006 -7.760882e-001 -3.006666e-001
302280000 2.579745e-005 -8.937086e-006 -7.773668e-001 -2.763118e-001 1.403011e-005 -6.483325e-006 -7.802782e-001 -2.773460e-001
302565000 2.653237e-006 2.736200e-006 -7.810411e-001 -2.532594e-001 2.028373e-005 -8.289441e-006 -7.840042e-001 -2.541918e-001
302850000 1.959157e-005 7.363584e-006 -7.841095e-001 -2.303702e-001 1.258656e-005 -4.298221e-006 -7.870470e-001 -2.313268e-001
303135000 7.139370e-006 -4.523959e-006 -7.866364e-001 -2.075724e-001 -1.243366e-006 -3.180050e-006 -7.895654e-001 -2.083888e-001
303420000 2.070339e-005 1.063675e-006 -7.886035e-001 -1.850602e-001 1.194956e-005 -6.701601e-006 -7.915841e-001 -1.857844e-001
303705000 8.869605e-006 -5.762858e-006 -7.900292e-001 -1.627253e-001 -1.677476e-005 -1.258906e-005 -7.930171e-001 -1.633479e-001
303990000 -5.109667e-006 -1.639851e-005 -7.910249e-001 -1.404811e-001 -9.358335e-006 8.694738e-006 -7.940562e-001 -1.410237e-001
304275000 3.168923e-006 -1.067342e-005 -7.914759e-001 -1.185183e-001 -4.365645e-006 8.177235e-006 -7.944059e-001 -1.189451e-001
304560000 -1.367485e-005 -1.034213e-005 -7.914591e-001 -9.667236e-002 5.506828e-006 -1.495041e-006 -7.945017e-001 -9.706426e-002
304845000 -1.115423e-005 -7.476245e-006 -7.910270e-001 -7.509985e-002 1.622991e-005 8.065925e-006 -7.940583e-001 -7.536660e-002
305130000 9.755964e-008 2.373950e-006 -7.901845e-001 -5.351955e-002 8.856519e-006 -3.100655e-006 -7.932397e-001 -5.377406e-002
305415000 1.009251e-005 -5.247623e-006 -7.888882e-001 -3.237456e-002 -5.086535e-006 -7.285651e-006 -7.918633e-001 -3.246447e-002
305700000 5.834883e-006 -5.378880e-006 -7.870552e-001 -1.117215e-002 -2.093343e-005 1.399730e-005 -7.900951e-001 -1.121698e-002
305985000 1.337203e-005 4.057960e-006 -7.848216e-001 9.763372e-003 3.656296e-007 -7.521659e-006 -7.878816e-001 9.877614e-003
306270000 -1.952033e-006 1.367682e-005 -7.822900e-001 3.056760e-002 -2.155226e-006 -4.165874e-006 -7.853159e-001 3.070219e-002
306555000 2.564435e-006 1.104033e-005 -7.792819e-001 5.120496e-002 -4.916928e-007 7.693534e-006 -7.822830e-001 5.136773e-002
306840000 2.149075e-006 -4.534910e-006 -7.758774e-001 7.162268e-002 1.028997e-005 -7.459387e-006 -7.789117e-001 7.190511e-002
307125000 4.748547e-007 -7.452483e-006 -7.721031e-001 9.202052e-002 1.456494e-006 1.588801e-005 -7.751689e-001 9.236880e-002
307410000 1.343083e-005 1.534997e-006 -7.679929e-001 1.121325e-001 4.232039e-006 -9.112655e-006 -7.709574e-001 1.125409e-001
307695000 6.380967e-006 -6.425543e-006 -7.635031e-001 1.321576e-001 -1.286615e-006 -8.272264e-006 -7.665219e-001 1.326010e-001
307980000 4.374798e-006 -1.262425e-006 -7.586651e-001 1.519866e-001 1.068716e-006 -1.122854e-005 -7.615940e-001 1.526158e-001
308265000 1.984443e-006 -9.458912e-006 -7.534422e-001 1.717562e-001 -4.868155e-006 -1.157740e-005 -7.564476e-001 1.723562e-001
308550000 -9.879372e-006 -6.298271e-007 -7.478471e-001 1.912947e-001 -4.599134e-006 9.718087e-006 -7.507722e-001 1.920273e-001
308835000 2.383612e-006 3.603672e-006 -7.419678e-001 2.107066e-001 -2.215457e-006 1.321121e-006 -7.448550e-001 2.115496e-001
309120000 -6.262561e-006 1.207702e-005 -7.356386e-001 2.300510e-001 7.010238e-006 -3.267382e-006 -7.385366e-001 2.309459e-001
309405000 1.869099e-007 -1.992513e-007 -7.289966e-001 2.492014e-001 -5.807698e-006 -1.115670e-005 -7.318613e-001 2.501948e-001
309690000 5.108375e-006 -1.235576e-005 -7.219968e-001 2.682882e-001 -4.638928e-006 -1.233470e-006 -7.248507e-001 2.692687e-001
309975000 1.284962e-006 4.585506e-006 -7.146145e-001 2.871358e-001 7.661339e-006 -6.669860e-006 -7.174688e-001 2.882937e-001
310260000 -1.168618e-005 -4.653050e-006 -7.069636e-001 3.059157e-001 1.106698e-005 9.997697e-006 -7.097110e-001 3.071828e-001
310545000 6.673683e-006 -1.204749e-005 -6.988683e-001 3.246360e-001 5.732440e-006 -6.350149e-006 -7.015917e-001 3.259313e-001
310830000 -7.579942e-006 -1.053604e-005 -6.903794e-001 3.432115e-001 2.233026e-005 2.095076e-006 -6.931096e-001 3.445566e-001
311115000 -9.588222e-006 -1.330249e-005 -6.816058e-001 3.616732e-001 -1.377872e-005 -8.926741e-006 -6.842109e-001 3.631009e-001
311400000 -4.520107e-007 -8.375437e-006 -6.723653e-001 3.800063e-001 -7.341777e-006 8.028706e-006 -6.750497e-001 3.815468e-001
311685000 -9.404241e-006 6.661242e-006 -6.628203e-001 3.982670e-001 5.692058e-006 -1.044133e-005 -6.654075e-001 3.997769e-001
311970000 -1.513092e-006 -4.895098e-006 -6.528206e-001 4.163217e-001 7.323849e-006 1.857552e-006 -6.554556e-001 4.180064e-001
312255000 1.193896e-005 -1.908804e-006 -6.425157e-001 4.344094e-001 -2.515223e-006 -4.416690e-006 -6.449938e-001 4.360912e-001
312540000 1.176747e-005 1.623535e-005 -6.317132e-001 4.522775e-001 6.657941e-006 -5.419589e-006 -6.342319e-001 4.540454e-001
312825000 -1.123228e-005 4.311401e-006 -6.205674e-001 4.699989e-001 -4.391163e-007 1.150980e-006 -6.230729e-001 4.718589e-001
313110000 -3.635011e-007 6.467532e-006 -6.089301e-001 4.876772e-001 1.203939e-005 -6.529540e-006 -6.113898e-001 4.896337e-001
313395000 -2.947475e-006 1.114756e-006 -5.969340e-001 5.051454e-001 7.497277e-006 5.849234e-006 -5.993005e-001 5.072210e-001
313680000 4.082700e-006 1.619822e-005 -5.843969e-001 5.226016e-001 6.106679e-006 -1.633445e-006 -5.867801e-001 5.247308e-001
313965000 -1.264587e-006 3.923783e-006 -5.714661e-001 5.398799e-001 2.960144e-006 2.508064e-006 -5.738368e-001 5.420260e-001
314250000 -3.877535e-006 -4.537821e-006 -5.581326e-001 5.569649e-001 4.831693e-006 -8.556210e-007 -5.603552e-001 5.592099e-001
314535000 -1.293574e-005 -1.420765e-005 -5.443101e-001 5.739506e-001 1.291440e-005 -5.129561e-006 -5.464536e-001 5.763665e-001
314820000 1.312346e-005 -8.988904e-006 -5.298651e-001 5.908238e-001 -7.296649e-007 -9.334219e-007 -5.320886e-001 5.931473e-001
315105000 -6.281531e-006 7.672206e-008 -5.150325e-001 6.075244e-001 -4.392076e-006 1.650874e-005 -5.171460e-001 6.099277e-001
315390000 -5.034661e-007 -3.147839e-006 -4.996547e-001 6.239907e-001 -7.766816e-006 -1.331392e-006 -5.016843e-001 6.264523e-001
315675000 4.914848e-006 -1.257349e-007 -4.838047e-001 6.402946e-001 -1.288306e-005 -1.924056e-006 -4.857539e-001 6.429201e-001
315960000 1.172161e-005 6.118156e-006 -4.674447e-001 6.564073e-001 -1.674797e-005 9.590805e-007 -4.692729e-001 6.590258e-001
316245000 -7.935000e-006 4.566810e-006 -4.503398e-001 6.722875e-001 -1.314573e-006 -1.412169e-005 -4.522563e-001 6.750348e-001
316530000 -7.052368e-007 4.945400e-006 -4.327584e-001 6.879782e-001 9.793046e-006 5.117357e-006 -4.345140e-001 6.907378e-001
316815000 -2.833602e-006 -3.532926e-006 -4.146940e-001 7.034189e-001 -5.732773e-006 -1.391781e-005 -4.163481e-001 7.061943e-001
317100000 -7.885897e-006 -2.198327e-005 -3.959981e-001 7.185553e-001 -7.008458e-006 2.763186e-007 -3.975690e-001 7.214306e-001
317385000 -1.354248e-005 -8.873012e-007 -3.766388e-001 7.333521e-001 9.815257e-007 -4.027689e-006 -3.780890e-001 7.363280e-001
317670000 -5.890183e-006 1.481490e-005 -3.565871e-001 7.479532e-001 6.445524e-007 -3.832090e-006 -3.580937e-001 7.509927e-001
317955000 5.189536e-006 -4.886916e-006 -3.360097e-001 7.621521e-001 6.747099e-006 4.601645e-006 -3.374223e-001 7.652850e-001
318240000 -1.637583e-005 -4.187134e-006 -3.147353e-001 7.759404e-001 -1.171370e-005 -1.035311e-005 -3.160673e-001 7.791806e-001
318525000 7.538928e-006 3.918292e-007 -2.928429e-001 7.894681e-001 -3.200277e-006 -1.135836e-005 -2.940286e-001 7.926586e-001
318810000 1.358885e-007 -3.164699e-006 -2.701967e-001 8.024309e-001 7.451593e-007 -1.464070e-006 -2.713532e-001 8.056887e-001
319095000 1.115252e-005 -9.103142e-006 -2.469260e-001 8.149459e-001 -9.507547e-006 1.020074e-005 -2.479842e-001 8.182665e-001
319380000 -1.381049e-005 5.188254e-006 -2.229728e-001 8.269403e-001 -7.486293e-006 -4.221815e-006 -2.239440e-001 8.303385e-001
319665000 1.963587e-006 1.579564e-006 -1.983784e-001 8.383589e-001 3.270906e-006 -5.622666e-006 -1.991905e-001 8.419188e-001
319950000 8.236754e-007 4.399385e-006 -1.729213e-001 8.494030e-001 -1.131137e-005 1.107310e-006 -1.736815e-001 8.528455e-001
320235000 1.571970e-005 -8.608966e-006 -1.468839e-001 8.595978e-001 -1.589685e-005 5.333340e-006 -1.475546e-001 8.631034e-001
320520000 -6.581575e-006 -2.568356e-007 -1.201071e-001 8.692320e-001 -2.403186e-006 4.929851e-006 -1.205961e-001 8.727803e-001
320805000 -8.153599e-006 4.803402e-006 -9.256982e-002 8.781219e-001 3.292037e-006 5.254701e-006 -9.299348e-002 8.816910e-001
321090000 -2.201461e-007 -3.403429e-007 -6.447922e-002 8.861405e-001 -4.783155e-006 6.905754e-006 -6.473759e-002 8.898659e-001
321375000 1.361931e-005 -6.252787e-006 -3.557363e-002 8.934302e-001 3.227154e-006 -7.477104e-006 -3.566570e-002 8.971646e-001
321660000 1.282957e-006 -6.258027e-006 -6.026698e-003 8.998158e-001 -1.475309e-005 5.745791e-006 -6.093763e-003 9.035117e-001
321945000 -1.223305e-005 -3.463880e-006 2.414626e-002 9.052178e-001 -1.453659e-005 9.084518e-006 2.430523e-002 9.090167e-001
322230000 -1.235703e-005 -1.218268e-005 5.498417e-002 9.096643e-001 -8.263866e-006 -6.937309e-006 5.523777e-002 9.134501e-001
322515000 -3.065333e-006 -4.524665e-006 8.644436e-002 9.130963e-001 -1.700362e-005 -6.817243e-008 8.675088e-002 9.168756e-001
322800000 -7.219628e-006 -6.833347e-006 1.184581e-001 9.153394e-001 -2.040744e-005 -4.779280e-006 1.189295e-001 9.191580e-001
323085000 -1.045410e-005 1.443718e-005 1.510289e-001 9.164056e-001 2.013352e-005 -1.901157e-005 1.516113e-001 9.202156e-001
323370000 3.187823e-006 -7.405652e-006 1.840942e-001 9.162064e-001 -1.793394e-006 -3.605527e-006 1.849333e-001 9.200734e-001
323655000 -1.601162e-005 2.997725e-006 2.175888e-001 9.147417e-001 1.521241e-005 -1.811500e-005 2.185130e-001 9.186397e-001
323940000 1.596672e-006 7.311409e-006 2.515569e-001 9.119310e-001 -1.272127e-006 -2.337912e-006 2.525745e-001 9.157645e-001
324225000 8.924325e-006 -1.071484e-005 2.857841e-001 9.077350e-001 9.919397e-006 -1.603810e-006 2.868991e-001 9.115713e-001
324510000 -1.231614e-005 -1.594192e-006 3.202734e-001 9.020589e-001 6.570216e-006 4.781888e-006 3.215655e-001 9.058114e-001
324795000 -6.183424e-006 -3.199537e-006 3.549754e-001 8.947637e-001 4.234295e-006 5.539590e-006 3.564617e-001 8.985694e-001
325080000 -5.255995e-006 -3.252677e-006 3.897544e-001 8.859730e-001 3.772603e-006 9.729263e-006 3.913780e-001 8.896805e-001
325365000 1.755933e-006 -1.810344e-005 4.246148e-001 8.755925e-001 3.641274e-006 5.069763e-007 4.263411e-001 8.792568e-001
325650000 -1.682473e-006 2.206620e-005 4.593787e-001 8.635324e-001 -1.456072e-006 1.732250e-005 4.613346e-001 8.671247e-001
325935000 -1.030777e-005 -5.532276e-006 4.940104e-001 8.497494e-001 -1.325915e-005 6.092151e-007 4.960492e-001 8.533669e-001
326220000 -6.057272e-006 9.337572e-006 5.282499e-001 8.343105e-001 -1.902716e-005 1.636678e-006 5.305206e-001 8.379187e-001
326505000 4.483535e-006 2.029023e-006 5.622784e-001 8.171771e-001 -1.258060e-005 -2.260361e-007 5.645358e-001 8.206124e-001
326790000 -2.447908e-005 1.133927e-005 5.957164e-001 7.983194e-001 -2.250686e-006 2.815243e-007 5.981858e-001 8.017254e-001
327075000 -2.265623e-005 7.023425e-006 6.285228e-001 7.777661e-001 7.143637e-006 -1.662612e-006 6.310958e-001 7.811038e-001
327360000 -2.054676e-005 -9.425088e-006 6.605852e-001 7.553723e-001 6.007205e-006 -5.260080e-007 6.633491e-001 7.586477e-001
327645000 -1.311277e-005 -1.059776e-005 6.918089e-001 7.315056e-001 -1.582951e-005 -8.233931e-006 6.947179e-001 7.345990e-001
327930000 -1.245651e-007 3.611983e-006 7.220979e-001 7.058645e-001 -1.051621e-005 6.810491e-006 7.252084e-001 7.088861e-001
328215000 3.577075e-006 1.006801e-005 7.512451e-001 6.787689e-001 -1.580439e-006 -3.091249e-006 7.545986e-001 6.816443e-001
328500000 5.340069e-006 -3.105003e-006 7.792796e-001 6.500237e-001 -2.930138e-006 9.908880e-006 7.826536e-001 6.527716e-001
328785000 1.560720e-006 1.662508e-006 8.059905e-001 6.197649e-001 -4.687323e-006 -6.771605e-006 8.093618e-001 6.225635e-001
329070000 9.702851e-006 1.568735e-005 8.312045e-001 5.883109e-001 1.152323e-005 2.403131e-006 8.347824e-001 5.908581e-001
329355000 8.081923e-007 7.303013e-006 8.549569e-001 5.553198e-001 1.803542e-006 6.650997e-007 8.587479e-001 5.577102e-001
329640000 -1.194397e-005 -1.055693e-005 8.772404e-001 5.213451e-001 3.033158e-006 -4.468812e-006 8.809549e-001 5.236115e-001
329925000 -5.098070e-006 -3.684466e-006 8.976626e-001 4.861376e-001 -7.706408e-006 -2.297804e-006 9.015418e-001 4.883138e-001
330210000 9.405298e-006 1.066495e-005 9.163506e-001 4.500450e-001 3.173990e-006 -1.787062e-006 9.203855e-001 4.520159e-001
330495000 4.798577e-006 1.058680e-005 9.333096e-001 4.130784e-001 -1.254635e-005 4.560494e-006 9.373585e-001 4.147995e-001
330780000 -9.568440e-007 -1.021695e-005 9.483529e-001 3.753279e-001 1.842203e-007 5.008631e-007 9.524674e-001 3.769479e-001
331065000 -9.981815e-006 2.308974e-006 9.615269e-001 3.370350e-001 -2.205910e-005 -7.121052e-006 9.657114e-001 3.385847e-001
331350000 5.472980e-006 4.193653e-007 9.727863e-001 2.982145e-001 7.050433e-006 -2.766091e-006 9.769688e-001 2.994907e-001
331635000 7.548746e-006 -1.204811e-005 9.820588e-001 2.590241e-001 -1.342896e-005 -7.659542e-006 9.862621e-001 2.602183e-001
331920000 5.223842e-006 -8.217071e-006 9.893363e-001 2.197132e-001 -5.140731e-006 2.926282e-006 9.937024e-001 2.205690e-001
332205000 9.752721e-007 1.105476e-006 9.947798e-001 1.802195e-001 -8.841005e-006 6.729095e-006 9.990162e-001 1.810362e-001
332490000 2.032540e-005 -3.810729e-006 9.982235e-001 1.408729e-001 9.419939e-007 -1.098679e-005 1.002523e+000 1.414547e-001
332775000 6.016518e-006 9.226943e-007 9.998294e-001 1.015583e-001 -6.443801e-006 7.455203e-007 1.004181e+000 1.021354e-001
333060000 -1.500631e-005 2.439490e-007 9.995219e-001 6.264783e-002 6.552277e-006 -1.089923e-005 1.003928e+000 6.295612e-002
333345000 -6.183231e-006 9.517496e-006 9.974846e-001 2.406793e-002 -4.976054e-008 -5.776924e-006 1.001763e+000 2.412186e-002
333630000 8.521133e-006 4.442275e-006 9.935912e-001 -1.398009e-002 1.097657e-005 -1.281187e-005 9.979421e-001 -1.397361e-002
333915000 1.028901e-006 1.489218e-005 9.881719e-001 -5.145605e-002 -3.862930e-006 -6.012016e-006 9.925219e-001 -5.168673e-002
334200000 8.627124e-007 6.371040e-006 9.810143e-001 -8.824017e-002 -1.557810e-005 -2.407543e-006 9.853400e-001 -8.868407e-002
334485000 2.273445e-006 2.332831e-005 9.723974e-001 -1.243186e-001 9.358187e-007 9.055758e-006 9.766112e-001 -1.248745e-001
334770000 -8.668032e-006 7.575547e-006 9.623486e-001 -1.595657e-001 -5.345230e-006 -1.483733e-005 9.665855e-001 -1.602158e-001
335055000 -1.724022e-006 6.639735e-007 9.507684e-001 -1.938196e-001 8.722932e-006 -5.537627e-006 9.549145e-001 -1.946744e-001
335340000 1.599407e-005 -8.041142e-006 9.380027e-001 -2.271751e-001 9.013285e-006 1.502458e-005 9.421157e-001 -2.281758e-001
335625000 -5.947663e-006 -5.774137e-006 9.240018e-001 -2.595735e-001 -1.504185e-005 5.318442e-006 9.280570e-001 -2.605771e-001
335910000 -1.218294e-005 -5.267181e-007 9.087829e-001 -2.907690e-001 -5.130166e-006 1.172288e-005 9.127539e-001 -2.920046e-001
336195000 1.681847e-005 9.631482e-006 8.927143e-001 -3.209357e-001 -1.032223e-006 -2.280669e-006 8.965479e-001 -3.223330e-001
336480000 -9.664650e-006 4.631539e-006 8.755726e-001 -3.500796e-001 -4.118943e-006 7.254341e-006 8.793753e-001 -3.516100e-001
336765000 -5.797814e-006 -4.912423e-009 8.576263e-001 -3.780296e-001 -3.850518e-005 -5.563854e-007 8.613211e-001 -3.796707e-001
337050000 -5.467056e-006 6.783605e-006 8.388399e-001 -4.049574e-001 -1.242931e-005 -1.068351e-005 8.425202e-001 -4.066948e-001
337335000 3.897782e-006 9.625763e-006 8.193272e-001 -4.307626e-001 -5.659921e-006 1.164473e-005 8.229517e-001 -4.326517e-001
337620000 -8.642884e-006 3.821988e-007 7.992397e-001 -4.553653e-001 9.413438e-007 -1.504512e-006 8.027733e-001 -4.573832e-001
337905000 -1.065290e-005 5.168195e-006 7.786071e-001 -4.790221e-001 -1.282448e-005 -3.740602e-006 7.819188e-001 -4.810728e-001
338190000 -4.559562e-006 1.122730e-005 7.573806e-001 -5.013739e-001 2.439434e-006 7.940062e-007 7.605993e-001 -5.035752e-001
338475000 -1.346937e-005 4.530134e-006 7.357370e-001 -5.228361e-001 1.687411e-007 -1.141671e-005 7.390004e-001 -5.250349e-001
338760000 4.351776e-007 1.237517e-005 7.137716e-001 -5.430781e-001 1.085744e-005 -7.437259e-006 7.168244e-001 -5.454098e-001
339045000 1.203775e-005 -5.141262e-006 6.914656e-001 -5.622330e-001 1.195417e-005 -1.485075e-005 6.944062e-001 -5.646527e-001
339330000 5.835986e-006 -1.595767e-005 6.688595e-001 -5.805556e-001 8.678254e-007 7.162554e-006 6.716713e-001 -5.829554e-001
339615000 1.001287e-005 -2.889653e-006 6.459706e-001 -5.976958e-001 2.260191e-006 -8.320312e-006 6.487777e-001 -6.002932e-001
339900000 8.957229e-006 5.517664e-006 6.229595e-001 -6.139180e-001 1.518168e-005 -1.098686e-005 6.257403e-001 -6.165429e-001
340185000 6.346109e-006 3.150544e-006 5.998690e-001 -6.291599e-001 1.593582e-006 1.170694e-005 6.025087e-001 -6.319014e-001
340470000 1.522078e-005 -1.600802e-006 5.766608e-001 -6.435840e-001 4.189177e-006 4.954501e-006 5.791401e-001 -6.463054e-001
340755000 1.084506e-005 1.338762e-005 5.533350e-001 -6.570393e-001 -1.337040e-005 7.512052e-006 5.556606e-001 -6.598204e-001
341040000 -1.278314e-006 -1.166016e-006 5.300097e-001 -6.695977e-001 8.339887e-006 4.863428e-006 5.323242e-001 -6.723994e-001
341325000 -8.823527e-006 1.876807e-006 5.067473e-001 -6.813176e-001 -8.997741e-006 3.258199e-006 5.088300e-001 -6.841632e-001
341610000 -3.234271e-006 2.656895e-007 4.833695e-001 -6.922809e-001 -8.101603e-006 2.777253e-006 4.854179e-001 -6.951599e-001
341895000 3.897929e-006 9.242165e-007 4.600328e-001 -7.023373e-001 1.181597e-006 2.343334e-006 4.619939e-001 -7.053590e-001
342180000 -5.579411e-006 1.080712e-005 4.368191e-001 -7.117208e-001 -1.010869e-006 9.307611e-006 4.387522e-001 -7.147342e-001
342465000 1.778416e-005 -7.173998e-007 4.136100e-001 -7.204056e-001 -3.112119e-006 9.375378e-006 4.154477e-001 -7.234511e-001
342750000 -1.986942e-006 1.111156e-005 3.905297e-001 -7.283204e-001 -5.893779e-006 3.290241e-006 3.922648e-001 -7.314252e-001
343035000 -2.862476e-007 1.520267e-005 3.676386e-001 -7.355602e-001 -1.617663e-005 -4.804181e-006 3.691706e-001 -7.386414e-001
343320000 -1.304638e-005 3.083289e-006 3.447819e-001 -7.421836e-001 -7.778120e-006 -8.165805e-006 3.462443e-001 -7.452584e-001
343605000 -6.452523e-006 1.033027e-005 3.220375e-001 -7.481632e-001 -3.100351e-006 4.558089e-006 3.234466e-001 -7.512909e-001
343890000 -6.236543e-006 9.176451e-006 2.994721e-001 -7.534791e-001 -2.653819e-006 -3.025583e-006 3.007194e-001 -7.566493e-001
