!Agilent Technologies,N5230C,SG49000117,A.08.50.07
!Agilent N5230C: A.08.50.07
!Date: Sunday, March 17, 2024 06:48:59
!Correction: S11(Off) 
!S21(Off) 
!S12(Off) 
!S22(Off) 
!S2P File: Measurements: S11, S21, S12, S22:
# Hz S  RI   R 50
300000000 1.071631e-005 -5.599183e-006 -7.371461e-001 -4.254792e-001 1.290272e-005 3.952360e-006 -7.398873e-001 -4.270182e-001
300285000 1.554119e-006 -7.960186e-006 -7.449106e-001 -4.016651e-001 -2.892008e-006 -4.379172e-006 -7.476587e-001 -4.031472e-001
300570000 6.801526e-006 2.888249e-006 -7.520232e-001 -3.778106e-001 -9.854772e-006 -1.982651e-006 -7.548042e-001 -3.792442e-001
300855000 -7.900030e-006 -1.902387e-005 -7.583991e-001 -3.540922e-001 4.326406e-006 -7.844705e-007 -7.612069e-001 -3.554015e-001
301140000 1.319613e-006 2.204537e-006 -7.641480e-001 -3.304467e-001 -1.620467e-006 -9.123137e-007 -7.669989e-001 -3.316272e-001
301425000 8.205446e-007 -5.423963e-006 -7.692130e-001 -3.069153e-001 4.426227e-006 -1.434361e-005 -7.721182e-001 -3.080438e-001
301710000 3.480743e-006 -5.185631e-007 -7.736084e-001 -2.836335e-001 2.022536e-006 2.889993e-006 -7.765244e-001 -2.847114e-001
301995000 1.390566e-006 4.912010e-006 -7.774904e-001 -2.604288e-001 7.000579e-007 4.645102e-006 -7.803688e-001 -2.613703e-001
302280000 1.126719e-005 -1.091048e-005 -7.806754e-001 -2.374120e-001 -3.359545e-006 -2.339781e-006 -7.836390e-001 -2.383540e-001
302565000 1.303305e-005 5.613049e-006 -7.834200e-001 -2.145376e-001 -1.014952e-005 4.447662e-006 -7.862862e-001 -2.154473e-001
302850000 9.174253e-007 -1.180182e-005 -7.855386e-001 -1.920235e-001 -8.415901e-007 4.604754e-006 -7.885195e-001 -1.927463e-001
303135000 2.038019e-006 9.753539e-006 -7.871082e-001 -1.695346e-001 1.713391e-005 -9.090006e-007 -7.901420e-001 -1.701984e-001
303420000 3.116228e-006 2.168224e-006 -7.882223e-001 -1.472329e-001 -4.601106e-006 -1.406262e-005 -7.911940e-001 -1.477892e-001
303705000 -1.360938e-006 2.107905e-006 -7.888492e-001 -1.251645e-001 -3.364682e-007 3.080697e-007 -7.917958e-001 -1.256190e-001
303990000 -1.102176e-005 -8.563447e-006 -7.889843e-001 -1.032272e-001 2.225192e-006 -4.162216e-006 -7.919716e-001 -1.036685e-001
304275000 8.093856e-006 -3.359202e-006 -7.886090e-001 -8.149671e-002 5.006488e-006 6.936485e-006 -7.915786e-001 -8.183262e-002
304560000 5.106893e-006 -1.109335e-005 -7.877158e-001 -5.996213e-002 -4.336869e-006 5.559581e-006 -7.907542e-001 -6.024905e-002
304845000 7.448703e-006 2.103932e-006 -7.865064e-001 -3.863593e-002 -5.837500e-007 -7.128905e-006 -7.895620e-001 -3.883324e-002
305130000 -1.244155e-006 -1.350238e-005 -7.849768e-001 -1.754108e-002 5.021221e-006 -2.093409e-005 -7.879024e-001 -1.759133e-002
305415000 -4.901424e-006 -5.813035e-006 -7.828400e-001 3.503434e-003 -1.253389e-005 1.211127e-006 -7.858002e-001 3.520059e-003
305700000 -6.592913e-006 -1.428162e-005 -7.803177e-001 2.436695e-002 1.383084e-006 -7.153495e-006 -7.832635e-001 2.445059e-002
305985000 -2.985258e-006 -1.768224e-005 -7.774267e-001 4.511048e-002 9.392111e-006 -9.862125e-007 -7.803958e-001 4.519760e-002
306270000 4.344482e-006 -9.713393e-006 -7.739859e-001 6.556682e-002 6.598681e-006 -4.969962e-006 -7.769576e-001 6.580491e-002
306555000 1.396562e-005 -2.542466e-005 -7.703020e-001 8.589350e-002 2.556694e-006 -7.475156e-006 -7.732595e-001 8.622631e-002
306840000 -9.487294e-006 -5.096360e-006 -7.662153e-001 1.060724e-001 7.706755e-006 -9.202677e-006 -7.691922e-001 1.064575e-001
307125000 -1.799076e-006 2.347410e-006 -7.618026e-001 1.260910e-001 3.034266e-006 4.334441e-007 -7.646883e-001 1.265781e-001
307410000 3.843523e-006 -7.266205e-006 -7.569892e-001 1.459591e-001 5.390079e-006 2.472283e-005 -7.598928e-001 1.465167e-001
307695000 2.197323e-005 9.620332e-006 -7.517475e-001 1.656880e-001 1.653207e-005 1.007973e-005 -7.547181e-001 1.663559e-001
307980000 1.418029e-005 1.148891e-005 -7.462344e-001 1.853215e-001 4.720615e-006 -1.988156e-006 -7.490783e-001 1.860458e-001
308265000 -4.064244e-006 5.198648e-006 -7.402563e-001 2.047261e-001 -7.406141e-006 -8.115700e-006 -7.432271e-001 2.054858e-001
308550000 1.083252e-006 3.399838e-006 -7.340401e-001 2.240763e-001 2.405048e-006 -6.255887e-006 -7.368856e-001 2.248667e-001
308835000 -3.781844e-006 2.807011e-006 -7.274398e-001 2.431489e-001 -4.601382e-006 1.431943e-006 -7.302851e-001 2.441271e-001
309120000 1.081282e-005 1.231426e-005 -7.204491e-001 2.621829e-001 -1.932666e-006 -3.403740e-007 -7.232823e-001 2.632062e-001
309405000 -1.519175e-005 1.021447e-006 -7.131225e-001 2.810542e-001 2.841256e-006 -8.091941e-006 -7.159001e-001 2.821903e-001
309690000 -1.280792e-005 1.550012e-008 -7.054601e-001 2.998123e-001 1.131801e-006 -1.505234e-005 -7.081838e-001 3.010035e-001
309975000 -1.440342e-005 -7.509204e-006 -6.973690e-001 3.185182e-001 4.358844e-006 -1.464496e-005 -7.000861e-001 3.197773e-001
310260000 5.416203e-007 -4.639193e-006 -6.889277e-001 3.368978e-001 1.730978e-006 -1.818578e-005 -6.916625e-001 3.382334e-001
310545000 2.993454e-006 -4.649842e-006 -6.801779e-001 3.553756e-001 -4.538514e-006 -1.562707e-005 -6.829102e-001 3.567276e-001
310830000 1.854501e-006 -9.588138e-006 -6.710109e-001 3.736185e-001 1.995650e-006 -1.363756e-005 -6.737228e-001 3.750685e-001
311115000 -9.603638e-006 -1.294446e-006 -6.614732e-001 3.917803e-001 -2.454742e-006 -7.511223e-006 -6.641261e-001 3.932999e-001
311400000 -1.341157e-005 -1.433779e-005 -6.515911e-001 4.097904e-001 5.013584e-006 -1.789273e-005 -6.541442e-001 4.113782e-001
311685000 -9.291686e-006 -8.772977e-006 -6.412755e-001 4.276918e-001 2.255396e-007 -9.525483e-006 -6.438203e-001 4.293742e-001
311970000 7.442931e-007 -9.645732e-007 -6.305968e-001 4.454905e-001 1.453349e-005 2.889948e-006 -6.330751e-001 4.472270e-001
312255000 9.547200e-006 -6.934547e-006 -6.194409e-001 4.631656e-001 6.199516e-006 3.375347e-006 -6.219214e-001 4.650015e-001
312540000 2.037272e-005 -3.589285e-006 -6.079693e-001 4.806909e-001 3.359778e-006 2.775156e-006 -6.104098e-001 4.825975e-001
312825000 8.178479e-006 -3.171017e-006 -5.960276e-001 4.981453e-001 6.607710e-006 5.412494e-006 -5.983965e-001 5.000435e-001
313110000 -3.562558e-006 2.979272e-006 -5.836120e-001 5.154006e-001 2.998848e-007 -5.113675e-006 -5.859452e-001 5.174463e-001
313395000 2.868516e-006 2.776405e-006 -5.707636e-001 5.325081e-001 -3.099516e-006 5.479226e-006 -5.730779e-001 5.347207e-001
313680000 8.940545e-006 -1.504437e-005 -5.575007e-001 5.495636e-001 -1.386509e-007 3.465464e-006 -5.597602e-001 5.517253e-001
313965000 -1.503856e-006 2.396371e-006 -5.437501e-001 5.663922e-001 -4.295205e-006 2.527445e-006 -5.459159e-001 5.685866e-001
314250000 1.676929e-006 -3.474506e-006 -5.296054e-001 5.830684e-001 -8.938124e-006 -3.782092e-006 -5.317077e-001 5.854020e-001
314535000 -8.319568e-006 -1.212898e-006 -5.147675e-001 5.996765e-001 -2.406567e-006 -1.168723e-005 -5.168817e-001 6.020346e-001
314820000 -1.102134e-005 -1.113005e-005 -4.996344e-001 6.159800e-001 1.069941e-005 -1.676798e-007 -5.016752e-001 6.184388e-001
315105000 -5.155661e-006 -9.822176e-006 -4.838308e-001 6.321724e-001 -1.561630e-005 -2.471060e-006 -4.858276e-001 6.347124e-001
315390000 4.942749e-006 -7.188377e-006 -4.676276e-001 6.480944e-001 7.701373e-006 -7.827050e-006 -4.695526e-001 6.507019e-001
315675000 -3.027006e-006 1.057107e-005 -4.508445e-001 6.639163e-001 3.012585e-006 -1.295646e-005 -4.527058e-001 6.665318e-001
315960000 -8.291647e-006 -1.153336e-005 -4.334856e-001 6.794451e-001 1.742555e-005 -1.589858e-005 -4.352380e-001 6.821501e-001
316245000 -9.272959e-007 -5.502377e-006 -4.155681e-001 6.946295e-001 1.273789e-005 -6.358050e-006 -4.172693e-001 6.974465e-001
316530000 1.434095e-005 -2.705013e-006 -3.970193e-001 7.096531e-001 1.827654e-005 -6.868966e-006 -3.986630e-001 7.126254e-001
316815000 7.022038e-006 -3.425704e-006 -3.779584e-001 7.243895e-001 1.012513e-005 1.471717e-005 -3.795095e-001 7.273225e-001
317100000 1.098597e-005 -6.712924e-006 -3.581739e-001 7.387993e-001 1.417253e-005 5.560052e-006 -3.596828e-001 7.418275e-001
317385000 1.643061e-005 -6.950639e-006 -3.378769e-001 7.529202e-001 -9.809655e-006 -3.361350e-006 -3.392800e-001 7.560070e-001
317670000 1.686901e-006 -8.115957e-006 -3.169095e-001 7.666427e-001 -1.231912e-007 5.498786e-006 -3.182841e-001 7.696929e-001
317955000 6.350914e-006 6.807732e-006 -2.952452e-001 7.799382e-001 -3.265992e-006 1.165787e-005 -2.965370e-001 7.830608e-001
318240000 1.262348e-005 7.167841e-006 -2.730603e-001 7.928188e-001 -5.653562e-006 9.785961e-006 -2.741873e-001 7.960694e-001
318525000 1.123231e-005 -6.475231e-006 -2.500847e-001 8.052574e-001 3.963212e-006 -7.422454e-006 -2.511756e-001 8.085980e-001
318810000 -1.002307e-006 -5.880795e-006 -2.264952e-001 8.172508e-001 -1.155901e-005 -9.607279e-007 -2.274385e-001 8.205557e-001
319095000 -1.052008e-005 1.321294e-005 -2.022266e-001 8.286348e-001 1.504360e-006 5.500770e-006 -2.030407e-001 8.320493e-001
319380000 -6.244454e-006 2.372662e-006 -1.772183e-001 8.394845e-001 -9.918244e-006 -1.521329e-005 -1.780022e-001 8.429714e-001
319665000 -5.215807e-006 5.080620e-006 -1.515549e-001 8.496603e-001 3.227124e-007 -1.730086e-005 -1.522013e-001 8.531880e-001
319950000 -1.344369e-005 4.567568e-006 -1.251898e-001 8.592554e-001 7.270545e-006 -1.157638e-005 -1.257497e-001 8.628643e-001
320235000 -2.225256e-006 7.111953e-007 -9.814575e-002 8.682460e-001 3.330538e-006 -2.119382e-005 -9.852447e-002 8.717800e-001
320520000 -1.444901e-006 7.780734e-006 -7.045411e-002 8.762560e-001 -2.742920e-006 -4.744300e-006 -7.077102e-002 8.798819e-001
320805000 -9.270912e-006 -1.521592e-006 -4.211714e-002 8.836055e-001 4.655003e-006 -9.962193e-006 -4.218782e-002 8.873535e-001
321090000 4.141825e-006 -5.387967e-006 -1.295951e-002 8.900542e-001 1.634111e-005 -8.884752e-006 -1.307365e-002 8.937987e-001
321375000 -8.516131e-006 -9.753289e-007 1.672699e-002 8.956515e-001 7.391857e-006 -9.900400e-006 1.686983e-002 8.994152e-001
321660000 4.819935e-006 -8.932812e-006 4.704162e-002 9.001689e-001 5.373882e-006 -7.092684e-006 4.718800e-002 9.039333e-001
321945000 3.689218e-006 -1.199565e-005 7.802218e-002 9.037997e-001 -1.359957e-007 -1.322321e-005 7.831400e-002 9.075966e-001
322230000 1.013716e-006 -6.838136e-006 1.095602e-001 9.062606e-001 -4.215778e-006 -7.509349e-007 1.100007e-001 9.100208e-001
322515000 9.939128e-006 -4.521173e-006 1.416378e-001 9.076336e-001 -7.035218e-006 1.058037e-006 1.422014e-001 9.113618e-001
322800000 4.942975e-006 8.224529e-006 1.742263e-001 9.077076e-001 -3.120740e-007 2.775411e-006 1.748434e-001 9.115256e-001
323085000 -2.580211e-007 6.124164e-006 2.071460e-001 9.065271e-001 -1.223294e-005 2.517868e-006 2.080897e-001 9.104154e-001
323370000 -1.563303e-006 -3.804143e-006 2.406865e-001 9.040575e-001 -9.230120e-006 8.136326e-006 2.416127e-001 9.078575e-001
323655000 7.475626e-006 -1.960441e-005 2.743804e-001 9.001963e-001 -4.060586e-006 1.431567e-005 2.755255e-001 9.040219e-001
323940000 -3.726131e-006 -4.994378e-007 3.084578e-001 8.949587e-001 -7.824880e-006 3.449783e-006 3.097231e-001 8.987838e-001
324225000 -1.533052e-005 -2.789040e-006 3.426514e-001 8.881782e-001 7.970402e-007 -3.470347e-006 3.441457e-001 8.920650e-001
324510000 -5.236029e-006 3.787138e-006 3.770920e-001 8.799174e-001 -9.066261e-006 2.455762e-006 3.786759e-001 8.836713e-001
324795000 -4.547821e-006 -1.656206e-005 4.114949e-001 8.700355e-001 -1.103299e-005 -8.042582e-006 4.132207e-001 8.737311e-001
325080000 -2.031936e-006 -4.297382e-006 4.458601e-001 8.586364e-001 -7.621313e-006 -6.993333e-006 4.477994e-001 8.622826e-001
325365000 -1.286807e-006 -8.944634e-006 4.802141e-001 8.454590e-001 -2.889770e-006 -1.136387e-005 4.822340e-001 8.490639e-001
325650000 -4.383036e-006 -7.443288e-006 5.141807e-001 8.307297e-001 -3.167728e-006 -7.143985e-006 5.164129e-001 8.342270e-001
325935000 -9.916182e-007 1.027062e-005 5.478142e-001 8.142695e-001 1.511579e-006 1.361369e-006 5.502884e-001 8.176473e-001
326220000 -1.229539e-005 -2.932771e-006 5.811548e-001 7.960446e-001 -2.288778e-006 8.282329e-006 5.835778e-001 7.995245e-001
326505000 -6.278091e-007 -6.875064e-006 6.138582e-001 7.762717e-001 1.273312e-005 1.341180e-005 6.164104e-001 7.795603e-001
326790000 -8.374062e-006 -4.105065e-006 6.458749e-001 7.546849e-001 1.021378e-006 1.716482e-005 6.485079e-001 7.578743e-001
327075000 -6.145795e-006 2.694689e-006 6.769763e-001 7.314857e-001 -1.524381e-005 9.481491e-006 6.798672e-001 7.346339e-001
327360000 -8.297498e-006 5.223222e-006 7.073735e-001 7.067230e-001 -7.105257e-006 7.134479e-006 7.102852e-001 7.097032e-001
327645000 -6.077474e-006 7.734581e-006 7.366184e-001 6.801958e-001 -1.260053e-005 1.327825e-005 7.396921e-001 6.832083e-001
327930000 -6.777514e-006 -1.561841e-006 7.646625e-001 6.523284e-001 -1.605413e-005 -1.462480e-005 7.678832e-001 6.551684e-001
328215000 4.485347e-006 2.475133e-007 7.915414e-001 6.229456e-001 -1.535821e-005 1.974914e-006 7.949675e-001 6.255601e-001
328500000 -1.789054e-006 -7.706685e-006 8.169712e-001 5.920318e-001 6.235058e-006 1.024439e-005 8.205335e-001 5.945550e-001
328785000 1.491518e-006 1.389758e-006 8.410361e-001 5.599340e-001 8.034454e-007 8.008936e-006 8.446328e-001 5.624260e-001
329070000 -1.249339e-005 -2.130373e-006 8.636190e-001 5.266685e-001 4.621692e-006 -1.134757e-005 8.673078e-001 5.288811e-001
329355000 1.196281e-005 -6.316552e-006 8.845235e-001 4.919592e-001 4.857173e-006 -5.142057e-006 8.883553e-001 4.941316e-001
329640000 1.142515e-005 -4.534339e-006 9.036681e-001 4.565536e-001 5.431798e-006 -6.752137e-006 9.075452e-001 4.585853e-001
329925000 -6.493944e-006 9.047507e-006 9.210188e-001 4.202373e-001 -8.105604e-006 7.154963e-006 9.250413e-001 4.219114e-001
330210000 6.001505e-007 7.532333e-006 9.366253e-001 3.829342e-001 -1.099250e-005 -4.325185e-006 9.407089e-001 3.846683e-001
330495000 -5.617255e-006 1.128747e-005 9.504004e-001 3.450901e-001 7.797246e-008 -5.605538e-006 9.544937e-001 3.466298e-001
330780000 2.955996e-006 -1.820675e-006 9.621648e-001 3.068061e-001 1.058417e-006 1.591608e-005 9.663403e-001 3.081169e-001
331065000 -9.850542e-006 1.576897e-005 9.720664e-001 2.680401e-001 -1.621451e-006 -2.697916e-006 9.762357e-001 2.692517e-001
331350000 4.213424e-006 -1.817686e-006 9.799494e-001 2.289976e-001 5.346099e-006 8.032817e-006 9.843354e-001 2.299804e-001
331635000 -1.631237e-005 -1.943241e-005 9.860374e-001 1.898644e-001 -2.144572e-006 3.374410e-006 9.902839e-001 1.907364e-001
331920000 -4.711112e-006 -8.138347e-006 9.901384e-001 1.506371e-001 -1.049816e-005 1.507587e-005 9.944086e-001 1.513691e-001
332205000 -9.870679e-006 1.834643e-005 9.923047e-001 1.116823e-001 -1.181974e-006 -4.320154e-006 9.966971e-001 1.121482e-001
332490000 5.881216e-007 4.778785e-006 9.926411e-001 7.290513e-002 -6.874543e-006 -7.210609e-006 9.970536e-001 7.307012e-002
332775000 -5.537203e-006 -3.480942e-006 9.912985e-001 3.434280e-002 7.434167e-006 -2.319475e-005 9.956745e-001 3.448806e-002
333060000 -4.298386e-006 -5.846264e-006 9.880640e-001 -3.616497e-003 1.718797e-005 -8.526176e-006 9.924341e-001 -3.688950e-003
333345000 2.761980e-006 -8.479718e-006 9.831653e-001 -4.126633e-002 -3.421927e-006 -5.312877e-006 9.875097e-001 -4.130297e-002
333630000 -4.287721e-006 -5.252833e-007 9.766011e-001 -7.812513e-002 -7.149692e-006 4.056262e-006 9.809132e-001 -7.835402e-002
333915000 1.420551e-006 -3.938759e-006 9.684629e-001 -1.142633e-001 7.017061e-006 3.191212e-006 9.728416e-001 -1.146235e-001
334200000 -6.029841e-006 -5.159424e-006 9.589354e-001 -1.495065e-001 7.306837e-006 -1.364415e-006 9.631466e-001 -1.501712e-001
334485000 1.687789e-006 5.306770e-006 9.480660e-001 -1.840294e-001 7.096919e-006 7.856954e-007 9.521509e-001 -1.847790e-001
334770000 -7.467038e-006 -1.032255e-005 9.357100e-001 -2.176054e-001 -3.118219e-007 -7.623650e-006 9.398574e-001 -2.185550e-001
335055000 -9.838182e-006 -8.881662e-006 9.220784e-001 -2.500141e-001 4.034142e-006 5.181219e-006 9.261980e-001 -2.511785e-001
335340000 -2.015021e-005 2.428368e-006 9.074160e-001 -2.816269e-001 5.398597e-007 -1.086653e-005 9.114331e-001 -2.828202e-001
335625000 3.313637e-006 -4.873064e-006 8.916249e-001 -3.120382e-001 -6.750618e-006 -2.984590e-006 8.955671e-001 -3.133670e-001
335910000 -6.602422e-006 1.007511e-006 8.748562e-001 -3.414641e-001 3.453589e-007 -4.565508e-006 8.787192e-001 -3.429068e-001
336195000 -7.479712e-006 -1.419992e-005 8.572053e-001 -3.696399e-001 7.898613e-006 -3.119767e-006 8.609537e-001 -3.713161e-001
336480000 1.311160e-005 2.067628e-006 8.387377e-001 -3.968778e-001 7.289572e-007 -5.095103e-006 8.423332e-001 -3.985928e-001
336765000 8.292978e-006 -1.170545e-005 8.194541e-001 -4.229395e-001 7.831599e-006 7.417560e-006 8.230910e-001 -4.247046e-001
337050000 2.161908e-006 2.174029e-006 7.996187e-001 -4.478042e-001 9.238228e-007 -7.402947e-006 8.031249e-001 -4.497186e-001
337335000 -8.353578e-006 -2.285874e-006 7.790811e-001 -4.716181e-001 8.292927e-006 9.124427e-006 7.824091e-001 -4.736728e-001
337620000 1.470040e-005 1.163310e-005 7.580357e-001 -4.943122e-001 8.044131e-006 2.591348e-006 7.614214e-001 -4.964872e-001
337905000 9.213953e-006 6.328316e-006 7.365350e-001 -5.159485e-001 9.339821e-006 -7.880336e-006 7.397325e-001 -5.182076e-001
338190000 -1.028598e-006 3.170187e-006 7.146940e-001 -5.364989e-001 7.419690e-006 1.599803e-005 7.177683e-001 -5.387908e-001
338475000 -8.365360e-006 -1.833095e-006 6.924716e-001 -5.559793e-001 3.541250e-006 1.892958e-005 6.954721e-001 -5.583555e-001
338760000 8.254920e-006 9.876525e-006 6.699200e-001 -5.743932e-001 3.220455e-007 1.050459e-005 6.727974e-001 -5.768618e-001
339045000 -5.539562e-006 -1.161469e-008 6.472340e-001 -5.917271e-001 3.573507e-007 1.102191e-005 6.499845e-001 -5.943623e-001
339330000 -1.066494e-005 8.209537e-006 6.242227e-001 -6.082842e-001 -3.986548e-007 1.807934e-005 6.269475e-001 -6.108788e-001
339615000 2.137765e-006 1.694839e-005 6.011936e-001 -6.236503e-001 -3.633562e-006 8.308114e-006 6.037878e-001 -6.263927e-001
339900000 -8.689513e-006 -1.956182e-005 5.778872e-001 -6.382758e-001 -5.677050e-006 4.228417e-006 5.804177e-001 -6.409571e-001
340185000 -1.293044e-005 -5.238031e-006 5.546546e-001 -6.518590e-001 1.756829e-006 -7.244530e-006 5.570174e-001 -6.546526e-001
340470000 -1.397021e-005 2.543049e-006 5.312971e-001 -6.645371e-001 -1.339416e-006 -2.824931e-006 5.335996e-001 -6.673922e-001
340755000 -4.046484e-006 7.605691e-006 5.079644e-001 -6.764315e-001 8.485358e-006 1.236226e-005 5.101885e-001 -6.792707e-001
341040000 3.592694e-006 -9.476455e-006 4.846170e-001 -6.875055e-001 -1.922182e-006 -1.242562e-006 4.867353e-001 -6.903825e-001
341325000 -8.432488e-006 -1.245154e-005 4.612775e-001 -6.977626e-001 -1.166328e-005 4.790269e-006 4.633388e-001 -7.007450e-001
341610000 1.685202e-006 4.243827e-006 4.379978e-001 -7.071792e-001 -9.005570e-007 -8.343464e-006 4.399307e-001 -7.101891e-001
341895000 6.873264e-006 8.125978e-007 4.148479e-001 -7.159827e-001 9.572333e-007 9.742927e-007 4.166337e-001 -7.189869e-001
342180000 -2.216785e-006 -4.547514e-006 3.917497e-001 -7.239512e-001 -1.625220e-006 7.832913e-006 3.934801e-001 -7.270560e-001
342465000 -3.250927e-006 -4.349397e-006 3.687430e-001 -7.312287e-001 -1.270203e-005 5.947430e-006 3.703375e-001 -7.343716e-001
342750000 1.191382e-005 8.388001e-006 3.458591e-001 -7.379892e-001 -4.160036e-006 -4.343038e-006 3.473108e-001 -7.410829e-001
343035000 -1.150844e-005 5.283157e-006 3.230792e-001 -7.440023e-001 5.608154e-006 1.881421e-006 3.245225e-001 -7.471508e-001
343320000 -7.861757e-006 1.084814e-005 3.004572e-001 -7.494659e-001 4.013265e-006 1.014111e-005 3.017919e-001 -7.525976e-001
343605000 3.871874e-006 2.473856e-005 2.779683e-001 -7.542648e-001 7.583487e-006 1.630614e-006 2.792148e-001 -7.573906e-001
343890000 7.300975e-006 1.848868e-006 2.556776e-001 -7.584262e-001 -1.426026e-005 -7.382066e-006 2.567173e-001 -7.616133e-001
