!Agilent Technologies,N5230C,SG49000117,A.08.50.07
!Agilent N5230C: A.08.50.07
!Date: Sunday, March 17, 2024 06:52:23
!Correction: S11(Off) 
!S21(Off) 
!S12(Off) 
!S22(Off) 
!S2P File: Measurements: S11, S21, S12, S22:
# Hz S  RI   R 50
300000000 -2.248680e-007 -3.039158e-006 -7.487240e-001 -3.956646e-001 1.735711e-005 2.194261e-007 -7.514568e-001 -3.971804e-001
300285000 1.431854e-005 6.535792e-006 -7.555987e-001 -3.718815e-001 6.258032e-006 -7.583651e-006 -7.583268e-001 -3.732356e-001
300570000 -1.983264e-005 -5.159232e-006 -7.617341e-001 -3.480610e-001 -3.770129e-006 1.290369e-006 -7.645690e-001 -3.493564e-001
300855000 2.247740e-006 8.655786e-008 -7.672334e-001 -3.244319e-001 -1.933895e-005 1.217385e-005 -7.701441e-001 -3.255960e-001
301140000 -1.505881e-006 -5.487305e-006 -7.722285e-001 -3.007376e-001 -7.701663e-006 7.463611e-006 -7.750161e-001 -3.018555e-001
301425000 -9.222720e-007 3.179160e-008 -7.764288e-001 -2.773828e-001 -5.669067e-006 2.048424e-005 -7.792719e-001 -2.783418e-001
301710000 3.047098e-006 8.299207e-006 -7.800933e-001 -2.540652e-001 -1.136158e-005 -1.956284e-005 -7.829840e-001 -2.549687e-001
301995000 9.858223e-006 2.003428e-006 -7.830701e-001 -2.309764e-001 -4.723360e-006 8.091886e-006 -7.860789e-001 -2.319230e-001
302280000 3.357192e-007 -2.119987e-005 -7.856643e-001 -2.080678e-001 -9.582570e-006 -1.089712e-005 -7.885218e-001 -2.089202e-001
302565000 7.687937e-006 4.504007e-006 -7.875260e-001 -1.853563e-001 -8.912462e-006 -9.049923e-007 -7.904499e-001 -1.860396e-001
302850000 7.771041e-006 -1.833309e-005 -7.888814e-001 -1.629217e-001 4.089635e-006 -4.649799e-006 -7.919078e-001 -1.635186e-001
303135000 1.009430e-005 -7.317877e-006 -7.898694e-001 -1.405218e-001 -4.427885e-006 -6.849848e-006 -7.928148e-001 -1.410446e-001
303420000 -2.978986e-006 -1.956337e-005 -7.902123e-001 -1.183930e-001 -4.647308e-006 -1.761054e-005 -7.932301e-001 -1.189006e-001
303705000 1.972339e-005 -1.069965e-005 -7.900721e-001 -9.648190e-002 6.745735e-006 1.230066e-005 -7.931398e-001 -9.678379e-002
303990000 -5.111242e-006 1.246466e-005 -7.895331e-001 -7.470006e-002 1.550898e-005 -2.390668e-006 -7.925629e-001 -7.494820e-002
304275000 1.527076e-005 -4.974908e-006 -7.885474e-001 -5.314342e-002 8.156437e-006 -4.496803e-006 -7.916201e-001 -5.334282e-002
304560000 2.087172e-005 -2.786217e-006 -7.871175e-001 -3.180527e-002 1.016954e-005 -9.621874e-006 -7.901449e-001 -3.184864e-002
304845000 2.204852e-005 -6.340230e-006 -7.852505e-001 -1.052249e-002 9.014752e-006 1.145364e-005 -7.882392e-001 -1.058321e-002
305130000 -7.911167e-006 3.787168e-007 -7.830405e-001 1.042784e-002 3.756326e-007 -9.389661e-006 -7.859961e-001 1.052732e-002
305415000 5.446105e-006 1.667195e-007 -7.802626e-001 3.130056e-002 7.884840e-007 -4.454484e-007 -7.833345e-001 3.143743e-002
305700000 -1.226466e-005 1.441774e-005 -7.771960e-001 5.201771e-002 -1.055225e-006 2.294159e-005 -7.801275e-001 5.219486e-002
305985000 -2.231191e-006 7.006027e-006 -7.736789e-001 7.252529e-002 -9.834769e-006 -8.558187e-007 -7.766546e-001 7.280394e-002
306270000 1.344552e-007 -4.329684e-006 -7.697802e-001 9.286337e-002 6.411702e-006 9.813520e-006 -7.726943e-001 9.326427e-002
306555000 -4.707043e-006 -1.053962e-005 -7.655126e-001 1.130591e-001 -4.844868e-007 -7.078384e-006 -7.684336e-001 1.133985e-001
306840000 2.968292e-006 3.439039e-006 -7.608261e-001 1.330755e-001 -7.019713e-006 5.316889e-006 -7.638024e-001 1.336211e-001
307125000 -1.437114e-005 -1.571414e-005 -7.557809e-001 1.529652e-001 -6.656373e-006 -2.720220e-005 -7.587521e-001 1.534918e-001
307410000 9.012868e-007 -5.030604e-006 -7.504869e-001 1.726775e-001 7.241305e-006 -2.105706e-005 -7.533708e-001 1.733182e-001
307695000 -1.992763e-006 -1.270541e-005 -7.447531e-001 1.922007e-001 1.789504e-005 -2.280013e-006 -7.475932e-001 1.929401e-001
307980000 3.511757e-006 -1.487966e-006 -7.385868e-001 2.115995e-001 9.406333e-006 6.620446e-006 -7.414557e-001 2.124243e-001
308265000 4.590280e-006 -1.268830e-005 -7.322159e-001 2.308856e-001 9.158061e-006 -2.959830e-006 -7.350154e-001 2.317857e-001
308550000 5.212839e-006 5.430162e-006 -7.253236e-001 2.500052e-001 -2.804668e-006 -2.805913e-006 -7.281286e-001 2.509247e-001
308835000 4.514935e-006 6.626815e-006 -7.181628e-001 2.690215e-001 6.911464e-006 8.470391e-008 -7.209370e-001 2.700521e-001
309120000 -6.542351e-006 4.536383e-006 -7.106472e-001 2.879342e-001 -2.875665e-007 -1.134856e-005 -7.133877e-001 2.889961e-001
309405000 -3.370924e-006 4.403747e-006 -7.027339e-001 3.065541e-001 -2.034263e-005 4.250419e-006 -7.054820e-001 3.077001e-001
309690000 -9.537938e-006 -3.598505e-006 -6.944975e-001 3.251424e-001 1.861326e-005 -8.051395e-006 -6.972628e-001 3.264154e-001
309975000 4.091819e-006 1.468990e-006 -6.858805e-001 3.436167e-001 5.309684e-006 7.531022e-006 -6.885782e-001 3.450195e-001
310260000 -1.793854e-005 -6.694224e-006 -6.768929e-001 3.619652e-001 1.400088e-006 1.144625e-005 -6.795760e-001 3.633671e-001
310545000 -9.113287e-006 -1.457638e-005 -6.675512e-001 3.801357e-001 -2.986905e-005 -1.421472e-005 -6.701937e-001 3.817208e-001
310830000 -1.937045e-005 -9.363194e-006 -6.578379e-001 3.982759e-001 -1.816963e-007 -1.231517e-005 -6.604605e-001 3.998319e-001
311115000 1.692521e-005 -2.317841e-006 -6.477414e-001 4.162317e-001 -1.539095e-005 -4.483009e-006 -6.502941e-001 4.178065e-001
311400000 -8.859248e-006 -9.117613e-006 -6.372890e-001 4.340699e-001 3.165685e-006 1.231850e-005 -6.397628e-001 4.357823e-001
311685000 -4.423079e-006 -3.663806e-006 -6.262890e-001 4.517529e-001 1.344168e-005 -2.998797e-005 -6.288524e-001 4.535332e-001
311970000 -1.108175e-006 -1.058950e-005 -6.150370e-001 4.693507e-001 -2.570281e-006 7.067708e-006 -6.174790e-001 4.712554e-001
312255000 -9.250803e-007 -2.098391e-006 -6.032969e-001 4.867491e-001 6.398698e-006 -2.176482e-006 -6.057172e-001 4.886441e-001
312540000 -7.083608e-006 -1.166154e-005 -5.912019e-001 5.040870e-001 9.299677e-007 2.222660e-006 -5.935630e-001 5.061497e-001
312825000 -8.325056e-007 -6.939911e-006 -5.785706e-001 5.213114e-001 -8.027891e-006 8.914444e-006 -5.808626e-001 5.233139e-001
313110000 -9.333768e-006 -3.127732e-006 -5.656137e-001 5.384052e-001 1.701528e-005 -2.918845e-006 -5.677404e-001 5.405214e-001
313395000 -4.142366e-006 2.746685e-006 -5.520633e-001 5.552037e-001 -8.727149e-006 4.862933e-006 -5.543404e-001 5.573961e-001
313680000 6.711262e-007 -1.150215e-005 -5.381714e-001 5.720509e-001 -2.334836e-005 -5.658454e-006 -5.403144e-001 5.742062e-001
313965000 -1.831522e-006 -7.802883e-006 -5.237307e-001 5.885934e-001 -1.491341e-006 1.818898e-008 -5.258308e-001 5.909842e-001
314250000 9.037223e-006 1.351142e-005 -5.088423e-001 6.050079e-001 -7.831094e-006 -6.919764e-007 -5.108942e-001 6.074409e-001
314535000 -2.329642e-006 1.007787e-006 -4.934164e-001 6.211767e-001 -3.600963e-006 1.481884e-005 -4.954180e-001 6.236981e-001
314820000 1.650071e-005 6.840874e-006 -4.775653e-001 6.372593e-001 4.677851e-006 -1.025595e-005 -4.793961e-001 6.398047e-001
315105000 3.796338e-006 -1.093892e-005 -4.610735e-001 6.531332e-001 4.152630e-006 -1.330300e-005 -4.628854e-001 6.557795e-001
315390000 8.246860e-006 2.753076e-006 -4.440717e-001 6.686670e-001 5.116096e-006 -1.788812e-006 -4.458544e-001 6.713341e-001
315675000 3.103771e-006 -1.417638e-006 -4.265261e-001 6.840270e-001 1.143549e-005 -1.397115e-006 -4.281880e-001 6.867772e-001
315960000 1.142646e-005 -8.060273e-006 -4.084244e-001 6.991872e-001 1.187744e-006 7.000477e-006 -4.100716e-001 7.019272e-001
316245000 -4.080217e-006 9.520064e-006 -3.897212e-001 7.140163e-001 -7.066189e-006 2.396291e-005 -3.912578e-001 7.169094e-001
316530000 2.594984e-006 1.247271e-007 -3.703533e-001 7.285476e-001 -2.522258e-006 2.278594e-005 -3.719685e-001 7.314970e-001
316815000 3.501616e-006 1.011669e-005 -3.505166e-001 7.427220e-001 -3.647104e-006 -4.503283e-006 -3.519783e-001 7.457965e-001
317100000 1.393697e-005 1.624179e-005 -3.300226e-001 7.566238e-001 -1.595910e-005 -1.846324e-006 -3.313947e-001 7.596965e-001
317385000 2.966981e-006 -2.166824e-006 -3.088617e-001 7.701929e-001 7.277575e-006 4.279712e-006 -3.100652e-001 7.732728e-001
317670000 -7.160251e-006 5.528568e-006 -2.871495e-001 7.832569e-001 4.787896e-007 8.179331e-006 -2.883020e-001 7.863901e-001
317955000 1.282390e-005 1.227730e-006 -2.646740e-001 7.959163e-001 1.703104e-006 -2.970767e-006 -2.657131e-001 7.991691e-001
318240000 -2.896906e-006 -9.771967e-007 -2.415145e-001 8.081935e-001 -1.675376e-006 -8.991559e-007 -2.424941e-001 8.114981e-001
318525000 4.345594e-006 -6.283435e-007 -2.177539e-001 8.199164e-001 -6.275812e-006 1.853092e-005 -2.186460e-001 8.232703e-001
318810000 7.484236e-006 1.748962e-007 -1.932023e-001 8.310777e-001 3.829798e-006 3.701990e-006 -1.940712e-001 8.344265e-001
319095000 1.940846e-006 -9.281091e-006 -1.681773e-001 8.416406e-001 -2.305040e-005 1.107899e-005 -1.688302e-001 8.451064e-001
319380000 -3.232270e-006 -6.628032e-007 -1.422633e-001 8.517015e-001 4.317382e-006 -8.966786e-006 -1.428617e-001 8.551862e-001
319665000 2.004878e-006 -1.475131e-006 -1.158488e-001 8.609300e-001 2.910559e-006 -5.331929e-006 -1.162648e-001 8.644927e-001
319950000 2.227881e-006 -1.102758e-005 -8.866383e-002 8.694983e-001 2.343130e-006 -4.377675e-006 -8.900818e-002 8.730779e-001
320235000 2.780224e-006 9.145419e-006 -6.084526e-002 8.773463e-001 -4.595140e-006 -1.060716e-005 -6.100815e-002 8.810177e-001
320520000 -9.454620e-006 -2.264976e-005 -3.220798e-002 8.844962e-001 1.389623e-006 -1.167441e-006 -3.236775e-002 8.880771e-001
320805000 -3.748582e-006 -4.476003e-006 -3.034560e-003 8.905767e-001 -5.926654e-006 -1.590750e-005 -3.073204e-003 8.942817e-001
321090000 -1.217978e-005 -4.651589e-006 2.679071e-002 8.957632e-001 -6.018803e-006 3.496670e-006 2.681369e-002 8.995540e-001
321375000 5.630252e-006 -5.316776e-006 5.726010e-002 8.999965e-001 3.912350e-006 -1.494365e-005 5.738899e-002 9.037611e-001
321660000 -5.415779e-008 9.800607e-006 8.831639e-002 9.032970e-001 -2.155975e-006 1.216862e-005 8.859602e-002 9.070532e-001
321945000 -2.379388e-006 -6.629789e-007 1.198373e-001 9.053622e-001 4.412174e-006 4.858985e-006 1.202856e-001 9.090892e-001
322230000 -1.387056e-005 -1.275592e-005 1.519790e-001 9.062866e-001 -1.851889e-005 2.625745e-006 1.525856e-001 9.100665e-001
322515000 6.789310e-006 -1.905631e-005 1.847325e-001 9.060866e-001 1.567508e-005 -1.104275e-006 1.854003e-001 9.098854e-001
322800000 -1.085179e-005 -4.317002e-006 2.176562e-001 9.045724e-001 -2.183402e-006 -1.868606e-006 2.185708e-001 9.083284e-001
323085000 -1.300609e-005 -1.354413e-005 2.511492e-001 9.017148e-001 7.428587e-006 1.674242e-005 2.520996e-001 9.054641e-001
323370000 -5.086402e-006 -9.086447e-006 2.848874e-001 8.974597e-001 -2.004219e-005 8.122686e-006 2.860964e-001 9.011129e-001
323655000 -4.465780e-006 1.032109e-005 3.189125e-001 8.917671e-001 -2.210005e-005 5.537362e-006 3.201903e-001 8.955289e-001
323940000 -8.045125e-006 8.617042e-006 3.532366e-001 8.846035e-001 -1.622756e-005 7.136006e-006 3.546472e-001 8.883746e-001
324225000 1.747258e-005 -3.841730e-006 3.874435e-001 8.759611e-001 -1.057184e-006 -9.759709e-006 3.891111e-001 8.796527e-001
324510000 -5.201134e-006 -6.431406e-006 4.219828e-001 8.656462e-001 9.364767e-007 -5.552176e-006 4.237782e-001 8.692939e-001
324795000 -8.346917e-007 5.720429e-006 4.562606e-001 8.537711e-001 -1.986438e-005 -3.089733e-006 4.580819e-001 8.573388e-001
325080000 -1.375189e-005 -1.124291e-005 4.902898e-001 8.402256e-001 1.095650e-006 -1.507596e-005 4.923856e-001 8.436724e-001
325365000 9.794613e-006 -2.919542e-006 5.244253e-001 8.249806e-001 -6.799943e-006 2.573999e-006 5.266225e-001 8.285090e-001
325650000 -8.769310e-006 9.288855e-006 5.578358e-001 8.080556e-001 1.032774e-005 -1.214596e-005 5.602120e-001 8.115536e-001
325935000 -4.543605e-006 1.072216e-006 5.909669e-001 7.894801e-001 -1.712492e-007 1.138349e-006 5.934688e-001 7.929109e-001
326220000 -4.392015e-006 6.453376e-006 6.234085e-001 7.691824e-001 4.255383e-006 -3.711277e-006 6.261310e-001 7.724964e-001
326505000 2.456332e-006 5.156378e-006 6.552096e-001 7.471915e-001 5.774641e-006 9.763938e-006 6.580175e-001 7.504375e-001
326790000 -5.383767e-006 1.002857e-007 6.861978e-001 7.235598e-001 7.372412e-007 7.526060e-007 6.891111e-001 7.266796e-001
327075000 -1.424601e-005 8.403742e-007 7.161781e-001 6.983597e-001 4.898618e-006 1.631609e-005 7.192186e-001 7.013661e-001
327360000 1.198163e-005 -3.028178e-006 7.451454e-001 6.716069e-001 -1.441644e-005 1.336241e-005 7.483255e-001 6.744261e-001
327645000 6.121924e-006 5.732239e-006 7.730014e-001 6.431190e-001 -1.671391e-006 1.239868e-005 7.763749e-001 6.458991e-001
327930000 -5.519468e-006 -1.622438e-005 7.996136e-001 6.133311e-001 -1.406183e-005 -2.921157e-006 8.029822e-001 6.158978e-001
328215000 -1.309154e-005 -1.556908e-005 8.246918e-001 5.821773e-001 -1.812925e-005 -1.516866e-005 8.282372e-001 5.846403e-001
328500000 -8.215546e-006 3.206180e-006 8.484873e-001 5.496106e-001 1.031636e-005 2.332074e-006 8.519820e-001 5.519359e-001
328785000 -2.377648e-005 6.041238e-006 8.704818e-001 5.159589e-001 9.956380e-006 -1.498528e-006 8.742622e-001 5.181916e-001
329070000 -8.449570e-006 -2.722565e-005 8.908643e-001 4.812405e-001 1.267362e-005 1.288140e-006 8.946993e-001 4.832221e-001
329355000 2.376899e-006 -2.210797e-005 9.097146e-001 4.452514e-001 2.195744e-006 -7.025247e-006 9.135740e-001 4.471206e-001
329640000 -1.188956e-005 6.509526e-007 9.266624e-001 4.086699e-001 1.214719e-005 4.562933e-006 9.306162e-001 4.103862e-001
329925000 -3.222831e-008 1.382848e-006 9.417244e-001 3.711357e-001 -2.701025e-006 -2.141889e-006 9.457730e-001 3.727326e-001
330210000 -1.530370e-005 3.953544e-006 9.549485e-001 3.330098e-001 -3.135407e-006 1.387548e-005 9.591038e-001 3.345533e-001
330495000 -6.680316e-006 4.118978e-006 9.663331e-001 2.944836e-001 6.502099e-006 4.587208e-006 9.703994e-001 2.957230e-001
330780000 -5.790230e-006 -3.688000e-006 9.756148e-001 2.555973e-001 5.701743e-007 4.058535e-006 9.798459e-001 2.566003e-001
331065000 -9.726489e-007 -9.070025e-006 9.830699e-001 2.164083e-001 -6.882224e-006 1.464156e-005 9.872935e-001 2.173364e-001
331350000 -7.984566e-006 -1.222037e-005 9.884699e-001 1.771044e-001 -9.879507e-006 1.100265e-005 9.928163e-001 1.778890e-001
331635000 7.395125e-006 -2.727676e-006 9.920977e-001 1.377044e-001 -1.491546e-006 -1.095454e-005 9.964575e-001 1.384252e-001
331920000 -1.745333e-005 8.677907e-006 9.938112e-001 9.862351e-002 1.607288e-005 -1.832148e-005 9.980850e-001 9.912629e-002
332205000 2.650452e-006 1.078440e-005 9.936005e-001 5.983648e-002 -1.514807e-005 -1.894089e-005 9.979937e-001 6.008235e-002
332490000 -3.911724e-006 2.419196e-005 9.916286e-001 2.130014e-002 1.454149e-005 -1.328332e-005 9.959458e-001 2.138419e-002
332775000 -8.968943e-006 -2.049535e-006 9.878786e-001 -1.667995e-002 1.565149e-006 -1.185210e-005 9.920471e-001 -1.675302e-002
333060000 -9.608045e-006 1.138678e-005 9.824306e-001 -5.412865e-002 3.010654e-006 9.473013e-006 9.867082e-001 -5.437467e-002
333345000 -5.151431e-006 6.396723e-006 9.753596e-001 -9.093839e-002 7.246955e-006 7.521153e-006 9.796009e-001 -9.138761e-002
333630000 9.304232e-007 -1.562582e-006 9.667559e-001 -1.270503e-001 8.537223e-006 -7.858765e-006 9.709620e-001 -1.274942e-001
333915000 -4.829200e-007 1.708578e-005 9.566606e-001 -1.622707e-001 -7.390288e-006 -4.452515e-006 9.608729e-001 -1.629262e-001
334200000 -9.551354e-006 7.559354e-006 9.452742e-001 -1.965429e-001 3.375225e-006 6.711473e-007 9.492979e-001 -1.974268e-001
334485000 -5.277164e-006 1.075840e-005 9.323077e-001 -2.300410e-001 1.459245e-006 -2.173976e-005 9.364920e-001 -2.309759e-001
334770000 1.164491e-005 7.939482e-006 9.183705e-001 -2.623940e-001 2.354296e-005 -7.671027e-006 9.223727e-001 -2.635202e-001
335055000 1.095803e-007 -1.800045e-006 9.032273e-001 -2.937244e-001 -1.398358e-005 -7.297790e-006 9.071946e-001 -2.950380e-001
335340000 -1.099845e-005 -3.863554e-006 8.869349e-001 -3.239796e-001 9.101150e-006 -1.061054e-005 8.908717e-001 -3.254223e-001
335625000 -3.166729e-008 1.400558e-005 8.697722e-001 -3.531930e-001 -5.283513e-006 7.631119e-007 8.735856e-001 -3.546890e-001
335910000 7.574344e-007 -2.747915e-006 8.516819e-001 -3.811134e-001 1.990165e-005 -9.680420e-006 8.554127e-001 -3.828780e-001
336195000 -4.310850e-006 -1.875783e-006 8.327875e-001 -4.080329e-001 2.778055e-006 -3.262144e-006 8.363965e-001 -4.097525e-001
336480000 -5.319136e-006 -2.772206e-006 8.130949e-001 -4.338585e-001 8.921269e-006 -3.277782e-006 8.166736e-001 -4.356579e-001
336765000 -9.201851e-006 1.672021e-006 7.928345e-001 -4.583791e-001 5.287964e-006 7.860099e-006 7.963206e-001 -4.603577e-001
337050000 -2.462781e-006 -1.457075e-005 7.720463e-001 -4.819497e-001 6.699378e-006 9.952887e-006 7.754557e-001 -4.839435e-001
337335000 5.117488e-006 3.642312e-006 7.507026e-001 -5.043418e-001 1.047842e-005 6.195322e-006 7.539320e-001 -5.065624e-001
337620000 -7.113378e-006 -1.587363e-006 7.288901e-001 -5.256582e-001 1.182864e-005 1.123473e-005 7.320603e-001 -5.279025e-001
337905000 -4.117895e-006 -1.541167e-005 7.067897e-001 -5.458781e-001 3.171704e-006 1.252246e-005 7.098310e-001 -5.483017e-001
338190000 -8.259281e-006 5.031886e-006 6.841698e-001 -5.649907e-001 -3.285058e-007 1.128037e-005 6.871731e-001 -5.674675e-001
338475000 -1.129856e-006 1.248232e-006 6.614830e-001 -5.831246e-001 4.430297e-006 1.593700e-006 6.643451e-001 -5.855362e-001
338760000 -6.914269e-006 -1.101643e-005 6.383989e-001 -6.001847e-001 3.241024e-006 -3.022895e-006 6.412123e-001 -6.027772e-001
339045000 6.435151e-006 -1.438233e-005 6.152796e-001 -6.163046e-001 -9.402088e-006 -1.740593e-007 6.179511e-001 -6.188492e-001
339330000 2.436159e-005 -3.445450e-006 5.918886e-001 -6.313913e-001 -6.267693e-006 1.429261e-005 5.945195e-001 -6.341233e-001
339615000 1.156967e-005 -7.339763e-007 5.685114e-001 -6.455964e-001 -5.267477e-006 -1.176512e-005 5.709209e-001 -6.483306e-001
339900000 1.672881e-005 9.244133e-006 5.450400e-001 -6.587685e-001 6.484021e-006 1.744631e-005 5.473570e-001 -6.617194e-001
340185000 -2.762972e-006 1.220047e-005 5.214769e-001 -6.712068e-001 -4.042108e-006 6.168005e-006 5.236945e-001 -6.740478e-001
340470000 1.552918e-005 1.585194e-005 4.979327e-001 -6.827179e-001 1.491105e-005 -1.005128e-005 5.000604e-001 -6.856670e-001
340755000 -2.770148e-006 -2.711079e-006 4.745383e-001 -6.934880e-001 -1.071722e-005 1.781827e-006 4.765960e-001 -6.963639e-001
341040000 -5.307766e-006 8.352466e-006 4.510476e-001 -7.033538e-001 2.386594e-006 -1.007717e-005 4.529326e-001 -7.063674e-001
341325000 2.378632e-006 1.333873e-006 4.276132e-001 -7.125161e-001 5.776755e-006 -5.812199e-006 4.295287e-001 -7.155471e-001
341610000 -3.727052e-006 -5.784497e-006 4.043788e-001 -7.208561e-001 4.096112e-006 4.991145e-006 4.060940e-001 -7.239914e-001
341895000 2.831218e-006 1.656593e-005 3.811736e-001 -7.286206e-001 8.435696e-006 -2.940088e-006 3.827771e-001 -7.316762e-001
342180000 9.739654e-006 2.966438e-006 3.581292e-001 -7.355857e-001 -4.095195e-006 9.291432e-006 3.596120e-001 -7.386011e-001
342465000 -1.068490e-005 1.180056e-006 3.351306e-001 -7.419017e-001 6.878645e-006 -1.046225e-005 3.365699e-001 -7.451002e-001
342750000 5.393851e-006 -1.880126e-005 3.123156e-001 -7.475809e-001 8.738990e-006 1.585080e-005 3.136091e-001 -7.508162e-001
343035000 1.464421e-005 4.326926e-007 2.896040e-001 -7.526321e-001 8.846411e-006 -6.718111e-006 2.908806e-001 -7.558354e-001
343320000 2.184076e-005 1.899667e-006 2.670756e-001 -7.571478e-001 -4.021566e-006 7.512422e-006 2.681963e-001 -7.603425e-001
343605000 6.353906e-006 5.211014e-006 2.446883e-001 -7.610410e-001 -3.458586e-007 -4.251019e-006 2.457065e-001 -7.642723e-001
343890000 -2.670079e-006 2.971940e-006 2.224948e-001 -7.644163e-001 -1.198951e-005 4.043497e-006 2.234095e-001 -7.676852e-001
