!Agilent Technologies,N5230C,SG49000117,A.08.50.07
!Agilent N5230C: A.08.50.07
!Date: Wednesday, April 17, 2024 18:31:56
!Correction: S11(Full 2 Port(1,2)) 
!S21(Full 2 Port(1,2)) 
!S12(Full 2 Port(1,2)) 
!S22(Full 2 Port(1,2)) 
!S2P File: Measurements: S11, S21, S12, S22:
# Hz S  MA   R 50
2850000000 1.043768e+000 -3.339288e+001 6.310292e-004 6.462196e+001 6.151610e-004 6.329928e+001 1.046221e+000 -3.103245e+001
2850022500 1.043777e+000 -3.339133e+001 6.201281e-004 6.495525e+001 6.178775e-004 6.350628e+001 1.046262e+000 -3.102763e+001
2850045000 1.043744e+000 -3.339336e+001 6.193413e-004 6.443930e+001 6.230348e-004 6.330786e+001 1.046261e+000 -3.103033e+001
2850067500 1.043747e+000 -3.339127e+001 6.229734e-004 6.369548e+001 6.171271e-004 6.352178e+001 1.046259e+000 -3.102616e+001
2850090000 1.043719e+000 -3.339311e+001 6.277161e-004 6.504444e+001 6.140771e-004 6.298938e+001 1.046243e+000 -3.102948e+001
2850112500 1.043720e+000 -3.339333e+001 6.276225e-004 6.434685e+001 6.218398e-004 6.350132e+001 1.046238e+000 -3.102890e+001
2850135000 1.043719e+000 -3.339499e+001 6.331556e-004 6.408743e+001 6.198274e-004 6.438149e+001 1.046250e+000 -3.102959e+001
2850157500 1.043714e+000 -3.339302e+001 6.334274e-004 6.483570e+001 6.204167e-004 6.353578e+001 1.046276e+000 -3.103003e+001
2850180000 1.043726e+000 -3.339425e+001 6.273544e-004 6.434998e+001 6.233184e-004 6.328688e+001 1.046255e+000 -3.102766e+001
2850202500 1.043730e+000 -3.339386e+001 6.294770e-004 6.435588e+001 6.160634e-004 6.309131e+001 1.046281e+000 -3.103017e+001
2850225000 1.043727e+000 -3.339360e+001 6.275422e-004 6.466483e+001 6.200635e-004 6.287595e+001 1.046242e+000 -3.102978e+001
2850247500 1.043771e+000 -3.339494e+001 6.309863e-004 6.514645e+001 6.215269e-004 6.324868e+001 1.046309e+000 -3.102963e+001
2850270000 1.043809e+000 -3.339122e+001 6.316623e-004 6.470611e+001 6.343632e-004 6.384468e+001 1.046187e+000 -3.102738e+001
2850292500 1.043909e+000 -3.338863e+001 6.344540e-004 6.383181e+001 6.266686e-004 6.256384e+001 1.046221e+000 -3.102463e+001
2850315000 1.044001e+000 -3.338688e+001 6.371097e-004 6.487753e+001 6.250078e-004 6.334186e+001 1.046183e+000 -3.102297e+001
2850337500 1.044115e+000 -3.338448e+001 6.265908e-004 6.454438e+001 6.237153e-004 6.348794e+001 1.046133e+000 -3.102341e+001
2850360000 1.044149e+000 -3.338104e+001 6.355013e-004 6.521340e+001 6.195587e-004 6.323912e+001 1.046121e+000 -3.101723e+001
2850382500 1.044200e+000 -3.338025e+001 6.370565e-004 6.513228e+001 6.254845e-004 6.372002e+001 1.046087e+000 -3.101907e+001
2850405000 1.044309e+000 -3.337819e+001 6.391454e-004 6.433134e+001 6.166716e-004 6.270105e+001 1.046051e+000 -3.101602e+001
2850427500 1.044400e+000 -3.337655e+001 6.407938e-004 6.494556e+001 6.231042e-004 6.366391e+001 1.046042e+000 -3.101432e+001
2850450000 1.044407e+000 -3.337478e+001 6.370267e-004 6.479700e+001 6.211413e-004 6.385407e+001 1.046012e+000 -3.100948e+001
2850472500 1.044503e+000 -3.337183e+001 6.440092e-004 6.435867e+001 6.269745e-004 6.354798e+001 1.046027e+000 -3.101077e+001
2850495000 1.044581e+000 -3.337137e+001 6.431418e-004 6.432110e+001 6.269686e-004 6.323696e+001 1.045981e+000 -3.100651e+001
2850517500 1.044627e+000 -3.336898e+001 6.348278e-004 6.491770e+001 6.311878e-004 6.303683e+001 1.045987e+000 -3.100427e+001
2850540000 1.044667e+000 -3.336727e+001 6.336793e-004 6.459395e+001 6.237012e-004 6.296874e+001 1.045954e+000 -3.100383e+001
2850562500 1.044707e+000 -3.336460e+001 6.450575e-004 6.396361e+001 6.296134e-004 6.315992e+001 1.045923e+000 -3.099954e+001
2850585000 1.044765e+000 -3.336367e+001 6.420601e-004 6.462736e+001 6.232366e-004 6.321089e+001 1.045958e+000 -3.099808e+001
2850607500 1.044813e+000 -3.336233e+001 6.382960e-004 6.498936e+001 6.346242e-004 6.344947e+001 1.045887e+000 -3.099489e+001
2850630000 1.044883e+000 -3.336050e+001 6.373595e-004 6.531422e+001 6.333242e-004 6.359116e+001 1.045888e+000 -3.099418e+001
2850652500 1.044907e+000 -3.335877e+001 6.412154e-004 6.484245e+001 6.308679e-004 6.240956e+001 1.045907e+000 -3.099295e+001
2850675000 1.044945e+000 -3.335698e+001 6.377242e-004 6.516611e+001 6.264381e-004 6.305350e+001 1.045902e+000 -3.098940e+001
2850697500 1.044981e+000 -3.335504e+001 6.448755e-004 6.487408e+001 6.267002e-004 6.362739e+001 1.045863e+000 -3.098767e+001
2850720000 1.045014e+000 -3.335211e+001 6.468879e-004 6.477083e+001 6.320372e-004 6.306336e+001 1.045860e+000 -3.098384e+001
2850742500 1.045039e+000 -3.335172e+001 6.443515e-004 6.465544e+001 6.362551e-004 6.391774e+001 1.045866e+000 -3.098392e+001
2850765000 1.045117e+000 -3.334960e+001 6.476346e-004 6.531309e+001 6.345054e-004 6.385619e+001 1.045863e+000 -3.098118e+001
2850787500 1.045108e+000 -3.334890e+001 6.479893e-004 6.574408e+001 6.383618e-004 6.319541e+001 1.045873e+000 -3.097842e+001
2850810000 1.045118e+000 -3.334671e+001 6.433931e-004 6.447160e+001 6.344386e-004 6.357974e+001 1.045865e+000 -3.097743e+001
2850832500 1.045147e+000 -3.334700e+001 6.403765e-004 6.483027e+001 6.442207e-004 6.330117e+001 1.045838e+000 -3.097481e+001
2850855000 1.045173e+000 -3.334686e+001 6.422201e-004 6.498254e+001 6.447049e-004 6.427710e+001 1.045856e+000 -3.097431e+001
2850877500 1.045201e+000 -3.334444e+001 6.474697e-004 6.488622e+001 6.350645e-004 6.354998e+001 1.045833e+000 -3.096961e+001
2850900000 1.045198e+000 -3.334291e+001 6.504485e-004 6.496159e+001 6.297019e-004 6.379589e+001 1.045862e+000 -3.096838e+001
2850922500 1.045210e+000 -3.334225e+001 6.408753e-004 6.456413e+001 6.350191e-004 6.358432e+001 1.045875e+000 -3.096748e+001
2850945000 1.045239e+000 -3.334004e+001 6.464935e-004 6.508316e+001 6.382535e-004 6.372887e+001 1.045873e+000 -3.096642e+001
2850967500 1.045233e+000 -3.334025e+001 6.441955e-004 6.480049e+001 6.428394e-004 6.375329e+001 1.045880e+000 -3.096283e+001
2850990000 1.045253e+000 -3.333765e+001 6.405407e-004 6.560030e+001 6.333535e-004 6.366995e+001 1.045906e+000 -3.096274e+001
2851012500 1.045226e+000 -3.333933e+001 6.531739e-004 6.468719e+001 6.357474e-004 6.352798e+001 1.045940e+000 -3.095848e+001
2851035000 1.045233e+000 -3.333784e+001 6.552409e-004 6.469041e+001 6.284161e-004 6.406553e+001 1.046018e+000 -3.095936e+001
2851057500 1.045230e+000 -3.333554e+001 6.530243e-004 6.507288e+001 6.329403e-004 6.349111e+001 1.046067e+000 -3.095940e+001
2851080000 1.045194e+000 -3.333581e+001 6.522626e-004 6.539104e+001 6.387098e-004 6.383781e+001 1.046095e+000 -3.095919e+001
2851102500 1.045221e+000 -3.333595e+001 6.500279e-004 6.452511e+001 6.396437e-004 6.406339e+001 1.046138e+000 -3.095770e+001
2851125000 1.045168e+000 -3.333649e+001 6.561831e-004 6.531268e+001 6.378971e-004 6.376684e+001 1.046227e+000 -3.095946e+001
2851147500 1.045167e+000 -3.333553e+001 6.517264e-004 6.488290e+001 6.493574e-004 6.387472e+001 1.046248e+000 -3.095761e+001
2851170000 1.045162e+000 -3.333418e+001 6.580381e-004 6.519937e+001 6.348034e-004 6.361669e+001 1.046335e+000 -3.095813e+001
2851192500 1.045194e+000 -3.333413e+001 6.526886e-004 6.510723e+001 6.410056e-004 6.402579e+001 1.046345e+000 -3.095546e+001
2851215000 1.045141e+000 -3.333214e+001 6.497379e-004 6.499687e+001 6.438729e-004 6.336786e+001 1.046427e+000 -3.095665e+001
2851237500 1.045153e+000 -3.333164e+001 6.611591e-004 6.553996e+001 6.404485e-004 6.359267e+001 1.046452e+000 -3.095425e+001
2851260000 1.045146e+000 -3.333138e+001 6.622764e-004 6.489503e+001 6.482166e-004 6.463462e+001 1.046485e+000 -3.095469e+001
2851282500 1.045112e+000 -3.333084e+001 6.465037e-004 6.547434e+001 6.480037e-004 6.350440e+001 1.046571e+000 -3.095576e+001
2851305000 1.045127e+000 -3.333053e+001 6.595633e-004 6.480392e+001 6.524659e-004 6.303646e+001 1.046585e+000 -3.095452e+001
2851327500 1.045128e+000 -3.332760e+001 6.549606e-004 6.543229e+001 6.469951e-004 6.411523e+001 1.046613e+000 -3.095281e+001
2851350000 1.045100e+000 -3.332735e+001 6.582332e-004 6.568102e+001 6.518716e-004 6.385465e+001 1.046660e+000 -3.095460e+001
2851372500 1.045098e+000 -3.332631e+001 6.583509e-004 6.500496e+001 6.362132e-004 6.454698e+001 1.046686e+000 -3.095178e+001
2851395000 1.045129e+000 -3.332597e+001 6.628584e-004 6.548499e+001 6.504328e-004 6.258287e+001 1.046694e+000 -3.095229e+001
2851417500 1.045119e+000 -3.332583e+001 6.683571e-004 6.548476e+001 6.533663e-004 6.389617e+001 1.046745e+000 -3.095252e+001
2851440000 1.045121e+000 -3.332398e+001 6.609912e-004 6.612800e+001 6.551599e-004 6.398024e+001 1.046789e+000 -3.095513e+001
2851462500 1.045094e+000 -3.332480e+001 6.658368e-004 6.545388e+001 6.513072e-004 6.411080e+001 1.046814e+000 -3.095231e+001
2851485000 1.045136e+000 -3.332322e+001 6.591431e-004 6.511037e+001 6.508913e-004 6.407029e+001 1.046818e+000 -3.095164e+001
2851507500 1.045092e+000 -3.332155e+001 6.705325e-004 6.540588e+001 6.542968e-004 6.440376e+001 1.046851e+000 -3.094992e+001
2851530000 1.045092e+000 -3.331904e+001 6.620886e-004 6.589349e+001 6.461937e-004 6.377725e+001 1.046879e+000 -3.095011e+001
2851552500 1.045117e+000 -3.331816e+001 6.621410e-004 6.556085e+001 6.552106e-004 6.382336e+001 1.046953e+000 -3.094989e+001
2851575000 1.045090e+000 -3.331931e+001 6.608893e-004 6.575855e+001 6.614671e-004 6.449332e+001 1.046960e+000 -3.095185e+001
2851597500 1.045126e+000 -3.331569e+001 6.599816e-004 6.564005e+001 6.515983e-004 6.446980e+001 1.046983e+000 -3.094940e+001
2851620000 1.045107e+000 -3.331744e+001 6.645381e-004 6.568668e+001 6.512849e-004 6.441749e+001 1.046966e+000 -3.095180e+001
2851642500 1.045100e+000 -3.331437e+001 6.631589e-004 6.577377e+001 6.451862e-004 6.367768e+001 1.047010e+000 -3.094942e+001
2851665000 1.045119e+000 -3.331299e+001 6.664058e-004 6.580807e+001 6.564670e-004 6.450298e+001 1.047009e+000 -3.094864e+001
2851687500 1.045128e+000 -3.331227e+001 6.682149e-004 6.606282e+001 6.512214e-004 6.436439e+001 1.047027e+000 -3.094746e+001
2851710000 1.045131e+000 -3.331194e+001 6.748898e-004 6.528401e+001 6.591204e-004 6.434571e+001 1.047041e+000 -3.094629e+001
2851732500 1.045108e+000 -3.330954e+001 6.699954e-004 6.538980e+001 6.611678e-004 6.432876e+001 1.047029e+000 -3.094819e+001
2851755000 1.045126e+000 -3.330753e+001 6.699415e-004 6.543362e+001 6.691537e-004 6.402473e+001 1.047024e+000 -3.094751e+001
2851777500 1.045107e+000 -3.330709e+001 6.748228e-004 6.568470e+001 6.646705e-004 6.404402e+001 1.047051e+000 -3.094715e+001
2851800000 1.045123e+000 -3.330652e+001 6.786252e-004 6.628093e+001 6.530829e-004 6.426150e+001 1.047011e+000 -3.094775e+001
2851822500 1.045110e+000 -3.330610e+001 6.671123e-004 6.498739e+001 6.640851e-004 6.428136e+001 1.046932e+000 -3.094756e+001
2851845000 1.045067e+000 -3.330595e+001 6.707713e-004 6.616750e+001 6.565067e-004 6.489309e+001 1.046916e+000 -3.094877e+001
2851867500 1.045109e+000 -3.330517e+001 6.760121e-004 6.577975e+001 6.665118e-004 6.448847e+001 1.046911e+000 -3.094857e+001
2851890000 1.045117e+000 -3.330325e+001 6.761949e-004 6.544643e+001 6.594408e-004 6.425269e+001 1.046897e+000 -3.094902e+001
2851912500 1.045101e+000 -3.330378e+001 6.815571e-004 6.547923e+001 6.636722e-004 6.397416e+001 1.046848e+000 -3.094900e+001
2851935000 1.045098e+000 -3.330314e+001 6.704043e-004 6.601937e+001 6.643762e-004 6.430270e+001 1.046812e+000 -3.094584e+001
2851957500 1.045116e+000 -3.330210e+001 6.746517e-004 6.612737e+001 6.692539e-004 6.454565e+001 1.046812e+000 -3.094806e+001
2851980000 1.045109e+000 -3.330243e+001 6.778827e-004 6.566942e+001 6.622532e-004 6.446385e+001 1.046769e+000 -3.094916e+001
2852002500 1.045069e+000 -3.330254e+001 6.771000e-004 6.589302e+001 6.636690e-004 6.422492e+001 1.046763e+000 -3.094588e+001
2852025000 1.045070e+000 -3.330097e+001 6.757076e-004 6.590225e+001 6.756068e-004 6.493697e+001 1.046746e+000 -3.094543e+001
2852047500 1.045062e+000 -3.329940e+001 6.865762e-004 6.591848e+001 6.723435e-004 6.392349e+001 1.046724e+000 -3.094659e+001
2852070000 1.045038e+000 -3.329998e+001 6.756598e-004 6.576624e+001 6.777033e-004 6.408366e+001 1.046679e+000 -3.094908e+001
2852092500 1.045044e+000 -3.330025e+001 6.840900e-004 6.548540e+001 6.728356e-004 6.442606e+001 1.046662e+000 -3.094702e+001
2852115000 1.045020e+000 -3.330002e+001 6.696587e-004 6.526431e+001 6.753085e-004 6.464742e+001 1.046660e+000 -3.094696e+001
2852137500 1.045013e+000 -3.329851e+001 6.884339e-004 6.606644e+001 6.788234e-004 6.418314e+001 1.046656e+000 -3.094528e+001
2852160000 1.045024e+000 -3.329860e+001 6.835815e-004 6.645481e+001 6.719083e-004 6.303360e+001 1.046623e+000 -3.094734e+001
2852182500 1.044999e+000 -3.329962e+001 6.904250e-004 6.638920e+001 6.723131e-004 6.384950e+001 1.046628e+000 -3.094450e+001
2852205000 1.044981e+000 -3.330019e+001 6.812827e-004 6.644848e+001 6.655907e-004 6.406784e+001 1.046592e+000 -3.094712e+001
2852227500 1.044982e+000 -3.329867e+001 6.822976e-004 6.587774e+001 6.722085e-004 6.483167e+001 1.046590e+000 -3.094711e+001
2852250000 1.044975e+000 -3.329819e+001 6.864642e-004 6.622321e+001 6.843896e-004 6.446317e+001 1.046580e+000 -3.094501e+001
2852272500 1.044934e+000 -3.329897e+001 6.954202e-004 6.581010e+001 6.764774e-004 6.526653e+001 1.046561e+000 -3.094402e+001
2852295000 1.044924e+000 -3.329962e+001 6.980819e-004 6.582265e+001 6.806551e-004 6.455079e+001 1.046576e+000 -3.094515e+001
2852317500 1.044906e+000 -3.329891e+001 6.923221e-004 6.595390e+001 6.813463e-004 6.506629e+001 1.046538e+000 -3.094306e+001
2852340000 1.044875e+000 -3.329896e+001 6.944505e-004 6.602934e+001 6.766653e-004 6.512383e+001 1.046500e+000 -3.094479e+001
2852362500 1.044890e+000 -3.329890e+001 6.941981e-004 6.650251e+001 6.791407e-004 6.480788e+001 1.046576e+000 -3.094013e+001
2852385000 1.044855e+000 -3.330077e+001 6.944732e-004 6.622703e+001 6.840844e-004 6.442675e+001 1.046508e+000 -3.094431e+001
2852407500 1.044869e+000 -3.330101e+001 6.892621e-004 6.604273e+001 6.848810e-004 6.419138e+001 1.046529e+000 -3.094193e+001
2852430000 1.044820e+000 -3.330159e+001 6.887443e-004 6.567828e+001 6.861110e-004 6.477615e+001 1.046510e+000 -3.094184e+001
2852452500 1.044805e+000 -3.329943e+001 6.917324e-004 6.579178e+001 6.917859e-004 6.501868e+001 1.046498e+000 -3.094271e+001
2852475000 1.044773e+000 -3.329941e+001 6.935716e-004 6.629633e+001 6.799196e-004 6.480649e+001 1.046481e+000 -3.094348e+001
2852497500 1.044753e+000 -3.330169e+001 6.986599e-004 6.565078e+001 6.926882e-004 6.473329e+001 1.046544e+000 -3.094198e+001
2852520000 1.044665e+000 -3.330308e+001 6.960650e-004 6.614265e+001 6.843142e-004 6.451349e+001 1.046533e+000 -3.094423e+001
2852542500 1.044562e+000 -3.330264e+001 7.032619e-004 6.600245e+001 6.824278e-004 6.453313e+001 1.046553e+000 -3.094482e+001
2852565000 1.044478e+000 -3.330476e+001 7.011829e-004 6.483437e+001 6.830989e-004 6.540788e+001 1.046486e+000 -3.094632e+001
2852587500 1.044391e+000 -3.330529e+001 7.039655e-004 6.605959e+001 6.879896e-004 6.483610e+001 1.046526e+000 -3.094797e+001
2852610000 1.044361e+000 -3.330498e+001 6.992444e-004 6.594013e+001 6.825820e-004 6.469115e+001 1.046505e+000 -3.094758e+001
2852632500 1.044262e+000 -3.330526e+001 7.081593e-004 6.627053e+001 6.871465e-004 6.479232e+001 1.046530e+000 -3.095060e+001
2852655000 1.044194e+000 -3.330479e+001 6.984893e-004 6.647291e+001 6.924358e-004 6.426619e+001 1.046507e+000 -3.095041e+001
2852677500 1.044127e+000 -3.330531e+001 7.067524e-004 6.536366e+001 6.950505e-004 6.527509e+001 1.046551e+000 -3.095406e+001
2852700000 1.044054e+000 -3.330333e+001 7.060000e-004 6.592667e+001 6.909357e-004 6.498494e+001 1.046555e+000 -3.095479e+001
2852722500 1.044002e+000 -3.330260e+001 7.072419e-004 6.544897e+001 6.898443e-004 6.455786e+001 1.046548e+000 -3.095521e+001
2852745000 1.043960e+000 -3.330062e+001 7.002671e-004 6.594476e+001 6.912729e-004 6.473801e+001 1.046575e+000 -3.095749e+001
2852767500 1.043931e+000 -3.330131e+001 7.091146e-004 6.588624e+001 6.954774e-004 6.450112e+001 1.046546e+000 -3.095931e+001
2852790000 1.043856e+000 -3.330038e+001 7.105721e-004 6.594399e+001 7.006300e-004 6.493955e+001 1.046596e+000 -3.095910e+001
2852812500 1.043805e+000 -3.329876e+001 7.048754e-004 6.529831e+001 6.975798e-004 6.448078e+001 1.046554e+000 -3.096025e+001
2852835000 1.043784e+000 -3.329757e+001 7.108751e-004 6.575727e+001 6.979643e-004 6.456871e+001 1.046561e+000 -3.096054e+001
2852857500 1.043734e+000 -3.329652e+001 7.114034e-004 6.610060e+001 6.986351e-004 6.438504e+001 1.046559e+000 -3.096322e+001
2852880000 1.043736e+000 -3.329393e+001 7.025326e-004 6.569343e+001 6.954832e-004 6.425299e+001 1.046541e+000 -3.096281e+001
2852902500 1.043683e+000 -3.329542e+001 7.093350e-004 6.578447e+001 6.957910e-004 6.474581e+001 1.046527e+000 -3.096528e+001
2852925000 1.043694e+000 -3.329331e+001 7.059554e-004 6.621260e+001 7.041694e-004 6.458633e+001 1.046543e+000 -3.096718e+001
2852947500 1.043661e+000 -3.328888e+001 7.141420e-004 6.579597e+001 7.077108e-004 6.499223e+001 1.046598e+000 -3.096967e+001
2852970000 1.043672e+000 -3.328587e+001 7.077973e-004 6.573811e+001 7.103757e-004 6.502713e+001 1.046546e+000 -3.096859e+001
2852992500 1.043655e+000 -3.328502e+001 7.086446e-004 6.557442e+001 7.018053e-004 6.426698e+001 1.046559e+000 -3.096961e+001
2853015000 1.043600e+000 -3.328270e+001 7.151068e-004 6.582120e+001 7.016512e-004 6.457542e+001 1.046556e+000 -3.097430e+001
2853037500 1.043613e+000 -3.327966e+001 7.129776e-004 6.594453e+001 7.061556e-004 6.421791e+001 1.046543e+000 -3.097249e+001
2853060000 1.043602e+000 -3.327822e+001 7.149099e-004 6.499938e+001 7.008952e-004 6.473224e+001 1.046537e+000 -3.097504e+001
2853082500 1.043612e+000 -3.327426e+001 7.128898e-004 6.529366e+001 7.079100e-004 6.474845e+001 1.046560e+000 -3.097659e+001
2853105000 1.043632e+000 -3.327280e+001 7.182803e-004 6.550190e+001 7.016858e-004 6.379495e+001 1.046568e+000 -3.097547e+001
2853127500 1.043649e+000 -3.326946e+001 7.204053e-004 6.628279e+001 7.091813e-004 6.440647e+001 1.046567e+000 -3.097723e+001
2853150000 1.043676e+000 -3.326822e+001 7.211675e-004 6.553004e+001 7.045912e-004 6.384840e+001 1.046563e+000 -3.097939e+001
2853172500 1.043718e+000 -3.326571e+001 7.127470e-004 6.569644e+001 7.082453e-004 6.374951e+001 1.046529e+000 -3.097930e+001
2853195000 1.043743e+000 -3.326325e+001 7.266360e-004 6.569707e+001 6.987940e-004 6.468758e+001 1.046525e+000 -3.097868e+001
2853217500 1.043762e+000 -3.325951e+001 7.138769e-004 6.566846e+001 7.077329e-004 6.458012e+001 1.046550e+000 -3.098320e+001
2853240000 1.043818e+000 -3.325702e+001 7.203888e-004 6.572920e+001 7.111463e-004 6.478776e+001 1.046514e+000 -3.098318e+001
2853262500 1.043950e+000 -3.325690e+001 7.149080e-004 6.573920e+001 7.033793e-004 6.416096e+001 1.046524e+000 -3.098539e+001
2853285000 1.044111e+000 -3.325827e+001 7.164149e-004 6.611778e+001 7.182591e-004 6.423509e+001 1.046506e+000 -3.098371e+001
2853307500 1.044256e+000 -3.326205e+001 7.242264e-004 6.555347e+001 7.060552e-004 6.444702e+001 1.046477e+000 -3.098333e+001
2853330000 1.044441e+000 -3.326168e+001 7.252126e-004 6.553428e+001 7.040437e-004 6.357195e+001 1.046469e+000 -3.098641e+001
2853352500 1.044589e+000 -3.326118e+001 7.167276e-004 6.579193e+001 7.082297e-004 6.435233e+001 1.046414e+000 -3.098830e+001
2853375000 1.044723e+000 -3.326556e+001 7.260383e-004 6.546152e+001 7.128840e-004 6.328017e+001 1.046371e+000 -3.098409e+001
2853397500 1.044860e+000 -3.326583e+001 7.227469e-004 6.538259e+001 7.092599e-004 6.404152e+001 1.046415e+000 -3.098725e+001
2853420000 1.045019e+000 -3.326654e+001 7.260224e-004 6.582635e+001 7.142673e-004 6.422873e+001 1.046412e+000 -3.098421e+001
2853442500 1.045115e+000 -3.326925e+001 7.192606e-004 6.557006e+001 7.175905e-004 6.355157e+001 1.046406e+000 -3.098741e+001
2853465000 1.045259e+000 -3.327120e+001 7.278030e-004 6.544180e+001 7.178567e-004 6.363381e+001 1.046341e+000 -3.098640e+001
2853487500 1.045378e+000 -3.327111e+001 7.277243e-004 6.513345e+001 7.153628e-004 6.380778e+001 1.046340e+000 -3.098657e+001
