!Agilent Technologies,N5230C,SG49000117,A.08.50.07
!Agilent N5230C: A.08.50.07
!Date: Tuesday, April 09, 2024 05:41:48
!Correction: S11(Full 2 Port(1,2)) 
!S21(Full 2 Port(1,2)) 
!S12(Full 2 Port(1,2)) 
!S22(Full 2 Port(1,2)) 
!S2P File: Measurements: S11, S21, S12, S22:
# Hz S  RI   R 50
2500000000 -3.782283e-002 -2.696726e-002 -1.684055e-001 9.547292e-001 9.938952e-004 1.243615e-003 9.396549e-001 -4.679004e-001
2500050000 -3.799217e-002 -2.696840e-002 -1.675319e-001 9.549441e-001 9.997188e-004 1.232170e-003 9.395391e-001 -4.679901e-001
2500100000 -3.812477e-002 -2.694680e-002 -1.664722e-001 9.551372e-001 9.792375e-004 1.216124e-003 9.396685e-001 -4.679453e-001
2500150000 -3.827782e-002 -2.692932e-002 -1.654774e-001 9.551179e-001 9.816526e-004 1.204488e-003 9.397531e-001 -4.680149e-001
2500200000 -3.844852e-002 -2.696395e-002 -1.643388e-001 9.552941e-001 9.443651e-004 1.248000e-003 9.395595e-001 -4.679509e-001
2500250000 -3.857598e-002 -2.694424e-002 -1.633105e-001 9.554128e-001 1.021137e-003 1.212316e-003 9.396355e-001 -4.679959e-001
2500300000 -3.878876e-002 -2.696469e-002 -1.622729e-001 9.554710e-001 9.608617e-004 1.168787e-003 9.394985e-001 -4.682010e-001
2500350000 -3.893902e-002 -2.702526e-002 -1.612361e-001 9.557135e-001 9.969985e-004 1.222098e-003 9.394423e-001 -4.681621e-001
2500400000 -3.910048e-002 -2.707616e-002 -1.602800e-001 9.557372e-001 1.030233e-003 1.202168e-003 9.392823e-001 -4.681635e-001
2500450000 -3.930762e-002 -2.702950e-002 -1.591526e-001 9.560133e-001 1.006991e-003 1.184821e-003 9.394688e-001 -4.681189e-001
2500500000 -3.947001e-002 -2.706572e-002 -1.581152e-001 9.560862e-001 9.704432e-004 1.221403e-003 9.392094e-001 -4.680899e-001
2500550000 -3.964214e-002 -2.708891e-002 -1.572398e-001 9.563917e-001 9.984716e-004 1.181345e-003 9.394329e-001 -4.681715e-001
2500600000 -3.982626e-002 -2.715177e-002 -1.561129e-001 9.566215e-001 9.707165e-004 1.233437e-003 9.395444e-001 -4.680875e-001
2500650000 -3.997771e-002 -2.716106e-002 -1.551034e-001 9.566198e-001 9.556054e-004 1.155998e-003 9.392565e-001 -4.683595e-001
2500700000 -4.015911e-002 -2.721398e-002 -1.539618e-001 9.567093e-001 1.007974e-003 1.253771e-003 9.393257e-001 -4.681709e-001
2500750000 -4.031685e-002 -2.727634e-002 -1.529449e-001 9.569366e-001 1.036539e-003 1.215727e-003 9.392769e-001 -4.682153e-001
2500800000 -4.047820e-002 -2.733694e-002 -1.521053e-001 9.570283e-001 9.836295e-004 1.206662e-003 9.392427e-001 -4.681217e-001
2500850000 -4.065308e-002 -2.739701e-002 -1.512624e-001 9.573933e-001 9.888010e-004 1.191339e-003 9.390505e-001 -4.681859e-001
2500900000 -4.083737e-002 -2.747666e-002 -1.506829e-001 9.575624e-001 9.777078e-004 1.235052e-003 9.390594e-001 -4.683250e-001
2500950000 -4.102931e-002 -2.751573e-002 -1.500046e-001 9.577376e-001 9.822550e-004 1.191463e-003 9.391881e-001 -4.683799e-001
2501000000 -4.118096e-002 -2.765461e-002 -1.489798e-001 9.580318e-001 9.409490e-004 1.228823e-003 9.390303e-001 -4.683216e-001
2501050000 -4.136045e-002 -2.768413e-002 -1.483413e-001 9.581502e-001 9.692044e-004 1.195590e-003 9.388864e-001 -4.680995e-001
2501100000 -4.155046e-002 -2.777656e-002 -1.474404e-001 9.583282e-001 9.741529e-004 1.216709e-003 9.388799e-001 -4.683192e-001
2501150000 -4.175131e-002 -2.785940e-002 -1.467055e-001 9.583949e-001 9.457768e-004 1.236164e-003 9.388934e-001 -4.683461e-001
2501200000 -4.190608e-002 -2.790424e-002 -1.459879e-001 9.587739e-001 1.005548e-003 1.174323e-003 9.389027e-001 -4.680789e-001
2501250000 -4.209324e-002 -2.801681e-002 -1.452338e-001 9.587673e-001 9.937742e-004 1.208179e-003 9.387420e-001 -4.680882e-001
2501300000 -4.227488e-002 -2.806007e-002 -1.444932e-001 9.590074e-001 1.019765e-003 1.233759e-003 9.387507e-001 -4.682372e-001
2501350000 -4.247573e-002 -2.810794e-002 -1.434945e-001 9.590351e-001 9.998161e-004 1.221142e-003 9.385292e-001 -4.682459e-001
2501400000 -4.261328e-002 -2.817059e-002 -1.427811e-001 9.591859e-001 1.044805e-003 1.177871e-003 9.388041e-001 -4.681720e-001
2501450000 -4.277721e-002 -2.827282e-002 -1.421280e-001 9.594578e-001 1.015299e-003 1.209079e-003 9.387865e-001 -4.680792e-001
2501500000 -4.291761e-002 -2.833544e-002 -1.410556e-001 9.597148e-001 9.833493e-004 1.192332e-003 9.385865e-001 -4.680674e-001
2501550000 -4.311626e-002 -2.833601e-002 -1.401919e-001 9.596280e-001 9.919214e-004 1.203314e-003 9.386410e-001 -4.682598e-001
2501600000 -4.330115e-002 -2.839787e-002 -1.389674e-001 9.599692e-001 1.005059e-003 1.233149e-003 9.387481e-001 -4.683861e-001
2501650000 -4.348876e-002 -2.842390e-002 -1.379633e-001 9.599587e-001 9.945170e-004 1.209632e-003 9.388229e-001 -4.684364e-001
2501700000 -4.366834e-002 -2.841268e-002 -1.368165e-001 9.603254e-001 9.758004e-004 1.167880e-003 9.388057e-001 -4.688198e-001
2501750000 -4.386519e-002 -2.846556e-002 -1.360426e-001 9.603438e-001 9.677366e-004 1.216934e-003 9.389064e-001 -4.688835e-001
2501800000 -4.406845e-002 -2.846021e-002 -1.351142e-001 9.604703e-001 9.775661e-004 1.214681e-003 9.390592e-001 -4.687790e-001
2501850000 -4.423778e-002 -2.851044e-002 -1.339977e-001 9.606774e-001 9.857434e-004 1.203644e-003 9.390802e-001 -4.690041e-001
2501900000 -4.443183e-002 -2.857259e-002 -1.327312e-001 9.609170e-001 9.984099e-004 1.176916e-003 9.391668e-001 -4.689459e-001
2501950000 -4.461457e-002 -2.858991e-002 -1.317584e-001 9.609711e-001 9.857181e-004 1.184393e-003 9.390358e-001 -4.690739e-001
2502000000 -4.479868e-002 -2.866084e-002 -1.307926e-001 9.609572e-001 1.016050e-003 1.216762e-003 9.392669e-001 -4.692036e-001
2502050000 -4.497736e-002 -2.867336e-002 -1.296275e-001 9.611914e-001 1.027070e-003 1.185874e-003 9.393215e-001 -4.693267e-001
2502100000 -4.515759e-002 -2.880845e-002 -1.287420e-001 9.614590e-001 1.000750e-003 1.161851e-003 9.391221e-001 -4.691403e-001
2502150000 -4.535024e-002 -2.879039e-002 -1.276446e-001 9.617704e-001 9.668127e-004 1.169337e-003 9.394255e-001 -4.693618e-001
2502200000 -4.553716e-002 -2.884733e-002 -1.266042e-001 9.618862e-001 9.657264e-004 1.175586e-003 9.394211e-001 -4.693282e-001
2502250000 -4.569549e-002 -2.888089e-002 -1.256003e-001 9.620262e-001 9.805500e-004 1.232119e-003 9.394043e-001 -4.692892e-001
2502300000 -4.580103e-002 -2.894375e-002 -1.244847e-001 9.621873e-001 1.026155e-003 1.193806e-003 9.391645e-001 -4.694355e-001
2502350000 -4.591273e-002 -2.894553e-002 -1.236262e-001 9.625238e-001 1.058123e-003 1.185326e-003 9.391207e-001 -4.691496e-001
2502400000 -4.605360e-002 -2.901519e-002 -1.229802e-001 9.627562e-001 9.918007e-004 1.191111e-003 9.389566e-001 -4.690996e-001
2502450000 -4.620098e-002 -2.907466e-002 -1.217842e-001 9.628180e-001 9.925725e-004 1.154695e-003 9.389836e-001 -4.692010e-001
2502500000 -4.632753e-002 -2.918670e-002 -1.209912e-001 9.630304e-001 9.734263e-004 1.210748e-003 9.388589e-001 -4.691897e-001
2502550000 -4.645037e-002 -2.923127e-002 -1.200893e-001 9.632180e-001 9.954089e-004 1.188567e-003 9.389291e-001 -4.691722e-001
2502600000 -4.664885e-002 -2.925834e-002 -1.188923e-001 9.634319e-001 9.979460e-004 1.223485e-003 9.387864e-001 -4.690095e-001
2502650000 -4.673530e-002 -2.929357e-002 -1.181816e-001 9.635179e-001 9.887900e-004 1.203402e-003 9.386733e-001 -4.691197e-001
2502700000 -4.688092e-002 -2.937241e-002 -1.172063e-001 9.636915e-001 9.960483e-004 1.231983e-003 9.386747e-001 -4.689720e-001
2502750000 -4.707643e-002 -2.944527e-002 -1.162252e-001 9.640165e-001 9.437836e-004 1.197756e-003 9.384933e-001 -4.689507e-001
2502800000 -4.719088e-002 -2.949109e-002 -1.153319e-001 9.639953e-001 9.511234e-004 1.188404e-003 9.386199e-001 -4.689445e-001
2502850000 -4.733942e-002 -2.961878e-002 -1.142889e-001 9.642382e-001 9.898531e-004 1.209199e-003 9.385012e-001 -4.688709e-001
2502900000 -4.743903e-002 -2.966587e-002 -1.133145e-001 9.644729e-001 9.803978e-004 1.183346e-003 9.383790e-001 -4.690165e-001
2502950000 -4.760433e-002 -2.973986e-002 -1.122243e-001 9.645320e-001 9.795595e-004 1.149365e-003 9.382503e-001 -4.689716e-001
2503000000 -4.771219e-002 -2.978361e-002 -1.114472e-001 9.646825e-001 9.872029e-004 1.212605e-003 9.383253e-001 -4.690809e-001
2503050000 -4.791176e-002 -2.984659e-002 -1.105042e-001 9.648792e-001 1.052356e-003 1.138748e-003 9.383099e-001 -4.691045e-001
2503100000 -4.810699e-002 -2.998869e-002 -1.094726e-001 9.649262e-001 1.004104e-003 1.163868e-003 9.383530e-001 -4.694507e-001
2503150000 -4.825310e-002 -3.005557e-002 -1.084914e-001 9.648636e-001 9.902208e-004 1.172498e-003 9.382793e-001 -4.693695e-001
2503200000 -4.839264e-002 -3.008262e-002 -1.074999e-001 9.649073e-001 1.001797e-003 1.213454e-003 9.386455e-001 -4.695290e-001
2503250000 -4.857143e-002 -3.014741e-002 -1.065245e-001 9.649065e-001 9.730160e-004 1.216893e-003 9.383436e-001 -4.696950e-001
2503300000 -4.880895e-002 -3.023490e-002 -1.054855e-001 9.651485e-001 9.587367e-004 1.190209e-003 9.382800e-001 -4.697512e-001
2503350000 -4.895391e-002 -3.028375e-002 -1.046414e-001 9.654799e-001 9.793537e-004 1.200592e-003 9.382247e-001 -4.696137e-001
2503400000 -4.915858e-002 -3.040325e-002 -1.033369e-001 9.652417e-001 9.719102e-004 1.174136e-003 9.383281e-001 -4.697231e-001
2503450000 -4.931600e-002 -3.044279e-002 -1.026124e-001 9.654717e-001 1.045918e-003 1.193228e-003 9.383332e-001 -4.700309e-001
2503500000 -4.949266e-002 -3.052671e-002 -1.016017e-001 9.657732e-001 9.793249e-004 1.174605e-003 9.382714e-001 -4.700049e-001
2503550000 -4.965194e-002 -3.063942e-002 -1.004624e-001 9.658038e-001 9.769861e-004 1.148451e-003 9.382454e-001 -4.698792e-001
2503600000 -4.981156e-002 -3.070016e-002 -9.948537e-002 9.658977e-001 9.867752e-004 1.174521e-003 9.381993e-001 -4.699112e-001
2503650000 -5.000958e-002 -3.079255e-002 -9.861512e-002 9.660885e-001 9.413633e-004 1.216013e-003 9.380920e-001 -4.698475e-001
2503700000 -5.011358e-002 -3.085209e-002 -9.758010e-002 9.664328e-001 9.676905e-004 1.130518e-003 9.381528e-001 -4.697949e-001
2503750000 -5.036541e-002 -3.097234e-002 -9.656616e-002 9.666105e-001 9.694981e-004 1.171815e-003 9.381129e-001 -4.698979e-001
2503800000 -5.048969e-002 -3.105901e-002 -9.543267e-002 9.669322e-001 9.978311e-004 1.209020e-003 9.381043e-001 -4.696192e-001
2503850000 -5.062211e-002 -3.116718e-002 -9.445808e-002 9.673259e-001 9.309905e-004 1.168978e-003 9.382541e-001 -4.695175e-001
2503900000 -5.085312e-002 -3.125411e-002 -9.335021e-002 9.675995e-001 9.597425e-004 1.186736e-003 9.382878e-001 -4.693670e-001
2503950000 -5.100136e-002 -3.138694e-002 -9.242615e-002 9.680246e-001 9.658705e-004 1.170904e-003 9.385470e-001 -4.692899e-001
2504000000 -5.114628e-002 -3.148862e-002 -9.108444e-002 9.682555e-001 9.787648e-004 1.147249e-003 9.384955e-001 -4.687782e-001
2504050000 -5.135166e-002 -3.158061e-002 -8.997063e-002 9.684935e-001 9.219536e-004 1.165573e-003 9.383680e-001 -4.687594e-001
2504100000 -5.151152e-002 -3.167547e-002 -8.894949e-002 9.686675e-001 9.702688e-004 1.172526e-003 9.385480e-001 -4.686698e-001
2504150000 -5.165018e-002 -3.180496e-002 -8.769751e-002 9.693301e-001 9.773626e-004 1.147967e-003 9.388428e-001 -4.684578e-001
2504200000 -5.176910e-002 -3.183571e-002 -8.676211e-002 9.694960e-001 1.007861e-003 1.156535e-003 9.389479e-001 -4.685097e-001
2504250000 -5.202242e-002 -3.199553e-002 -8.561781e-002 9.698632e-001 1.034389e-003 1.164672e-003 9.388790e-001 -4.683181e-001
2504300000 -5.214068e-002 -3.202678e-002 -8.449610e-002 9.700415e-001 9.982237e-004 1.161444e-003 9.389191e-001 -4.681779e-001
2504350000 -5.233317e-002 -3.214178e-002 -8.342762e-002 9.702538e-001 1.011619e-003 1.157938e-003 9.390438e-001 -4.679334e-001
2504400000 -5.243882e-002 -3.226250e-002 -8.242504e-002 9.704772e-001 1.010819e-003 1.244233e-003 9.389654e-001 -4.679669e-001
2504450000 -5.260389e-002 -3.232042e-002 -8.132306e-002 9.708225e-001 9.677698e-004 1.192630e-003 9.391870e-001 -4.679619e-001
2504500000 -5.279382e-002 -3.243402e-002 -8.021089e-002 9.711868e-001 9.904302e-004 1.199563e-003 9.391319e-001 -4.678301e-001
2504550000 -5.297872e-002 -3.248852e-002 -7.910558e-002 9.712923e-001 9.523900e-004 1.172169e-003 9.391212e-001 -4.677742e-001
2504600000 -5.309570e-002 -3.256030e-002 -7.795724e-002 9.714946e-001 1.011634e-003 1.150150e-003 9.389157e-001 -4.681097e-001
2504650000 -5.324607e-002 -3.264585e-002 -7.692300e-002 9.717296e-001 9.913043e-004 1.175605e-003 9.389314e-001 -4.681475e-001
2504700000 -5.342779e-002 -3.269022e-002 -7.570495e-002 9.720444e-001 9.739516e-004 1.174557e-003 9.388742e-001 -4.682225e-001
2504750000 -5.357062e-002 -3.274109e-002 -7.481931e-002 9.720348e-001 1.019209e-003 1.136361e-003 9.387195e-001 -4.684728e-001
2504800000 -5.372993e-002 -3.283376e-002 -7.365525e-002 9.723544e-001 9.776249e-004 1.156803e-003 9.387255e-001 -4.685832e-001
2504850000 -5.389064e-002 -3.290813e-002 -7.258797e-002 9.724314e-001 9.799291e-004 1.131343e-003 9.387274e-001 -4.689248e-001
2504900000 -5.404628e-002 -3.298454e-002 -7.150163e-002 9.728536e-001 1.018953e-003 1.165720e-003 9.385482e-001 -4.689200e-001
2504950000 -5.422904e-002 -3.308659e-002 -7.035197e-002 9.727450e-001 1.014089e-003 1.164117e-003 9.386662e-001 -4.689693e-001
2505000000 -5.436869e-002 -3.312427e-002 -6.922312e-002 9.729928e-001 1.001125e-003 1.165559e-003 9.385329e-001 -4.694152e-001
2505050000 -5.457248e-002 -3.322509e-002 -6.818189e-002 9.731782e-001 9.844875e-004 1.143809e-003 9.384934e-001 -4.693219e-001
2505100000 -5.471661e-002 -3.326714e-002 -6.703341e-002 9.733223e-001 1.019585e-003 1.159457e-003 9.384248e-001 -4.695235e-001
2505150000 -5.486445e-002 -3.339854e-002 -6.597542e-002 9.734098e-001 1.016720e-003 1.147967e-003 9.384738e-001 -4.697511e-001
2505200000 -5.497258e-002 -3.349353e-002 -6.499006e-002 9.734986e-001 9.710626e-004 1.148979e-003 9.386468e-001 -4.697052e-001
2505250000 -5.518269e-002 -3.360137e-002 -6.381045e-002 9.736178e-001 9.888505e-004 1.157848e-003 9.382737e-001 -4.698859e-001
2505300000 -5.534120e-002 -3.369293e-002 -6.274117e-002 9.734913e-001 9.932299e-004 1.211173e-003 9.385992e-001 -4.698568e-001
2505350000 -5.547642e-002 -3.374201e-002 -6.189016e-002 9.736946e-001 9.843501e-004 1.198084e-003 9.386010e-001 -4.697817e-001
2505400000 -5.557984e-002 -3.384496e-002 -6.087197e-002 9.736266e-001 1.001248e-003 1.185663e-003 9.386753e-001 -4.699509e-001
2505450000 -5.577170e-002 -3.395324e-002 -5.962402e-002 9.738348e-001 1.004010e-003 1.120992e-003 9.387941e-001 -4.699139e-001
2505500000 -5.589514e-002 -3.402681e-002 -5.873381e-002 9.739316e-001 9.611589e-004 1.191645e-003 9.386808e-001 -4.698238e-001
2505550000 -5.605678e-002 -3.412029e-002 -5.774892e-002 9.739128e-001 1.010889e-003 1.186959e-003 9.390314e-001 -4.697949e-001
2505600000 -5.619825e-002 -3.418268e-002 -5.675284e-002 9.739519e-001 9.996633e-004 1.156249e-003 9.390047e-001 -4.696656e-001
2505650000 -5.631046e-002 -3.432946e-002 -5.560903e-002 9.741560e-001 1.010225e-003 1.143369e-003 9.390775e-001 -4.697185e-001
2505700000 -5.649171e-002 -3.440511e-002 -5.472010e-002 9.742502e-001 1.026673e-003 1.147676e-003 9.389997e-001 -4.697570e-001
2505750000 -5.659345e-002 -3.455672e-002 -5.333597e-002 9.741941e-001 1.007655e-003 1.142161e-003 9.391375e-001 -4.695578e-001
2505800000 -5.680703e-002 -3.464746e-002 -5.251333e-002 9.742448e-001 9.638022e-004 1.139494e-003 9.393007e-001 -4.697160e-001
2505850000 -5.692037e-002 -3.472298e-002 -5.140306e-002 9.743294e-001 9.923695e-004 1.148237e-003 9.393889e-001 -4.695958e-001
2505900000 -5.707340e-002 -3.486084e-002 -5.031279e-002 9.745495e-001 1.023077e-003 1.209423e-003 9.392669e-001 -4.696508e-001
2505950000 -5.718715e-002 -3.496720e-002 -4.911046e-002 9.745674e-001 1.021480e-003 1.130925e-003 9.391465e-001 -4.696384e-001
2506000000 -5.733782e-002 -3.504365e-002 -4.831081e-002 9.747396e-001 1.020073e-003 1.185200e-003 9.391484e-001 -4.695658e-001
2506050000 -5.753249e-002 -3.517199e-002 -4.692901e-002 9.748839e-001 1.011219e-003 1.160318e-003 9.392595e-001 -4.696845e-001
2506100000 -5.767146e-002 -3.530472e-002 -4.548971e-002 9.750745e-001 1.008567e-003 1.134102e-003 9.392338e-001 -4.696856e-001
2506150000 -5.786597e-002 -3.542522e-002 -4.438185e-002 9.752713e-001 9.622756e-004 1.129601e-003 9.390146e-001 -4.696791e-001
2506200000 -5.800210e-002 -3.549311e-002 -4.298901e-002 9.754731e-001 9.506766e-004 1.142252e-003 9.392701e-001 -4.695960e-001
2506250000 -5.815612e-002 -3.563327e-002 -4.186078e-002 9.757905e-001 9.439858e-004 1.134042e-003 9.390470e-001 -4.693363e-001
2506300000 -5.826267e-002 -3.574044e-002 -4.048954e-002 9.758415e-001 1.018503e-003 1.162908e-003 9.390147e-001 -4.693706e-001
2506350000 -5.845025e-002 -3.585400e-002 -3.923462e-002 9.759594e-001 9.897709e-004 1.162836e-003 9.390473e-001 -4.697405e-001
2506400000 -5.862192e-002 -3.589899e-002 -3.791830e-002 9.764147e-001 1.026813e-003 1.161771e-003 9.390355e-001 -4.696050e-001
2506450000 -5.877165e-002 -3.603937e-002 -3.670191e-002 9.762935e-001 1.031448e-003 1.149048e-003 9.389679e-001 -4.695008e-001
2506500000 -5.894390e-002 -3.616788e-002 -3.541480e-002 9.765487e-001 1.027903e-003 1.195974e-003 9.391676e-001 -4.695734e-001
2506550000 -5.914116e-002 -3.627386e-002 -3.413323e-002 9.768044e-001 9.875178e-004 1.170425e-003 9.391410e-001 -4.695092e-001
2506600000 -5.928366e-002 -3.639783e-002 -3.278438e-002 9.769978e-001 9.812899e-004 1.170776e-003 9.390113e-001 -4.696212e-001
2506650000 -5.941820e-002 -3.653070e-002 -3.152833e-002 9.770610e-001 9.959150e-004 1.200920e-003 9.390181e-001 -4.694005e-001
2506700000 -5.962248e-002 -3.659734e-002 -3.039886e-002 9.773648e-001 9.924570e-004 1.164736e-003 9.389051e-001 -4.693480e-001
2506750000 -5.972171e-002 -3.671787e-002 -2.897819e-002 9.776637e-001 9.956833e-004 1.168663e-003 9.390775e-001 -4.693916e-001
2506800000 -5.989343e-002 -3.682243e-002 -2.774757e-002 9.777278e-001 9.960918e-004 1.118060e-003 9.389428e-001 -4.694829e-001
2506850000 -6.001060e-002 -3.699354e-002 -2.669263e-002 9.780318e-001 9.582422e-004 1.170063e-003 9.388820e-001 -4.696882e-001
2506900000 -6.016242e-002 -3.707007e-002 -2.557941e-002 9.779791e-001 9.435736e-004 1.138611e-003 9.388338e-001 -4.699047e-001
2506950000 -6.031824e-002 -3.718768e-002 -2.438437e-002 9.786316e-001 9.551010e-004 1.137567e-003 9.388445e-001 -4.698341e-001
2507000000 -6.041650e-002 -3.733841e-002 -2.323421e-002 9.787129e-001 9.512648e-004 1.172891e-003 9.389942e-001 -4.700834e-001
2507050000 -6.056165e-002 -3.744710e-002 -2.203300e-002 9.788829e-001 9.732852e-004 1.123384e-003 9.385462e-001 -4.702357e-001
2507100000 -6.071659e-002 -3.751482e-002 -2.083699e-002 9.789205e-001 9.860209e-004 1.187209e-003 9.387465e-001 -4.703764e-001
2507150000 -6.081096e-002 -3.768611e-002 -1.957724e-002 9.791629e-001 9.723059e-004 1.123163e-003 9.388410e-001 -4.705097e-001
2507200000 -6.100987e-002 -3.776924e-002 -1.854243e-002 9.793935e-001 9.882075e-004 1.146945e-003 9.388257e-001 -4.703115e-001
2507250000 -6.107255e-002 -3.786990e-002 -1.707441e-002 9.795610e-001 9.270504e-004 1.149646e-003 9.389707e-001 -4.706089e-001
2507300000 -6.119758e-002 -3.803963e-002 -1.609540e-002 9.796318e-001 1.018558e-003 1.138027e-003 9.387754e-001 -4.707951e-001
2507350000 -6.136930e-002 -3.815972e-002 -1.486898e-002 9.797144e-001 1.011792e-003 1.174065e-003 9.388990e-001 -4.708439e-001
2507400000 -6.143851e-002 -3.823889e-002 -1.364144e-002 9.798807e-001 9.794357e-004 1.114058e-003 9.386479e-001 -4.710041e-001
2507450000 -6.158038e-002 -3.841514e-002 -1.239944e-002 9.799870e-001 9.903120e-004 1.118757e-003 9.386283e-001 -4.711405e-001
2507500000 -6.169030e-002 -3.849959e-002 -1.115668e-002 9.801970e-001 9.622161e-004 1.168043e-003 9.387662e-001 -4.710943e-001
2507550000 -6.178840e-002 -3.860237e-002 -1.006244e-002 9.801655e-001 9.673760e-004 1.169508e-003 9.387682e-001 -4.713261e-001
2507600000 -6.192604e-002 -3.867032e-002 -8.655322e-003 9.801348e-001 1.016925e-003 1.132492e-003 9.388511e-001 -4.710775e-001
