!Agilent Technologies,N5230C,SG49000117,A.08.50.07
!Agilent N5230C: A.08.50.07
!Date: Wednesday, January 24, 2024 19:23:48
!Correction: S11(Full 2 Port(1,2)) 
!S21(Full 2 Port(1,2)) 
!S12(Full 2 Port(1,2)) 
!S22(Full 2 Port(1,2)) 
!S2P File: Measurements: S11, S21, S12, S22:
# Hz S  RI   R 50
2700000000 9.052851e-001 -5.212873e-001 2.067898e-003 1.151633e-003 9.368191e-003 1.299132e-002 2.122298e-001 -9.442615e-002
2700020000 9.052498e-001 -5.211886e-001 2.093974e-003 1.181852e-003 2.547525e-002 -4.417543e-003 2.072609e-001 -9.447946e-002
2700040000 9.051052e-001 -5.211257e-001 2.100150e-003 1.193457e-003 2.407809e-002 -1.268430e-002 2.079265e-001 -8.369438e-002
2700060000 9.052886e-001 -5.211701e-001 2.083125e-003 1.216570e-003 3.952369e-002 2.647503e-002 2.176413e-001 -1.185167e-001
2700080000 9.053884e-001 -5.210947e-001 2.127857e-003 1.187108e-003 -5.435150e-002 -1.394385e-001 2.156322e-001 -9.796810e-002
2700100000 9.052583e-001 -5.211356e-001 2.087819e-003 1.187325e-003 4.855611e-002 9.689193e-002 2.725499e-001 -1.272646e-001
2700120000 9.049239e-001 -5.210158e-001 2.083601e-003 1.168153e-003 -6.211543e-003 -4.799783e-002 2.498635e-001 -1.208308e-001
2700140000 9.053171e-001 -5.209749e-001 2.122649e-003 1.156964e-003 -8.170831e-002 -3.323349e-002 1.994039e-001 -4.599172e-002
2700160000 9.052050e-001 -5.208653e-001 2.072257e-003 1.125753e-003 -1.395123e-001 -1.608441e-002 2.977746e-001 -1.236680e-001
2700180000 9.051808e-001 -5.209260e-001 2.104432e-003 1.187956e-003 3.575140e-004 -5.558314e-002 1.778369e-001 -1.211088e-001
2700200000 9.050226e-001 -5.210250e-001 2.079073e-003 1.077686e-003 6.553716e-002 -8.208983e-002 3.185323e-001 -3.247145e-002
2700220000 9.053777e-001 -5.210526e-001 2.086615e-003 1.222436e-003 1.373704e-001 1.391294e-001 1.397987e-001 -2.680330e-001
2700240000 9.052598e-001 -5.211154e-001 2.014108e-003 1.160687e-003 -3.497715e-002 2.511647e-002 2.907581e-001 -1.622130e-001
2700260000 9.052215e-001 -5.210231e-001 2.152213e-003 1.267049e-003 -8.614121e-002 -6.939826e-002 1.206299e-001 -1.592129e-001
2700280000 9.052200e-001 -5.208337e-001 2.026337e-003 1.126160e-003 -1.577889e-001 9.789739e-003 3.421486e-001 -2.402358e-001
2700300000 9.049888e-001 -5.209926e-001 2.065293e-003 1.118246e-003 -9.791160e-002 7.981516e-002 3.043871e-001 -8.692874e-002
2700320000 9.048569e-001 -5.212200e-001 2.095741e-003 1.213711e-003 -1.867726e-002 -6.443845e-002 2.050772e-001 -1.365345e-001
2700340000 9.049796e-001 -5.211020e-001 2.143873e-003 1.196604e-003 7.343348e-002 1.429399e-001 7.866373e-002 -7.309990e-002
2700360000 9.047289e-001 -5.213612e-001 2.170653e-003 1.146096e-003 -3.664805e-002 9.691601e-002 1.450567e-001 -4.073778e-002
2700380000 9.047666e-001 -5.212339e-001 2.120025e-003 1.164480e-003 4.565557e-002 1.156123e-001 2.449936e-001 -1.090137e-001
2700400000 9.048016e-001 -5.211425e-001 2.072412e-003 1.149146e-003 1.033373e-002 1.049365e-001 2.476810e-001 -4.034657e-002
2700420000 9.045001e-001 -5.210496e-001 2.106200e-003 1.125176e-003 -7.794377e-003 -9.566713e-002 2.084348e-001 -1.076074e-001
2700440000 9.048209e-001 -5.210777e-001 2.147103e-003 1.156325e-003 -2.569494e-002 -7.049296e-002 1.782722e-001 -6.222812e-002
2700460000 9.045178e-001 -5.211841e-001 2.109949e-003 1.145593e-003 -1.534211e-002 -5.108955e-002 2.505960e-001 -7.996196e-002
2700480000 9.047053e-001 -5.212697e-001 2.061612e-003 1.143859e-003 -3.111799e-002 6.198749e-003 2.263059e-001 -1.498222e-001
2700500000 9.042631e-001 -5.213187e-001 2.129972e-003 1.174900e-003 1.051551e-001 -1.176167e-001 1.850107e-001 -1.687132e-001
2700520000 9.042764e-001 -5.212208e-001 2.071430e-003 1.164298e-003 7.732955e-003 -1.210765e-001 2.903580e-001 -1.083359e-001
2700540000 9.043969e-001 -5.214409e-001 1.974362e-003 9.821035e-004 -1.204111e-001 4.004551e-001 7.409076e-001 -1.566499e-002
2700560000 9.045471e-001 -5.211148e-001 1.998270e-003 1.197661e-003 7.104731e-003 2.335386e-001 1.325492e-001 -2.461301e-001
2700580000 9.041736e-001 -5.212259e-001 2.098495e-003 1.114486e-003 -1.804753e-001 -1.243289e-002 2.764618e-001 -7.502997e-002
2700600000 9.041339e-001 -5.214310e-001 2.145001e-003 1.127176e-003 1.491212e-001 -1.062420e-002 3.087622e-001 -3.838451e-002
2700620000 9.042647e-001 -5.211929e-001 2.106725e-003 1.106102e-003 -3.304854e-001 -4.573227e-001 3.293915e-001 -9.537981e-002
2700640000 9.041476e-001 -5.215907e-001 2.095600e-003 1.140068e-003 4.729021e-002 7.186401e-002 2.272296e-001 -8.798707e-002
2700660000 9.040810e-001 -5.214636e-001 2.088990e-003 1.111567e-003 9.316693e-002 -3.808666e-002 3.037257e-001 -1.113741e-001
2700680000 9.039515e-001 -5.214390e-001 2.110186e-003 1.064134e-003 -9.250400e-002 4.553015e-002 3.750147e-001 -8.431105e-002
2700700000 9.039471e-001 -5.213113e-001 2.101192e-003 1.113130e-003 -3.449696e-002 7.676749e-002 2.379097e-001 -1.111613e-001
2700720000 9.039000e-001 -5.213634e-001 2.086819e-003 1.168093e-003 -6.347200e-002 -6.103948e-002 2.277699e-001 -6.763375e-002
2700740000 9.041881e-001 -5.216505e-001 2.106637e-003 1.184154e-003 1.677128e-002 -3.285026e-002 1.885279e-001 -7.174896e-002
2700760000 9.037590e-001 -5.216430e-001 2.093331e-003 1.043580e-003 4.259151e-002 -3.478155e-002 3.663370e-001 -6.990370e-002
2700780000 9.040424e-001 -5.216404e-001 2.142683e-003 1.140298e-003 9.450540e-004 8.628393e-002 2.143383e-001 -4.791188e-002
2700800000 9.041076e-001 -5.214635e-001 2.142900e-003 1.125116e-003 -5.052124e-002 2.762568e-002 2.326060e-001 -5.601770e-002
2700820000 9.037706e-001 -5.215895e-001 2.137712e-003 1.157064e-003 -6.134059e-003 1.261819e-002 1.827841e-001 -2.607907e-002
2700840000 9.037901e-001 -5.216763e-001 2.129869e-003 1.136518e-003 1.886801e-003 5.214954e-002 1.473361e-001 -3.877931e-002
2700860000 9.038109e-001 -5.215396e-001 2.060016e-003 1.115450e-003 -2.084244e-002 -4.623961e-002 3.903557e-001 -1.992121e-001
2700880000 9.037499e-001 -5.216031e-001 2.100157e-003 1.208294e-003 -4.283272e-003 -3.936553e-002 2.327887e-001 -1.584595e-001
2700900000 9.035534e-001 -5.216679e-001 2.079118e-003 1.069517e-003 5.302475e-002 -8.133592e-002 3.736263e-001 -6.814034e-002
2700920000 9.035871e-001 -5.217624e-001 2.119740e-003 1.135143e-003 -2.821332e-002 6.778693e-002 2.362894e-001 -9.698297e-002
2700940000 9.036130e-001 -5.217599e-001 2.078074e-003 1.141309e-003 -1.261004e-002 9.601658e-002 2.802409e-001 -2.157976e-001
2700960000 9.036328e-001 -5.219350e-001 2.091193e-003 1.191803e-003 2.832287e-002 8.709371e-004 1.946688e-001 -1.067981e-001
2700980000 9.037180e-001 -5.216860e-001 2.106369e-003 1.089003e-003 -1.798816e-002 1.026982e-001 2.288581e-001 -8.775710e-002
2701000000 9.036189e-001 -5.217413e-001 2.096761e-003 1.160675e-003 1.935819e-003 1.271929e-001 2.132477e-001 -1.154652e-001
2701020000 9.034681e-001 -5.217796e-001 2.092460e-003 1.116891e-003 9.498271e-002 -8.203263e-002 2.258573e-001 -9.345970e-002
2701040000 9.034661e-001 -5.217003e-001 2.111564e-003 1.141938e-003 -8.046567e-002 7.348154e-003 1.789274e-001 -1.900380e-003
2701060000 9.035765e-001 -5.218427e-001 2.142593e-003 1.126298e-003 -5.276972e-002 1.676094e-001 1.324935e-001 -2.564557e-002
2701080000 9.036645e-001 -5.217716e-001 2.154523e-003 1.179178e-003 -1.511297e-002 -4.615792e-002 2.314912e-001 -1.497760e-001
2701100000 9.036437e-001 -5.220187e-001 2.111065e-003 1.180073e-003 2.270016e-002 3.579106e-002 1.964855e-001 -1.572987e-001
2701120000 9.038310e-001 -5.217303e-001 2.147506e-003 1.207160e-003 5.678149e-002 -2.811711e-003 1.160274e-001 -1.073795e-001
2701140000 9.038815e-001 -5.219188e-001 2.137387e-003 1.142852e-003 -8.314560e-002 4.004528e-002 1.760246e-001 -1.060430e-001
2701160000 9.039456e-001 -5.217974e-001 2.114929e-003 1.141788e-003 -2.663575e-002 1.563770e-002 2.506572e-001 -3.216550e-002
2701180000 9.040013e-001 -5.218374e-001 2.085786e-003 1.146127e-003 -1.504501e-002 3.592948e-002 3.044977e-001 -1.559331e-001
2701200000 9.038531e-001 -5.223059e-001 2.132262e-003 1.083731e-003 -4.620403e-002 1.581555e-001 2.095780e-001 -3.309374e-002
2701220000 9.040061e-001 -5.220609e-001 2.042697e-003 1.095846e-003 8.292833e-003 -6.633429e-002 3.973419e-001 -1.418399e-001
2701240000 9.041081e-001 -5.220748e-001 2.118736e-003 1.199937e-003 1.191586e-001 8.920395e-002 1.201614e-001 -1.410503e-001
2701260000 9.041268e-001 -5.218539e-001 2.121944e-003 1.182992e-003 -3.399829e-002 2.930274e-003 2.498505e-001 -1.281754e-001
2701280000 9.041267e-001 -5.219429e-001 2.140010e-003 1.141664e-003 -1.546403e-001 -2.030923e-001 1.854344e-001 -8.998268e-002
2701300000 9.043431e-001 -5.215424e-001 2.088388e-003 1.165555e-003 -1.024461e-001 -8.071757e-002 2.843696e-001 -6.883387e-002
2701320000 9.040574e-001 -5.218710e-001 2.064883e-003 1.190751e-003 4.528291e-002 -7.077733e-002 1.458945e-001 -2.672575e-001
2701340000 9.043717e-001 -5.220936e-001 2.152615e-003 1.094583e-003 -1.042420e-002 2.424879e-002 2.265840e-001 -5.908162e-002
2701360000 9.042782e-001 -5.221114e-001 2.170400e-003 1.143383e-003 -2.089662e-002 8.325189e-002 1.752951e-001 -8.040363e-002
2701380000 9.041271e-001 -5.223482e-001 2.080686e-003 1.008920e-003 1.425072e-001 -1.206742e-001 4.182107e-001 -5.675279e-002
2701400000 9.043318e-001 -5.218533e-001 2.166881e-003 1.147949e-003 1.905182e-002 8.444898e-002 2.100298e-001 -8.684028e-002
2701420000 9.046591e-001 -5.219495e-001 2.182212e-003 1.084902e-003 -4.600962e-002 1.502058e-002 2.598415e-001 -6.571920e-003
2701440000 9.044493e-001 -5.218028e-001 2.074850e-003 1.107999e-003 -9.330702e-002 -7.356056e-003 3.155876e-001 -1.514169e-001
2701460000 9.042068e-001 -5.220017e-001 2.115264e-003 1.171406e-003 1.039366e-001 -6.589973e-002 1.884526e-001 -1.646224e-001
2701480000 9.042625e-001 -5.219628e-001 2.087213e-003 1.149818e-003 1.089603e-001 3.716912e-002 3.289609e-001 -1.843004e-001
2701500000 9.043311e-001 -5.219980e-001 2.135880e-003 1.135917e-003 3.938976e-003 -7.553177e-002 2.014286e-001 -1.234367e-001
2701520000 9.044406e-001 -5.218846e-001 2.122904e-003 1.169110e-003 2.680780e-002 3.077607e-002 2.498967e-001 -1.192503e-001
2701540000 9.044929e-001 -5.221887e-001 2.106603e-003 1.139597e-003 6.803824e-002 7.511061e-002 2.086855e-001 -1.314350e-001
2701560000 9.045997e-001 -5.220485e-001 2.210554e-003 1.119372e-003 1.150033e-002 1.344836e-001 8.344679e-002 2.459102e-002
2701580000 9.044423e-001 -5.220072e-001 2.126221e-003 1.117530e-003 8.420479e-003 -2.979751e-002 3.593083e-001 -7.846564e-002
2701600000 9.046872e-001 -5.221620e-001 2.179386e-003 1.117536e-003 7.731256e-002 -9.590437e-002 2.368490e-001 4.999011e-002
2701620000 9.043322e-001 -5.222204e-001 2.092417e-003 1.153206e-003 2.998221e-002 6.721858e-002 1.781385e-001 -1.193324e-001
2701640000 9.043134e-001 -5.220909e-001 2.125110e-003 1.088270e-003 6.933418e-002 1.031670e-001 1.937759e-001 -3.794355e-002
2701660000 9.044059e-001 -5.220655e-001 2.146253e-003 1.109426e-003 -6.392575e-002 1.130586e-002 2.026779e-001 -4.812438e-002
2701680000 9.040250e-001 -5.218666e-001 2.127104e-003 1.136771e-003 -1.416426e-001 -5.338112e-002 2.353945e-001 -5.956883e-002
2701700000 9.043581e-001 -5.219446e-001 2.168206e-003 1.039212e-003 -1.732700e-001 -8.971200e-002 2.900894e-001 8.554111e-002
2701720000 9.043005e-001 -5.218551e-001 2.105793e-003 1.137897e-003 -8.879061e-002 -1.156969e-001 2.543414e-001 -1.114726e-001
2701740000 9.044321e-001 -5.220600e-001 2.102419e-003 1.193793e-003 1.776555e-001 7.760141e-002 2.224427e-001 -2.186925e-001
2701760000 9.043316e-001 -5.218027e-001 2.165164e-003 1.118952e-003 -9.776674e-002 1.194932e-001 2.536066e-001 1.384424e-002
2701780000 9.042265e-001 -5.219254e-001 2.059200e-003 1.084493e-003 -6.401258e-002 -9.970661e-002 2.017375e-001 -8.587252e-002
2701800000 9.040136e-001 -5.219118e-001 2.084762e-003 1.115354e-003 1.039570e-001 -5.688905e-002 2.998444e-001 -1.129620e-001
2701820000 9.041280e-001 -5.217834e-001 2.142370e-003 1.142743e-003 -1.045305e-001 -1.270997e-001 1.970915e-001 -9.329063e-002
2701840000 9.039250e-001 -5.216909e-001 2.040490e-003 1.113864e-003 1.373904e-002 1.748436e-002 3.312777e-001 -1.533128e-001
2701860000 9.039052e-001 -5.217324e-001 2.103357e-003 1.135846e-003 3.361009e-003 -2.726716e-002 2.522095e-001 -9.420294e-002
2701880000 9.041446e-001 -5.218250e-001 2.135924e-003 1.222668e-003 -3.124497e-001 4.424778e-001 -3.980365e-002 -2.807820e-001
2701900000 9.037570e-001 -5.215863e-001 2.160815e-003 1.213177e-003 -1.274574e-001 -3.079771e-002 3.712915e-002 -1.910481e-001
2701920000 9.035152e-001 -5.213655e-001 2.039259e-003 1.110678e-003 -3.396542e-001 -2.809998e-001 3.776703e-001 -1.567324e-001
2701940000 9.036686e-001 -5.216409e-001 2.138754e-003 1.122244e-003 4.651637e-002 2.285890e-002 2.019479e-001 -3.935318e-002
2701960000 9.036425e-001 -5.216534e-001 2.163262e-003 1.135418e-003 -5.622019e-002 7.410986e-003 2.600414e-001 5.323435e-003
2701980000 9.032523e-001 -5.217604e-001 2.152080e-003 1.114026e-003 -3.098301e-002 3.032071e-003 2.122892e-001 -8.881739e-002
2702000000 9.031464e-001 -5.216433e-001 2.153079e-003 1.108126e-003 -1.549582e-001 -1.757205e-001 2.205270e-001 -7.773592e-004
2702020000 9.034088e-001 -5.214989e-001 2.150113e-003 1.091470e-003 -2.844930e-002 1.766619e-002 2.222934e-001 -7.408503e-002
2702040000 9.032529e-001 -5.217376e-001 2.124690e-003 1.071051e-003 -1.880693e-002 -6.829271e-002 2.275676e-001 -1.334034e-001
2702060000 9.033319e-001 -5.213590e-001 2.120852e-003 1.102189e-003 -1.004103e-002 2.152579e-002 2.508838e-001 -5.590575e-002
2702080000 9.032058e-001 -5.216326e-001 2.130161e-003 1.117644e-003 -3.410887e-002 -1.748857e-001 1.385115e-001 -1.251387e-001
2702100000 9.031731e-001 -5.215915e-001 2.042300e-003 1.047055e-003 1.685319e-001 1.515327e-001 3.820091e-001 -1.699084e-001
2702120000 9.030032e-001 -5.214748e-001 2.171046e-003 1.157626e-003 1.517143e-001 -9.458749e-002 1.255176e-001 -1.323462e-001
2702140000 9.031317e-001 -5.216075e-001 2.165171e-003 1.182769e-003 -4.275534e-002 1.841074e-001 1.188510e-001 -8.213170e-002
2702160000 9.030786e-001 -5.213522e-001 2.100995e-003 1.122395e-003 -4.403682e-002 5.821222e-002 2.071384e-001 -1.544984e-001
2702180000 9.029194e-001 -5.212796e-001 2.171399e-003 1.120717e-003 -3.736191e-002 -1.776009e-002 2.189799e-001 -1.343376e-001
2702200000 9.029967e-001 -5.213673e-001 2.087307e-003 1.108256e-003 -7.395857e-002 -5.859674e-002 2.996417e-001 -1.251078e-001
2702220000 9.025890e-001 -5.215294e-001 2.102690e-003 1.034764e-003 3.046233e-001 2.716022e-002 2.973999e-001 -9.969664e-002
2702240000 9.028616e-001 -5.211455e-001 2.144089e-003 1.029729e-003 -3.254726e-003 3.278729e-002 2.728402e-001 -1.425341e-002
2702260000 9.026908e-001 -5.214778e-001 2.114415e-003 1.107788e-003 1.019765e-001 5.134877e-002 1.446905e-001 -2.891226e-002
2702280000 9.029258e-001 -5.213966e-001 2.093039e-003 1.113687e-003 1.379323e-001 1.007364e-001 2.590071e-001 -1.292575e-001
2702300000 9.025182e-001 -5.213551e-001 2.177509e-003 1.055657e-003 5.829112e-003 2.851085e-002 1.799664e-001 3.660209e-002
2702320000 9.028370e-001 -5.210918e-001 2.132565e-003 1.088293e-003 2.348246e-002 -1.300011e-001 2.240875e-001 9.690003e-003
2702340000 9.027781e-001 -5.210971e-001 2.146591e-003 9.830771e-004 -1.598936e-001 5.793401e-002 3.344620e-001 6.424740e-002
2702360000 9.026724e-001 -5.213513e-001 2.061875e-003 1.049847e-003 2.829816e-002 1.021882e-001 4.214005e-001 -9.882032e-002
2702380000 9.026477e-001 -5.210853e-001 2.096499e-003 1.123045e-003 4.578565e-002 5.875573e-002 1.759647e-001 -9.262705e-002
2702400000 9.026927e-001 -5.212234e-001 2.147734e-003 1.122992e-003 -1.409087e-001 -8.820926e-002 1.876588e-001 4.860553e-003
2702420000 9.023279e-001 -5.210110e-001 2.192910e-003 1.090848e-003 7.582951e-002 -9.095754e-002 1.939875e-001 7.467735e-002
2702440000 9.025571e-001 -5.211756e-001 2.135300e-003 1.095947e-003 9.184255e-002 4.339823e-002 2.113151e-001 -7.718774e-002
2702460000 9.029242e-001 -5.212916e-001 2.204450e-003 1.068053e-003 1.590395e-002 4.949214e-001 2.104640e-001 9.694331e-002
2702480000 9.025223e-001 -5.212639e-001 2.094802e-003 1.096274e-003 -4.560510e-002 2.151538e-001 2.319257e-001 -1.252252e-001
2702500000 9.022998e-001 -5.211155e-001 2.152541e-003 1.062584e-003 -5.876666e-002 -7.158951e-002 2.562543e-001 -2.035907e-003
2702520000 9.025033e-001 -5.212696e-001 2.096283e-003 1.064557e-003 -1.034812e-001 1.153671e-001 3.556966e-001 -9.838473e-002
2702540000 9.026182e-001 -5.211609e-001 2.151144e-003 1.112298e-003 1.556695e-001 -4.050216e-002 1.661920e-001 -1.085505e-001
2702560000 9.025774e-001 -5.212128e-001 2.141235e-003 1.093206e-003 -3.198696e-002 -4.696659e-002 2.290981e-001 -4.049756e-002
2702580000 9.027723e-001 -5.213718e-001 2.141781e-003 1.078097e-003 5.736251e-002 1.231798e-001 2.003247e-001 -1.368993e-001
2702600000 9.026924e-001 -5.211581e-001 2.224255e-003 1.134400e-003 7.113601e-002 -5.146582e-002 9.793077e-002 -1.409562e-002
2702620000 9.026084e-001 -5.213680e-001 2.209393e-003 1.123274e-003 -3.048575e-002 3.168910e-002 1.829953e-001 2.167859e-002
2702640000 9.026762e-001 -5.212309e-001 2.123523e-003 9.731163e-004 -1.120449e-001 7.632530e-002 4.203402e-001 1.814923e-002
2702660000 9.026715e-001 -5.213298e-001 2.116701e-003 1.035721e-003 -1.936495e-002 5.527255e-002 2.854172e-001 -1.372425e-001
2702680000 9.026554e-001 -5.212865e-001 2.139453e-003 1.047548e-003 -6.732085e-002 -2.431013e-002 2.931541e-001 -6.145909e-002
2702700000 9.023808e-001 -5.214772e-001 2.113841e-003 1.023023e-003 5.474467e-002 1.142143e-001 3.022973e-001 -5.792545e-002
2702720000 9.028619e-001 -5.215393e-001 2.115379e-003 1.096644e-003 4.770024e-002 1.768604e-001 2.464325e-001 -1.982471e-001
2702740000 9.029101e-001 -5.213702e-001 2.132527e-003 1.166603e-003 1.018738e-002 -1.172799e-002 1.632449e-001 -1.370733e-001
2702760000 9.027350e-001 -5.212965e-001 2.116265e-003 1.137481e-003 -5.592556e-002 -2.603461e-001 1.558172e-001 -1.194944e-001
2702780000 9.026844e-001 -5.212557e-001 2.153608e-003 1.128022e-003 1.523699e-001 2.098336e-002 1.268472e-001 -1.108794e-001
2702800000 9.028893e-001 -5.214074e-001 2.152458e-003 1.168601e-003 6.644749e-002 4.738189e-002 1.717795e-001 -1.950959e-001
2702820000 9.029589e-001 -5.213929e-001 2.195056e-003 9.705373e-004 -1.727725e-001 1.314444e-001 2.461086e-001 1.342293e-001
2702840000 9.028410e-001 -5.212742e-001 2.117321e-003 1.098265e-003 -2.813055e-002 -4.836229e-002 1.903675e-001 -8.251505e-002
2702860000 9.027653e-001 -5.212282e-001 2.146079e-003 1.115198e-003 -2.704811e-002 -6.988356e-002 2.070492e-001 1.818850e-003
2702880000 9.029112e-001 -5.215440e-001 2.161537e-003 1.087884e-003 1.106454e-001 1.227872e-001 2.336341e-001 -7.472538e-002
2702900000 9.027857e-001 -5.212534e-001 2.095431e-003 1.040627e-003 -2.934035e-002 6.459790e-002 2.831726e-001 -1.051430e-001
2702920000 9.030167e-001 -5.213524e-001 2.077477e-003 1.042954e-003 -8.979326e-002 6.999139e-002 2.978561e-001 -1.252408e-001
2702940000 9.030989e-001 -5.213572e-001 2.136149e-003 1.048794e-003 8.210313e-002 6.350475e-002 2.356942e-001 -1.059636e-001
2702960000 9.028563e-001 -5.214348e-001 2.157630e-003 1.077641e-003 -1.096485e-002 1.894905e-002 2.206924e-001 -1.780075e-002
2702980000 9.033397e-001 -5.214080e-001 2.102143e-003 1.121390e-003 -1.220881e-003 8.813941e-003 2.649217e-001 -1.170198e-001
2703000000 9.031979e-001 -5.214036e-001 2.105513e-003 1.149877e-003 -5.587806e-002 -6.713895e-002 1.440312e-001 -1.598556e-001
2703020000 9.031289e-001 -5.213277e-001 2.195181e-003 1.042562e-003 -6.106609e-002 2.010110e-001 1.926949e-001 2.892675e-002
2703040000 9.031670e-001 -5.213510e-001 2.226863e-003 1.039462e-003 -1.473901e-002 -1.767456e-002 1.835236e-001 4.355681e-002
2703060000 9.033108e-001 -5.214556e-001 2.115146e-003 1.024338e-003 -4.460845e-003 2.039325e-002 2.792358e-001 -8.962392e-002
2703080000 9.032704e-001 -5.216523e-001 2.049611e-003 1.066137e-003 5.056767e-003 1.241475e-001 3.258675e-001 -1.729031e-001
