!Agilent Technologies,E8362B,MY43021131,A.07.50.67
!Agilent E8362B: A.07.50.67
!Date: Thursday, March 14, 2024 14:54:25
!Correction: S11(Off) 
!S21(Off) 
!S12(Off) 
!S22(Off) 
!S2P File: Measurements: S11, S21, S12, S22:
# Hz S  RI   R 50
2000000000 -4.924594e-001 6.554995e-001 7.071068e-011 7.071068e-011 7.071068e-011 7.071068e-011 7.071068e-011 7.071068e-011
2000100000 -4.862172e-001 6.620472e-001 7.071068e-011 7.071068e-011 7.071068e-011 7.071068e-011 7.071068e-011 7.071068e-011
2000200000 -4.772911e-001 6.670343e-001 7.071068e-011 7.071068e-011 7.071068e-011 7.071068e-011 7.071068e-011 7.071068e-011
2000300000 -4.699191e-001 6.720657e-001 7.071068e-011 7.071068e-011 7.071068e-011 7.071068e-011 7.071068e-011 7.071068e-011
2000400000 -4.613736e-001 6.783666e-001 7.071068e-011 7.071068e-011 7.071068e-011 7.071068e-011 7.071068e-011 7.071068e-011
2000500000 -4.528047e-001 6.826947e-001 7.071068e-011 7.071068e-011 7.071068e-011 7.071068e-011 7.071068e-011 7.071068e-011
2000600000 -4.447318e-001 6.873800e-001 7.071068e-011 7.071068e-011 7.071068e-011 7.071068e-011 7.071068e-011 7.071068e-011
2000700000 -4.370396e-001 6.937975e-001 7.071068e-011 7.071068e-011 7.071068e-011 7.071068e-011 7.071068e-011 7.071068e-011
2000800000 -4.281659e-001 6.973386e-001 7.071068e-011 7.071068e-011 7.071068e-011 7.071068e-011 7.071068e-011 7.071068e-011
2000900000 -4.207868e-001 7.031171e-001 7.071068e-011 7.071068e-011 7.071068e-011 7.071068e-011 7.071068e-011 7.071068e-011
2001000000 -4.108755e-001 7.075714e-001 7.071068e-011 7.071068e-011 7.071068e-011 7.071068e-011 7.071068e-011 7.071068e-011
2001100000 -4.023290e-001 7.134044e-001 7.071068e-011 7.071068e-011 7.071068e-011 7.071068e-011 7.071068e-011 7.071068e-011
2001200000 -3.945374e-001 7.176858e-001 7.071068e-011 7.071068e-011 7.071068e-011 7.071068e-011 7.071068e-011 7.071068e-011
2001300000 -3.863309e-001 7.214340e-001 7.071068e-011 7.071068e-011 7.071068e-011 7.071068e-011 7.071068e-011 7.071068e-011
2001400000 -3.764287e-001 7.260218e-001 7.071068e-011 7.071068e-011 7.071068e-011 7.071068e-011 7.071068e-011 7.071068e-011
2001500000 -3.676670e-001 7.302983e-001 7.071068e-011 7.071068e-011 7.071068e-011 7.071068e-011 7.071068e-011 7.071068e-011
2001600000 -3.587502e-001 7.329410e-001 7.071068e-011 7.071068e-011 7.071068e-011 7.071068e-011 7.071068e-011 7.071068e-011
2001700000 -3.517765e-001 7.374483e-001 7.071068e-011 7.071068e-011 7.071068e-011 7.071068e-011 7.071068e-011 7.071068e-011
2001800000 -3.416068e-001 7.424257e-001 7.071068e-011 7.071068e-011 7.071068e-011 7.071068e-011 7.071068e-011 7.071068e-011
2001900000 -3.326869e-001 7.458859e-001 7.071068e-011 7.071068e-011 7.071068e-011 7.071068e-011 7.071068e-011 7.071068e-011
2002000000 -3.240551e-001 7.502437e-001 7.071068e-011 7.071068e-011 7.071068e-011 7.071068e-011 7.071068e-011 7.071068e-011
2002100000 -3.158073e-001 7.535613e-001 7.071068e-011 7.071068e-011 7.071068e-011 7.071068e-011 7.071068e-011 7.071068e-011
2002200000 -3.061708e-001 7.577935e-001 7.071068e-011 7.071068e-011 7.071068e-011 7.071068e-011 7.071068e-011 7.071068e-011
2002300000 -2.953184e-001 7.610700e-001 7.071068e-011 7.071068e-011 7.071068e-011 7.071068e-011 7.071068e-011 7.071068e-011
2002400000 -2.878470e-001 7.627657e-001 7.071068e-011 7.071068e-011 7.071068e-011 7.071068e-011 7.071068e-011 7.071068e-011
2002500000 -2.779731e-001 7.663075e-001 7.071068e-011 7.071068e-011 7.071068e-011 7.071068e-011 7.071068e-011 7.071068e-011
2002600000 -2.691750e-001 7.706167e-001 7.071068e-011 7.071068e-011 7.071068e-011 7.071068e-011 7.071068e-011 7.071068e-011
2002700000 -2.593071e-001 7.738432e-001 7.071068e-011 7.071068e-011 7.071068e-011 7.071068e-011 7.071068e-011 7.071068e-011
2002800000 -2.512911e-001 7.759312e-001 7.071068e-011 7.071068e-011 7.071068e-011 7.071068e-011 7.071068e-011 7.071068e-011
2002900000 -2.403397e-001 7.784026e-001 7.071068e-011 7.071068e-011 7.071068e-011 7.071068e-011 7.071068e-011 7.071068e-011
2003000000 -2.319283e-001 7.829515e-001 7.071068e-011 7.071068e-011 7.071068e-011 7.071068e-011 7.071068e-011 7.071068e-011
2003100000 -2.219671e-001 7.838160e-001 7.071068e-011 7.071068e-011 7.071068e-011 7.071068e-011 7.071068e-011 7.071068e-011
2003200000 -2.128181e-001 7.864754e-001 7.071068e-011 7.071068e-011 7.071068e-011 7.071068e-011 7.071068e-011 7.071068e-011
2003300000 -2.045314e-001 7.881424e-001 7.071068e-011 7.071068e-011 7.071068e-011 7.071068e-011 7.071068e-011 7.071068e-011
2003400000 -1.943032e-001 7.906083e-001 7.071068e-011 7.071068e-011 7.071068e-011 7.071068e-011 7.071068e-011 7.071068e-011
2003500000 -1.842414e-001 7.948967e-001 7.071068e-011 7.071068e-011 7.071068e-011 7.071068e-011 7.071068e-011 7.071068e-011
2003600000 -1.740032e-001 7.957123e-001 7.071068e-011 7.071068e-011 7.071068e-011 7.071068e-011 7.071068e-011 7.071068e-011
2003700000 -1.666770e-001 7.980043e-001 7.071068e-011 7.071068e-011 7.071068e-011 7.071068e-011 7.071068e-011 7.071068e-011
2003800000 -1.568219e-001 7.995607e-001 7.071068e-011 7.071068e-011 7.071068e-011 7.071068e-011 7.071068e-011 7.071068e-011
2003900000 -1.472724e-001 8.012666e-001 7.071068e-011 7.071068e-011 7.071068e-011 7.071068e-011 7.071068e-011 7.071068e-011
2004000000 -1.370775e-001 8.033440e-001 7.071068e-011 7.071068e-011 7.071068e-011 7.071068e-011 7.071068e-011 7.071068e-011
2004100000 -1.270029e-001 8.046241e-001 7.071068e-011 7.071068e-011 7.071068e-011 7.071068e-011 7.071068e-011 7.071068e-011
2004200000 -1.184475e-001 8.056299e-001 7.071068e-011 7.071068e-011 7.071068e-011 7.071068e-011 7.071068e-011 7.071068e-011
2004300000 -1.074707e-001 8.070685e-001 7.071068e-011 7.071068e-011 7.071068e-011 7.071068e-011 7.071068e-011 7.071068e-011
2004400000 -9.848744e-002 8.081200e-001 7.071068e-011 7.071068e-011 7.071068e-011 7.071068e-011 7.071068e-011 7.071068e-011
2004500000 -8.704407e-002 8.091905e-001 7.071068e-011 7.071068e-011 7.071068e-011 7.071068e-011 7.071068e-011 7.071068e-011
2004600000 -7.859404e-002 8.113145e-001 7.071068e-011 7.071068e-011 7.071068e-011 7.071068e-011 7.071068e-011 7.071068e-011
2004700000 -6.793896e-002 8.108644e-001 7.071068e-011 7.071068e-011 7.071068e-011 7.071068e-011 7.071068e-011 7.071068e-011
2004800000 -5.874238e-002 8.130099e-001 7.071068e-011 7.071068e-011 7.071068e-011 7.071068e-011 7.071068e-011 7.071068e-011
2004900000 -4.954322e-002 8.138157e-001 7.071068e-011 7.071068e-011 7.071068e-011 7.071068e-011 7.071068e-011 7.071068e-011
2005000000 -3.884870e-002 8.132378e-001 7.071068e-011 7.071068e-011 7.071068e-011 7.071068e-011 7.071068e-011 7.071068e-011
2005100000 -2.895163e-002 8.133772e-001 7.071068e-011 7.071068e-011 7.071068e-011 7.071068e-011 7.071068e-011 7.071068e-011
2005200000 -1.991979e-002 8.139325e-001 7.071068e-011 7.071068e-011 7.071068e-011 7.071068e-011 7.071068e-011 7.071068e-011
2005300000 -1.003714e-002 8.147412e-001 7.071068e-011 7.071068e-011 7.071068e-011 7.071068e-011 7.071068e-011 7.071068e-011
2005400000 -8.242843e-004 8.151120e-001 7.071068e-011 7.071068e-011 7.071068e-011 7.071068e-011 7.071068e-011 7.071068e-011
2005500000 9.182622e-003 8.153743e-001 7.071068e-011 7.071068e-011 7.071068e-011 7.071068e-011 7.071068e-011 7.071068e-011
2005600000 1.859391e-002 8.157157e-001 7.071068e-011 7.071068e-011 7.071068e-011 7.071068e-011 7.071068e-011 7.071068e-011
2005700000 2.871883e-002 8.147367e-001 7.071068e-011 7.071068e-011 7.071068e-011 7.071068e-011 7.071068e-011 7.071068e-011
2005800000 3.932388e-002 8.138651e-001 7.071068e-011 7.071068e-011 7.071068e-011 7.071068e-011 7.071068e-011 7.071068e-011
2005900000 4.767860e-002 8.142608e-001 7.071068e-011 7.071068e-011 7.071068e-011 7.071068e-011 7.071068e-011 7.071068e-011
2006000000 5.753965e-002 8.124337e-001 7.071068e-011 7.071068e-011 7.071068e-011 7.071068e-011 7.071068e-011 7.071068e-011
2006100000 6.738888e-002 8.128186e-001 7.071068e-011 7.071068e-011 7.071068e-011 7.071068e-011 7.071068e-011 7.071068e-011
2006200000 7.680541e-002 8.115539e-001 7.071068e-011 7.071068e-011 7.071068e-011 7.071068e-011 7.071068e-011 7.071068e-011
2006300000 8.639793e-002 8.115358e-001 7.071068e-011 7.071068e-011 7.071068e-011 7.071068e-011 7.071068e-011 7.071068e-011
2006400000 9.627191e-002 8.096554e-001 7.071068e-011 7.071068e-011 7.071068e-011 7.071068e-011 7.071068e-011 7.071068e-011
2006500000 1.061952e-001 8.084032e-001 7.071068e-011 7.071068e-011 7.071068e-011 7.071068e-011 7.071068e-011 7.071068e-011
2006600000 1.155390e-001 8.067786e-001 7.071068e-011 7.071068e-011 7.071068e-011 7.071068e-011 7.071068e-011 7.071068e-011
2006700000 1.264614e-001 8.068895e-001 7.071068e-011 7.071068e-011 7.071068e-011 7.071068e-011 7.071068e-011 7.071068e-011
2006800000 1.349150e-001 8.054268e-001 7.071068e-011 7.071068e-011 7.071068e-011 7.071068e-011 7.071068e-011 7.071068e-011
2006900000 1.457438e-001 8.040619e-001 7.071068e-011 7.071068e-011 7.071068e-011 7.071068e-011 7.071068e-011 7.071068e-011
2007000000 1.538346e-001 8.021382e-001 7.071068e-011 7.071068e-011 7.071068e-011 7.071068e-011 7.071068e-011 7.071068e-011
2007100000 1.642049e-001 8.004819e-001 7.071068e-011 7.071068e-011 7.071068e-011 7.071068e-011 7.071068e-011 7.071068e-011
2007200000 1.730135e-001 7.978534e-001 7.071068e-011 7.071068e-011 7.071068e-011 7.071068e-011 7.071068e-011 7.071068e-011
2007300000 1.839420e-001 7.964904e-001 7.071068e-011 7.071068e-011 7.071068e-011 7.071068e-011 7.071068e-011 7.071068e-011
2007400000 1.928716e-001 7.944043e-001 7.071068e-011 7.071068e-011 7.071068e-011 7.071068e-011 7.071068e-011 7.071068e-011
2007500000 2.013371e-001 7.931171e-001 7.071068e-011 7.071068e-011 7.071068e-011 7.071068e-011 7.071068e-011 7.071068e-011
2007600000 2.129810e-001 7.903086e-001 7.071068e-011 7.071068e-011 7.071068e-011 7.071068e-011 7.071068e-011 7.071068e-011
2007700000 2.214567e-001 7.881050e-001 7.071068e-011 7.071068e-011 7.071068e-011 7.071068e-011 7.071068e-011 7.071068e-011
2007800000 2.309586e-001 7.857164e-001 7.071068e-011 7.071068e-011 7.071068e-011 7.071068e-011 7.071068e-011 7.071068e-011
2007900000 2.397727e-001 7.820819e-001 7.071068e-011 7.071068e-011 7.071068e-011 7.071068e-011 7.071068e-011 7.071068e-011
2008000000 2.501113e-001 7.801325e-001 7.071068e-011 7.071068e-011 7.071068e-011 7.071068e-011 7.071068e-011 7.071068e-011
2008100000 2.590578e-001 7.773095e-001 7.071068e-011 7.071068e-011 7.071068e-011 7.071068e-011 7.071068e-011 7.071068e-011
2008200000 2.683921e-001 7.753415e-001 7.071068e-011 7.071068e-011 7.071068e-011 7.071068e-011 7.071068e-011 7.071068e-011
2008300000 2.778784e-001 7.717193e-001 7.071068e-011 7.071068e-011 7.071068e-011 7.071068e-011 7.071068e-011 7.071068e-011
2008400000 2.869186e-001 7.673579e-001 7.071068e-011 7.071068e-011 7.071068e-011 7.071068e-011 7.071068e-011 7.071068e-011
2008500000 2.953486e-001 7.646227e-001 7.071068e-011 7.071068e-011 7.071068e-011 7.071068e-011 7.071068e-011 7.071068e-011
2008600000 3.045469e-001 7.626709e-001 7.071068e-011 7.071068e-011 7.071068e-011 7.071068e-011 7.071068e-011 7.071068e-011
2008700000 3.144044e-001 7.589872e-001 7.071068e-011 7.071068e-011 7.071068e-011 7.071068e-011 7.071068e-011 7.071068e-011
2008800000 3.244342e-001 7.558842e-001 7.071068e-011 7.071068e-011 7.071068e-011 7.071068e-011 7.071068e-011 7.071068e-011
2008900000 3.326578e-001 7.513894e-001 7.071068e-011 7.071068e-011 7.071068e-011 7.071068e-011 7.071068e-011 7.071068e-011
2009000000 3.417979e-001 7.474889e-001 7.071068e-011 7.071068e-011 7.071068e-011 7.071068e-011 7.071068e-011 7.071068e-011
2009100000 3.511983e-001 7.440507e-001 7.071068e-011 7.071068e-011 7.071068e-011 7.071068e-011 7.071068e-011 7.071068e-011
2009200000 3.603840e-001 7.399770e-001 7.071068e-011 7.071068e-011 7.071068e-011 7.071068e-011 7.071068e-011 7.071068e-011
2009300000 3.685075e-001 7.361559e-001 7.071068e-011 7.071068e-011 7.071068e-011 7.071068e-011 7.071068e-011 7.071068e-011
2009400000 3.781855e-001 7.326400e-001 7.071068e-011 7.071068e-011 7.071068e-011 7.071068e-011 7.071068e-011 7.071068e-011
2009500000 3.855787e-001 7.283800e-001 7.071068e-011 7.071068e-011 7.071068e-011 7.071068e-011 7.071068e-011 7.071068e-011
2009600000 3.963613e-001 7.238568e-001 7.071068e-011 7.071068e-011 7.071068e-011 7.071068e-011 7.071068e-011 7.071068e-011
2009700000 4.032585e-001 7.191629e-001 7.071068e-011 7.071068e-011 7.071068e-011 7.071068e-011 7.071068e-011 7.071068e-011
2009800000 4.110967e-001 7.140930e-001 7.071068e-011 7.071068e-011 7.071068e-011 7.071068e-011 7.071068e-011 7.071068e-011
2009900000 4.220088e-001 7.100332e-001 7.071068e-011 7.071068e-011 7.071068e-011 7.071068e-011 7.071068e-011 7.071068e-011
2010000000 4.296133e-001 7.050325e-001 7.071068e-011 7.071068e-011 7.071068e-011 7.071068e-011 7.071068e-011 7.071068e-011
2010100000 4.383786e-001 6.996657e-001 7.071068e-011 7.071068e-011 7.071068e-011 7.071068e-011 7.071068e-011 7.071068e-011
2010200000 4.467368e-001 6.952885e-001 7.071068e-011 7.071068e-011 7.071068e-011 7.071068e-011 7.071068e-011 7.071068e-011
2010300000 4.551985e-001 6.907935e-001 7.071068e-011 7.071068e-011 7.071068e-011 7.071068e-011 7.071068e-011 7.071068e-011
2010400000 4.643066e-001 6.846024e-001 7.071068e-011 7.071068e-011 7.071068e-011 7.071068e-011 7.071068e-011 7.071068e-011
2010500000 4.718495e-001 6.806300e-001 7.071068e-011 7.071068e-011 7.071068e-011 7.071068e-011 7.071068e-011 7.071068e-011
2010600000 4.811379e-001 6.754929e-001 7.071068e-011 7.071068e-011 7.071068e-011 7.071068e-011 7.071068e-011 7.071068e-011
2010700000 4.888104e-001 6.689083e-001 7.071068e-011 7.071068e-011 7.071068e-011 7.071068e-011 7.071068e-011 7.071068e-011
2010800000 4.954850e-001 6.627229e-001 7.071068e-011 7.071068e-011 7.071068e-011 7.071068e-011 7.071068e-011 7.071068e-011
2010900000 5.042026e-001 6.585470e-001 7.071068e-011 7.071068e-011 7.071068e-011 7.071068e-011 7.071068e-011 7.071068e-011
2011000000 5.122384e-001 6.527693e-001 7.071068e-011 7.071068e-011 7.071068e-011 7.071068e-011 7.071068e-011 7.071068e-011
2011100000 5.205311e-001 6.464170e-001 7.071068e-011 7.071068e-011 7.071068e-011 7.071068e-011 7.071068e-011 7.071068e-011
2011200000 5.277984e-001 6.402032e-001 7.071068e-011 7.071068e-011 7.071068e-011 7.071068e-011 7.071068e-011 7.071068e-011
2011300000 5.359522e-001 6.355876e-001 7.071068e-011 7.071068e-011 7.071068e-011 7.071068e-011 7.071068e-011 7.071068e-011
2011400000 5.449950e-001 6.286801e-001 7.071068e-011 7.071068e-011 7.071068e-011 7.071068e-011 7.071068e-011 7.071068e-011
2011500000 5.523780e-001 6.228337e-001 7.071068e-011 7.071068e-011 7.071068e-011 7.071068e-011 7.071068e-011 7.071068e-011
2011600000 5.595576e-001 6.147568e-001 7.071068e-011 7.071068e-011 7.071068e-011 7.071068e-011 7.071068e-011 7.071068e-011
2011700000 5.662352e-001 6.108976e-001 7.071068e-011 7.071068e-011 7.071068e-011 7.071068e-011 7.071068e-011 7.071068e-011
2011800000 5.731569e-001 6.037648e-001 7.071068e-011 7.071068e-011 7.071068e-011 7.071068e-011 7.071068e-011 7.071068e-011
2011900000 5.810910e-001 5.969428e-001 7.071068e-011 7.071068e-011 7.071068e-011 7.071068e-011 7.071068e-011 7.071068e-011
2012000000 5.887104e-001 5.904867e-001 7.071068e-011 7.071068e-011 7.071068e-011 7.071068e-011 7.071068e-011 7.071068e-011
2012100000 5.954157e-001 5.838544e-001 7.071068e-011 7.071068e-011 7.071068e-011 7.071068e-011 7.071068e-011 7.071068e-011
2012200000 6.034179e-001 5.777299e-001 7.071068e-011 7.071068e-011 7.071068e-011 7.071068e-011 7.071068e-011 7.071068e-011
2012300000 6.103031e-001 5.695625e-001 7.071068e-011 7.071068e-011 7.071068e-011 7.071068e-011 7.071068e-011 7.071068e-011
2012400000 6.175392e-001 5.636661e-001 7.071068e-011 7.071068e-011 7.071068e-011 7.071068e-011 7.071068e-011 7.071068e-011
2012500000 6.234861e-001 5.569816e-001 7.071068e-011 7.071068e-011 7.071068e-011 7.071068e-011 7.071068e-011 7.071068e-011
2012600000 6.312851e-001 5.481713e-001 7.071068e-011 7.071068e-011 7.071068e-011 7.071068e-011 7.071068e-011 7.071068e-011
2012700000 6.376790e-001 5.424228e-001 7.071068e-011 7.071068e-011 7.071068e-011 7.071068e-011 7.071068e-011 7.071068e-011
2012800000 6.437877e-001 5.344101e-001 7.071068e-011 7.071068e-011 7.071068e-011 7.071068e-011 7.071068e-011 7.071068e-011
2012900000 6.503902e-001 5.281934e-001 7.071068e-011 7.071068e-011 7.071068e-011 7.071068e-011 7.071068e-011 7.071068e-011
2013000000 6.586645e-001 5.210442e-001 7.071068e-011 7.071068e-011 7.071068e-011 7.071068e-011 7.071068e-011 7.071068e-011
2013100000 6.632633e-001 5.124711e-001 7.071068e-011 7.071068e-011 7.071068e-011 7.071068e-011 7.071068e-011 7.071068e-011
2013200000 6.698990e-001 5.061046e-001 7.071068e-011 7.071068e-011 7.071068e-011 7.071068e-011 7.071068e-011 7.071068e-011
2013300000 6.757022e-001 4.970256e-001 7.071068e-011 7.071068e-011 7.071068e-011 7.071068e-011 7.071068e-011 7.071068e-011
2013400000 6.825203e-001 4.908470e-001 7.071068e-011 7.071068e-011 7.071068e-011 7.071068e-011 7.071068e-011 7.071068e-011
2013500000 6.889542e-001 4.830855e-001 7.071068e-011 7.071068e-011 7.071068e-011 7.071068e-011 7.071068e-011 7.071068e-011
2013600000 6.936802e-001 4.738381e-001 7.071068e-011 7.071068e-011 7.071068e-011 7.071068e-011 7.071068e-011 7.071068e-011
2013700000 6.994615e-001 4.666769e-001 7.071068e-011 7.071068e-011 7.071068e-011 7.071068e-011 7.071068e-011 7.071068e-011
2013800000 7.051663e-001 4.599128e-001 7.071068e-011 7.071068e-011 7.071068e-011 7.071068e-011 7.071068e-011 7.071068e-011
2013900000 7.110126e-001 4.499798e-001 7.071068e-011 7.071068e-011 7.071068e-011 7.071068e-011 7.071068e-011 7.071068e-011
2014000000 7.163450e-001 4.429667e-001 7.071068e-011 7.071068e-011 7.071068e-011 7.071068e-011 7.071068e-011 7.071068e-011
2014100000 7.225173e-001 4.350093e-001 7.071068e-011 7.071068e-011 7.071068e-011 7.071068e-011 7.071068e-011 7.071068e-011
2014200000 7.282655e-001 4.269405e-001 7.071068e-011 7.071068e-011 7.071068e-011 7.071068e-011 7.071068e-011 7.071068e-011
2014300000 7.340087e-001 4.188283e-001 7.071068e-011 7.071068e-011 7.071068e-011 7.071068e-011 7.071068e-011 7.071068e-011
2014400000 7.394171e-001 4.108000e-001 7.071068e-011 7.071068e-011 7.071068e-011 7.071068e-011 7.071068e-011 7.071068e-011
2014500000 7.442227e-001 4.021383e-001 7.071068e-011 7.071068e-011 7.071068e-011 7.071068e-011 7.071068e-011 7.071068e-011
2014600000 7.493880e-001 3.933680e-001 7.071068e-011 7.071068e-011 7.071068e-011 7.071068e-011 7.071068e-011 7.071068e-011
2014700000 7.545181e-001 3.848991e-001 7.071068e-011 7.071068e-011 7.071068e-011 7.071068e-011 7.071068e-011 7.071068e-011
2014800000 7.590981e-001 3.773277e-001 7.071068e-011 7.071068e-011 7.071068e-011 7.071068e-011 7.071068e-011 7.071068e-011
2014900000 7.640097e-001 3.684197e-001 7.071068e-011 7.071068e-011 7.071068e-011 7.071068e-011 7.071068e-011 7.071068e-011
2015000000 7.683280e-001 3.586850e-001 7.071068e-011 7.071068e-011 7.071068e-011 7.071068e-011 7.071068e-011 7.071068e-011
2015100000 7.729192e-001 3.502015e-001 7.071068e-011 7.071068e-011 7.071068e-011 7.071068e-011 7.071068e-011 7.071068e-011
2015200000 7.792891e-001 3.424817e-001 7.071068e-011 7.071068e-011 7.071068e-011 7.071068e-011 7.071068e-011 7.071068e-011
2015300000 7.822893e-001 3.329024e-001 7.071068e-011 7.071068e-011 7.071068e-011 7.071068e-011 7.071068e-011 7.071068e-011
2015400000 7.854610e-001 3.236289e-001 7.071068e-011 7.071068e-011 7.071068e-011 7.071068e-011 7.071068e-011 7.071068e-011
2015500000 7.914734e-001 3.144917e-001 7.071068e-011 7.071068e-011 7.071068e-011 7.071068e-011 7.071068e-011 7.071068e-011
2015600000 7.947506e-001 3.056628e-001 7.071068e-011 7.071068e-011 7.071068e-011 7.071068e-011 7.071068e-011 7.071068e-011
2015700000 7.976856e-001 2.960752e-001 7.071068e-011 7.071068e-011 7.071068e-011 7.071068e-011 7.071068e-011 7.071068e-011
