!Agilent Technologies,E8362B,MY43021131,A.07.50.67
!Agilent E8362B: A.07.50.67
!Date: Thursday, March 14, 2024 14:57:19
!Correction: S11(Off) 
!S21(Off) 
!S12(Off) 
!S22(Off) 
!S2P File: Measurements: S11, S21, S12, S22:
# Hz S  RI   R 50
2000000000 -4.335116e-001 7.087160e-001 7.071068e-011 7.071068e-011 7.071068e-011 7.071068e-011 7.071068e-011 7.071068e-011
2000100000 -4.241182e-001 7.142601e-001 7.071068e-011 7.071068e-011 7.071068e-011 7.071068e-011 7.071068e-011 7.071068e-011
2000200000 -4.160663e-001 7.190904e-001 7.071068e-011 7.071068e-011 7.071068e-011 7.071068e-011 7.071068e-011 7.071068e-011
2000300000 -4.066236e-001 7.230577e-001 7.071068e-011 7.071068e-011 7.071068e-011 7.071068e-011 7.071068e-011 7.071068e-011
2000400000 -3.988826e-001 7.273404e-001 7.071068e-011 7.071068e-011 7.071068e-011 7.071068e-011 7.071068e-011 7.071068e-011
2000500000 -3.897524e-001 7.318802e-001 7.071068e-011 7.071068e-011 7.071068e-011 7.071068e-011 7.071068e-011 7.071068e-011
2000600000 -3.808259e-001 7.358314e-001 7.071068e-011 7.071068e-011 7.071068e-011 7.071068e-011 7.071068e-011 7.071068e-011
2000700000 -3.727022e-001 7.410878e-001 7.071068e-011 7.071068e-011 7.071068e-011 7.071068e-011 7.071068e-011 7.071068e-011
2000800000 -3.634646e-001 7.452525e-001 7.071068e-011 7.071068e-011 7.071068e-011 7.071068e-011 7.071068e-011 7.071068e-011
2000900000 -3.532897e-001 7.494821e-001 7.071068e-011 7.071068e-011 7.071068e-011 7.071068e-011 7.071068e-011 7.071068e-011
2001000000 -3.441707e-001 7.544016e-001 7.071068e-011 7.071068e-011 7.071068e-011 7.071068e-011 7.071068e-011 7.071068e-011
2001100000 -3.354867e-001 7.573797e-001 7.071068e-011 7.071068e-011 7.071068e-011 7.071068e-011 7.071068e-011 7.071068e-011
2001200000 -3.259781e-001 7.611678e-001 7.071068e-011 7.071068e-011 7.071068e-011 7.071068e-011 7.071068e-011 7.071068e-011
2001300000 -3.175824e-001 7.638798e-001 7.071068e-011 7.071068e-011 7.071068e-011 7.071068e-011 7.071068e-011 7.071068e-011
2001400000 -3.085148e-001 7.677270e-001 7.071068e-011 7.071068e-011 7.071068e-011 7.071068e-011 7.071068e-011 7.071068e-011
2001500000 -2.979749e-001 7.716155e-001 7.071068e-011 7.071068e-011 7.071068e-011 7.071068e-011 7.071068e-011 7.071068e-011
2001600000 -2.906115e-001 7.752721e-001 7.071068e-011 7.071068e-011 7.071068e-011 7.071068e-011 7.071068e-011 7.071068e-011
2001700000 -2.800791e-001 7.785402e-001 7.071068e-011 7.071068e-011 7.071068e-011 7.071068e-011 7.071068e-011 7.071068e-011
2001800000 -2.720298e-001 7.811268e-001 7.071068e-011 7.071068e-011 7.071068e-011 7.071068e-011 7.071068e-011 7.071068e-011
2001900000 -2.618589e-001 7.844358e-001 7.071068e-011 7.071068e-011 7.071068e-011 7.071068e-011 7.071068e-011 7.071068e-011
2002000000 -2.517975e-001 7.873759e-001 7.071068e-011 7.071068e-011 7.071068e-011 7.071068e-011 7.071068e-011 7.071068e-011
2002100000 -2.440380e-001 7.901201e-001 7.071068e-011 7.071068e-011 7.071068e-011 7.071068e-011 7.071068e-011 7.071068e-011
2002200000 -2.331907e-001 7.929931e-001 7.071068e-011 7.071068e-011 7.071068e-011 7.071068e-011 7.071068e-011 7.071068e-011
2002300000 -2.233546e-001 7.958391e-001 7.071068e-011 7.071068e-011 7.071068e-011 7.071068e-011 7.071068e-011 7.071068e-011
2002400000 -2.156633e-001 7.992305e-001 7.071068e-011 7.071068e-011 7.071068e-011 7.071068e-011 7.071068e-011 7.071068e-011
2002500000 -2.050032e-001 7.994730e-001 7.071068e-011 7.071068e-011 7.071068e-011 7.071068e-011 7.071068e-011 7.071068e-011
2002600000 -1.956006e-001 8.033971e-001 7.071068e-011 7.071068e-011 7.071068e-011 7.071068e-011 7.071068e-011 7.071068e-011
2002700000 -1.862702e-001 8.052897e-001 7.071068e-011 7.071068e-011 7.071068e-011 7.071068e-011 7.071068e-011 7.071068e-011
2002800000 -1.770762e-001 8.070324e-001 7.071068e-011 7.071068e-011 7.071068e-011 7.071068e-011 7.071068e-011 7.071068e-011
2002900000 -1.664694e-001 8.079683e-001 7.071068e-011 7.071068e-011 7.071068e-011 7.071068e-011 7.071068e-011 7.071068e-011
2003000000 -1.566061e-001 8.112012e-001 7.071068e-011 7.071068e-011 7.071068e-011 7.071068e-011 7.071068e-011 7.071068e-011
2003100000 -1.475783e-001 8.124236e-001 7.071068e-011 7.071068e-011 7.071068e-011 7.071068e-011 7.071068e-011 7.071068e-011
2003200000 -1.369624e-001 8.151183e-001 7.071068e-011 7.071068e-011 7.071068e-011 7.071068e-011 7.071068e-011 7.071068e-011
2003300000 -1.271951e-001 8.157250e-001 7.071068e-011 7.071068e-011 7.071068e-011 7.071068e-011 7.071068e-011 7.071068e-011
2003400000 -1.181172e-001 8.172826e-001 7.071068e-011 7.071068e-011 7.071068e-011 7.071068e-011 7.071068e-011 7.071068e-011
2003500000 -1.085996e-001 8.188842e-001 7.071068e-011 7.071068e-011 7.071068e-011 7.071068e-011 7.071068e-011 7.071068e-011
2003600000 -9.919231e-002 8.199185e-001 7.071068e-011 7.071068e-011 7.071068e-011 7.071068e-011 7.071068e-011 7.071068e-011
2003700000 -8.946034e-002 8.218134e-001 7.071068e-011 7.071068e-011 7.071068e-011 7.071068e-011 7.071068e-011 7.071068e-011
2003800000 -7.918675e-002 8.217818e-001 7.071068e-011 7.071068e-011 7.071068e-011 7.071068e-011 7.071068e-011 7.071068e-011
2003900000 -6.852984e-002 8.233551e-001 7.071068e-011 7.071068e-011 7.071068e-011 7.071068e-011 7.071068e-011 7.071068e-011
2004000000 -5.904181e-002 8.257983e-001 7.071068e-011 7.071068e-011 7.071068e-011 7.071068e-011 7.071068e-011 7.071068e-011
2004100000 -4.924953e-002 8.246673e-001 7.071068e-011 7.071068e-011 7.071068e-011 7.071068e-011 7.071068e-011 7.071068e-011
2004200000 -3.979536e-002 8.235880e-001 7.071068e-011 7.071068e-011 7.071068e-011 7.071068e-011 7.071068e-011 7.071068e-011
2004300000 -2.936531e-002 8.263028e-001 7.071068e-011 7.071068e-011 7.071068e-011 7.071068e-011 7.071068e-011 7.071068e-011
2004400000 -1.968426e-002 8.257586e-001 7.071068e-011 7.071068e-011 7.071068e-011 7.071068e-011 7.071068e-011 7.071068e-011
2004500000 -9.915714e-003 8.267344e-001 7.071068e-011 7.071068e-011 7.071068e-011 7.071068e-011 7.071068e-011 7.071068e-011
2004600000 1.458188e-003 8.265235e-001 7.071068e-011 7.071068e-011 7.071068e-011 7.071068e-011 7.071068e-011 7.071068e-011
2004700000 1.010482e-002 8.280839e-001 7.071068e-011 7.071068e-011 7.071068e-011 7.071068e-011 7.071068e-011 7.071068e-011
2004800000 2.115908e-002 8.275440e-001 7.071068e-011 7.071068e-011 7.071068e-011 7.071068e-011 7.071068e-011 7.071068e-011
2004900000 2.969303e-002 8.256268e-001 7.071068e-011 7.071068e-011 7.071068e-011 7.071068e-011 7.071068e-011 7.071068e-011
2005000000 3.934731e-002 8.244101e-001 7.071068e-011 7.071068e-011 7.071068e-011 7.071068e-011 7.071068e-011 7.071068e-011
2005100000 4.939589e-002 8.251784e-001 7.071068e-011 7.071068e-011 7.071068e-011 7.071068e-011 7.071068e-011 7.071068e-011
2005200000 5.928256e-002 8.244577e-001 7.071068e-011 7.071068e-011 7.071068e-011 7.071068e-011 7.071068e-011 7.071068e-011
2005300000 6.903017e-002 8.245372e-001 7.071068e-011 7.071068e-011 7.071068e-011 7.071068e-011 7.071068e-011 7.071068e-011
2005400000 7.811517e-002 8.227681e-001 7.071068e-011 7.071068e-011 7.071068e-011 7.071068e-011 7.071068e-011 7.071068e-011
2005500000 8.914852e-002 8.237814e-001 7.071068e-011 7.071068e-011 7.071068e-011 7.071068e-011 7.071068e-011 7.071068e-011
2005600000 9.822450e-002 8.209919e-001 7.071068e-011 7.071068e-011 7.071068e-011 7.071068e-011 7.071068e-011 7.071068e-011
2005700000 1.074373e-001 8.200573e-001 7.071068e-011 7.071068e-011 7.071068e-011 7.071068e-011 7.071068e-011 7.071068e-011
2005800000 1.187478e-001 8.189539e-001 7.071068e-011 7.071068e-011 7.071068e-011 7.071068e-011 7.071068e-011 7.071068e-011
2005900000 1.277098e-001 8.184591e-001 7.071068e-011 7.071068e-011 7.071068e-011 7.071068e-011 7.071068e-011 7.071068e-011
2006000000 1.377597e-001 8.171074e-001 7.071068e-011 7.071068e-011 7.071068e-011 7.071068e-011 7.071068e-011 7.071068e-011
2006100000 1.476942e-001 8.146787e-001 7.071068e-011 7.071068e-011 7.071068e-011 7.071068e-011 7.071068e-011 7.071068e-011
2006200000 1.566763e-001 8.129171e-001 7.071068e-011 7.071068e-011 7.071068e-011 7.071068e-011 7.071068e-011 7.071068e-011
2006300000 1.670081e-001 8.111836e-001 7.071068e-011 7.071068e-011 7.071068e-011 7.071068e-011 7.071068e-011 7.071068e-011
2006400000 1.768486e-001 8.102449e-001 7.071068e-011 7.071068e-011 7.071068e-011 7.071068e-011 7.071068e-011 7.071068e-011
2006500000 1.857800e-001 8.068151e-001 7.071068e-011 7.071068e-011 7.071068e-011 7.071068e-011 7.071068e-011 7.071068e-011
2006600000 1.964762e-001 8.052216e-001 7.071068e-011 7.071068e-011 7.071068e-011 7.071068e-011 7.071068e-011 7.071068e-011
2006700000 2.058228e-001 8.027794e-001 7.071068e-011 7.071068e-011 7.071068e-011 7.071068e-011 7.071068e-011 7.071068e-011
2006800000 2.154947e-001 8.005738e-001 7.071068e-011 7.071068e-011 7.071068e-011 7.071068e-011 7.071068e-011 7.071068e-011
2006900000 2.253538e-001 7.993369e-001 7.071068e-011 7.071068e-011 7.071068e-011 7.071068e-011 7.071068e-011 7.071068e-011
2007000000 2.339209e-001 7.959142e-001 7.071068e-011 7.071068e-011 7.071068e-011 7.071068e-011 7.071068e-011 7.071068e-011
2007100000 2.441773e-001 7.926701e-001 7.071068e-011 7.071068e-011 7.071068e-011 7.071068e-011 7.071068e-011 7.071068e-011
2007200000 2.535785e-001 7.905086e-001 7.071068e-011 7.071068e-011 7.071068e-011 7.071068e-011 7.071068e-011 7.071068e-011
2007300000 2.627283e-001 7.876706e-001 7.071068e-011 7.071068e-011 7.071068e-011 7.071068e-011 7.071068e-011 7.071068e-011
2007400000 2.727005e-001 7.854382e-001 7.071068e-011 7.071068e-011 7.071068e-011 7.071068e-011 7.071068e-011 7.071068e-011
2007500000 2.822304e-001 7.812965e-001 7.071068e-011 7.071068e-011 7.071068e-011 7.071068e-011 7.071068e-011 7.071068e-011
2007600000 2.923698e-001 7.797264e-001 7.071068e-011 7.071068e-011 7.071068e-011 7.071068e-011 7.071068e-011 7.071068e-011
2007700000 2.995008e-001 7.750058e-001 7.071068e-011 7.071068e-011 7.071068e-011 7.071068e-011 7.071068e-011 7.071068e-011
2007800000 3.102798e-001 7.711279e-001 7.071068e-011 7.071068e-011 7.071068e-011 7.071068e-011 7.071068e-011 7.071068e-011
2007900000 3.190710e-001 7.685357e-001 7.071068e-011 7.071068e-011 7.071068e-011 7.071068e-011 7.071068e-011 7.071068e-011
2008000000 3.284602e-001 7.652277e-001 7.071068e-011 7.071068e-011 7.071068e-011 7.071068e-011 7.071068e-011 7.071068e-011
2008100000 3.380762e-001 7.622797e-001 7.071068e-011 7.071068e-011 7.071068e-011 7.071068e-011 7.071068e-011 7.071068e-011
2008200000 3.464293e-001 7.561010e-001 7.071068e-011 7.071068e-011 7.071068e-011 7.071068e-011 7.071068e-011 7.071068e-011
2008300000 3.570963e-001 7.539245e-001 7.071068e-011 7.071068e-011 7.071068e-011 7.071068e-011 7.071068e-011 7.071068e-011
2008400000 3.642007e-001 7.485794e-001 7.071068e-011 7.071068e-011 7.071068e-011 7.071068e-011 7.071068e-011 7.071068e-011
2008500000 3.754225e-001 7.458495e-001 7.071068e-011 7.071068e-011 7.071068e-011 7.071068e-011 7.071068e-011 7.071068e-011
2008600000 3.829141e-001 7.414201e-001 7.071068e-011 7.071068e-011 7.071068e-011 7.071068e-011 7.071068e-011 7.071068e-011
2008700000 3.915672e-001 7.377939e-001 7.071068e-011 7.071068e-011 7.071068e-011 7.071068e-011 7.071068e-011 7.071068e-011
2008800000 4.012668e-001 7.314530e-001 7.071068e-011 7.071068e-011 7.071068e-011 7.071068e-011 7.071068e-011 7.071068e-011
2008900000 4.093564e-001 7.285107e-001 7.071068e-011 7.071068e-011 7.071068e-011 7.071068e-011 7.071068e-011 7.071068e-011
2009000000 4.172219e-001 7.232785e-001 7.071068e-011 7.071068e-011 7.071068e-011 7.071068e-011 7.071068e-011 7.071068e-011
2009100000 4.266758e-001 7.190448e-001 7.071068e-011 7.071068e-011 7.071068e-011 7.071068e-011 7.071068e-011 7.071068e-011
2009200000 4.354617e-001 7.144559e-001 7.071068e-011 7.071068e-011 7.071068e-011 7.071068e-011 7.071068e-011 7.071068e-011
2009300000 4.442847e-001 7.088272e-001 7.071068e-011 7.071068e-011 7.071068e-011 7.071068e-011 7.071068e-011 7.071068e-011
2009400000 4.524784e-001 7.032210e-001 7.071068e-011 7.071068e-011 7.071068e-011 7.071068e-011 7.071068e-011 7.071068e-011
2009500000 4.614417e-001 6.997964e-001 7.071068e-011 7.071068e-011 7.071068e-011 7.071068e-011 7.071068e-011 7.071068e-011
2009600000 4.698296e-001 6.925768e-001 7.071068e-011 7.071068e-011 7.071068e-011 7.071068e-011 7.071068e-011 7.071068e-011
2009700000 4.783061e-001 6.879374e-001 7.071068e-011 7.071068e-011 7.071068e-011 7.071068e-011 7.071068e-011 7.071068e-011
2009800000 4.869641e-001 6.835480e-001 7.071068e-011 7.071068e-011 7.071068e-011 7.071068e-011 7.071068e-011 7.071068e-011
2009900000 4.948845e-001 6.780413e-001 7.071068e-011 7.071068e-011 7.071068e-011 7.071068e-011 7.071068e-011 7.071068e-011
2010000000 5.019211e-001 6.715548e-001 7.071068e-011 7.071068e-011 7.071068e-011 7.071068e-011 7.071068e-011 7.071068e-011
2010100000 5.103058e-001 6.661611e-001 7.071068e-011 7.071068e-011 7.071068e-011 7.071068e-011 7.071068e-011 7.071068e-011
2010200000 5.192754e-001 6.610070e-001 7.071068e-011 7.071068e-011 7.071068e-011 7.071068e-011 7.071068e-011 7.071068e-011
2010300000 5.280797e-001 6.560691e-001 7.071068e-011 7.071068e-011 7.071068e-011 7.071068e-011 7.071068e-011 7.071068e-011
2010400000 5.355202e-001 6.483938e-001 7.071068e-011 7.071068e-011 7.071068e-011 7.071068e-011 7.071068e-011 7.071068e-011
2010500000 5.434963e-001 6.415027e-001 7.071068e-011 7.071068e-011 7.071068e-011 7.071068e-011 7.071068e-011 7.071068e-011
2010600000 5.502478e-001 6.366585e-001 7.071068e-011 7.071068e-011 7.071068e-011 7.071068e-011 7.071068e-011 7.071068e-011
2010700000 5.578360e-001 6.295259e-001 7.071068e-011 7.071068e-011 7.071068e-011 7.071068e-011 7.071068e-011 7.071068e-011
2010800000 5.660627e-001 6.226943e-001 7.071068e-011 7.071068e-011 7.071068e-011 7.071068e-011 7.071068e-011 7.071068e-011
2010900000 5.742788e-001 6.168163e-001 7.071068e-011 7.071068e-011 7.071068e-011 7.071068e-011 7.071068e-011 7.071068e-011
2011000000 5.818524e-001 6.100776e-001 7.071068e-011 7.071068e-011 7.071068e-011 7.071068e-011 7.071068e-011 7.071068e-011
2011100000 5.888764e-001 6.051215e-001 7.071068e-011 7.071068e-011 7.071068e-011 7.071068e-011 7.071068e-011 7.071068e-011
2011200000 5.961156e-001 5.977147e-001 7.071068e-011 7.071068e-011 7.071068e-011 7.071068e-011 7.071068e-011 7.071068e-011
2011300000 6.046094e-001 5.899668e-001 7.071068e-011 7.071068e-011 7.071068e-011 7.071068e-011 7.071068e-011 7.071068e-011
2011400000 6.109079e-001 5.827626e-001 7.071068e-011 7.071068e-011 7.071068e-011 7.071068e-011 7.071068e-011 7.071068e-011
2011500000 6.184260e-001 5.767002e-001 7.071068e-011 7.071068e-011 7.071068e-011 7.071068e-011 7.071068e-011 7.071068e-011
2011600000 6.249274e-001 5.697246e-001 7.071068e-011 7.071068e-011 7.071068e-011 7.071068e-011 7.071068e-011 7.071068e-011
2011700000 6.327055e-001 5.611881e-001 7.071068e-011 7.071068e-011 7.071068e-011 7.071068e-011 7.071068e-011 7.071068e-011
2011800000 6.393025e-001 5.565975e-001 7.071068e-011 7.071068e-011 7.071068e-011 7.071068e-011 7.071068e-011 7.071068e-011
2011900000 6.463345e-001 5.488620e-001 7.071068e-011 7.071068e-011 7.071068e-011 7.071068e-011 7.071068e-011 7.071068e-011
2012000000 6.524966e-001 5.414731e-001 7.071068e-011 7.071068e-011 7.071068e-011 7.071068e-011 7.071068e-011 7.071068e-011
2012100000 6.578707e-001 5.338953e-001 7.071068e-011 7.071068e-011 7.071068e-011 7.071068e-011 7.071068e-011 7.071068e-011
2012200000 6.663238e-001 5.267837e-001 7.071068e-011 7.071068e-011 7.071068e-011 7.071068e-011 7.071068e-011 7.071068e-011
2012300000 6.715344e-001 5.194025e-001 7.071068e-011 7.071068e-011 7.071068e-011 7.071068e-011 7.071068e-011 7.071068e-011
2012400000 6.784310e-001 5.125366e-001 7.071068e-011 7.071068e-011 7.071068e-011 7.071068e-011 7.071068e-011 7.071068e-011
2012500000 6.852449e-001 5.037358e-001 7.071068e-011 7.071068e-011 7.071068e-011 7.071068e-011 7.071068e-011 7.071068e-011
2012600000 6.910352e-001 4.969247e-001 7.071068e-011 7.071068e-011 7.071068e-011 7.071068e-011 7.071068e-011 7.071068e-011
2012700000 6.975989e-001 4.898672e-001 7.071068e-011 7.071068e-011 7.071068e-011 7.071068e-011 7.071068e-011 7.071068e-011
2012800000 7.030303e-001 4.809557e-001 7.071068e-011 7.071068e-011 7.071068e-011 7.071068e-011 7.071068e-011 7.071068e-011
2012900000 7.095863e-001 4.724798e-001 7.071068e-011 7.071068e-011 7.071068e-011 7.071068e-011 7.071068e-011 7.071068e-011
2013000000 7.155226e-001 4.640174e-001 7.071068e-011 7.071068e-011 7.071068e-011 7.071068e-011 7.071068e-011 7.071068e-011
2013100000 7.216700e-001 4.561177e-001 7.071068e-011 7.071068e-011 7.071068e-011 7.071068e-011 7.071068e-011 7.071068e-011
2013200000 7.261386e-001 4.486423e-001 7.071068e-011 7.071068e-011 7.071068e-011 7.071068e-011 7.071068e-011 7.071068e-011
2013300000 7.332048e-001 4.405653e-001 7.071068e-011 7.071068e-011 7.071068e-011 7.071068e-011 7.071068e-011 7.071068e-011
2013400000 7.374991e-001 4.322790e-001 7.071068e-011 7.071068e-011 7.071068e-011 7.071068e-011 7.071068e-011 7.071068e-011
2013500000 7.428797e-001 4.236968e-001 7.071068e-011 7.071068e-011 7.071068e-011 7.071068e-011 7.071068e-011 7.071068e-011
2013600000 7.497349e-001 4.148833e-001 7.071068e-011 7.071068e-011 7.071068e-011 7.071068e-011 7.071068e-011 7.071068e-011
2013700000 7.540849e-001 4.058882e-001 7.071068e-011 7.071068e-011 7.071068e-011 7.071068e-011 7.071068e-011 7.071068e-011
2013800000 7.591533e-001 3.976873e-001 7.071068e-011 7.071068e-011 7.071068e-011 7.071068e-011 7.071068e-011 7.071068e-011
2013900000 7.645710e-001 3.900706e-001 7.071068e-011 7.071068e-011 7.071068e-011 7.071068e-011 7.071068e-011 7.071068e-011
2014000000 7.688591e-001 3.801579e-001 7.071068e-011 7.071068e-011 7.071068e-011 7.071068e-011 7.071068e-011 7.071068e-011
2014100000 7.736928e-001 3.704312e-001 7.071068e-011 7.071068e-011 7.071068e-011 7.071068e-011 7.071068e-011 7.071068e-011
2014200000 7.785178e-001 3.636744e-001 7.071068e-011 7.071068e-011 7.071068e-011 7.071068e-011 7.071068e-011 7.071068e-011
2014300000 7.833703e-001 3.546639e-001 7.071068e-011 7.071068e-011 7.071068e-011 7.071068e-011 7.071068e-011 7.071068e-011
2014400000 7.881651e-001 3.450921e-001 7.071068e-011 7.071068e-011 7.071068e-011 7.071068e-011 7.071068e-011 7.071068e-011
2014500000 7.929639e-001 3.362060e-001 7.071068e-011 7.071068e-011 7.071068e-011 7.071068e-011 7.071068e-011 7.071068e-011
2014600000 7.960476e-001 3.262923e-001 7.071068e-011 7.071068e-011 7.071068e-011 7.071068e-011 7.071068e-011 7.071068e-011
2014700000 7.996467e-001 3.192327e-001 7.071068e-011 7.071068e-011 7.071068e-011 7.071068e-011 7.071068e-011 7.071068e-011
2014800000 8.055288e-001 3.089943e-001 7.071068e-011 7.071068e-011 7.071068e-011 7.071068e-011 7.071068e-011 7.071068e-011
2014900000 8.083437e-001 2.994070e-001 7.071068e-011 7.071068e-011 7.071068e-011 7.071068e-011 7.071068e-011 7.071068e-011
2015000000 8.129796e-001 2.909968e-001 7.071068e-011 7.071068e-011 7.071068e-011 7.071068e-011 7.071068e-011 7.071068e-011
2015100000 8.156583e-001 2.825097e-001 7.071068e-011 7.071068e-011 7.071068e-011 7.071068e-011 7.071068e-011 7.071068e-011
2015200000 8.199543e-001 2.726889e-001 7.071068e-011 7.071068e-011 7.071068e-011 7.071068e-011 7.071068e-011 7.071068e-011
2015300000 8.235310e-001 2.637371e-001 7.071068e-011 7.071068e-011 7.071068e-011 7.071068e-011 7.071068e-011 7.071068e-011
2015400000 8.266472e-001 2.546055e-001 7.071068e-011 7.071068e-011 7.071068e-011 7.071068e-011 7.071068e-011 7.071068e-011
2015500000 8.310676e-001 2.452924e-001 7.071068e-011 7.071068e-011 7.071068e-011 7.071068e-011 7.071068e-011 7.071068e-011
2015600000 8.344606e-001 2.356219e-001 7.071068e-011 7.071068e-011 7.071068e-011 7.071068e-011 7.071068e-011 7.071068e-011
2015700000 8.365950e-001 2.252244e-001 7.071068e-011 7.071068e-011 7.071068e-011 7.071068e-011 7.071068e-011 7.071068e-011
