!Agilent Technologies,N5230C,SG49000117,A.08.50.07
!Agilent N5230C: A.08.50.07
!Date: Sunday, March 17, 2024 02:34:15
!Correction: S11(Off) 
!S21(Off) 
!S12(Off) 
!S22(Off) 
!S2P File: Measurements: S11, S21, S12, S22:
# Hz S  RI   R 50
300000000 -1.487434e-004 5.075167e-005 -6.013659e-001 -6.774089e-001 7.089964e-005 1.715093e-005 -6.037430e-001 -6.801414e-001
300285000 -5.063984e-005 -2.690078e-005 -6.178930e-001 -6.546408e-001 -2.441836e-006 -5.884854e-005 -6.203744e-001 -6.573737e-001
300570000 -9.235195e-005 3.229272e-005 -6.330881e-001 -6.311489e-001 7.064556e-005 3.545969e-005 -6.356995e-001 -6.336306e-001
300855000 -1.352916e-005 -5.292338e-005 -6.484169e-001 -6.082640e-001 2.260315e-005 1.236721e-004 -6.503084e-001 -6.109712e-001
301140000 -6.160356e-005 4.032555e-005 -6.619827e-001 -5.844987e-001 -2.767881e-005 3.708434e-006 -6.646438e-001 -5.867237e-001
301425000 -5.775239e-005 -4.932472e-005 -6.748828e-001 -5.610649e-001 1.289873e-005 -4.082517e-005 -6.774018e-001 -5.634516e-001
301710000 -9.344580e-005 9.965540e-005 -6.869672e-001 -5.378862e-001 -1.161654e-004 4.247872e-005 -6.897094e-001 -5.401159e-001
301995000 -1.043043e-005 -8.761184e-005 -6.979415e-001 -5.143023e-001 -3.313495e-005 -1.915980e-005 -7.008262e-001 -5.161923e-001
302280000 -5.826745e-005 -2.378569e-005 -7.087745e-001 -4.908342e-001 -4.484351e-005 8.637909e-005 -7.113860e-001 -4.923969e-001
302565000 -1.797096e-005 -1.518243e-005 -7.185232e-001 -4.671718e-001 -2.904551e-005 9.211437e-005 -7.218205e-001 -4.691699e-001
302850000 5.323555e-005 -3.874948e-005 -7.277241e-001 -4.440671e-001 1.112478e-005 2.147539e-005 -7.305564e-001 -4.455138e-001
303135000 4.791543e-005 -8.107089e-005 -7.359190e-001 -4.206786e-001 1.781788e-005 1.055014e-005 -7.389013e-001 -4.225241e-001
303420000 6.829769e-005 2.526660e-005 -7.434525e-001 -3.976066e-001 6.153805e-005 -1.782253e-006 -7.461193e-001 -3.990715e-001
303705000 1.667638e-005 -1.101036e-004 -7.506107e-001 -3.747288e-001 -2.357318e-005 2.484983e-005 -7.534727e-001 -3.758258e-001
303990000 2.180635e-005 4.450648e-006 -7.564423e-001 -3.519311e-001 -2.409526e-005 7.876483e-005 -7.597476e-001 -3.528179e-001
304275000 -2.319773e-005 5.837971e-005 -7.627121e-001 -3.289333e-001 4.586549e-005 4.301437e-005 -7.649296e-001 -3.298111e-001
304560000 -7.233897e-005 -3.982597e-005 -7.678149e-001 -3.065984e-001 2.521752e-005 -9.609777e-005 -7.701160e-001 -3.070381e-001
304845000 5.457493e-005 7.051303e-005 -7.719851e-001 -2.830956e-001 3.556295e-005 -4.029405e-005 -7.751855e-001 -2.845610e-001
305130000 1.234595e-006 5.562639e-005 -7.765009e-001 -2.612365e-001 -4.932112e-005 -5.289604e-005 -7.793005e-001 -2.621662e-001
305415000 -3.364740e-005 -3.746300e-005 -7.791994e-001 -2.385939e-001 1.649093e-005 -1.481536e-005 -7.822311e-001 -2.392987e-001
305700000 -7.056874e-005 -1.072381e-006 -7.822111e-001 -2.164863e-001 -6.441952e-005 4.075611e-005 -7.855776e-001 -2.174355e-001
305985000 -3.419041e-005 1.763088e-006 -7.846227e-001 -1.945803e-001 -2.340126e-005 -9.360242e-005 -7.877486e-001 -1.953919e-001
306270000 -5.031645e-005 -8.993402e-005 -7.867092e-001 -1.729542e-001 -1.871297e-005 1.466552e-005 -7.898507e-001 -1.733759e-001
306555000 8.253417e-007 -6.791657e-006 -7.879142e-001 -1.512196e-001 9.475652e-005 6.749853e-005 -7.905326e-001 -1.519190e-001
306840000 6.174201e-005 -8.481081e-005 -7.887064e-001 -1.297965e-001 2.356287e-005 -1.915974e-005 -7.920739e-001 -1.303973e-001
307125000 5.202469e-005 -1.529126e-004 -7.894722e-001 -1.082864e-001 5.342070e-005 -1.780248e-005 -7.926441e-001 -1.086919e-001
307410000 -1.567655e-005 2.625058e-005 -7.893667e-001 -8.702452e-002 9.892428e-006 -8.567988e-006 -7.919495e-001 -8.673912e-002
307695000 6.113731e-005 -5.814985e-005 -7.892500e-001 -6.586975e-002 -3.721728e-005 4.319013e-005 -7.922840e-001 -6.604156e-002
307980000 3.820188e-005 4.803460e-005 -7.882487e-001 -4.497572e-002 2.457788e-006 8.559033e-005 -7.912154e-001 -4.522341e-002
308265000 -1.341977e-005 3.299322e-005 -7.875184e-001 -2.381844e-002 -3.407015e-005 -1.504956e-006 -7.903703e-001 -2.400830e-002
308550000 6.702291e-005 -4.187252e-005 -7.858191e-001 -3.817122e-003 -6.889637e-005 1.112466e-004 -7.886525e-001 -3.542550e-003
308835000 -3.106620e-005 6.766303e-005 -7.839179e-001 1.690429e-002 3.770983e-006 -8.245675e-005 -7.866877e-001 1.668149e-002
309120000 9.760201e-006 1.307290e-004 -7.814649e-001 3.716222e-002 3.328003e-005 -1.697009e-005 -7.846353e-001 3.744499e-002
309405000 -7.077375e-005 -2.692477e-005 -7.790293e-001 5.738880e-002 -6.139536e-005 -5.098123e-006 -7.817686e-001 5.830125e-002
309690000 -1.315364e-004 2.173807e-005 -7.759708e-001 7.748928e-002 -5.346826e-005 -4.276556e-006 -7.785039e-001 7.778559e-002
309975000 -7.242103e-005 -3.102522e-005 -7.725806e-001 9.795690e-002 5.552368e-006 9.709297e-006 -7.751909e-001 9.810484e-002
310260000 -1.915684e-005 -6.442092e-005 -7.691532e-001 1.178309e-001 -4.285394e-005 -6.219963e-005 -7.717730e-001 1.183593e-001
310545000 -8.572121e-005 1.135563e-005 -7.642848e-001 1.374474e-001 7.585077e-006 9.609945e-005 -7.672157e-001 1.379507e-001
310830000 -4.702445e-005 -4.176200e-006 -7.597634e-001 1.571278e-001 2.467500e-005 2.948858e-005 -7.629166e-001 1.580499e-001
311115000 -3.931110e-005 -4.147021e-005 -7.551128e-001 1.764869e-001 6.432884e-005 -4.762830e-006 -7.581526e-001 1.775045e-001
311400000 2.630793e-005 -9.272352e-005 -7.494531e-001 1.964383e-001 1.842725e-005 4.979156e-005 -7.531751e-001 1.972602e-001
311685000 -9.569439e-006 8.313446e-007 -7.442756e-001 2.154134e-001 5.528000e-005 -5.863054e-005 -7.467945e-001 2.163164e-001
311970000 6.824209e-005 3.519037e-005 -7.386156e-001 2.350134e-001 9.564374e-005 8.468294e-005 -7.412734e-001 2.357524e-001
312255000 2.577517e-006 7.752459e-005 -7.321903e-001 2.540915e-001 5.855170e-005 5.421036e-005 -7.350490e-001 2.551064e-001
312540000 7.089657e-005 1.153600e-005 -7.254826e-001 2.727765e-001 3.036297e-005 -9.247809e-006 -7.288858e-001 2.741829e-001
312825000 1.213217e-004 -1.749338e-004 -7.184883e-001 2.920182e-001 -9.277136e-005 -7.216640e-005 -7.215607e-001 2.929163e-001
313110000 2.756610e-005 -2.838643e-005 -7.113815e-001 3.111029e-001 -9.702890e-005 -2.607092e-005 -7.140912e-001 3.123748e-001
313395000 -1.764933e-005 3.676855e-005 -7.034045e-001 3.296417e-001 -2.841932e-005 -5.498838e-005 -7.064435e-001 3.312277e-001
313680000 4.894588e-005 -2.068615e-006 -6.956112e-001 3.484676e-001 1.285124e-005 -3.273360e-005 -6.978945e-001 3.497985e-001
313965000 2.933054e-005 -1.253976e-004 -6.868232e-001 3.673160e-001 -9.432807e-005 -1.222866e-004 -6.896565e-001 3.684895e-001
314250000 3.669681e-005 -6.895975e-005 -6.786271e-001 3.862843e-001 -1.126078e-004 -5.704417e-006 -6.810271e-001 3.874926e-001
314535000 3.022671e-005 3.721024e-005 -6.692208e-001 4.046874e-001 -2.806347e-005 -3.522323e-005 -6.719304e-001 4.061663e-001
314820000 6.019257e-005 1.235714e-004 -6.594195e-001 4.231785e-001 -5.450606e-005 3.660147e-005 -6.617534e-001 4.245622e-001
315105000 -1.000708e-004 8.417265e-006 -6.490546e-001 4.415278e-001 -1.243847e-004 -6.926905e-005 -6.517884e-001 4.426336e-001
315390000 -6.884410e-006 -1.173009e-005 -6.382775e-001 4.596807e-001 -6.140558e-005 5.704812e-005 -6.416016e-001 4.615015e-001
315675000 -8.911185e-006 -4.073465e-005 -6.281469e-001 4.778400e-001 -9.139168e-005 -5.855608e-005 -6.303017e-001 4.793093e-001
315960000 -8.306871e-005 -2.314426e-005 -6.162333e-001 4.959883e-001 3.966389e-005 -1.080468e-004 -6.190049e-001 4.978157e-001
316245000 1.392236e-004 -1.390507e-004 -6.045200e-001 5.137244e-001 5.065283e-005 -6.916117e-005 -6.071225e-001 5.159593e-001
316530000 -1.614267e-005 3.811275e-005 -5.921230e-001 5.317229e-001 9.373757e-005 -7.716215e-005 -5.949874e-001 5.338463e-001
316815000 2.263482e-005 2.275982e-005 -5.792484e-001 5.495167e-001 -3.677277e-005 -3.932841e-005 -5.816483e-001 5.518817e-001
317100000 -1.568565e-005 -1.320643e-005 -5.659944e-001 5.672681e-001 -1.306570e-005 1.343365e-004 -5.686675e-001 5.694060e-001
317385000 5.494248e-005 -8.035306e-005 -5.519410e-001 5.850177e-001 -3.763557e-005 2.391630e-005 -5.550153e-001 5.871892e-001
317670000 5.242612e-005 1.083594e-004 -5.376976e-001 6.022926e-001 -2.156763e-005 -8.101000e-005 -5.400977e-001 6.046857e-001
317955000 6.580054e-006 5.725011e-006 -5.229251e-001 6.194999e-001 -1.260845e-004 -6.656828e-005 -5.252433e-001 6.219857e-001
318240000 -1.074149e-005 6.106138e-005 -5.073238e-001 6.362395e-001 4.634271e-005 -1.037071e-004 -5.098138e-001 6.391854e-001
318525000 8.455829e-005 1.296628e-004 -4.916417e-001 6.538466e-001 -3.664840e-005 5.094811e-005 -4.935762e-001 6.565408e-001
318810000 2.285376e-005 1.403599e-004 -4.747851e-001 6.707184e-001 9.553572e-006 -2.531137e-006 -4.768104e-001 6.731288e-001
319095000 -4.212372e-005 5.716912e-005 -4.578312e-001 6.869213e-001 -6.264939e-005 -1.471888e-004 -4.591857e-001 6.898749e-001
319380000 -3.617923e-005 1.176636e-004 -4.394556e-001 7.032316e-001 -4.653228e-005 -9.215817e-006 -4.420421e-001 7.061368e-001
319665000 4.275625e-005 2.063740e-005 -4.218055e-001 7.192538e-001 -2.496448e-005 -4.802640e-005 -4.231550e-001 7.223867e-001
319950000 -6.480854e-006 -1.574431e-005 -4.023924e-001 7.350230e-001 -4.211508e-005 -3.501932e-006 -4.038466e-001 7.379264e-001
320235000 -6.104606e-005 2.908182e-005 -3.823813e-001 7.508555e-001 2.440325e-005 2.746660e-005 -3.840347e-001 7.535560e-001
320520000 -9.676066e-005 -1.110308e-004 -3.620301e-001 7.664124e-001 -4.174487e-005 8.177172e-005 -3.636257e-001 7.687151e-001
320805000 -4.601758e-005 -7.799850e-005 -3.412698e-001 7.812006e-001 -3.634088e-005 -1.795679e-005 -3.422861e-001 7.838738e-001
321090000 8.420607e-005 -4.236449e-005 -3.192771e-001 7.947084e-001 -9.396028e-005 2.669477e-005 -3.200646e-001 7.991456e-001
321375000 4.263045e-005 -1.172356e-004 -2.963121e-001 8.093840e-001 2.594826e-005 -3.387627e-006 -2.975345e-001 8.124017e-001
321660000 5.579733e-005 -5.746768e-005 -2.734804e-001 8.230915e-001 4.251745e-006 5.269797e-005 -2.741964e-001 8.261565e-001
321945000 5.406292e-005 2.965994e-005 -2.491420e-001 8.356552e-001 -5.193617e-005 1.811024e-005 -2.501174e-001 8.392295e-001
322230000 -9.479982e-005 2.317955e-005 -2.240610e-001 8.485969e-001 3.585035e-005 1.001246e-004 -2.253966e-001 8.520182e-001
322515000 -6.039869e-005 5.334073e-005 -1.984863e-001 8.605183e-001 -3.020695e-005 6.855618e-005 -1.993557e-001 8.647768e-001
322800000 1.232456e-005 4.097717e-006 -1.720445e-001 8.721468e-001 -1.076704e-004 6.666984e-005 -1.734333e-001 8.756145e-001
323085000 -7.318480e-005 1.009792e-004 -1.451565e-001 8.826579e-001 -1.150176e-004 -6.171454e-005 -1.459702e-001 8.866041e-001
323370000 -2.853026e-005 -5.638836e-005 -1.173707e-001 8.925250e-001 4.871079e-005 2.732953e-005 -1.175444e-001 8.958721e-001
323655000 3.051353e-005 5.806167e-005 -8.891296e-002 9.016189e-001 -3.338458e-005 5.773649e-005 -8.916998e-002 9.052544e-001
323940000 -2.789431e-005 6.108025e-005 -5.967084e-002 9.098339e-001 1.368110e-005 -2.646444e-005 -5.980388e-002 9.137151e-001
324225000 6.904164e-005 9.294471e-005 -2.884585e-002 9.177643e-001 5.269354e-005 1.261914e-005 -2.935102e-002 9.210629e-001
324510000 -9.141081e-005 3.223724e-005 1.265985e-003 9.239420e-001 2.890072e-005 -3.160564e-005 1.130565e-003 9.273435e-001
324795000 2.650461e-005 -3.348275e-005 3.322345e-002 9.289632e-001 3.873165e-005 -1.020468e-006 3.312183e-002 9.329241e-001
325080000 -9.690793e-006 1.219909e-005 6.483858e-002 9.333430e-001 -2.874189e-006 -4.877884e-005 6.523133e-002 9.374821e-001
325365000 1.602523e-004 -4.925087e-005 9.778798e-002 9.366433e-001 4.463154e-005 1.016062e-004 9.797889e-002 9.406632e-001
325650000 9.299556e-005 -2.682401e-005 1.311786e-001 9.385020e-001 5.384817e-005 8.605382e-006 1.311985e-001 9.418126e-001
325935000 1.971197e-005 3.711896e-005 1.649751e-001 9.389151e-001 6.087217e-005 -6.540164e-005 1.652077e-001 9.432649e-001
326220000 -2.550045e-005 8.139886e-005 1.993466e-001 9.384453e-001 -6.357343e-005 7.800823e-005 2.004739e-001 9.424462e-001
326505000 3.486878e-005 -3.929240e-005 2.341857e-001 9.367840e-001 -8.035287e-005 3.165291e-005 2.349600e-001 9.400418e-001
326790000 -9.387471e-006 -3.158002e-005 2.691664e-001 9.327377e-001 -1.145650e-004 1.784281e-005 2.705545e-001 9.372087e-001
327075000 6.311178e-005 8.379848e-006 3.041639e-001 9.274902e-001 -5.807657e-005 -5.175834e-005 3.062246e-001 9.309629e-001
327360000 -3.884690e-006 2.200025e-005 3.405753e-001 9.211779e-001 2.302438e-005 2.275211e-005 3.415018e-001 9.250296e-001
327645000 -1.045427e-004 -3.058336e-005 3.757934e-001 9.125315e-001 -1.645480e-005 7.509041e-005 3.777766e-001 9.160284e-001
327930000 4.175257e-005 1.193892e-004 4.117387e-001 9.022505e-001 -5.125819e-005 -4.869336e-005 4.135517e-001 9.060870e-001
328215000 5.101092e-006 -8.818477e-005 4.476876e-001 8.897936e-001 7.164724e-005 7.547114e-005 4.494149e-001 8.941555e-001
328500000 1.111636e-006 -1.034189e-006 4.825459e-001 8.777226e-001 3.378135e-005 -1.373585e-004 4.849623e-001 8.810387e-001
328785000 7.851632e-006 -2.386664e-005 5.182836e-001 8.620748e-001 3.751966e-006 3.831860e-006 5.209693e-001 8.655033e-001
329070000 -3.169866e-005 -4.758767e-005 5.531638e-001 8.450259e-001 4.637464e-005 -7.994588e-006 5.554563e-001 8.491311e-001
329355000 -3.892016e-005 1.850890e-005 5.873668e-001 8.265058e-001 6.553165e-005 -8.963452e-005 5.899115e-001 8.303594e-001
329640000 -8.635997e-005 -1.558430e-005 6.218120e-001 8.060613e-001 9.738574e-006 -5.900883e-006 6.241423e-001 8.096954e-001
329925000 1.544915e-005 1.151488e-004 6.539489e-001 7.834035e-001 1.289928e-004 -8.769567e-006 6.567217e-001 7.866760e-001
330210000 -5.135487e-005 1.326224e-005 6.863167e-001 7.600999e-001 -1.356414e-005 2.504002e-005 6.891638e-001 7.627760e-001
330495000 4.561768e-005 -1.332550e-004 7.173345e-001 7.349532e-001 7.279979e-006 -8.146471e-005 7.202880e-001 7.375528e-001
330780000 5.206745e-005 6.267389e-005 7.468301e-001 7.068410e-001 7.982828e-006 -8.096384e-007 7.508334e-001 7.102238e-001
331065000 7.329516e-005 5.323942e-005 7.763225e-001 6.778567e-001 -2.601259e-005 -1.072915e-005 7.794182e-001 6.819342e-001
331350000 1.251631e-004 -4.476020e-006 8.035794e-001 6.478863e-001 3.595548e-005 -5.932161e-005 8.066470e-001 6.508637e-001
331635000 5.022707e-005 -5.489504e-005 8.289804e-001 6.167458e-001 -2.658519e-006 -4.809628e-005 8.330567e-001 6.192968e-001
331920000 -5.069349e-005 -1.789493e-005 8.535521e-001 5.839205e-001 1.626662e-005 -3.073560e-005 8.571599e-001 5.860891e-001
332205000 8.131367e-006 1.889743e-005 8.765478e-001 5.492613e-001 1.524494e-004 -5.614177e-005 8.801844e-001 5.517415e-001
332490000 4.311273e-005 5.384257e-005 8.976191e-001 5.144262e-001 4.457312e-006 -1.059033e-005 9.015923e-001 5.167316e-001
332775000 1.696936e-005 4.357687e-005 9.169089e-001 4.781884e-001 1.042702e-006 4.439597e-005 9.205301e-001 4.805115e-001
333060000 2.718254e-005 9.272752e-005 9.343700e-001 4.417573e-001 -3.867643e-005 -9.607067e-005 9.379920e-001 4.439647e-001
333345000 -4.784736e-005 1.068397e-004 9.496370e-001 4.034786e-001 4.802642e-005 -6.917297e-005 9.539680e-001 4.052909e-001
333630000 6.516661e-005 2.767524e-005 9.628341e-001 3.653058e-001 -2.457994e-005 -4.547401e-005 9.676625e-001 3.671174e-001
333915000 -6.288203e-005 9.655020e-005 9.756198e-001 3.268463e-001 -4.181359e-005 3.880060e-005 9.801428e-001 3.279290e-001
334200000 -1.077721e-004 7.977967e-005 9.855552e-001 2.876045e-001 1.034635e-004 -1.321697e-005 9.900446e-001 2.891793e-001
334485000 -2.352428e-005 -2.390763e-005 9.932404e-001 2.481898e-001 4.954912e-005 -1.721116e-005 9.977002e-001 2.498861e-001
334770000 1.207451e-004 5.637439e-005 9.993936e-001 2.092772e-001 -8.533456e-005 1.036810e-005 1.003580e+000 2.107614e-001
335055000 -4.823726e-005 -3.853442e-006 1.003518e+000 1.696461e-001 1.850835e-005 7.133155e-005 1.007611e+000 1.705861e-001
335340000 3.362031e-006 2.314835e-005 1.005530e+000 1.304507e-001 1.421563e-004 -6.276307e-005 1.010084e+000 1.311708e-001
335625000 8.662498e-005 1.254474e-004 1.005533e+000 9.175681e-002 4.317014e-005 7.546945e-005 1.010209e+000 9.216949e-002
335910000 -3.504780e-005 6.156870e-005 1.004363e+000 5.352195e-002 1.609006e-004 2.812708e-005 1.008889e+000 5.366094e-002
336195000 1.861204e-005 -4.082040e-006 1.001460e+000 1.576760e-002 -2.084162e-005 2.964363e-005 1.005676e+000 1.591459e-002
336480000 -4.175180e-005 1.538321e-004 9.968182e-001 -2.108683e-002 -8.074459e-005 -1.115871e-004 1.001361e+000 -2.139496e-002
336765000 2.508145e-005 -6.415247e-005 9.903728e-001 -5.793815e-002 1.879087e-005 7.362643e-005 9.944864e-001 -5.763794e-002
337050000 -4.958331e-005 4.357924e-005 9.827256e-001 -9.419411e-002 2.883679e-005 -5.954717e-005 9.865862e-001 -9.373802e-002
337335000 -6.196999e-005 -7.679205e-005 9.730601e-001 -1.288297e-001 3.412848e-005 1.563401e-005 9.777943e-001 -1.290887e-001
337620000 1.078366e-004 3.373607e-006 9.630187e-001 -1.633254e-001 -2.111809e-005 -3.633871e-006 9.671732e-001 -1.641519e-001
337905000 -1.182592e-005 -8.618041e-005 9.505835e-001 -1.961523e-001 6.089107e-006 6.807677e-005 9.552408e-001 -1.974176e-001
338190000 2.752265e-005 4.455838e-005 9.380182e-001 -2.281964e-001 3.064979e-005 -7.422393e-005 9.418878e-001 -2.291292e-001
338475000 4.878992e-005 -1.742701e-006 9.240208e-001 -2.599545e-001 4.450299e-005 -2.048008e-005 9.278665e-001 -2.611341e-001
338760000 -5.752337e-005 1.736745e-005 9.083397e-001 -2.899300e-001 -1.336047e-005 -1.081299e-004 9.128156e-001 -2.912472e-001
339045000 4.215071e-005 -1.291217e-004 8.929222e-001 -3.197810e-001 4.959882e-005 5.148334e-005 8.964067e-001 -3.208528e-001
339330000 -2.411663e-005 -9.494380e-005 8.761576e-001 -3.483224e-001 2.536919e-005 1.877970e-005 8.799230e-001 -3.499314e-001
339615000 8.202880e-005 1.158685e-005 8.589540e-001 -3.751938e-001 3.751345e-005 3.873515e-005 8.621064e-001 -3.769426e-001
339900000 -3.041598e-005 -9.250876e-006 8.391735e-001 -4.008251e-001 4.869154e-006 -8.990092e-005 8.434708e-001 -4.029705e-001
340185000 -1.451010e-005 6.412202e-005 8.205411e-001 -4.262654e-001 -4.964483e-005 9.331546e-006 8.246171e-001 -4.280777e-001
340470000 9.585307e-005 6.146381e-005 8.017728e-001 -4.502423e-001 1.504843e-005 -5.687182e-005 8.045180e-001 -4.520535e-001
340755000 -6.702992e-005 -3.475057e-005 7.815138e-001 -4.727724e-001 -1.061139e-005 -1.111653e-004 7.848790e-001 -4.755795e-001
341040000 -9.624939e-005 -9.440739e-006 7.603318e-001 -4.952413e-001 7.547230e-005 -3.313798e-005 7.642731e-001 -4.972157e-001
341325000 1.062586e-005 4.572905e-006 7.398188e-001 -5.160822e-001 1.131132e-004 2.156408e-005 7.433132e-001 -5.181106e-001
341610000 -1.140068e-004 1.692429e-004 7.188470e-001 -5.352256e-001 5.045588e-005 -2.723239e-005 7.214894e-001 -5.378252e-001
341895000 5.592244e-007 5.430833e-005 6.969099e-001 -5.546432e-001 1.761524e-005 -3.225103e-005 7.001743e-001 -5.570945e-001
342180000 -2.306609e-005 9.026279e-006 6.753633e-001 -5.727946e-001 4.876670e-005 9.195272e-005 6.780551e-001 -5.746713e-001
342465000 -2.801041e-006 3.861065e-005 6.533010e-001 -5.902545e-001 1.500497e-005 -3.453327e-005 6.557798e-001 -5.923802e-001
342750000 -4.796057e-005 -2.808767e-006 6.308305e-001 -6.054720e-001 -7.015288e-005 5.574911e-006 6.334243e-001 -6.082167e-001
343035000 6.239850e-005 -3.913426e-005 6.087242e-001 -6.208163e-001 -1.246858e-004 1.219640e-004 6.113974e-001 -6.237268e-001
343320000 5.919541e-005 -6.009240e-005 5.862035e-001 -6.352461e-001 -7.138231e-005 -2.954205e-005 5.884658e-001 -6.380055e-001
343605000 -1.302546e-006 -3.360698e-005 5.636014e-001 -6.494491e-001 7.076733e-006 -5.365880e-005 5.659615e-001 -6.515725e-001
343890000 6.356747e-005 -4.581839e-005 5.413643e-001 -6.617670e-001 -4.665548e-005 -9.537703e-005 5.434188e-001 -6.641850e-001
