!Agilent Technologies,N5230C,SG49000117,A.08.50.07
!Agilent N5230C: A.08.50.07
!Date: Sunday, March 17, 2024 02:44:02
!Correction: S11(Off) 
!S21(Off) 
!S12(Off) 
!S22(Off) 
!S2P File: Measurements: S11, S21, S12, S22:
# Hz S  RI   R 50
300000000 1.094812e-004 -3.237962e-005 -6.553486e-001 -6.018800e-001 6.332326e-005 1.028417e-005 -6.578546e-001 -6.046144e-001
300285000 2.522848e-005 -4.265971e-005 -6.689041e-001 -5.791610e-001 -1.971688e-005 2.416866e-005 -6.712151e-001 -5.810435e-001
300570000 -6.906025e-006 1.308694e-005 -6.818049e-001 -5.547709e-001 -5.535437e-005 8.832436e-005 -6.840132e-001 -5.574630e-001
300855000 -2.313860e-006 -7.009845e-005 -6.934127e-001 -5.316720e-001 -1.013530e-004 1.817823e-005 -6.959764e-001 -5.336087e-001
301140000 -3.052896e-005 1.114166e-005 -7.048414e-001 -5.076648e-001 -1.240042e-004 -1.612437e-005 -7.075129e-001 -5.093915e-001
301425000 1.127473e-005 3.078455e-005 -7.149135e-001 -4.832655e-001 -8.169158e-005 2.152375e-005 -7.176632e-001 -4.858187e-001
301710000 5.199941e-005 -1.977394e-005 -7.242119e-001 -4.606028e-001 -6.075353e-005 -4.045373e-005 -7.270926e-001 -4.614332e-001
301995000 -8.706065e-005 -1.109297e-005 -7.334396e-001 -4.362887e-001 -2.529556e-005 -1.284592e-005 -7.360721e-001 -4.376222e-001
302280000 2.613169e-005 -4.978526e-005 -7.415472e-001 -4.126718e-001 2.620726e-005 -1.110627e-004 -7.439759e-001 -4.142857e-001
302565000 4.058557e-005 -4.604287e-005 -7.487664e-001 -3.893880e-001 -7.191874e-005 1.308371e-005 -7.519745e-001 -3.903993e-001
302850000 -5.176955e-006 -1.386103e-004 -7.552725e-001 -3.657736e-001 6.579333e-005 -7.532049e-005 -7.582510e-001 -3.674407e-001
303135000 2.775138e-005 -2.062799e-006 -7.611691e-001 -3.431790e-001 3.249304e-005 -2.117900e-005 -7.648552e-001 -3.443987e-001
303420000 -2.543398e-005 -2.015783e-005 -7.667462e-001 -3.195512e-001 -3.387947e-005 -7.208793e-005 -7.697452e-001 -3.212616e-001
303705000 -3.033194e-005 -2.176581e-005 -7.717343e-001 -2.966143e-001 2.664431e-005 2.170880e-005 -7.748976e-001 -2.984512e-001
303990000 -8.982912e-005 -9.041457e-006 -7.762071e-001 -2.743025e-001 1.263113e-004 9.515870e-005 -7.793255e-001 -2.750610e-001
304275000 -9.098153e-005 -5.887631e-005 -7.799340e-001 -2.510949e-001 2.192150e-006 2.096889e-005 -7.827069e-001 -2.525937e-001
304560000 6.793287e-005 -1.686445e-005 -7.824748e-001 -2.287942e-001 -7.932308e-005 8.690405e-005 -7.860627e-001 -2.301690e-001
304845000 1.737362e-006 -2.920744e-005 -7.855697e-001 -2.068183e-001 -1.633606e-005 -9.569821e-007 -7.882804e-001 -2.075880e-001
305130000 -2.904315e-005 1.855704e-005 -7.875407e-001 -1.846869e-001 -7.489856e-006 1.400757e-005 -7.903790e-001 -1.850609e-001
305415000 -6.350334e-005 7.594642e-005 -7.891857e-001 -1.629003e-001 -4.508951e-005 -1.286436e-005 -7.921447e-001 -1.627709e-001
305700000 -2.295730e-005 2.865410e-005 -7.901590e-001 -1.407094e-001 -3.163478e-005 5.784069e-005 -7.929620e-001 -1.410150e-001
305985000 -6.432849e-005 -4.094114e-005 -7.910542e-001 -1.186694e-001 4.127277e-005 7.716594e-006 -7.942186e-001 -1.197501e-001
306270000 -1.063962e-004 6.208884e-006 -7.911968e-001 -9.779681e-002 -6.755911e-005 8.142350e-005 -7.940971e-001 -9.812536e-002
306555000 -1.022791e-004 5.034619e-005 -7.908664e-001 -7.631996e-002 -2.732190e-005 -1.128972e-005 -7.941051e-001 -7.654273e-002
306840000 -1.600038e-004 1.763556e-005 -7.896393e-001 -5.467976e-002 -8.629932e-005 -8.730787e-005 -7.931677e-001 -5.525070e-002
307125000 -3.815324e-005 -9.815068e-005 -7.888224e-001 -3.372983e-002 1.924412e-005 -7.943806e-005 -7.919024e-001 -3.371403e-002
307410000 -8.642385e-005 6.871018e-005 -7.876536e-001 -1.287642e-002 6.846516e-005 1.639952e-005 -7.900639e-001 -1.294339e-002
307695000 -4.249212e-005 5.946511e-005 -7.855577e-001 7.503704e-003 -8.795912e-005 -3.815514e-005 -7.885554e-001 7.910166e-003
307980000 1.462547e-005 -1.493012e-005 -7.831537e-001 2.858630e-002 8.200846e-005 -1.600807e-004 -7.860753e-001 2.833653e-002
308265000 1.550102e-004 7.510944e-006 -7.804799e-001 4.874117e-002 1.473633e-005 -4.958864e-007 -7.830575e-001 4.882425e-002
308550000 6.759310e-006 -1.700424e-005 -7.778009e-001 6.889837e-002 -3.562249e-005 1.669116e-004 -7.807403e-001 6.985272e-002
308835000 2.676477e-005 3.657153e-005 -7.739415e-001 8.983739e-002 1.039449e-004 6.233535e-005 -7.772343e-001 8.976179e-002
309120000 -1.531058e-004 1.011850e-004 -7.701700e-001 1.094681e-001 9.912616e-005 3.987554e-005 -7.732232e-001 1.099334e-001
309405000 1.277543e-004 6.650218e-005 -7.659354e-001 1.289732e-001 4.253520e-005 5.018044e-005 -7.689667e-001 1.296805e-001
309690000 1.115059e-004 9.430188e-005 -7.613961e-001 1.488204e-001 -1.042236e-004 1.237654e-004 -7.646090e-001 1.492432e-001
309975000 5.301854e-005 -4.394278e-005 -7.569346e-001 1.686207e-001 2.787236e-005 1.398626e-005 -7.596856e-001 1.694659e-001
310260000 2.416271e-005 6.632732e-005 -7.514287e-001 1.880648e-001 -1.494658e-005 7.719325e-007 -7.542692e-001 1.889251e-001
310545000 1.246007e-005 -3.507458e-005 -7.457315e-001 2.078536e-001 -1.207658e-005 -6.596635e-005 -7.487989e-001 2.083112e-001
310830000 2.597560e-006 4.474090e-005 -7.396393e-001 2.270854e-001 -9.344445e-005 5.087131e-005 -7.428190e-001 2.276216e-001
311115000 4.094633e-005 -1.057757e-005 -7.335969e-001 2.460229e-001 -2.236496e-005 -1.212585e-004 -7.362732e-001 2.470011e-001
311400000 9.064130e-006 -8.813852e-005 -7.267064e-001 2.649541e-001 -6.547569e-005 -3.689690e-006 -7.301253e-001 2.660193e-001
311685000 3.219175e-005 -1.192048e-004 -7.201151e-001 2.840597e-001 6.631997e-005 -2.612440e-006 -7.225894e-001 2.857502e-001
311970000 9.903441e-005 -7.700353e-006 -7.123098e-001 3.034194e-001 5.524672e-005 4.305162e-005 -7.155976e-001 3.049558e-001
312255000 8.196163e-005 -3.197228e-005 -7.054255e-001 3.218027e-001 -2.296023e-005 3.978195e-005 -7.077529e-001 3.233353e-001
312540000 9.685189e-006 -5.331978e-005 -6.965404e-001 3.408241e-001 -3.121905e-005 -1.250254e-005 -6.997948e-001 3.423056e-001
312825000 1.629014e-004 1.417874e-004 -6.883356e-001 3.594323e-001 4.017445e-005 3.528714e-005 -6.916570e-001 3.605117e-001
313110000 3.171370e-005 -3.010622e-006 -6.795554e-001 3.783398e-001 1.017091e-004 -2.757258e-005 -6.821930e-001 3.796148e-001
313395000 1.119973e-004 3.184424e-005 -6.703993e-001 3.966355e-001 1.024240e-004 1.051822e-004 -6.730965e-001 3.976848e-001
313680000 1.136255e-005 6.356596e-006 -6.603576e-001 4.143201e-001 -1.142695e-004 -2.540998e-005 -6.631837e-001 4.164901e-001
313965000 -7.346458e-006 -5.872822e-005 -6.506154e-001 4.332504e-001 -7.475655e-006 3.754780e-005 -6.529383e-001 4.345799e-001
314250000 2.261122e-005 -1.005359e-004 -6.401951e-001 4.513127e-001 -3.480958e-005 4.555166e-005 -6.425030e-001 4.534599e-001
314535000 1.605786e-004 1.980422e-005 -6.289242e-001 4.690916e-001 -1.944956e-005 8.807577e-005 -6.316017e-001 4.715188e-001
314820000 -1.604887e-005 1.356148e-005 -6.179575e-001 4.874105e-001 -1.271612e-005 1.233112e-005 -6.207530e-001 4.891222e-001
315105000 -2.241771e-005 -2.850027e-005 -6.060058e-001 5.051696e-001 -9.712941e-005 -2.215037e-005 -6.084610e-001 5.074822e-001
315390000 -8.722481e-005 4.303257e-005 -5.940444e-001 5.226650e-001 -2.270466e-005 7.735779e-006 -5.962070e-001 5.246447e-001
315675000 -3.013072e-007 -6.025024e-005 -5.813407e-001 5.406054e-001 1.438218e-005 -1.488599e-005 -5.837675e-001 5.430254e-001
315960000 2.434533e-006 -1.072673e-005 -5.680717e-001 5.581043e-001 2.205512e-005 8.902948e-005 -5.703368e-001 5.602866e-001
316245000 -1.599346e-004 2.295404e-005 -5.545501e-001 5.758166e-001 -2.672899e-005 -1.603845e-004 -5.565943e-001 5.777541e-001
316530000 2.417408e-005 -8.044498e-006 -5.402397e-001 5.927693e-001 -1.110329e-004 -5.458282e-005 -5.425068e-001 5.950153e-001
316815000 8.213244e-005 -3.818324e-005 -5.255188e-001 6.101907e-001 5.250845e-005 -5.848871e-006 -5.276027e-001 6.118211e-001
317100000 -5.297449e-005 -5.959744e-006 -5.100351e-001 6.270437e-001 6.555527e-005 3.697783e-005 -5.124510e-001 6.295660e-001
317385000 7.746299e-006 -2.698531e-005 -4.944762e-001 6.438166e-001 6.012738e-005 3.416361e-005 -4.967909e-001 6.461091e-001
317670000 1.625191e-005 1.044178e-005 -4.781171e-001 6.601520e-001 3.471566e-007 4.567471e-005 -4.800194e-001 6.628188e-001
317955000 2.929448e-006 -6.398232e-005 -4.612263e-001 6.766063e-001 -7.661881e-005 -4.849873e-005 -4.628698e-001 6.791635e-001
318240000 1.856551e-006 -5.568144e-005 -4.438842e-001 6.931520e-001 8.110901e-005 -1.133187e-005 -4.459549e-001 6.959401e-001
318525000 7.862064e-005 -7.253850e-005 -4.254083e-001 7.091182e-001 -1.083165e-004 8.422217e-006 -4.274686e-001 7.119049e-001
318810000 -8.163726e-006 -2.373031e-005 -4.064342e-001 7.244339e-001 4.080139e-005 -4.518784e-005 -4.084155e-001 7.275146e-001
319095000 -1.790359e-005 -1.494886e-005 -3.876179e-001 7.403496e-001 -3.552251e-005 8.390706e-005 -3.888040e-001 7.429544e-001
319380000 1.737147e-005 2.665562e-005 -3.675902e-001 7.552322e-001 1.561311e-004 1.376382e-005 -3.690570e-001 7.581764e-001
319665000 9.513717e-006 9.077812e-005 -3.465470e-001 7.697900e-001 -1.272017e-004 1.964002e-005 -3.477032e-001 7.730427e-001
319950000 1.797378e-005 1.410548e-005 -3.247028e-001 7.842432e-001 2.358295e-005 3.944004e-005 -3.263835e-001 7.875907e-001
320235000 -9.604330e-005 3.409884e-005 -3.028306e-001 7.979813e-001 -8.077725e-005 1.037779e-004 -3.037796e-001 8.013961e-001
320520000 -1.302606e-005 6.936388e-005 -2.802568e-001 8.117605e-001 -2.627955e-005 1.536769e-004 -2.813068e-001 8.151239e-001
320805000 -9.817369e-005 5.731346e-005 -2.566244e-001 8.246280e-001 -3.593128e-005 8.015209e-005 -2.582165e-001 8.281757e-001
321090000 -5.962309e-005 -3.210504e-005 -2.319672e-001 8.371602e-001 -1.063681e-004 8.099102e-005 -2.335643e-001 8.406727e-001
321375000 -1.246587e-004 1.273923e-004 -2.072728e-001 8.494744e-001 1.033540e-004 -4.512882e-005 -2.083763e-001 8.529769e-001
321660000 1.005017e-004 -1.594834e-005 -1.817513e-001 8.607238e-001 -9.121113e-005 -5.894116e-005 -1.821747e-001 8.646831e-001
321945000 5.544217e-005 7.078102e-005 -1.554336e-001 8.719978e-001 2.710134e-005 -2.732419e-005 -1.554703e-001 8.755443e-001
322230000 3.864653e-005 -6.496981e-005 -1.278523e-001 8.818229e-001 1.188165e-005 -3.089014e-005 -1.280538e-001 8.854124e-001
322515000 3.106334e-005 5.082410e-005 -9.938283e-002 8.906344e-001 -1.996498e-005 3.539748e-005 -1.006812e-001 8.949600e-001
322800000 5.568456e-005 2.481946e-005 -7.101116e-002 8.997468e-001 3.228479e-006 -3.759656e-005 -7.120725e-002 9.028796e-001
323085000 1.263510e-004 -8.984561e-005 -4.145431e-002 9.070857e-001 6.777001e-005 -5.906813e-005 -4.205109e-002 9.107772e-001
323370000 4.643128e-005 -8.824626e-007 -1.168400e-002 9.141062e-001 -3.166419e-005 -2.286162e-005 -1.157864e-002 9.178294e-001
323655000 -4.165703e-005 -4.965491e-005 1.924231e-002 9.200476e-001 1.783473e-005 -5.500492e-005 1.908643e-002 9.236063e-001
323940000 5.502902e-005 1.973122e-005 5.040235e-002 9.244888e-001 2.199276e-005 5.407116e-005 5.023973e-002 9.286529e-001
324225000 3.240430e-005 7.821940e-005 8.207785e-002 9.276783e-001 6.182605e-005 2.392838e-005 8.355476e-002 9.318876e-001
324510000 2.559787e-005 5.051826e-005 1.150257e-001 9.303382e-001 -2.705552e-005 -3.859867e-006 1.155880e-001 9.346498e-001
324795000 3.101870e-005 4.251959e-005 1.485230e-001 9.317583e-001 1.307558e-005 1.081305e-005 1.490441e-001 9.355817e-001
325080000 9.287700e-005 -4.848784e-005 1.824310e-001 9.315736e-001 1.496578e-006 2.487091e-005 1.828078e-001 9.356867e-001
325365000 5.818461e-005 1.698184e-004 2.165458e-001 9.304688e-001 -3.222045e-005 -5.726633e-005 2.177618e-001 9.338900e-001
325650000 -3.595139e-005 -1.811536e-005 2.512231e-001 9.271079e-001 -9.036135e-005 -6.294581e-005 2.527008e-001 9.316936e-001
325935000 -1.400170e-004 -7.220819e-006 2.859682e-001 9.232661e-001 -3.070018e-005 6.566351e-005 2.870793e-001 9.273195e-001
326220000 -1.654786e-005 -3.453271e-005 3.210741e-001 9.173160e-001 -4.974785e-005 -1.111707e-004 3.226167e-001 9.213686e-001
326505000 -1.684650e-004 1.731170e-006 3.567287e-001 9.102891e-001 4.785887e-005 -5.781437e-005 3.578762e-001 9.141956e-001
326790000 -3.532002e-005 -8.772122e-005 3.920527e-001 9.013866e-001 1.520858e-005 -3.152808e-005 3.941013e-001 9.048569e-001
327075000 -3.924011e-005 -1.247126e-004 4.274317e-001 8.908529e-001 2.380877e-007 -8.964776e-005 4.296149e-001 8.943546e-001
327360000 1.493774e-005 -1.145559e-004 4.630356e-001 8.779809e-001 2.830838e-005 -7.387867e-005 4.649305e-001 8.819064e-001
327645000 -1.680588e-005 1.270409e-005 4.981054e-001 8.638871e-001 -2.299454e-005 -1.632716e-006 5.005558e-001 8.675479e-001
327930000 -1.330073e-005 -5.489490e-007 5.329449e-001 8.482604e-001 -2.612693e-005 2.619378e-007 5.354598e-001 8.517106e-001
328215000 1.309603e-004 2.098514e-005 5.673867e-001 8.301329e-001 -1.448774e-005 4.996966e-005 5.707151e-001 8.338223e-001
328500000 1.210810e-004 8.843071e-005 6.016496e-001 8.108892e-001 -5.640317e-006 -2.283843e-005 6.042415e-001 8.146929e-001
328785000 -2.413404e-005 3.042439e-005 6.346031e-001 7.903556e-001 1.365101e-005 1.400834e-005 6.372390e-001 7.935693e-001
329070000 -5.223137e-005 6.677583e-005 6.671474e-001 7.677422e-001 -2.698258e-006 -4.601911e-005 6.696003e-001 7.707413e-001
329355000 -5.819021e-005 -4.601967e-005 6.992654e-001 7.431100e-001 -3.654473e-005 -5.915572e-005 7.016167e-001 7.460706e-001
329640000 -4.794512e-005 4.899326e-005 7.289475e-001 7.167269e-001 -4.855333e-005 3.103343e-005 7.329068e-001 7.198230e-001
329925000 6.356271e-005 -1.549428e-005 7.583201e-001 6.889042e-001 -5.540391e-005 9.716415e-006 7.615767e-001 6.924059e-001
330210000 -1.938406e-005 -9.697263e-005 7.867686e-001 6.604210e-001 4.885561e-005 -1.146200e-004 7.902906e-001 6.622533e-001
330495000 -5.263610e-007 -3.950176e-005 8.137243e-001 6.290843e-001 -2.776870e-005 -1.028546e-005 8.166963e-001 6.322777e-001
330780000 6.712200e-005 3.198905e-006 8.389974e-001 5.974879e-001 -1.216263e-004 -2.963746e-005 8.420877e-001 5.996590e-001
331065000 7.265782e-005 -2.601772e-005 8.628179e-001 5.631567e-001 4.405005e-005 -7.526396e-005 8.665336e-001 5.663649e-001
331350000 3.194211e-005 -1.644434e-005 8.848124e-001 5.296996e-001 -9.102165e-006 1.367172e-005 8.883038e-001 5.321466e-001
331635000 -8.227910e-005 1.380965e-004 9.047154e-001 4.938546e-001 3.678237e-005 -4.615185e-005 9.091134e-001 4.960389e-001
331920000 -6.767331e-005 5.417834e-005 9.242589e-001 4.575306e-001 1.041167e-004 -4.871574e-005 9.277067e-001 4.586208e-001
332205000 5.586075e-005 6.878866e-005 9.404853e-001 4.202946e-001 4.825633e-006 8.726927e-005 9.443677e-001 4.221984e-001
332490000 -1.427129e-004 -3.979008e-005 9.556058e-001 3.823495e-001 -4.537297e-005 8.453208e-006 9.589455e-001 3.839416e-001
332775000 -6.701890e-005 -1.505748e-004 9.679257e-001 3.435040e-001 2.888872e-007 -1.928147e-006 9.723780e-001 3.450329e-001
333060000 -1.019928e-005 -6.186972e-005 9.791511e-001 3.046879e-001 -7.375710e-005 3.821522e-005 9.831115e-001 3.059719e-001
333345000 -6.128810e-005 5.831115e-006 9.884207e-001 2.652360e-001 -7.749851e-005 -7.466365e-005 9.928544e-001 2.669802e-001
333630000 -6.709729e-005 -6.711101e-006 9.954035e-001 2.263335e-001 -7.986777e-005 1.571560e-005 9.997985e-001 2.276233e-001
333915000 1.034707e-004 -4.354113e-005 1.000254e+000 1.871498e-001 -2.233100e-005 7.452077e-006 1.004775e+000 1.872430e-001
334200000 -1.517942e-005 7.934561e-005 1.004033e+000 1.475571e-001 8.800521e-006 2.847186e-005 1.007987e+000 1.480072e-001
334485000 1.280358e-005 1.362073e-004 1.005130e+000 1.081019e-001 1.760181e-005 1.049168e-005 1.009473e+000 1.086145e-001
334770000 3.865871e-005 -6.332318e-005 1.005428e+000 6.953338e-002 1.027912e-005 3.549795e-005 1.010113e+000 6.968717e-002
335055000 1.005837e-004 -9.228697e-005 1.002306e+000 3.095272e-002 -1.937448e-004 -1.874214e-005 1.006955e+000 3.091581e-002
335340000 1.556888e-004 5.553904e-005 9.989297e-001 -6.530350e-003 -8.749431e-005 6.724468e-005 1.003011e+000 -6.865012e-003
335625000 4.371442e-005 1.465367e-004 9.933434e-001 -4.400426e-002 -2.335613e-005 -5.648064e-005 9.975413e-001 -4.457192e-002
335910000 5.242225e-005 2.423781e-005 9.863915e-001 -8.043502e-002 -5.930494e-005 -1.878854e-005 9.905088e-001 -8.052982e-002
336195000 3.744587e-005 -1.920981e-006 9.777595e-001 -1.163073e-001 -8.623478e-005 -4.403648e-005 9.820996e-001 -1.163955e-001
336480000 -1.273806e-004 -3.372198e-005 9.674911e-001 -1.514607e-001 -9.994716e-005 7.681458e-005 9.713313e-001 -1.510355e-001
336765000 -8.012072e-005 -2.915562e-005 9.558515e-001 -1.855161e-001 -1.450370e-005 -7.822123e-005 9.606553e-001 -1.859499e-001
337050000 -1.448263e-005 -2.387066e-005 9.434987e-001 -2.179597e-001 -1.076177e-004 -6.118042e-005 9.475129e-001 -2.186940e-001
337335000 -5.379855e-005 -5.456556e-005 9.294561e-001 -2.504100e-001 3.184057e-005 -6.276177e-005 9.340754e-001 -2.512143e-001
337620000 6.183418e-005 6.313200e-005 9.152873e-001 -2.816167e-001 -8.368688e-006 -3.373195e-005 9.193326e-001 -2.823706e-001
337905000 -1.304023e-004 1.106503e-004 8.996325e-001 -3.117130e-001 7.001599e-005 -1.550468e-005 9.028811e-001 -3.127350e-001
338190000 -3.164419e-005 9.724688e-005 8.824256e-001 -3.402680e-001 3.474771e-005 1.394233e-005 8.870097e-001 -3.411137e-001
338475000 -9.989732e-005 -1.942968e-005 8.647547e-001 -3.680042e-001 3.381326e-005 -3.491206e-005 8.688337e-001 -3.694414e-001
338760000 -1.738740e-005 -1.009646e-004 8.462985e-001 -3.949115e-001 1.898823e-005 5.715349e-005 8.505652e-001 -3.964550e-001
339045000 -9.257144e-006 6.080772e-005 8.276349e-001 -4.209980e-001 -6.442812e-005 6.533220e-005 8.312644e-001 -4.226457e-001
339330000 -1.797760e-005 5.244851e-005 8.082888e-001 -4.456295e-001 1.611042e-005 -2.946563e-005 8.116575e-001 -4.469014e-001
339615000 -1.425184e-005 -2.741378e-005 7.876848e-001 -4.687296e-001 6.692630e-005 5.380251e-005 7.914616e-001 -4.706540e-001
339900000 -5.148565e-005 4.426637e-005 7.670721e-001 -4.915934e-001 -3.575260e-005 -1.147824e-005 7.703323e-001 -4.929011e-001
340185000 8.030210e-006 4.508506e-005 7.457092e-001 -5.129482e-001 2.007621e-006 -1.248070e-004 7.495537e-001 -5.149302e-001
340470000 2.145700e-005 5.281226e-005 7.250659e-001 -5.330549e-001 -3.185419e-005 -2.497803e-005 7.276184e-001 -5.357575e-001
340755000 2.664525e-005 8.878489e-005 7.029835e-001 -5.525220e-001 -2.701296e-005 -7.120910e-006 7.059568e-001 -5.539819e-001
341040000 -3.168016e-005 -3.564873e-005 6.813323e-001 -5.705459e-001 4.408908e-005 -3.564919e-005 6.834473e-001 -5.731178e-001
341325000 -1.058999e-004 2.846687e-005 6.586124e-001 -5.884223e-001 7.413209e-005 -7.048451e-005 6.610758e-001 -5.906684e-001
341610000 -1.459106e-005 -7.831950e-005 6.362361e-001 -6.039736e-001 8.562422e-005 6.111514e-005 6.386169e-001 -6.064733e-001
341895000 3.101628e-005 -2.349137e-004 6.140602e-001 -6.199335e-001 -1.042857e-005 8.169038e-005 6.164041e-001 -6.226472e-001
342180000 -2.416072e-005 -6.681150e-005 5.908933e-001 -6.344300e-001 8.797777e-005 7.764695e-005 5.935535e-001 -6.372584e-001
342465000 6.821303e-005 5.509939e-005 5.681888e-001 -6.483609e-001 2.032145e-005 -5.254347e-005 5.703858e-001 -6.515536e-001
342750000 -4.807008e-005 3.726755e-005 5.453868e-001 -6.616117e-001 2.203596e-005 -2.384101e-006 5.474206e-001 -6.642936e-001
343035000 -6.901791e-005 3.200924e-005 5.226139e-001 -6.738561e-001 1.109726e-004 -8.486892e-005 5.243956e-001 -6.765366e-001
343320000 5.417731e-005 -4.111655e-005 4.991671e-001 -6.849167e-001 9.253622e-005 6.132566e-005 5.015323e-001 -6.876293e-001
343605000 -7.053601e-005 1.444545e-005 4.768534e-001 -6.958873e-001 -7.774129e-006 -3.426151e-005 4.783241e-001 -6.985758e-001
343890000 -9.369168e-005 4.182044e-006 4.541080e-001 -7.053654e-001 -7.866963e-005 9.063260e-005 4.556820e-001 -7.084718e-001
