!Agilent Technologies,N5230C,SG49000117,A.08.50.07
!Agilent N5230C: A.08.50.07
!Date: Sunday, March 17, 2024 02:35:07
!Correction: S11(Off) 
!S21(Off) 
!S12(Off) 
!S22(Off) 
!S2P File: Measurements: S11, S21, S12, S22:
# Hz S  RI   R 50
300000000 6.342321e-005 2.922068e-005 -6.051567e-001 -6.727793e-001 1.985923e-005 -1.216984e-005 -6.072137e-001 -6.752496e-001
300285000 6.332242e-005 1.896919e-005 -6.218583e-001 -6.498588e-001 -1.604915e-005 -2.955606e-005 -6.238937e-001 -6.520362e-001
300570000 -4.939025e-005 8.812855e-006 -6.370728e-001 -6.263603e-001 9.523926e-005 4.371243e-005 -6.394125e-001 -6.291128e-001
300855000 -1.522606e-004 -6.822959e-005 -6.510047e-001 -6.034999e-001 1.460009e-005 5.690933e-005 -6.539129e-001 -6.052887e-001
301140000 -6.526655e-005 3.239281e-005 -6.655546e-001 -5.793864e-001 -6.829543e-006 2.539025e-005 -6.677322e-001 -5.819156e-001
301425000 -5.900227e-006 4.604806e-006 -6.781866e-001 -5.564517e-001 -2.423211e-005 -1.323010e-005 -6.804379e-001 -5.583031e-001
301710000 1.316918e-005 5.715355e-005 -6.902232e-001 -5.324641e-001 1.319051e-005 -3.634077e-005 -6.928166e-001 -5.347270e-001
301995000 -8.203562e-005 8.529824e-005 -7.010667e-001 -5.095699e-001 2.569293e-005 -1.347970e-004 -7.034814e-001 -5.109499e-001
302280000 -2.250799e-005 9.959137e-008 -7.118611e-001 -4.857616e-001 -1.044601e-005 -5.633801e-005 -7.137311e-001 -4.872763e-001
302565000 -1.016734e-004 -2.403612e-005 -7.209562e-001 -4.624136e-001 -2.339560e-005 -4.240817e-005 -7.241093e-001 -4.639085e-001
302850000 -2.780961e-005 -7.926874e-005 -7.301734e-001 -4.389277e-001 -1.072466e-004 3.142358e-005 -7.329016e-001 -4.404945e-001
303135000 -5.764560e-005 4.691002e-005 -7.377995e-001 -4.154824e-001 3.428884e-005 2.669169e-005 -7.403259e-001 -4.170584e-001
303420000 -1.263241e-005 -4.600254e-005 -7.451404e-001 -3.928862e-001 -4.767125e-005 -6.373886e-005 -7.479097e-001 -3.940491e-001
303705000 3.865521e-005 1.140916e-006 -7.524903e-001 -3.696630e-001 3.334177e-005 -5.053177e-005 -7.551771e-001 -3.712228e-001
303990000 1.195572e-004 -5.777601e-005 -7.581965e-001 -3.462235e-001 1.031178e-004 -2.573019e-005 -7.612067e-001 -3.473108e-001
304275000 -4.369600e-005 1.090153e-004 -7.636672e-001 -3.237476e-001 5.148792e-005 1.769453e-005 -7.667713e-001 -3.251007e-001
304560000 3.212372e-005 -2.538617e-005 -7.689231e-001 -3.012504e-001 7.775973e-005 2.619134e-005 -7.714160e-001 -3.021187e-001
304845000 -9.508127e-006 2.032357e-005 -7.734050e-001 -2.783872e-001 7.447568e-005 -4.967448e-005 -7.760384e-001 -2.794633e-001
305130000 8.989796e-005 7.086253e-006 -7.768892e-001 -2.560929e-001 1.042559e-004 3.691948e-005 -7.798117e-001 -2.571812e-001
305415000 1.407100e-004 -3.160038e-006 -7.801775e-001 -2.336200e-001 9.381579e-005 9.085742e-006 -7.835284e-001 -2.348459e-001
305700000 3.643937e-005 8.486911e-005 -7.833579e-001 -2.118412e-001 -8.852097e-005 6.379687e-006 -7.861221e-001 -2.125934e-001
305985000 7.850345e-005 8.648484e-005 -7.854576e-001 -1.895478e-001 -8.383254e-005 -6.223172e-005 -7.878242e-001 -1.906276e-001
306270000 -6.436468e-005 1.035544e-005 -7.873699e-001 -1.676368e-001 -1.765852e-005 6.668489e-005 -7.899580e-001 -1.686058e-001
306555000 6.669033e-005 -1.488629e-005 -7.879910e-001 -1.460972e-001 -8.559479e-005 -9.880828e-005 -7.917364e-001 -1.470198e-001
306840000 2.749498e-005 5.757185e-005 -7.895351e-001 -1.250176e-001 -3.107683e-005 -3.620050e-005 -7.921629e-001 -1.247638e-001
307125000 -8.026617e-005 -1.342713e-005 -7.895380e-001 -1.032121e-001 -7.213320e-005 -5.066361e-005 -7.928604e-001 -1.035653e-001
307410000 5.985350e-006 -7.275165e-005 -7.896521e-001 -8.172680e-002 -1.620644e-005 -1.716357e-005 -7.929835e-001 -8.230008e-002
307695000 7.972854e-005 -7.306921e-006 -7.889845e-001 -6.089946e-002 1.918590e-005 -7.934022e-005 -7.923221e-001 -6.143567e-002
307980000 1.133284e-004 -3.089225e-005 -7.886304e-001 -4.004266e-002 -6.023965e-005 -2.754834e-005 -7.910920e-001 -4.012834e-002
308265000 1.690968e-004 6.576829e-005 -7.867665e-001 -1.915131e-002 6.972459e-005 4.797937e-005 -7.896949e-001 -1.942278e-002
308550000 1.303667e-004 -5.624293e-005 -7.849019e-001 1.360450e-003 1.870480e-004 6.669616e-005 -7.885051e-001 9.520944e-004
308835000 2.054356e-006 7.565714e-005 -7.834768e-001 2.221470e-002 2.997635e-006 -7.495716e-005 -7.860949e-001 2.162613e-002
309120000 1.527155e-004 -9.288709e-005 -7.809803e-001 4.251707e-002 1.084439e-004 4.356827e-005 -7.840117e-001 4.213118e-002
309405000 -8.351092e-005 4.621153e-006 -7.783010e-001 6.256489e-002 2.322519e-006 -4.428769e-005 -7.815026e-001 6.288239e-002
309690000 -5.777328e-005 4.345713e-005 -7.752317e-001 8.266357e-002 6.384294e-005 2.653272e-005 -7.779238e-001 8.238167e-002
309975000 6.493475e-006 -2.167073e-005 -7.719265e-001 1.026551e-001 5.278454e-005 -2.577209e-005 -7.740135e-001 1.026724e-001
310260000 -2.829163e-005 -3.069599e-005 -7.678872e-001 1.226354e-001 -6.586038e-006 8.452457e-005 -7.706903e-001 1.225413e-001
310545000 9.184920e-006 3.457616e-005 -7.636746e-001 1.422857e-001 9.728976e-006 5.749071e-005 -7.663739e-001 1.431151e-001
310830000 -8.477425e-005 -3.858969e-005 -7.592530e-001 1.617927e-001 -8.807393e-005 -7.680719e-005 -7.614152e-001 1.623412e-001
311115000 -1.277703e-004 -2.939118e-005 -7.542146e-001 1.814892e-001 -6.983169e-006 -4.739966e-005 -7.567232e-001 1.820515e-001
311400000 -1.804152e-004 2.958295e-005 -7.486237e-001 2.009709e-001 -8.034978e-005 -4.164765e-005 -7.514107e-001 2.015135e-001
311685000 -4.026212e-005 2.576347e-005 -7.427385e-001 2.198943e-001 -7.596057e-005 6.422729e-005 -7.462068e-001 2.211390e-001
311970000 -9.306583e-005 -9.889612e-005 -7.368284e-001 2.397186e-001 1.280123e-004 6.022129e-005 -7.397944e-001 2.401284e-001
312255000 -2.686862e-006 -8.516595e-005 -7.302282e-001 2.587887e-001 -1.006991e-004 -9.144040e-005 -7.336224e-001 2.599704e-001
312540000 2.854799e-005 4.976739e-006 -7.236239e-001 2.778037e-001 -8.909989e-005 -5.398039e-005 -7.268206e-001 2.790418e-001
312825000 8.068475e-005 9.436239e-006 -7.168194e-001 2.970178e-001 5.544176e-005 5.633587e-005 -7.195952e-001 2.983653e-001
313110000 1.190421e-004 -3.839433e-005 -7.095654e-001 3.159189e-001 7.946708e-005 -1.211170e-005 -7.120179e-001 3.169546e-001
313395000 1.362453e-004 3.883141e-005 -7.018780e-001 3.341345e-001 -2.541311e-005 -2.837349e-005 -7.047285e-001 3.357124e-001
313680000 -3.613725e-005 2.687619e-006 -6.934829e-001 3.533016e-001 -2.039006e-006 -3.186745e-005 -6.963449e-001 3.543598e-001
313965000 6.897697e-006 1.887728e-004 -6.848121e-001 3.718918e-001 -5.519676e-005 -1.680110e-005 -6.871288e-001 3.734111e-001
314250000 -1.424277e-004 5.145610e-005 -6.764133e-001 3.900752e-001 -4.463753e-005 1.077212e-004 -6.783520e-001 3.912401e-001
314535000 2.475971e-005 -2.338752e-005 -6.668808e-001 4.085097e-001 3.796480e-005 3.857196e-005 -6.689631e-001 4.106026e-001
314820000 -1.515980e-004 1.212071e-005 -6.568036e-001 4.268990e-001 -2.225880e-005 4.705649e-005 -6.592950e-001 4.292510e-001
315105000 -2.335241e-005 -3.156977e-006 -6.466845e-001 4.455938e-001 4.849095e-005 2.535201e-005 -6.494036e-001 4.472227e-001
315390000 5.185643e-005 1.235076e-004 -6.358235e-001 4.639697e-001 -1.094772e-005 -4.758604e-005 -6.383730e-001 4.657705e-001
315675000 3.187495e-005 8.397688e-005 -6.247691e-001 4.824184e-001 4.315709e-005 -5.390497e-005 -6.275937e-001 4.839717e-001
315960000 -7.577027e-005 1.356582e-004 -6.129785e-001 5.002720e-001 2.239029e-005 -1.433108e-005 -6.159677e-001 5.022576e-001
316245000 -1.929450e-005 -7.434518e-005 -6.011565e-001 5.181270e-001 -1.130903e-004 1.559503e-005 -6.036977e-001 5.199039e-001
316530000 3.778899e-005 7.574891e-005 -5.889232e-001 5.356582e-001 2.281709e-005 -1.069808e-004 -5.911538e-001 5.377359e-001
316815000 -4.269018e-005 2.220860e-005 -5.758185e-001 5.535080e-001 6.589141e-007 -3.712556e-005 -5.783034e-001 5.556956e-001
317100000 7.050687e-005 -9.129672e-005 -5.623942e-001 5.716252e-001 -1.458191e-005 2.615933e-005 -5.647697e-001 5.734690e-001
317385000 1.059048e-004 -5.842676e-005 -5.486576e-001 5.888689e-001 5.567306e-005 8.910830e-006 -5.509946e-001 5.910923e-001
317670000 6.242612e-005 3.843505e-005 -5.338116e-001 6.062957e-001 1.367686e-004 -1.327915e-004 -5.363451e-001 6.084684e-001
317955000 1.353900e-005 -5.237084e-005 -5.188531e-001 6.231008e-001 1.237581e-004 -9.769380e-005 -5.213832e-001 6.260909e-001
318240000 8.340291e-005 -1.317423e-005 -5.035703e-001 6.399205e-001 3.809220e-006 1.659774e-005 -5.060427e-001 6.429110e-001
318525000 -3.099869e-005 3.228144e-005 -4.873504e-001 6.571879e-001 3.152227e-005 -8.188134e-006 -4.893493e-001 6.602260e-001
318810000 1.177648e-004 6.160083e-005 -4.707794e-001 6.742226e-001 -1.130711e-004 4.282909e-005 -4.723502e-001 6.774277e-001
319095000 7.637939e-005 2.537139e-005 -4.532822e-001 6.906890e-001 1.627184e-005 -2.505148e-007 -4.554240e-001 6.938173e-001
319380000 -7.775896e-005 1.041409e-004 -4.354152e-001 7.074222e-001 2.566723e-006 3.372938e-006 -4.376755e-001 7.096836e-001
319665000 -7.644997e-005 1.322973e-005 -4.162635e-001 7.236007e-001 -5.558879e-005 -4.172854e-005 -4.185328e-001 7.260659e-001
319950000 -7.704369e-005 1.362375e-005 -3.979415e-001 7.386436e-001 3.678920e-005 -7.217081e-005 -3.995927e-001 7.418737e-001
320235000 6.438711e-005 3.266646e-006 -3.777066e-001 7.540713e-001 3.384966e-005 -1.143466e-004 -3.789183e-001 7.573806e-001
320520000 -6.090137e-005 -6.025345e-006 -3.571729e-001 7.693264e-001 3.178149e-005 -3.958169e-005 -3.580902e-001 7.725339e-001
320805000 -1.349633e-005 -6.270634e-005 -3.350185e-001 7.841666e-001 -1.142132e-005 -1.423094e-005 -3.370613e-001 7.868751e-001
321090000 2.590259e-005 -1.477104e-004 -3.137731e-001 7.983139e-001 6.880231e-005 -2.508631e-005 -3.148772e-001 8.017992e-001
321375000 -2.459718e-005 2.820204e-005 -2.910675e-001 8.118683e-001 -1.842491e-005 1.797928e-005 -2.918043e-001 8.160056e-001
321660000 -1.098084e-005 1.121719e-005 -2.673073e-001 8.256710e-001 1.098013e-004 9.573999e-006 -2.683063e-001 8.290085e-001
321945000 5.871188e-007 4.222905e-005 -2.431678e-001 8.387675e-001 -1.015598e-004 2.702560e-005 -2.437757e-001 8.425388e-001
322230000 -1.856725e-005 -5.436057e-005 -2.177075e-001 8.509402e-001 3.477768e-006 1.684642e-005 -2.188811e-001 8.543301e-001
322515000 1.513231e-004 2.798279e-005 -1.926454e-001 8.631915e-001 -5.223367e-005 4.268915e-005 -1.934744e-001 8.665233e-001
322800000 8.035838e-005 -4.934060e-005 -1.659064e-001 8.740160e-001 -3.213974e-005 7.926712e-005 -1.669045e-001 8.778239e-001
323085000 1.111529e-004 2.327346e-005 -1.388212e-001 8.843243e-001 1.222338e-005 3.580339e-005 -1.393555e-001 8.880552e-001
323370000 -4.095582e-005 4.383165e-005 -1.106018e-001 8.943080e-001 5.628810e-005 1.407468e-005 -1.110730e-001 8.977880e-001
323655000 -5.514167e-005 9.982008e-006 -8.185996e-002 9.030905e-001 -3.408886e-005 5.133700e-005 -8.264171e-002 9.071465e-001
323940000 -2.127130e-005 3.912948e-005 -5.263217e-002 9.117815e-001 4.662005e-005 -6.904057e-005 -5.270502e-002 9.146752e-001
324225000 6.533905e-006 1.102645e-004 -2.234781e-002 9.190380e-001 -5.960500e-005 -9.236085e-005 -2.234041e-002 9.217430e-001
324510000 -1.627572e-004 -2.051812e-005 8.225548e-003 9.244295e-001 -6.674054e-006 -1.362989e-004 8.876982e-003 9.283955e-001
324795000 3.581921e-005 5.664330e-005 4.057257e-002 9.298950e-001 -1.595386e-004 8.749351e-005 4.111116e-002 9.337608e-001
325080000 -2.241563e-005 -4.397951e-005 7.270139e-002 9.342235e-001 1.061771e-004 -7.058642e-005 7.324021e-002 9.377356e-001
325365000 6.461737e-006 -3.453865e-005 1.055502e-001 9.371026e-001 1.021662e-004 -5.462229e-005 1.061730e-001 9.405872e-001
325650000 6.049835e-005 -3.825098e-005 1.386395e-001 9.383841e-001 2.254602e-006 5.264304e-006 1.395581e-001 9.420375e-001
325935000 -8.846500e-005 -1.111964e-004 1.729636e-001 9.385821e-001 -9.274502e-005 4.809306e-005 1.734944e-001 9.426487e-001
326220000 1.462591e-004 -2.065355e-005 2.073128e-001 9.375546e-001 4.381529e-005 2.824261e-006 2.080653e-001 9.414408e-001
326505000 3.436999e-005 -3.433434e-005 2.420609e-001 9.353158e-001 -8.526566e-005 4.562917e-005 2.432532e-001 9.389994e-001
326790000 9.932621e-005 1.096596e-004 2.770076e-001 9.308721e-001 -9.074979e-005 -6.104176e-006 2.780637e-001 9.354753e-001
327075000 -6.524102e-006 4.276846e-005 3.126663e-001 9.257027e-001 -9.881958e-005 3.851136e-005 3.142860e-001 9.296464e-001
327360000 1.054087e-004 5.702464e-005 3.486082e-001 9.184570e-001 1.123610e-005 -6.997320e-005 3.497749e-001 9.226735e-001
327645000 -7.666403e-005 2.528459e-005 3.845982e-001 9.097437e-001 1.461885e-005 1.308855e-004 3.861384e-001 9.135862e-001
327930000 -2.217462e-005 5.226961e-005 4.199234e-001 8.997815e-001 -1.267165e-004 9.894741e-006 4.214925e-001 9.033590e-001
328215000 -5.743342e-006 3.795002e-005 4.559958e-001 8.873004e-001 -1.433794e-005 -1.651303e-005 4.574389e-001 8.912424e-001
328500000 -6.076825e-005 4.718248e-005 4.916026e-001 8.734912e-001 -9.169367e-006 -9.738481e-005 4.932675e-001 8.775013e-001
328785000 -7.590433e-005 3.832229e-005 5.264684e-001 8.581380e-001 -3.693586e-005 -2.745129e-005 5.291249e-001 8.622891e-001
329070000 -1.108047e-004 -4.447465e-005 5.610229e-001 8.403599e-001 2.333291e-005 -2.574183e-005 5.635629e-001 8.439792e-001
329355000 4.167945e-005 3.596188e-006 5.953484e-001 8.211318e-001 7.797362e-005 -6.469582e-005 5.980498e-001 8.251474e-001
329640000 4.687768e-005 -1.023200e-004 6.285422e-001 8.006830e-001 -1.073012e-004 6.099838e-005 6.312692e-001 8.041780e-001
329925000 -1.689248e-004 -2.938041e-005 6.616833e-001 7.783313e-001 2.907890e-005 3.152327e-005 6.645090e-001 7.813780e-001
330210000 2.710302e-005 -3.861927e-005 6.934726e-001 7.535722e-001 2.424289e-005 -9.751030e-005 6.965674e-001 7.568139e-001
330495000 -9.871441e-005 2.521995e-005 7.240352e-001 7.279083e-001 -1.736648e-005 -6.440732e-006 7.276576e-001 7.316786e-001
330780000 -6.302138e-005 -8.065698e-005 7.535293e-001 6.999823e-001 -1.191757e-004 -6.160559e-005 7.572944e-001 7.029737e-001
331065000 -2.182223e-005 2.487666e-005 7.821180e-001 6.714022e-001 5.351201e-005 -4.131472e-005 7.857423e-001 6.736948e-001
331350000 -2.444018e-005 -9.401920e-005 8.098955e-001 6.408879e-001 -8.329195e-005 -6.360078e-005 8.125386e-001 6.438765e-001
331635000 1.692102e-004 1.870090e-005 8.348609e-001 6.085248e-001 1.214709e-004 -7.008301e-005 8.384768e-001 6.118407e-001
331920000 3.591992e-006 1.101268e-005 8.586807e-001 5.757272e-001 -1.113370e-004 1.035225e-004 8.625522e-001 5.780016e-001
332205000 3.866979e-005 1.101338e-004 8.817596e-001 5.420131e-001 2.264607e-006 2.248028e-006 8.856352e-001 5.437329e-001
332490000 1.169236e-005 9.658714e-005 9.023260e-001 5.057800e-001 5.600121e-005 8.701568e-006 9.060366e-001 5.084914e-001
332775000 6.813221e-006 2.348895e-005 9.209630e-001 4.698647e-001 -2.565169e-005 -8.907942e-005 9.253220e-001 4.718493e-001
333060000 1.959360e-005 1.139032e-004 9.386728e-001 4.324291e-001 1.091438e-004 3.062455e-005 9.422430e-001 4.346904e-001
333345000 -1.056903e-004 -2.199103e-005 9.528053e-001 3.946369e-001 6.375783e-005 -1.478557e-005 9.572410e-001 3.967243e-001
333630000 1.751788e-005 1.933609e-006 9.665385e-001 3.565169e-001 6.576767e-005 4.055653e-005 9.706252e-001 3.581002e-001
333915000 -6.323433e-005 1.723511e-006 9.770551e-001 3.175687e-001 -8.731119e-006 3.677751e-005 9.826002e-001 3.185636e-001
334200000 -3.582341e-005 1.987729e-005 9.872671e-001 2.787865e-001 1.116617e-004 -7.877357e-007 9.914089e-001 2.795477e-001
334485000 1.203285e-005 1.193392e-005 9.947476e-001 2.395940e-001 1.114742e-005 -8.618772e-005 9.992536e-001 2.402066e-001
334770000 4.423752e-005 1.140693e-004 1.000361e+000 1.996363e-001 -1.440732e-005 6.848067e-006 1.005102e+000 2.006725e-001
335055000 -1.042516e-006 -4.115194e-006 1.004260e+000 1.609271e-001 4.098648e-005 1.858615e-005 1.008596e+000 1.613944e-001
335340000 1.708734e-005 7.307048e-005 1.005770e+000 1.215695e-001 2.472448e-005 -2.100808e-005 1.010221e+000 1.221073e-001
335625000 -1.001003e-004 -4.865553e-005 1.005293e+000 8.281020e-002 3.936782e-005 -1.071313e-004 1.010021e+000 8.365332e-002
335910000 -5.534987e-005 3.115415e-005 1.003362e+000 4.452956e-002 -7.758600e-005 -4.415841e-006 1.008346e+000 4.506624e-002
336195000 2.643028e-005 -2.514031e-005 1.000735e+000 6.737287e-003 -9.298053e-005 -3.117238e-005 1.004482e+000 6.674867e-003
336480000 2.339056e-005 6.788749e-005 9.955617e-001 -3.004456e-002 5.245151e-005 1.334144e-004 9.990969e-001 -3.023673e-002
336765000 1.170532e-005 8.586844e-005 9.883622e-001 -6.680395e-002 2.353301e-005 -5.346860e-005 9.926604e-001 -6.647561e-002
337050000 -1.149209e-005 -2.764436e-005 9.805064e-001 -1.023199e-001 7.363478e-005 4.999201e-005 9.849598e-001 -1.027125e-001
337335000 -1.289433e-004 -9.972593e-005 9.712885e-001 -1.369843e-001 9.361534e-006 -1.005501e-005 9.761570e-001 -1.377413e-001
337620000 -1.699030e-005 5.408627e-005 9.599580e-001 -1.715377e-001 7.479451e-005 4.884108e-005 9.645988e-001 -1.727265e-001
337905000 -1.217393e-004 -7.904771e-005 9.476417e-001 -2.038711e-001 -4.854679e-005 3.944784e-005 9.519655e-001 -2.049925e-001
338190000 -1.112759e-004 -7.436981e-005 9.349766e-001 -2.361733e-001 -1.329533e-005 -4.611271e-005 9.386558e-001 -2.374983e-001
338475000 -6.878639e-005 -6.208731e-005 9.204689e-001 -2.682530e-001 5.488708e-005 5.426018e-005 9.242778e-001 -2.688463e-001
338760000 1.196437e-004 -7.700920e-005 9.054007e-001 -2.975603e-001 -1.239342e-004 7.307566e-005 9.090531e-001 -2.994079e-001
339045000 -2.937451e-005 -4.240482e-005 8.890945e-001 -3.262787e-001 2.847930e-005 1.061758e-004 8.925374e-001 -3.279687e-001
339330000 7.271233e-005 -6.951958e-005 8.723316e-001 -3.547882e-001 -1.729307e-005 -3.113822e-005 8.759007e-001 -3.560098e-001
339615000 5.074686e-005 5.865332e-005 8.544841e-001 -3.818871e-001 -7.894796e-005 1.027677e-004 8.573058e-001 -3.834912e-001
339900000 5.102558e-005 5.522748e-005 8.355747e-001 -4.073608e-001 3.142698e-006 6.566066e-005 8.393138e-001 -4.094836e-001
340185000 1.020141e-004 1.752036e-005 8.158430e-001 -4.322446e-001 1.001686e-004 5.420272e-005 8.200139e-001 -4.345104e-001
340470000 2.889074e-005 3.721283e-005 7.962028e-001 -4.560379e-001 -4.133229e-005 2.336712e-006 7.997572e-001 -4.584554e-001
340755000 6.397076e-005 7.051169e-005 7.766821e-001 -4.789039e-001 -5.996653e-005 -2.975962e-005 7.797055e-001 -4.813252e-001
341040000 1.045640e-005 1.636321e-004 7.554556e-001 -5.008382e-001 -1.074046e-004 -6.379851e-005 7.590322e-001 -5.028293e-001
341325000 -5.865575e-005 -2.272057e-005 7.348534e-001 -5.211439e-001 9.208694e-006 8.217312e-005 7.371879e-001 -5.234432e-001
341610000 -2.544296e-005 1.925143e-005 7.130672e-001 -5.407943e-001 -3.974994e-005 -1.030313e-004 7.161427e-001 -5.429501e-001
341895000 -9.417961e-006 -1.250910e-005 6.921470e-001 -5.599738e-001 -1.103939e-005 5.288472e-005 6.944982e-001 -5.621963e-001
342180000 -1.928226e-006 -1.245109e-004 6.700711e-001 -5.765496e-001 6.513524e-005 -1.060950e-005 6.725903e-001 -5.796611e-001
342465000 -1.069225e-005 -1.039067e-004 6.476588e-001 -5.942947e-001 9.643786e-006 -2.175194e-006 6.502651e-001 -5.965348e-001
342750000 -8.794687e-006 -4.174377e-005 6.250786e-001 -6.099489e-001 2.604944e-005 5.106748e-005 6.281185e-001 -6.125874e-001
343035000 1.449888e-006 -1.102579e-005 6.036975e-001 -6.247671e-001 -2.195395e-005 -7.063293e-005 6.062632e-001 -6.276578e-001
343320000 7.621763e-005 -9.344724e-005 5.810401e-001 -6.395444e-001 3.752144e-006 5.793389e-006 5.837429e-001 -6.416921e-001
343605000 -8.276364e-005 6.411066e-006 5.579883e-001 -6.522397e-001 -5.358615e-005 1.469382e-005 5.611849e-001 -6.553137e-001
343890000 3.751752e-005 -6.972525e-005 5.360049e-001 -6.651838e-001 -7.229362e-005 7.707751e-005 5.376946e-001 -6.675692e-001
