!Agilent Technologies,N5230C,SG49000117,A.08.50.07
!Agilent N5230C: A.08.50.07
!Date: Sunday, March 17, 2024 02:35:49
!Correction: S11(Off) 
!S21(Off) 
!S12(Off) 
!S22(Off) 
!S2P File: Measurements: S11, S21, S12, S22:
# Hz S  RI   R 50
300000000 -1.225874e-005 4.731497e-006 -6.091446e-001 -6.680729e-001 4.783009e-005 -2.261237e-005 -6.107959e-001 -6.704065e-001
300285000 -9.741964e-005 -3.192369e-005 -6.254010e-001 -6.451869e-001 1.083658e-004 3.698925e-005 -6.271947e-001 -6.473335e-001
300570000 -3.489291e-005 -1.294036e-005 -6.397234e-001 -6.219586e-001 1.329421e-004 2.388521e-005 -6.427941e-001 -6.241101e-001
300855000 1.409585e-005 7.129421e-005 -6.540799e-001 -5.991555e-001 -2.459804e-005 4.681863e-005 -6.563671e-001 -6.009043e-001
301140000 2.265150e-005 -4.060253e-005 -6.682471e-001 -5.758183e-001 -1.830691e-006 2.022246e-005 -6.705865e-001 -5.774689e-001
301425000 3.457364e-005 4.497264e-005 -6.806686e-001 -5.519165e-001 2.100017e-005 4.319577e-005 -6.830968e-001 -5.539607e-001
301710000 2.569548e-005 3.029767e-005 -6.926199e-001 -5.280695e-001 -7.329362e-006 4.646878e-006 -6.949421e-001 -5.300067e-001
301995000 7.722922e-006 -7.650043e-006 -7.034600e-001 -5.045804e-001 -7.897237e-005 -6.387763e-005 -7.061318e-001 -5.063409e-001
302280000 -2.876653e-005 6.412111e-005 -7.131773e-001 -4.809174e-001 -1.440906e-006 -1.797215e-005 -7.162784e-001 -4.829796e-001
302565000 6.884791e-005 3.061032e-005 -7.228430e-001 -4.574700e-001 2.519869e-005 -3.055377e-005 -7.256135e-001 -4.595969e-001
302850000 -8.330177e-005 7.262875e-006 -7.319557e-001 -4.344411e-001 6.854608e-005 2.380176e-005 -7.340208e-001 -4.356501e-001
303135000 -7.624314e-005 1.018598e-006 -7.395570e-001 -4.110251e-001 1.010824e-004 -4.144908e-005 -7.423345e-001 -4.123174e-001
303420000 -1.364960e-005 2.226525e-005 -7.471436e-001 -3.878734e-001 4.041274e-005 2.763738e-005 -7.498931e-001 -3.888416e-001
303705000 1.378187e-005 -2.399715e-005 -7.534947e-001 -3.648805e-001 1.581012e-005 -3.090217e-005 -7.562946e-001 -3.662011e-001
303990000 -6.395276e-005 5.539753e-005 -7.596151e-001 -3.425372e-001 9.310652e-005 -1.419617e-005 -7.624219e-001 -3.430950e-001
304275000 -2.208011e-005 -7.467120e-005 -7.652932e-001 -3.189702e-001 -1.089939e-005 4.347143e-005 -7.683290e-001 -3.203669e-001
304560000 -2.927404e-005 4.337808e-005 -7.696561e-001 -2.958931e-001 8.846472e-005 4.339767e-005 -7.731640e-001 -2.975531e-001
304845000 -1.612385e-005 -6.726175e-005 -7.740934e-001 -2.740164e-001 1.662814e-005 9.115675e-005 -7.772610e-001 -2.750001e-001
305130000 -9.069231e-005 1.654248e-005 -7.777894e-001 -2.514471e-001 3.436623e-005 -1.713455e-006 -7.810885e-001 -2.525454e-001
305415000 6.126627e-005 -1.180873e-004 -7.812940e-001 -2.292390e-001 1.066748e-004 -9.621001e-006 -7.841905e-001 -2.299881e-001
305700000 6.535356e-005 -5.979641e-005 -7.840328e-001 -2.070105e-001 -7.816224e-005 1.164683e-004 -7.867470e-001 -2.082213e-001
305985000 -8.244317e-006 -5.448949e-005 -7.855811e-001 -1.846417e-001 -1.659802e-005 3.608711e-005 -7.888885e-001 -1.858373e-001
306270000 9.910914e-005 6.888773e-006 -7.879449e-001 -1.632759e-001 6.148602e-005 1.293398e-005 -7.907808e-001 -1.640394e-001
306555000 6.908689e-005 -2.554400e-005 -7.888276e-001 -1.416783e-001 9.697708e-006 -7.336369e-005 -7.917859e-001 -1.417306e-001
306840000 -1.526493e-005 5.199056e-005 -7.894728e-001 -1.198579e-001 -7.457394e-005 6.777957e-005 -7.924137e-001 -1.208668e-001
307125000 6.013280e-005 3.354809e-005 -7.895750e-001 -9.881704e-002 -4.152627e-005 5.689303e-005 -7.930061e-001 -9.899490e-002
307410000 -5.512640e-005 -2.555708e-005 -7.899006e-001 -7.721861e-002 1.549401e-005 -5.304660e-005 -7.930028e-001 -7.740913e-002
307695000 -5.135550e-005 -2.929566e-005 -7.888999e-001 -5.678857e-002 -4.114149e-005 -8.202731e-005 -7.919326e-001 -5.668621e-002
307980000 1.642476e-005 -6.756558e-005 -7.884544e-001 -3.543572e-002 -6.611920e-005 1.226318e-004 -7.911966e-001 -3.567835e-002
308265000 1.843117e-006 5.070109e-005 -7.866319e-001 -1.452096e-002 -7.763137e-006 -3.148195e-005 -7.901736e-001 -1.487455e-002
308550000 -9.582646e-005 -1.168556e-004 -7.847994e-001 5.919705e-003 8.055358e-005 -9.539345e-005 -7.886192e-001 5.926153e-003
308835000 1.261068e-004 -1.163706e-004 -7.827982e-001 2.609920e-002 -1.947650e-005 -9.253480e-005 -7.859678e-001 2.643921e-002
309120000 4.487588e-005 9.013500e-005 -7.800890e-001 4.644871e-002 1.804539e-005 -4.583022e-005 -7.835368e-001 4.665628e-002
309405000 -5.677299e-005 -1.019311e-005 -7.770912e-001 6.680137e-002 -1.498701e-005 2.745547e-005 -7.807701e-001 6.699430e-002
309690000 2.286112e-005 5.868231e-005 -7.742392e-001 8.720400e-002 1.051314e-004 -3.721580e-005 -7.777063e-001 8.715678e-002
309975000 -7.615943e-005 -8.470040e-005 -7.710280e-001 1.069145e-001 1.039394e-004 -3.133212e-005 -7.738078e-001 1.072346e-001
310260000 -8.065472e-006 -6.491641e-005 -7.671331e-001 1.264187e-001 1.050236e-004 2.066353e-005 -7.697368e-001 1.272680e-001
310545000 3.429595e-005 -4.500813e-005 -7.626426e-001 1.464563e-001 -9.647056e-006 6.991922e-005 -7.655231e-001 1.472762e-001
310830000 3.324667e-005 -7.150889e-005 -7.576919e-001 1.656687e-001 6.080661e-005 4.589621e-005 -7.607642e-001 1.670994e-001
311115000 2.589512e-005 -7.602668e-005 -7.528458e-001 1.854155e-001 4.721550e-005 8.137891e-005 -7.553529e-001 1.862606e-001
311400000 -5.057706e-005 7.868968e-005 -7.470691e-001 2.049489e-001 4.019988e-006 7.238721e-005 -7.504383e-001 2.061336e-001
311685000 3.260328e-005 -3.525391e-005 -7.415128e-001 2.242346e-001 -2.716359e-006 7.994567e-005 -7.445346e-001 2.252743e-001
311970000 -1.636262e-005 -2.838923e-005 -7.358239e-001 2.435682e-001 1.740223e-005 7.008809e-005 -7.387812e-001 2.446177e-001
312255000 6.164692e-005 5.821701e-005 -7.291188e-001 2.629105e-001 -9.544435e-006 -9.820491e-005 -7.322388e-001 2.635222e-001
312540000 -1.260854e-005 5.438098e-005 -7.223244e-001 2.819386e-001 -6.756710e-005 8.412058e-005 -7.251731e-001 2.831586e-001
312825000 -3.586072e-005 6.268989e-005 -7.149058e-001 3.006564e-001 -4.442323e-005 -1.373896e-005 -7.182225e-001 3.022739e-001
313110000 -1.043904e-005 7.296594e-005 -7.078158e-001 3.198513e-001 6.559469e-005 -1.371218e-005 -7.105912e-001 3.207333e-001
313395000 -2.858043e-005 -1.246009e-005 -6.995147e-001 3.382791e-001 1.440480e-006 -1.595965e-005 -7.023934e-001 3.399292e-001
313680000 -2.126348e-005 6.562638e-005 -6.915785e-001 3.568713e-001 1.219028e-005 2.864931e-005 -6.943219e-001 3.586557e-001
313965000 -5.383669e-005 2.877129e-005 -6.824940e-001 3.756761e-001 4.839405e-005 -2.794964e-005 -6.854465e-001 3.775373e-001
314250000 -3.778420e-005 1.103886e-004 -6.737872e-001 3.941356e-001 -8.103174e-005 2.994205e-005 -6.766668e-001 3.959436e-001
314535000 -2.127992e-005 1.516554e-004 -6.642231e-001 4.125731e-001 3.088782e-005 -4.009934e-005 -6.670659e-001 4.145902e-001
314820000 -6.812005e-005 -1.126551e-005 -6.546051e-001 4.309622e-001 -1.242144e-005 1.295585e-005 -6.571296e-001 4.329410e-001
315105000 -1.738936e-006 -6.606301e-006 -6.443814e-001 4.496487e-001 -7.050824e-005 -2.587005e-005 -6.463295e-001 4.516820e-001
315390000 -3.933646e-005 7.733056e-005 -6.332204e-001 4.674714e-001 8.598917e-005 -4.822321e-005 -6.359508e-001 4.696418e-001
315675000 -7.008666e-005 4.573436e-005 -6.222827e-001 4.857023e-001 9.176577e-006 -5.339094e-005 -6.248690e-001 4.876100e-001
315960000 -2.752986e-006 -6.430991e-005 -6.107067e-001 5.038024e-001 -9.973815e-005 9.074782e-006 -6.131705e-001 5.061476e-001
316245000 -8.859184e-006 -2.495008e-005 -5.982205e-001 5.215725e-001 1.399925e-005 -3.364274e-005 -6.005408e-001 5.241262e-001
316530000 -1.145542e-004 -3.135738e-005 -5.859026e-001 5.396504e-001 2.976857e-005 -2.614602e-005 -5.886421e-001 5.419165e-001
316815000 -2.220752e-005 -7.037293e-005 -5.729814e-001 5.575296e-001 -1.484258e-005 3.108909e-005 -5.753713e-001 5.601134e-001
317100000 4.082838e-005 -7.865256e-006 -5.589567e-001 5.749866e-001 -1.137134e-004 6.055388e-005 -5.615351e-001 5.766637e-001
317385000 -5.327987e-006 -7.512658e-005 -5.455518e-001 5.926256e-001 5.810092e-005 3.009667e-005 -5.475956e-001 5.950789e-001
317670000 2.496158e-005 -3.312369e-005 -5.308121e-001 6.100708e-001 -4.932835e-005 -4.359631e-006 -5.327251e-001 6.127664e-001
317955000 8.375203e-005 -9.080940e-005 -5.154058e-001 6.269311e-001 -1.389253e-005 7.118040e-006 -5.173568e-001 6.295996e-001
318240000 -1.093401e-006 6.929046e-005 -5.001411e-001 6.434827e-001 -5.833927e-005 -2.960447e-005 -5.022700e-001 6.462975e-001
318525000 1.949403e-005 -4.333949e-005 -4.834766e-001 6.605476e-001 2.587505e-005 -3.048921e-005 -4.856097e-001 6.635439e-001
318810000 -3.827536e-005 2.039803e-005 -4.668509e-001 6.776218e-001 -3.954474e-007 -1.979937e-005 -4.686060e-001 6.804185e-001
319095000 4.839831e-005 8.838639e-006 -4.496439e-001 6.938784e-001 -1.964100e-005 -4.997338e-006 -4.512550e-001 6.970523e-001
319380000 -2.218817e-007 1.552108e-005 -4.310640e-001 7.103146e-001 3.565823e-005 3.143326e-005 -4.325472e-001 7.134287e-001
319665000 -7.327228e-005 -4.523079e-006 -4.123357e-001 7.257523e-001 5.580867e-005 4.180615e-005 -4.143752e-001 7.289208e-001
319950000 -1.169361e-005 3.496763e-005 -3.930070e-001 7.418051e-001 4.854437e-005 5.869013e-005 -3.945210e-001 7.451720e-001
320235000 -2.257413e-005 -2.828680e-005 -3.725916e-001 7.572463e-001 5.902878e-005 -5.461046e-005 -3.743367e-001 7.601287e-001
320520000 1.371477e-005 1.434451e-005 -3.521687e-001 7.721933e-001 8.977816e-005 -8.237496e-006 -3.536831e-001 7.753866e-001
320805000 -2.030489e-005 1.942492e-005 -3.310590e-001 7.867261e-001 1.183748e-005 -6.711399e-005 -3.323560e-001 7.901798e-001
321090000 6.132983e-005 -6.930573e-006 -3.080764e-001 8.011959e-001 -4.207286e-008 9.018064e-006 -3.099201e-001 8.042881e-001
321375000 -5.624380e-005 1.633644e-005 -2.857787e-001 8.148670e-001 -5.158830e-005 -7.178121e-005 -2.869227e-001 8.186430e-001
321660000 2.283383e-005 -2.039034e-005 -2.616563e-001 8.284250e-001 -8.903807e-006 5.494831e-005 -2.629087e-001 8.317897e-001
321945000 -9.539411e-005 2.397435e-005 -2.376877e-001 8.406921e-001 -2.583708e-005 -6.005367e-005 -2.384128e-001 8.445976e-001
322230000 2.107817e-005 -7.988352e-005 -2.126032e-001 8.532801e-001 -5.464456e-005 2.183533e-006 -2.138796e-001 8.569374e-001
322515000 -1.260307e-005 4.673086e-005 -1.866634e-001 8.648307e-001 7.684102e-005 -5.402923e-005 -1.875932e-001 8.686620e-001
322800000 7.835906e-005 1.690701e-004 -1.601502e-001 8.756430e-001 4.442294e-005 -8.684654e-005 -1.606256e-001 8.795923e-001
323085000 6.643798e-005 -6.125083e-005 -1.321023e-001 8.870089e-001 -6.451266e-005 4.880812e-005 -1.335106e-001 8.897222e-001
323370000 3.852141e-005 6.200324e-005 -1.047339e-001 8.962353e-001 3.963276e-005 -2.560707e-005 -1.052055e-001 8.999383e-001
323655000 2.169199e-005 6.197079e-005 -7.581209e-002 9.046715e-001 -3.017555e-005 7.997776e-005 -7.606191e-002 9.083703e-001
323940000 -3.330430e-005 8.159583e-005 -4.650747e-002 9.130237e-001 7.824773e-005 -3.562667e-005 -4.631161e-002 9.167556e-001
324225000 -1.467666e-005 -2.103705e-005 -1.565749e-002 9.196709e-001 5.487830e-005 9.986554e-006 -1.565725e-002 9.231356e-001
324510000 1.079128e-006 1.006545e-004 1.542827e-002 9.258595e-001 -1.381304e-005 7.735161e-005 1.563409e-002 9.292094e-001
324795000 -2.053199e-005 1.160337e-004 4.739678e-002 9.302811e-001 8.446974e-005 1.121473e-005 4.728018e-002 9.345262e-001
325080000 -3.289587e-005 -1.195437e-005 7.906251e-002 9.341362e-001 -1.244064e-004 6.343418e-005 7.942193e-002 9.384219e-001
325365000 1.761826e-005 1.162286e-004 1.128316e-001 9.371038e-001 -5.490967e-005 -6.552064e-005 1.125511e-001 9.404066e-001
325650000 3.147040e-005 -2.719103e-005 1.452558e-001 9.383913e-001 6.797771e-005 -1.101557e-005 1.462327e-001 9.427868e-001
325935000 2.512181e-005 -2.717973e-006 1.805922e-001 9.380735e-001 -6.045483e-005 -2.096433e-005 1.807744e-001 9.420978e-001
326220000 9.241385e-005 -6.118935e-005 2.146242e-001 9.370590e-001 5.240107e-005 1.535096e-004 2.156933e-001 9.406818e-001
326505000 3.378047e-005 -5.128434e-005 2.492996e-001 9.339283e-001 -1.253820e-006 -4.026703e-005 2.503974e-001 9.381509e-001
326790000 -6.397109e-005 -3.883624e-005 2.848807e-001 9.297845e-001 4.054101e-005 -2.195204e-005 2.860250e-001 9.338912e-001
327075000 -3.986527e-005 6.420177e-005 3.202369e-001 9.242052e-001 -1.024585e-004 -9.064695e-005 3.218826e-001 9.276505e-001
327360000 -7.483745e-005 -8.574853e-005 3.560632e-001 9.163217e-001 -4.313376e-005 -6.423978e-005 3.576404e-001 9.204392e-001
327645000 5.179384e-005 3.927548e-005 3.917128e-001 9.073547e-001 5.355431e-005 1.994130e-005 3.934096e-001 9.115760e-001
327930000 -6.226909e-006 -7.240165e-005 4.270612e-001 8.967965e-001 1.255813e-004 -6.769895e-005 4.293733e-001 9.005325e-001
328215000 8.563078e-006 -5.188067e-005 4.629646e-001 8.844617e-001 -6.559934e-005 -3.596245e-005 4.652686e-001 8.885273e-001
328500000 2.419750e-005 -1.811905e-005 4.984585e-001 8.705962e-001 2.790913e-005 -6.609572e-005 5.008248e-001 8.737009e-001
328785000 -6.427766e-005 7.103696e-005 5.337265e-001 8.544820e-001 -1.138009e-005 2.294409e-005 5.357028e-001 8.582122e-001
329070000 -1.503529e-005 2.164442e-005 5.681266e-001 8.364760e-001 -2.199654e-004 -3.198136e-005 5.707483e-001 8.404763e-001
329355000 3.856352e-005 1.141031e-004 6.026573e-001 8.170714e-001 -7.554747e-005 -1.474447e-004 6.047581e-001 8.199131e-001
329640000 7.022553e-005 -8.931249e-006 6.357147e-001 7.965871e-001 6.156868e-005 -1.430347e-005 6.379216e-001 7.988603e-001
329925000 2.274620e-005 3.462541e-005 6.685379e-001 7.733454e-001 -4.130345e-005 -5.333372e-005 6.714918e-001 7.761048e-001
330210000 -5.712011e-005 2.469518e-005 6.998177e-001 7.489019e-001 2.455296e-005 4.415729e-005 7.032847e-001 7.515506e-001
330495000 -7.722699e-005 4.083552e-005 7.299912e-001 7.219253e-001 -2.283786e-005 -3.804166e-005 7.333791e-001 7.258759e-001
330780000 -1.435624e-005 -4.346334e-005 7.603533e-001 6.943591e-001 -3.228225e-006 -2.929629e-005 7.627491e-001 6.971849e-001
331065000 9.537196e-005 -9.788621e-008 7.876779e-001 6.655762e-001 2.128208e-005 -5.916304e-005 7.911382e-001 6.681487e-001
331350000 4.786251e-005 1.674353e-005 8.150356e-001 6.338763e-001 2.309621e-005 -4.897339e-005 8.184668e-001 6.364218e-001
331635000 -4.121560e-005 6.361001e-005 8.396850e-001 6.019935e-001 4.979559e-005 4.292754e-005 8.440946e-001 6.044315e-001
331920000 2.013919e-005 5.719582e-006 8.642015e-001 5.682307e-001 4.891734e-005 7.753470e-005 8.678669e-001 5.708603e-001
332205000 -3.570100e-005 -2.075107e-005 8.861212e-001 5.338934e-001 -3.063404e-005 5.653960e-005 8.901628e-001 5.359522e-001
332490000 -7.922149e-006 9.032531e-005 9.064356e-001 4.979218e-001 8.594764e-006 5.779745e-005 9.103820e-001 5.008441e-001
332775000 -9.257217e-005 6.043822e-005 9.247198e-001 4.620661e-001 -1.908218e-005 4.799710e-005 9.287113e-001 4.637693e-001
333060000 -2.803818e-006 1.763852e-007 9.411473e-001 4.246027e-001 3.669507e-005 -1.072628e-006 9.458216e-001 4.264039e-001
333345000 -1.182886e-005 -4.418731e-005 9.561859e-001 3.865067e-001 9.833650e-006 -3.985144e-006 9.608115e-001 3.885120e-001
333630000 -3.838033e-005 5.415305e-005 9.692374e-001 3.480134e-001 -8.726366e-005 4.428302e-005 9.729331e-001 3.497148e-001
333915000 -1.799925e-004 9.280123e-005 9.801105e-001 3.094397e-001 2.986790e-005 3.049478e-005 9.840989e-001 3.104374e-001
334200000 -6.007364e-005 1.977135e-005 9.883714e-001 2.700155e-001 1.169709e-005 3.556241e-005 9.934917e-001 2.711585e-001
334485000 -1.077096e-004 -9.592259e-005 9.967457e-001 2.308192e-001 3.333230e-005 7.880571e-005 1.000113e+000 2.314930e-001
334770000 -3.930773e-005 1.642841e-005 1.001266e+000 1.916472e-001 6.782837e-005 3.326258e-005 1.005788e+000 1.922391e-001
335055000 8.636299e-005 -6.754880e-006 1.004732e+000 1.518147e-001 3.405532e-005 7.497305e-005 1.008695e+000 1.531184e-001
335340000 -6.422084e-005 5.560861e-005 1.006068e+000 1.131513e-001 3.069253e-005 -6.146333e-005 1.010477e+000 1.136000e-001
335625000 -8.146591e-005 -1.765710e-005 1.005302e+000 7.461505e-002 -7.180409e-006 5.039240e-005 1.009738e+000 7.501731e-002
335910000 -1.529071e-006 -1.807254e-006 1.002888e+000 3.641936e-002 -8.371247e-006 1.391895e-004 1.007609e+000 3.708132e-002
336195000 2.559674e-005 -5.209759e-005 9.996428e-001 -1.397733e-003 -2.688554e-005 6.211280e-005 1.004641e+000 -1.144673e-003
336480000 9.540812e-007 4.755291e-005 9.941977e-001 -3.815153e-002 -9.958112e-005 4.526837e-005 9.986379e-001 -3.859242e-002
336765000 -6.342668e-005 -7.403429e-005 9.875180e-001 -7.443056e-002 -2.529812e-006 2.505672e-006 9.910610e-001 -7.473708e-002
337050000 3.196843e-005 -1.897379e-005 9.786838e-001 -1.098214e-001 -7.309597e-005 -7.210951e-005 9.829325e-001 -1.102601e-001
337335000 -1.844144e-005 9.787075e-005 9.684233e-001 -1.452849e-001 -1.934553e-005 -1.688632e-005 9.732238e-001 -1.455851e-001
337620000 2.402886e-005 1.295336e-005 9.578977e-001 -1.790258e-001 -5.623795e-005 -5.747223e-005 9.619857e-001 -1.795462e-001
337905000 5.541909e-005 -5.017121e-005 9.453745e-001 -2.109709e-001 -8.079893e-005 1.456536e-004 9.499797e-001 -2.124931e-001
338190000 5.394581e-005 -5.125684e-005 9.318072e-001 -2.431866e-001 -8.974403e-005 2.839283e-005 9.358294e-001 -2.443911e-001
338475000 3.229861e-005 -2.117196e-005 9.176790e-001 -2.744429e-001 1.038457e-004 5.908609e-005 9.216439e-001 -2.755610e-001
338760000 1.978641e-006 -2.464104e-005 9.020056e-001 -3.041627e-001 -9.570148e-005 3.675321e-005 9.056198e-001 -3.056207e-001
339045000 -6.393756e-005 3.459670e-005 8.852599e-001 -3.338291e-001 -1.605693e-005 -2.276181e-005 8.895342e-001 -3.343630e-001
339330000 -1.067050e-005 1.249276e-004 8.678253e-001 -3.609870e-001 6.607756e-005 -2.739859e-005 8.715379e-001 -3.623732e-001
339615000 9.789390e-006 -5.088914e-005 8.497851e-001 -3.874422e-001 -2.428825e-005 2.039679e-005 8.536624e-001 -3.895044e-001
339900000 3.474696e-005 -5.550215e-005 8.309591e-001 -4.130256e-001 -2.345623e-006 -9.054074e-005 8.345218e-001 -4.154894e-001
340185000 -1.769257e-006 4.701261e-005 8.118004e-001 -4.380447e-001 -1.127569e-004 -2.671157e-005 8.157622e-001 -4.400174e-001
340470000 -3.553719e-005 2.378686e-005 7.923724e-001 -4.617412e-001 6.095299e-005 2.075944e-005 7.957893e-001 -4.635508e-001
340755000 -2.326305e-005 2.950549e-005 7.713857e-001 -4.838085e-001 -5.775291e-006 3.948937e-005 7.751454e-001 -4.863634e-001
341040000 -1.278173e-004 -1.139121e-004 7.513534e-001 -5.053992e-001 6.143013e-005 6.864380e-005 7.541767e-001 -5.074286e-001
341325000 1.999355e-005 1.942714e-005 7.303713e-001 -5.260577e-001 9.863416e-005 9.745058e-005 7.330781e-001 -5.280387e-001
341610000 8.745769e-007 6.393589e-006 7.082392e-001 -5.451369e-001 -3.632068e-006 6.697135e-005 7.114881e-001 -5.475481e-001
341895000 1.040589e-004 9.689125e-006 6.869498e-001 -5.640064e-001 9.906173e-005 3.485343e-005 6.900761e-001 -5.661519e-001
342180000 3.159409e-006 -1.046021e-004 6.648113e-001 -5.811006e-001 -1.065725e-004 3.340270e-005 6.677569e-001 -5.844457e-001
342465000 2.369081e-005 1.138100e-004 6.425264e-001 -5.980426e-001 4.311168e-005 -6.912339e-005 6.455125e-001 -6.005477e-001
342750000 6.815089e-005 6.512412e-005 6.203359e-001 -6.138453e-001 1.892813e-006 1.327935e-005 6.231046e-001 -6.160773e-001
343035000 -6.564264e-006 3.153984e-005 5.979877e-001 -6.285439e-001 -4.129484e-005 2.214448e-005 6.006368e-001 -6.313016e-001
343320000 -2.371520e-005 -1.108585e-004 5.757131e-001 -6.433783e-001 -2.070294e-005 1.546162e-004 5.776574e-001 -6.450640e-001
343605000 -1.237741e-005 9.056845e-006 5.535545e-001 -6.557018e-001 3.893513e-005 -5.947043e-005 5.557000e-001 -6.579831e-001
343890000 8.039144e-007 -6.163315e-005 5.308225e-001 -6.677999e-001 5.209176e-005 -2.324465e-005 5.330355e-001 -6.710542e-001
