!Agilent Technologies,N5230C,SG49000117,A.08.50.07
!Agilent N5230C: A.08.50.07
!Date: Sunday, March 17, 2024 02:38:13
!Correction: S11(Off) 
!S21(Off) 
!S12(Off) 
!S22(Off) 
!S2P File: Measurements: S11, S21, S12, S22:
# Hz S  RI   R 50
300000000 -1.128529e-004 9.602382e-005 -6.199663e-001 -6.536173e-001 -5.640557e-005 -2.453129e-005 -6.224769e-001 -6.557173e-001
300285000 5.780414e-005 2.985897e-005 -6.353509e-001 -6.303254e-001 -6.347199e-005 5.433281e-005 -6.383663e-001 -6.330210e-001
300570000 -7.188997e-005 7.126664e-005 -6.503246e-001 -6.068906e-001 -1.253847e-004 4.592640e-005 -6.530292e-001 -6.094437e-001
300855000 -4.238517e-005 -2.433728e-005 -6.641672e-001 -5.834301e-001 -7.978969e-005 3.427529e-005 -6.664570e-001 -5.860713e-001
301140000 6.306442e-005 -8.170992e-006 -6.770893e-001 -5.599936e-001 -2.933127e-005 -2.614977e-005 -6.798304e-001 -5.620623e-001
301425000 -2.142083e-005 -4.489886e-005 -6.893978e-001 -5.364832e-001 -6.905492e-005 3.718869e-005 -6.920231e-001 -5.383384e-001
301710000 9.379411e-005 -1.423844e-005 -7.003192e-001 -5.125048e-001 6.284621e-006 4.412544e-005 -7.031193e-001 -5.144267e-001
301995000 6.525142e-005 -3.629756e-005 -7.110541e-001 -4.888960e-001 -1.992564e-005 5.494762e-005 -7.134101e-001 -4.907588e-001
302280000 3.913711e-005 -2.956213e-005 -7.208935e-001 -4.657297e-001 3.621212e-005 -5.899213e-005 -7.232524e-001 -4.674040e-001
302565000 7.733109e-005 -8.366317e-005 -7.298316e-001 -4.415140e-001 -4.704430e-005 -7.358385e-005 -7.324465e-001 -4.437726e-001
302850000 4.127870e-005 3.403926e-005 -7.379572e-001 -4.186146e-001 -3.400689e-005 -6.181820e-005 -7.404594e-001 -4.204989e-001
303135000 1.583513e-004 -1.103034e-004 -7.453427e-001 -3.956438e-001 3.481040e-005 7.780497e-005 -7.481065e-001 -3.968236e-001
303420000 -3.755231e-005 3.163040e-005 -7.518802e-001 -3.721025e-001 1.636834e-004 3.759183e-005 -7.553405e-001 -3.737018e-001
303705000 9.919607e-006 7.000214e-005 -7.583079e-001 -3.494707e-001 -9.144750e-005 -9.582730e-005 -7.613134e-001 -3.502615e-001
303990000 -1.210774e-005 3.235193e-006 -7.638120e-001 -3.263468e-001 7.807514e-005 -5.299937e-005 -7.669761e-001 -3.277415e-001
304275000 -7.635332e-005 4.658284e-005 -7.695059e-001 -3.036467e-001 -3.392417e-005 9.442767e-006 -7.718061e-001 -3.045814e-001
304560000 -1.137670e-004 4.311321e-005 -7.736097e-001 -2.809781e-001 1.441100e-004 -2.626322e-005 -7.762967e-001 -2.822046e-001
304845000 -9.184820e-006 -1.257216e-004 -7.774167e-001 -2.585790e-001 -6.549037e-005 5.992110e-005 -7.810625e-001 -2.594275e-001
305130000 2.417036e-005 -3.241982e-005 -7.807518e-001 -2.362078e-001 -3.734658e-005 1.061369e-004 -7.833443e-001 -2.372101e-001
305415000 -5.750923e-005 -6.765730e-005 -7.834014e-001 -2.140879e-001 4.684623e-005 1.245057e-005 -7.867409e-001 -2.143974e-001
305700000 -4.361747e-005 -6.865602e-005 -7.857268e-001 -1.920569e-001 5.903513e-005 1.716783e-005 -7.887229e-001 -1.925060e-001
305985000 -1.598984e-006 1.937909e-005 -7.876644e-001 -1.698234e-001 2.279265e-005 7.405001e-005 -7.907156e-001 -1.703317e-001
306270000 -2.443623e-006 -3.005812e-005 -7.887034e-001 -1.480352e-001 -9.507515e-008 7.592336e-005 -7.918692e-001 -1.488950e-001
306555000 5.018686e-005 8.175060e-005 -7.900125e-001 -1.268002e-001 -2.605129e-005 1.415513e-004 -7.926409e-001 -1.272092e-001
306840000 2.031892e-005 9.676877e-005 -7.901945e-001 -1.052692e-001 5.422004e-005 -7.364670e-005 -7.932184e-001 -1.053872e-001
307125000 -1.092175e-004 1.381721e-004 -7.902970e-001 -8.399548e-002 1.390299e-004 7.382953e-005 -7.930201e-001 -8.375694e-002
307410000 1.018029e-004 4.980630e-005 -7.895773e-001 -6.307192e-002 6.486980e-005 5.754370e-005 -7.930216e-001 -6.242396e-002
307695000 6.958339e-005 3.157382e-005 -7.888377e-001 -4.175944e-002 -7.513537e-005 6.432638e-005 -7.919892e-001 -4.132727e-002
307980000 -1.895492e-005 1.010165e-004 -7.875735e-001 -2.057466e-002 -1.785225e-005 8.090900e-005 -7.902374e-001 -2.120882e-002
308265000 1.489320e-005 -5.046201e-006 -7.858919e-001 -2.264546e-004 -1.672732e-005 2.481455e-006 -7.887423e-001 -3.925254e-004
308550000 5.169057e-005 5.364445e-005 -7.834084e-001 2.029598e-002 9.844381e-006 -1.039155e-004 -7.870383e-001 2.070629e-002
308835000 3.543437e-007 4.706852e-005 -7.815104e-001 4.097079e-002 1.155360e-005 -7.131621e-006 -7.842245e-001 4.073063e-002
309120000 -1.831930e-005 2.181527e-005 -7.789002e-001 6.124414e-002 5.287045e-005 -8.537665e-006 -7.817081e-001 6.143331e-002
309405000 -7.975998e-006 3.811944e-006 -7.751567e-001 8.129971e-002 -7.197787e-005 -8.001881e-005 -7.787683e-001 8.128513e-002
309690000 -9.381549e-006 1.007601e-005 -7.720253e-001 1.011990e-001 -1.185756e-004 1.166040e-005 -7.751521e-001 1.017935e-001
309975000 -6.339695e-005 6.921781e-005 -7.676489e-001 1.207580e-001 9.244669e-005 -2.155168e-005 -7.709200e-001 1.218130e-001
310260000 -1.098194e-004 4.808112e-005 -7.633619e-001 1.413210e-001 1.136207e-004 4.502277e-005 -7.664064e-001 1.413770e-001
310545000 -1.784130e-005 -1.051560e-004 -7.595410e-001 1.609418e-001 9.318553e-006 1.857921e-005 -7.619695e-001 1.613525e-001
310830000 -1.277298e-005 -4.398423e-005 -7.539710e-001 1.804484e-001 -2.893407e-005 3.079567e-005 -7.569926e-001 1.807231e-001
311115000 -2.424306e-005 -8.603224e-006 -7.491031e-001 1.997287e-001 -1.660943e-005 7.891953e-005 -7.518627e-001 2.006372e-001
311400000 -6.265890e-005 -2.385408e-005 -7.430785e-001 2.188913e-001 -2.581681e-005 4.248226e-005 -7.464030e-001 2.198942e-001
311685000 5.625091e-006 -1.597540e-004 -7.372050e-001 2.382512e-001 -8.842222e-005 -9.911910e-007 -7.401452e-001 2.396017e-001
311970000 -3.140264e-005 -8.132427e-005 -7.308189e-001 2.573697e-001 -1.127522e-004 9.551171e-006 -7.338570e-001 2.585056e-001
312255000 2.718413e-005 -1.135003e-004 -7.242659e-001 2.765349e-001 -4.791018e-005 -4.377264e-005 -7.269712e-001 2.772123e-001
312540000 1.571040e-005 -9.010213e-005 -7.170271e-001 2.951077e-001 -6.663657e-005 3.094571e-005 -7.203522e-001 2.969594e-001
312825000 1.153666e-004 -8.921880e-006 -7.091031e-001 3.141061e-001 -2.527760e-005 8.073990e-005 -7.124295e-001 3.155473e-001
313110000 6.147716e-006 3.241633e-005 -7.018009e-001 3.329451e-001 -4.622334e-005 -9.225535e-005 -7.048638e-001 3.346342e-001
313395000 1.994515e-005 -9.398322e-006 -6.937639e-001 3.522786e-001 3.127036e-005 5.451870e-005 -6.965531e-001 3.533298e-001
313680000 5.772542e-005 3.856827e-006 -6.847525e-001 3.706179e-001 -7.141098e-005 -8.199545e-006 -6.878455e-001 3.723417e-001
313965000 3.214902e-006 -1.172217e-004 -6.763048e-001 3.896443e-001 -9.925873e-006 6.089494e-005 -6.787464e-001 3.905182e-001
314250000 4.484177e-005 -1.004443e-004 -6.668070e-001 4.074125e-001 3.220441e-005 -5.766780e-005 -6.689550e-001 4.091448e-001
314535000 1.134107e-005 -9.718801e-006 -6.567802e-001 4.251853e-001 3.188158e-005 3.644910e-005 -6.598135e-001 4.277442e-001
314820000 5.255524e-006 3.198801e-005 -6.464754e-001 4.445478e-001 1.365976e-004 1.257800e-005 -6.496377e-001 4.460977e-001
315105000 -1.034770e-004 4.659960e-005 -6.359633e-001 4.627706e-001 3.986924e-005 -4.904189e-005 -6.384152e-001 4.642338e-001
315390000 -4.732943e-005 -8.709069e-005 -6.248642e-001 4.803108e-001 8.857233e-006 4.116908e-005 -6.279047e-001 4.826609e-001
315675000 9.457947e-005 -5.185158e-005 -6.131828e-001 4.988443e-001 3.065260e-005 -1.146559e-004 -6.159988e-001 5.005170e-001
315960000 -3.343392e-005 3.074669e-005 -6.010119e-001 5.164847e-001 1.076355e-004 -1.333902e-005 -6.039117e-001 5.192138e-001
316245000 -3.392748e-006 4.606658e-005 -5.892836e-001 5.343199e-001 -7.808254e-005 -1.314708e-004 -5.915743e-001 5.365752e-001
316530000 -8.999005e-005 -5.663199e-005 -5.759262e-001 5.523534e-001 3.354928e-005 4.580513e-005 -5.784994e-001 5.542834e-001
316815000 -2.599806e-005 -4.038128e-006 -5.626915e-001 5.698875e-001 1.158960e-004 6.829089e-005 -5.645813e-001 5.718020e-001
317100000 -5.321295e-006 -6.337123e-005 -5.489212e-001 5.872068e-001 5.765837e-006 -2.581708e-005 -5.507992e-001 5.898292e-001
317385000 4.393608e-005 -3.356612e-005 -5.341431e-001 6.047258e-001 4.308529e-005 7.925776e-005 -5.362922e-001 6.069308e-001
317670000 -1.386147e-005 -2.546155e-005 -5.196357e-001 6.220117e-001 -4.795167e-005 3.470831e-005 -5.213608e-001 6.245974e-001
317955000 8.782447e-006 1.003379e-004 -5.041569e-001 6.390586e-001 -1.208293e-005 3.671373e-005 -5.057840e-001 6.417897e-001
318240000 6.462199e-005 -7.949887e-005 -4.876626e-001 6.560755e-001 -4.246524e-005 -3.405416e-005 -4.900966e-001 6.580693e-001
318525000 -4.647504e-005 -3.601602e-005 -4.710438e-001 6.724878e-001 -1.458676e-005 4.149378e-005 -4.731474e-001 6.749858e-001
318810000 1.015240e-004 -1.590317e-006 -4.536851e-001 6.890799e-001 -6.707407e-005 6.391551e-005 -4.554130e-001 6.918048e-001
319095000 5.231505e-005 -2.989548e-005 -4.358805e-001 7.050530e-001 -9.704652e-005 -9.327100e-005 -4.374482e-001 7.077067e-001
319380000 1.393533e-005 -5.521606e-005 -4.170439e-001 7.208799e-001 2.125397e-005 2.124043e-005 -4.189112e-001 7.242941e-001
319665000 -6.517901e-005 5.783985e-005 -3.981284e-001 7.371920e-001 1.010514e-005 -4.129151e-005 -3.992400e-001 7.398875e-001
319950000 -1.544807e-005 6.249436e-005 -3.782154e-001 7.519510e-001 1.224461e-004 -7.180950e-005 -3.795356e-001 7.550905e-001
320235000 -8.829738e-005 -7.500088e-006 -3.575707e-001 7.672066e-001 -7.495403e-006 1.239125e-005 -3.590731e-001 7.702756e-001
320520000 -8.363638e-005 -1.754134e-006 -3.361845e-001 7.818722e-001 -3.102143e-005 8.805419e-005 -3.376494e-001 7.853130e-001
320805000 1.877118e-005 3.632455e-006 -3.142254e-001 7.962095e-001 1.119812e-004 1.019447e-004 -3.159915e-001 7.996590e-001
321090000 1.999422e-005 2.365643e-006 -2.919333e-001 8.096868e-001 6.923212e-006 1.027750e-004 -2.933919e-001 8.136399e-001
321375000 1.048627e-005 -1.093876e-006 -2.683035e-001 8.234922e-001 -3.540538e-005 -1.020617e-004 -2.696936e-001 8.273341e-001
321660000 -1.522761e-004 -2.435121e-005 -2.442082e-001 8.368748e-001 -3.147779e-005 -1.587935e-005 -2.453218e-001 8.398318e-001
321945000 -1.139143e-004 -7.599264e-006 -2.198499e-001 8.494397e-001 5.359791e-005 4.877227e-005 -2.197562e-001 8.525920e-001
322230000 -4.000320e-005 -1.320479e-005 -1.936166e-001 8.603200e-001 -6.884312e-005 -4.543222e-005 -1.943607e-001 8.643829e-001
322515000 -4.736637e-005 -8.616252e-005 -1.678864e-001 8.719459e-001 -9.828500e-005 -5.028514e-006 -1.674851e-001 8.756306e-001
322800000 -3.659078e-005 3.427974e-006 -1.404546e-001 8.825238e-001 -1.149751e-004 -6.711658e-005 -1.408544e-001 8.864367e-001
323085000 4.983857e-005 1.226533e-005 -1.122925e-001 8.922770e-001 1.512461e-006 -1.336854e-004 -1.130219e-001 8.960831e-001
323370000 1.412282e-004 -9.240648e-006 -8.374351e-002 9.016705e-001 -7.294977e-005 1.972919e-005 -8.404280e-002 9.051295e-001
323655000 -4.617120e-005 -1.046086e-004 -5.416379e-002 9.096321e-001 1.148991e-005 -1.123412e-005 -5.416577e-002 9.133064e-001
323940000 -8.444689e-006 4.937360e-005 -2.481743e-002 9.166634e-001 1.690675e-005 -6.236144e-005 -2.478418e-002 9.201410e-001
324225000 7.079458e-005 -3.263872e-005 6.043204e-003 9.224494e-001 9.516168e-005 -4.419732e-005 6.703811e-003 9.266745e-001
324510000 1.353493e-006 1.512301e-005 3.770687e-002 9.279119e-001 1.061059e-004 -3.912547e-005 3.832711e-002 9.315859e-001
324795000 6.119657e-005 8.568653e-005 7.005881e-002 9.321635e-001 3.990473e-005 -2.500057e-006 7.000663e-002 9.358019e-001
325080000 4.305313e-005 2.301253e-005 1.020445e-001 9.348198e-001 4.717162e-005 -1.937688e-005 1.031189e-001 9.391522e-001
325365000 -2.444419e-005 1.683864e-005 1.359665e-001 9.371792e-001 -4.316623e-005 -2.350663e-005 1.369293e-001 9.401405e-001
325650000 -9.453942e-006 1.449336e-005 1.700044e-001 9.370360e-001 -4.621349e-005 2.444995e-005 1.705316e-001 9.409786e-001
325935000 -3.054934e-005 1.006046e-004 2.044424e-001 9.358574e-001 -1.559352e-005 5.166678e-005 2.054989e-001 9.403347e-001
326220000 6.209562e-005 -2.752222e-005 2.389202e-001 9.340500e-001 -3.384365e-005 5.068096e-005 2.400116e-001 9.380872e-001
326505000 -5.556272e-005 -1.239141e-004 2.739718e-001 9.299100e-001 3.769727e-006 -6.817151e-005 2.754383e-001 9.340371e-001
326790000 3.019762e-005 -4.542076e-005 3.095984e-001 9.248297e-001 -8.690304e-005 -2.969481e-005 3.102905e-001 9.286230e-001
327075000 6.031668e-005 -3.201719e-005 3.447444e-001 9.178013e-001 -6.979774e-005 -6.877065e-005 3.468004e-001 9.215272e-001
327360000 1.248029e-005 2.230275e-005 3.806604e-001 9.094105e-001 3.206797e-006 -1.974281e-005 3.821550e-001 9.126499e-001
327645000 -1.007233e-004 -2.166585e-005 4.162125e-001 8.994586e-001 1.615965e-004 -3.259118e-005 4.181208e-001 9.031563e-001
327930000 -8.797609e-006 1.410126e-004 4.520026e-001 8.874801e-001 -7.685769e-005 2.705034e-005 4.540114e-001 8.910243e-001
328215000 9.782462e-005 7.052439e-005 4.875761e-001 8.742203e-001 1.450907e-005 -1.237194e-005 4.892980e-001 8.773701e-001
328500000 -7.104773e-005 7.346828e-005 5.229855e-001 8.581098e-001 -1.339785e-004 -7.231328e-005 5.252793e-001 8.620868e-001
328785000 2.451361e-005 -7.532608e-005 5.574423e-001 8.417349e-001 -6.153458e-005 -2.158134e-005 5.595580e-001 8.452868e-001
329070000 -5.246722e-005 5.266978e-005 5.915232e-001 8.226130e-001 -5.473675e-005 3.003783e-005 5.944788e-001 8.255922e-001
329355000 -3.375229e-005 1.794440e-005 6.263421e-001 8.013065e-001 -5.337631e-005 6.710612e-005 6.281338e-001 8.049480e-001
329640000 2.771212e-005 -6.037586e-005 6.575453e-001 7.796788e-001 8.506223e-007 -5.069980e-005 6.614504e-001 7.822036e-001
329925000 4.352311e-005 -1.001462e-004 6.901643e-001 7.546887e-001 9.221330e-006 1.701171e-004 6.934606e-001 7.579915e-001
330210000 -5.979139e-005 2.875837e-005 7.211124e-001 7.294840e-001 2.130287e-005 8.544979e-005 7.241302e-001 7.326789e-001
330495000 -1.417441e-005 -4.325891e-005 7.505129e-001 7.024187e-001 -3.405127e-005 -1.469601e-005 7.539656e-001 7.052168e-001
330780000 1.382788e-007 -3.102620e-005 7.790639e-001 6.734270e-001 -2.170742e-005 -1.517721e-005 7.827428e-001 6.763732e-001
331065000 8.124704e-006 -7.966969e-005 8.070503e-001 6.432818e-001 8.257275e-005 -7.019136e-005 8.102779e-001 6.460592e-001
331350000 -7.493784e-005 3.115465e-005 8.321619e-001 6.107892e-001 1.101032e-004 6.165111e-006 8.358709e-001 6.133082e-001
331635000 -4.434488e-005 1.595402e-005 8.563232e-001 5.781808e-001 1.072593e-004 -5.090527e-005 8.605469e-001 5.807933e-001
331920000 -7.611904e-005 1.339270e-006 8.789737e-001 5.442041e-001 -9.060578e-005 5.260727e-005 8.831668e-001 5.465152e-001
332205000 -3.296460e-005 8.825329e-005 9.000060e-001 5.090844e-001 7.817987e-005 -1.013501e-004 9.044417e-001 5.113692e-001
332490000 2.224253e-005 1.885824e-005 9.190139e-001 4.726591e-001 2.705169e-005 4.405181e-005 9.232253e-001 4.745311e-001
332775000 3.562415e-005 1.048029e-005 9.366856e-001 4.361546e-001 -3.774124e-005 -1.084816e-005 9.400802e-001 4.373921e-001
333060000 -4.527110e-005 4.342394e-005 9.516768e-001 3.981136e-001 6.028546e-005 6.055919e-005 9.560289e-001 3.995605e-001
333345000 -3.779861e-007 -7.397275e-005 9.650748e-001 3.597029e-001 -2.113084e-005 4.800328e-006 9.696652e-001 3.610011e-001
333630000 -7.105830e-005 5.224420e-005 9.774428e-001 3.204059e-001 1.077234e-005 5.465519e-005 9.808887e-001 3.214116e-001
333915000 2.611771e-005 7.527258e-005 9.865601e-001 2.817623e-001 -1.110955e-004 4.697932e-005 9.909883e-001 2.821847e-001
334200000 -3.005382e-005 6.336053e-005 9.942623e-001 2.424043e-001 2.304175e-005 1.308318e-006 9.985183e-001 2.425134e-001
334485000 4.918010e-007 2.911477e-005 1.000717e+000 2.023803e-001 -5.169331e-005 1.531010e-005 1.004715e+000 2.037283e-001
334770000 3.184458e-005 1.169435e-004 1.003849e+000 1.635177e-001 -4.188590e-005 4.812963e-005 1.008924e+000 1.639483e-001
335055000 1.676348e-005 2.339565e-005 1.005183e+000 1.247436e-001 -2.860614e-005 6.372794e-005 1.010930e+000 1.250241e-001
335340000 9.677134e-005 -3.133323e-005 1.006464e+000 8.461130e-002 -9.288729e-005 2.306639e-005 1.010818e+000 8.581857e-002
335625000 -3.518255e-005 2.736518e-005 1.004903e+000 4.683441e-002 3.560033e-005 -6.892953e-005 1.008538e+000 4.733817e-002
335910000 5.772229e-005 -1.141409e-005 1.001259e+000 9.161902e-003 -3.822429e-005 7.587466e-005 1.005752e+000 8.989931e-003
336195000 3.854697e-005 7.348336e-007 9.964861e-001 -2.853426e-002 -9.674234e-005 8.204204e-006 1.000959e+000 -2.800064e-002
336480000 -7.446348e-006 -2.005407e-005 9.900179e-001 -6.438297e-002 2.834816e-005 1.425535e-005 9.938312e-001 -6.481810e-002
336765000 -2.508326e-005 -7.251979e-005 9.819210e-001 -1.002912e-001 -2.650030e-006 -6.345356e-005 9.862979e-001 -1.013646e-001
337050000 -6.509837e-005 -4.382454e-005 9.721338e-001 -1.359521e-001 2.518704e-005 5.126280e-005 9.764802e-001 -1.360442e-001
337335000 -3.151852e-005 -4.811664e-005 9.613044e-001 -1.696536e-001 3.637095e-005 5.417356e-005 9.654890e-001 -1.709663e-001
337620000 6.725578e-005 -1.049920e-004 9.490721e-001 -2.029830e-001 -1.603518e-005 1.601363e-005 9.534957e-001 -2.037561e-001
337905000 2.144270e-005 -6.332005e-005 9.356630e-001 -2.352925e-001 -1.965285e-006 -5.242929e-005 9.407460e-001 -2.353344e-001
338190000 -3.838905e-005 -5.276464e-005 9.217165e-001 -2.663957e-001 -5.226032e-005 3.663062e-005 9.255676e-001 -2.677906e-001
338475000 -2.345363e-005 -5.350971e-005 9.065608e-001 -2.974196e-001 3.009842e-005 2.937390e-005 9.106795e-001 -2.979107e-001
338760000 3.749259e-005 1.929742e-005 8.904742e-001 -3.260849e-001 2.744073e-005 4.370624e-005 8.935971e-001 -3.277345e-001
339045000 5.746835e-005 -8.187164e-005 8.735226e-001 -3.541167e-001 1.690887e-005 6.821928e-005 8.766681e-001 -3.561456e-001
339330000 2.785789e-005 -8.626971e-005 8.558609e-001 -3.809523e-001 2.983617e-005 3.660439e-005 8.590897e-001 -3.827697e-001
339615000 4.899227e-006 1.311400e-005 8.366928e-001 -4.074432e-001 9.972844e-005 5.783874e-005 8.401991e-001 -4.091104e-001
339900000 -6.839695e-005 6.473577e-005 8.172691e-001 -4.320903e-001 -7.472403e-005 7.473494e-005 8.212219e-001 -4.343289e-001
340185000 -1.769518e-005 4.647317e-005 7.977183e-001 -4.564373e-001 6.363658e-005 3.905932e-006 8.011736e-001 -4.579268e-001
340470000 -2.231021e-005 4.928862e-005 7.774314e-001 -4.796457e-001 -2.115316e-005 -8.183428e-005 7.811374e-001 -4.808095e-001
340755000 -5.087507e-005 -2.949771e-005 7.566962e-001 -5.004944e-001 7.723091e-005 -9.469535e-005 7.598686e-001 -5.031471e-001
341040000 3.988425e-005 -1.043851e-004 7.360405e-001 -5.214997e-001 7.230563e-005 -2.401240e-005 7.387314e-001 -5.241461e-001
341325000 2.900346e-005 4.912338e-005 7.145640e-001 -5.415313e-001 8.318672e-005 4.535435e-005 7.169378e-001 -5.432077e-001
341610000 -7.348599e-005 -2.916236e-006 6.925347e-001 -5.596882e-001 3.525429e-005 -3.721518e-005 6.953328e-001 -5.629628e-001
341895000 7.479994e-005 -2.043917e-006 6.700595e-001 -5.777633e-001 -1.074405e-005 -2.146912e-005 6.730198e-001 -5.797355e-001
342180000 -4.922882e-005 1.500842e-005 6.483058e-001 -5.943363e-001 5.265643e-005 3.281276e-005 6.507890e-001 -5.969422e-001
342465000 3.340948e-005 -3.782737e-005 6.260695e-001 -6.102602e-001 -6.856443e-005 2.725768e-005 6.286568e-001 -6.124629e-001
342750000 -6.610348e-006 2.053889e-005 6.035396e-001 -6.253465e-001 5.487721e-005 1.466895e-005 6.065411e-001 -6.280794e-001
343035000 -7.739431e-006 3.023450e-005 5.806848e-001 -6.396614e-001 -3.940898e-005 5.093689e-005 5.835032e-001 -6.424806e-001
343320000 8.796484e-005 3.660902e-005 5.588908e-001 -6.534728e-001 -2.097086e-005 1.747732e-005 5.606676e-001 -6.560605e-001
343605000 1.029898e-004 -1.102855e-005 5.358509e-001 -6.660753e-001 -2.415807e-005 6.325627e-005 5.379300e-001 -6.682349e-001
343890000 3.245148e-005 -2.632426e-006 5.133790e-001 -6.772953e-001 -1.165124e-005 6.441208e-005 5.157447e-001 -6.798432e-001
