!Agilent Technologies,N5230C,SG49000117,A.08.50.07
!Agilent N5230C: A.08.50.07
!Date: Sunday, March 17, 2024 02:43:11
!Correction: S11(Off) 
!S21(Off) 
!S12(Off) 
!S22(Off) 
!S2P File: Measurements: S11, S21, S12, S22:
# Hz S  RI   R 50
300000000 -2.481966e-005 -1.433745e-004 -6.475322e-001 -6.145253e-001 4.388497e-005 -1.151144e-004 -6.498816e-001 -6.163927e-001
300285000 -1.049811e-005 -1.669526e-005 -6.615880e-001 -5.906054e-001 2.437723e-005 -4.873329e-005 -6.643500e-001 -5.932934e-001
300570000 -1.135869e-005 -3.370181e-006 -6.753558e-001 -5.671921e-001 -3.429454e-005 -3.810411e-005 -6.773972e-001 -5.694352e-001
300855000 4.666755e-005 -1.984849e-005 -6.870019e-001 -5.431656e-001 -3.439821e-005 7.327330e-005 -6.902114e-001 -5.458137e-001
301140000 4.859372e-005 6.116020e-005 -6.989801e-001 -5.195586e-001 -1.426451e-004 -3.200644e-005 -7.015879e-001 -5.214849e-001
301425000 -3.148089e-005 3.247686e-005 -7.098187e-001 -4.959384e-001 1.029873e-004 6.454291e-005 -7.124364e-001 -4.978678e-001
301710000 -5.672123e-005 3.646478e-005 -7.199154e-001 -4.720684e-001 -3.032431e-005 -4.332519e-005 -7.221365e-001 -4.741248e-001
301995000 -1.003080e-004 3.924080e-005 -7.284182e-001 -4.486386e-001 -2.323718e-005 2.318646e-005 -7.316390e-001 -4.500380e-001
302280000 3.364791e-005 -1.097070e-004 -7.372453e-001 -4.248934e-001 -1.221209e-004 -1.125295e-005 -7.400166e-001 -4.266869e-001
302565000 -3.376568e-005 9.836727e-005 -7.447698e-001 -4.014166e-001 -5.808929e-005 -5.003338e-005 -7.475656e-001 -4.027592e-001
302850000 5.172354e-005 -2.960290e-005 -7.518786e-001 -3.779400e-001 -8.632387e-006 5.888081e-005 -7.549416e-001 -3.793420e-001
303135000 -8.499569e-005 -4.107063e-005 -7.584479e-001 -3.552344e-001 2.519455e-007 -6.108177e-005 -7.613090e-001 -3.558455e-001
303420000 -1.216816e-005 -2.447459e-006 -7.643542e-001 -3.314789e-001 -2.121363e-005 -8.174063e-005 -7.673870e-001 -3.334244e-001
303705000 -4.454570e-005 -4.258630e-005 -7.690542e-001 -3.089230e-001 1.462055e-004 7.802076e-005 -7.720198e-001 -3.096122e-001
303990000 -1.397077e-004 1.726637e-005 -7.742216e-001 -2.861477e-001 -9.122529e-005 2.412247e-005 -7.767071e-001 -2.870901e-001
304275000 9.668028e-005 2.937129e-005 -7.780775e-001 -2.634706e-001 -6.032123e-005 1.814415e-005 -7.806907e-001 -2.643399e-001
304560000 4.372959e-005 -3.852568e-006 -7.810289e-001 -2.406554e-001 -4.678329e-005 -3.400759e-005 -7.838882e-001 -2.416654e-001
304845000 -2.714584e-005 -5.350727e-005 -7.842135e-001 -2.188734e-001 -7.414276e-005 -8.788376e-006 -7.873534e-001 -2.197822e-001
305130000 -6.052828e-005 -6.938548e-005 -7.864779e-001 -1.965171e-001 6.516079e-005 -8.746744e-005 -7.897592e-001 -1.972219e-001
305415000 3.585134e-005 3.687042e-005 -7.880141e-001 -1.740732e-001 -8.893533e-005 3.099893e-005 -7.911808e-001 -1.752387e-001
305700000 1.518734e-005 1.591029e-005 -7.895086e-001 -1.523542e-001 -4.995109e-005 1.174535e-004 -7.921612e-001 -1.532316e-001
305985000 3.636913e-005 -5.397503e-005 -7.909765e-001 -1.307464e-001 -3.263933e-005 1.235224e-004 -7.934428e-001 -1.309356e-001
306270000 3.324996e-005 -4.024579e-005 -7.904628e-001 -1.092207e-001 5.943452e-005 -5.719316e-005 -7.940425e-001 -1.093055e-001
306555000 5.713984e-005 -4.549730e-005 -7.912056e-001 -8.799272e-002 -3.644585e-005 2.889940e-005 -7.939982e-001 -8.810312e-002
306840000 3.855386e-005 -2.404121e-005 -7.907802e-001 -6.658463e-002 -1.702025e-005 -7.203644e-006 -7.937247e-001 -6.678791e-002
307125000 -9.640639e-005 -6.422769e-005 -7.894130e-001 -4.482161e-002 -7.319878e-005 -5.600561e-005 -7.923552e-001 -4.510826e-002
307410000 -6.567339e-005 -4.668099e-005 -7.883581e-001 -2.429679e-002 -1.397299e-006 -1.466227e-004 -7.914595e-001 -2.448528e-002
307695000 1.234419e-005 4.637153e-006 -7.869471e-001 -3.677653e-003 6.325138e-005 -9.917305e-005 -7.895377e-001 -3.834182e-003
307980000 -2.023612e-005 -6.155181e-005 -7.842993e-001 1.715552e-002 -7.781454e-006 2.892088e-005 -7.877022e-001 1.761568e-002
308265000 -6.798437e-005 2.678512e-005 -7.821867e-001 3.771290e-002 3.975072e-005 -2.780450e-005 -7.849694e-001 3.748615e-002
308550000 -2.868270e-006 5.213273e-005 -7.793477e-001 5.808923e-002 -3.869648e-006 4.411504e-005 -7.825681e-001 5.837641e-002
308835000 8.341871e-007 -8.246346e-005 -7.761268e-001 7.858154e-002 5.957696e-006 5.814074e-005 -7.791508e-001 7.869180e-002
309120000 3.408276e-005 4.012854e-005 -7.726550e-001 9.833750e-002 2.421622e-005 1.822455e-004 -7.754676e-001 9.863576e-002
309405000 6.827789e-005 -5.061490e-005 -7.682750e-001 1.186508e-001 -4.441651e-005 4.077162e-005 -7.715794e-001 1.191427e-001
309690000 5.823413e-005 -1.703503e-005 -7.643503e-001 1.379123e-001 -1.607360e-005 4.736551e-005 -7.672085e-001 1.390422e-001
309975000 4.243695e-006 -1.635589e-005 -7.597542e-001 1.584481e-001 8.393668e-005 1.512244e-004 -7.623855e-001 1.586438e-001
310260000 5.089139e-006 -2.591079e-005 -7.547333e-001 1.775537e-001 6.070727e-006 -7.948824e-006 -7.576841e-001 1.780970e-001
310545000 7.797347e-005 -1.226439e-005 -7.495887e-001 1.971933e-001 1.506250e-005 4.875044e-005 -7.525863e-001 1.978951e-001
310830000 9.959040e-007 8.705955e-005 -7.438753e-001 2.162378e-001 4.018934e-005 3.169466e-005 -7.466320e-001 2.174993e-001
311115000 -1.784318e-005 3.558803e-005 -7.374828e-001 2.355704e-001 1.001543e-005 1.557860e-005 -7.403867e-001 2.366788e-001
311400000 1.044856e-004 5.957329e-006 -7.312602e-001 2.548443e-001 -2.737360e-005 1.110558e-005 -7.341403e-001 2.559501e-001
311685000 3.544043e-005 -1.744605e-005 -7.247645e-001 2.742649e-001 1.215807e-005 -4.523878e-005 -7.268575e-001 2.749003e-001
311970000 -4.995651e-005 1.687534e-004 -7.174069e-001 2.930035e-001 6.181049e-007 2.389974e-005 -7.196169e-001 2.939820e-001
312255000 -2.138360e-005 1.712083e-005 -7.097120e-001 3.120492e-001 6.731237e-006 -5.878594e-005 -7.125899e-001 3.129829e-001
312540000 1.413373e-005 1.301055e-005 -7.020156e-001 3.305190e-001 -8.740479e-005 -4.131598e-005 -7.046359e-001 3.319074e-001
312825000 -1.295876e-004 -5.843383e-005 -6.934731e-001 3.493082e-001 1.956559e-005 8.195731e-005 -6.963559e-001 3.505918e-001
313110000 -1.093912e-004 3.603410e-005 -6.851061e-001 3.679073e-001 5.677516e-005 -3.496187e-005 -6.876192e-001 3.693147e-001
313395000 -3.352793e-005 2.366251e-005 -6.758240e-001 3.867590e-001 3.169748e-005 -2.432812e-006 -6.787679e-001 3.881074e-001
313680000 -3.382589e-005 1.552901e-005 -6.670623e-001 4.049512e-001 -3.153541e-005 1.736671e-005 -6.690917e-001 4.065076e-001
313965000 1.038608e-004 -6.930999e-005 -6.567098e-001 4.231319e-001 4.911832e-005 -3.361845e-005 -6.592517e-001 4.250568e-001
314250000 1.151664e-005 -1.020268e-004 -6.458871e-001 4.420367e-001 1.403884e-004 4.717314e-005 -6.490071e-001 4.428845e-001
314535000 7.365673e-005 -9.775077e-005 -6.359164e-001 4.599600e-001 -1.800542e-005 9.584623e-006 -6.382794e-001 4.616710e-001
314820000 7.789797e-005 1.483264e-005 -6.250444e-001 4.779749e-001 -1.191697e-004 6.641028e-005 -6.278593e-001 4.793674e-001
315105000 6.027105e-006 4.325563e-005 -6.133708e-001 4.955059e-001 -1.122162e-004 4.839307e-005 -6.159512e-001 4.982682e-001
315390000 -5.938378e-005 3.807251e-006 -6.014347e-001 5.138640e-001 -3.256183e-005 3.606772e-005 -6.038569e-001 5.158156e-001
315675000 3.790624e-005 7.255297e-005 -5.888913e-001 5.312525e-001 8.844972e-007 -1.046721e-005 -5.912812e-001 5.332709e-001
315960000 3.229421e-005 1.793345e-005 -5.760716e-001 5.487332e-001 6.187157e-006 1.245223e-005 -5.782476e-001 5.512167e-001
316245000 -1.086217e-004 -2.669357e-005 -5.624510e-001 5.664443e-001 -6.093164e-005 -6.733916e-005 -5.649288e-001 5.686749e-001
316530000 -7.177920e-005 -6.962252e-005 -5.487214e-001 5.837483e-001 -4.436929e-006 -6.166115e-005 -5.512611e-001 5.863688e-001
316815000 5.011107e-005 -8.152919e-006 -5.340889e-001 6.013770e-001 -8.661971e-005 -4.514694e-005 -5.366044e-001 6.038359e-001
317100000 -1.119872e-005 -9.277527e-005 -5.193827e-001 6.176311e-001 2.670292e-005 -1.561940e-004 -5.218679e-001 6.209806e-001
317385000 -6.761716e-005 -7.773741e-005 -5.039504e-001 6.351527e-001 -9.443596e-005 5.229159e-005 -5.062932e-001 6.378375e-001
317670000 -1.492262e-004 -1.007415e-004 -4.879110e-001 6.514326e-001 -2.752213e-005 -4.757979e-006 -4.900159e-001 6.543108e-001
317955000 -6.102756e-006 -1.310762e-004 -4.710747e-001 6.683429e-001 5.085695e-005 6.092086e-005 -4.732069e-001 6.710069e-001
318240000 -1.439197e-004 7.297575e-005 -4.539331e-001 6.847379e-001 2.074981e-005 -2.867920e-005 -4.558972e-001 6.875408e-001
318525000 -1.433540e-004 -3.419992e-005 -4.365430e-001 7.011413e-001 5.529703e-005 -2.701674e-005 -4.381011e-001 7.035854e-001
318810000 -3.196823e-005 -3.911493e-005 -4.180311e-001 7.168448e-001 -4.188065e-005 1.754162e-005 -4.193042e-001 7.199568e-001
319095000 -4.363156e-005 2.021820e-005 -3.989897e-001 7.326180e-001 9.958823e-006 -2.065493e-005 -4.002341e-001 7.350441e-001
319380000 1.943228e-005 -5.761957e-006 -3.786551e-001 7.475569e-001 1.562984e-006 1.355715e-005 -3.804738e-001 7.511074e-001
319665000 3.669811e-005 -1.128080e-004 -3.587429e-001 7.626728e-001 1.089789e-005 7.740428e-005 -3.600182e-001 7.656852e-001
319950000 -4.635010e-005 -2.357069e-005 -3.375528e-001 7.771998e-001 -1.653477e-005 3.468010e-005 -3.389464e-001 7.806307e-001
320235000 6.092199e-005 -7.941428e-005 -3.159712e-001 7.916553e-001 -4.120689e-005 4.473490e-005 -3.167408e-001 7.947099e-001
320520000 2.474226e-005 -2.793828e-005 -2.936389e-001 8.056326e-001 -1.194782e-005 -4.791762e-005 -2.949959e-001 8.087129e-001
320805000 8.063531e-005 1.029235e-004 -2.703979e-001 8.189084e-001 -1.119857e-004 -1.370547e-004 -2.711842e-001 8.224933e-001
321090000 1.256437e-004 -4.578337e-005 -2.461179e-001 8.318432e-001 -7.199954e-005 -5.440081e-005 -2.475164e-001 8.353862e-001
321375000 -9.246694e-005 5.068109e-006 -2.219451e-001 8.442588e-001 -4.024972e-005 4.117548e-005 -2.225223e-001 8.475791e-001
321660000 -4.262229e-005 4.183947e-005 -1.960922e-001 8.557990e-001 1.722688e-005 -2.999162e-005 -1.970163e-001 8.593246e-001
321945000 8.073212e-005 1.654230e-004 -1.697288e-001 8.673028e-001 2.156868e-005 -1.467422e-005 -1.710500e-001 8.706896e-001
322230000 -2.478905e-005 1.157989e-004 -1.431328e-001 8.775125e-001 -2.650753e-005 -5.204097e-005 -1.441536e-001 8.813499e-001
322515000 -1.365425e-004 -3.941780e-007 -1.159980e-001 8.876988e-001 9.117646e-006 1.950271e-005 -1.159977e-001 8.906541e-001
322800000 -7.817753e-005 6.004419e-005 -8.724719e-002 8.959454e-001 3.815501e-005 -1.064023e-004 -8.837873e-002 9.001276e-001
323085000 -4.426025e-005 -3.763416e-005 -5.821064e-002 9.043962e-001 1.507490e-005 8.384998e-005 -5.827749e-002 9.088012e-001
323370000 -1.817036e-004 1.787830e-005 -2.879317e-002 9.117158e-001 -3.953508e-005 -9.414428e-006 -2.862565e-002 9.154193e-001
323655000 3.682262e-005 -3.971024e-005 1.819971e-003 9.186277e-001 -8.431341e-005 2.774325e-005 1.960798e-003 9.218301e-001
323940000 -4.316925e-005 -5.920133e-005 3.317057e-002 9.235561e-001 -9.300807e-005 2.664617e-005 3.341457e-002 9.274519e-001
324225000 -4.191627e-005 -2.978245e-005 6.520526e-002 9.278804e-001 -7.577107e-005 8.314101e-008 6.596982e-002 9.321946e-001
324510000 3.327595e-005 -1.192881e-004 9.759745e-002 9.307700e-001 -2.313567e-004 4.655019e-005 9.828433e-002 9.347486e-001
324795000 -2.293970e-005 4.564556e-006 1.306612e-001 9.332130e-001 8.541720e-006 -5.185568e-005 1.308607e-001 9.368210e-001
325080000 1.300868e-004 -3.343008e-005 1.641810e-001 9.337134e-001 -5.986612e-005 1.808967e-005 1.648328e-001 9.372673e-001
325365000 -8.179497e-005 -9.254150e-005 1.980475e-001 9.330655e-001 5.577832e-005 -4.143171e-005 1.984042e-001 9.366648e-001
325650000 1.004349e-004 -1.298929e-004 2.330208e-001 9.308428e-001 3.296811e-005 -6.465214e-005 2.336934e-001 9.341273e-001
325935000 9.584759e-005 4.011385e-005 2.677868e-001 9.270806e-001 -2.877689e-005 -2.053221e-005 2.681829e-001 9.307848e-001
326220000 -1.171588e-005 1.229502e-005 3.030639e-001 9.225680e-001 1.208534e-004 -5.752398e-005 3.043214e-001 9.257579e-001
326505000 1.848145e-005 7.200512e-006 3.381292e-001 9.161316e-001 1.148172e-004 9.644895e-005 3.391576e-001 9.196157e-001
326790000 3.398780e-005 3.095161e-005 3.734142e-001 9.076545e-001 1.918954e-005 1.062626e-004 3.749624e-001 9.114792e-001
327075000 -1.122901e-004 -2.560344e-005 4.089847e-001 8.974142e-001 9.186373e-005 2.847829e-005 4.111108e-001 9.018242e-001
327360000 -1.393674e-004 -5.392592e-005 4.444571e-001 8.865784e-001 -8.436850e-005 -4.151272e-005 4.462109e-001 8.902557e-001
327645000 -2.886971e-005 5.968130e-006 4.795808e-001 8.728441e-001 -1.902850e-005 -3.746075e-005 4.815874e-001 8.771820e-001
327930000 -3.903052e-005 -1.567288e-005 5.148380e-001 8.581229e-001 1.316971e-004 -3.583554e-005 5.167614e-001 8.621339e-001
328215000 -6.733571e-005 -9.710426e-005 5.506108e-001 8.413749e-001 -7.620681e-005 -5.066042e-005 5.520713e-001 8.451195e-001
328500000 4.806906e-006 -7.661298e-005 5.840471e-001 8.229468e-001 5.393577e-006 1.216023e-005 5.868260e-001 8.263788e-001
328785000 6.258251e-005 3.292010e-005 6.176562e-001 8.030571e-001 4.387599e-005 -1.584508e-005 6.200249e-001 8.065362e-001
329070000 1.108148e-004 1.144409e-005 6.497313e-001 7.815577e-001 7.211510e-005 8.360203e-005 6.533542e-001 7.847639e-001
329355000 4.134269e-005 4.677964e-005 6.824450e-001 7.577970e-001 7.137249e-005 -3.407882e-005 6.864107e-001 7.601889e-001
329640000 -1.073495e-004 1.617748e-005 7.140861e-001 7.320515e-001 3.840954e-005 -2.365437e-006 7.170893e-001 7.356620e-001
329925000 -3.157852e-005 5.208273e-005 7.440494e-001 7.049596e-001 5.888880e-005 2.872127e-005 7.466118e-001 7.080940e-001
330210000 5.852711e-005 7.797370e-005 7.728344e-001 6.771618e-001 1.925466e-005 2.147239e-005 7.757192e-001 6.795976e-001
330495000 4.888778e-005 -9.199148e-007 8.004117e-001 6.474752e-001 -4.596759e-005 1.979251e-005 8.033381e-001 6.498473e-001
330780000 -8.420004e-007 3.449579e-005 8.261477e-001 6.153569e-001 9.529590e-005 -9.355358e-006 8.293981e-001 6.178962e-001
331065000 -1.580915e-004 1.247638e-004 8.509609e-001 5.828620e-001 2.383508e-005 7.646212e-005 8.544812e-001 5.852088e-001
331350000 2.728090e-005 -1.196465e-005 8.733536e-001 5.485643e-001 5.214921e-005 4.956250e-005 8.776847e-001 5.512221e-001
331635000 -4.460813e-005 -9.860671e-005 8.951759e-001 5.138291e-001 -8.819198e-005 -6.741493e-005 8.988879e-001 5.162505e-001
331920000 -7.850214e-005 -4.062212e-005 9.151186e-001 4.776445e-001 2.654161e-005 8.884328e-005 9.183056e-001 4.803989e-001
332205000 4.258396e-005 -1.301563e-004 9.324717e-001 4.406385e-001 5.288119e-006 1.112208e-005 9.365749e-001 4.429449e-001
332490000 5.714313e-005 -9.366418e-005 9.484956e-001 4.033222e-001 -8.200353e-005 -7.257719e-005 9.525031e-001 4.049798e-001
332775000 5.271786e-005 -4.197454e-005 9.622180e-001 3.646000e-001 -4.739039e-005 -1.761261e-005 9.664730e-001 3.667459e-001
333060000 -5.330827e-005 -5.592031e-005 9.744712e-001 3.264450e-001 6.177915e-006 8.826315e-005 9.781275e-001 3.280566e-001
333345000 6.899623e-005 -1.285807e-005 9.845426e-001 2.869714e-001 -5.226296e-005 1.484069e-005 9.884050e-001 2.883134e-001
333630000 -6.945454e-005 -6.708942e-005 9.925669e-001 2.477623e-001 -1.629702e-004 -9.564837e-006 9.968575e-001 2.487073e-001
333915000 -3.516030e-007 -4.695612e-006 9.984922e-001 2.078539e-001 -7.956436e-005 5.240037e-006 1.003025e+000 2.098432e-001
334200000 -1.260154e-004 -6.057355e-005 1.003205e+000 1.689295e-001 -4.215052e-005 7.359709e-006 1.007378e+000 1.698296e-001
334485000 -7.959919e-005 6.307791e-005 1.004987e+000 1.298496e-001 5.809392e-006 -3.995791e-005 1.010386e+000 1.307317e-001
334770000 1.044254e-005 1.151966e-005 1.005987e+000 9.086780e-002 -3.942573e-005 2.039374e-005 1.010869e+000 9.057496e-002
335055000 -9.332017e-005 -7.571148e-005 1.005038e+000 5.205143e-002 3.979324e-005 7.981525e-006 1.009176e+000 5.237702e-002
335340000 -4.315902e-005 -1.589856e-005 1.001754e+000 1.375545e-002 6.519188e-005 -1.540437e-004 1.005943e+000 1.387560e-002
335625000 -1.079425e-004 -9.146059e-005 9.968495e-001 -2.355794e-002 2.677678e-005 -1.020427e-005 1.002074e+000 -2.323435e-002
335910000 -9.807395e-005 -4.631792e-005 9.905186e-001 -6.042223e-002 -4.090275e-005 1.539438e-005 9.950678e-001 -6.087219e-002
336195000 2.882294e-005 2.018707e-006 9.829563e-001 -9.641615e-002 -1.750334e-005 -7.254630e-005 9.872863e-001 -9.662070e-002
336480000 2.208531e-005 -3.424774e-005 9.736155e-001 -1.318005e-001 -3.555930e-005 5.390935e-006 9.775748e-001 -1.326629e-001
336765000 -2.026220e-005 6.022067e-006 9.633346e-001 -1.663607e-001 5.364931e-005 5.744923e-005 9.672487e-001 -1.666207e-001
337050000 7.825430e-005 -4.073504e-006 9.514433e-001 -1.997567e-001 -6.113366e-005 8.361957e-005 9.551092e-001 -2.003583e-001
337335000 2.262669e-005 -4.114035e-005 9.376712e-001 -2.324245e-001 -1.585108e-005 1.098917e-004 9.422760e-001 -2.332186e-001
337620000 9.854558e-005 2.030728e-005 9.242008e-001 -2.644666e-001 5.790560e-005 -3.518094e-005 9.274220e-001 -2.653955e-001
337905000 1.805047e-005 1.236030e-005 9.087519e-001 -2.947773e-001 1.083749e-004 -2.197129e-005 9.124839e-001 -2.957362e-001
338190000 -8.883198e-005 4.887370e-005 8.923796e-001 -3.240689e-001 2.323269e-005 -3.359343e-005 8.961098e-001 -3.258922e-001
338475000 -6.378294e-005 1.683414e-004 8.755967e-001 -3.529338e-001 1.636323e-005 2.227714e-005 8.790547e-001 -3.538142e-001
338760000 6.471310e-005 8.790790e-007 8.567204e-001 -3.799256e-001 2.656923e-005 -3.374874e-005 8.609236e-001 -3.816313e-001
339045000 -2.880304e-005 6.459403e-005 8.387018e-001 -4.059759e-001 -9.031582e-005 -4.514396e-005 8.423797e-001 -4.079685e-001
339330000 -1.065969e-004 3.679407e-005 8.198684e-001 -4.311655e-001 -2.824066e-005 3.852467e-005 8.227192e-001 -4.334021e-001
339615000 -2.318677e-005 -8.377030e-005 7.996024e-001 -4.550382e-001 -2.019680e-005 4.133516e-005 8.036021e-001 -4.573930e-001
339900000 -1.042237e-005 -6.558821e-005 7.793117e-001 -4.784591e-001 2.182889e-005 -7.392082e-005 7.821988e-001 -4.805004e-001
340185000 1.731519e-005 -1.048432e-004 7.583739e-001 -5.008268e-001 2.893812e-006 -3.726783e-005 7.617400e-001 -5.027878e-001
340470000 3.798561e-006 -8.300853e-005 7.372729e-001 -5.216632e-001 8.653516e-005 2.580691e-005 7.403206e-001 -5.242295e-001
340755000 3.720422e-005 -4.079489e-005 7.156398e-001 -5.414348e-001 5.017491e-005 3.659650e-005 7.187556e-001 -5.439379e-001
341040000 7.203819e-005 1.159587e-004 6.941093e-001 -5.594882e-001 5.481833e-006 -6.649816e-005 6.965350e-001 -5.627817e-001
341325000 -2.874975e-005 8.263978e-006 6.713774e-001 -5.783410e-001 -8.332647e-005 1.000746e-004 6.744940e-001 -5.804245e-001
341610000 1.055437e-005 4.107083e-005 6.497051e-001 -5.951161e-001 -5.663640e-005 -5.656876e-005 6.524312e-001 -5.979842e-001
341895000 7.343057e-005 1.156113e-004 6.267580e-001 -6.107191e-001 -5.676740e-005 7.823006e-005 6.293964e-001 -6.132421e-001
342180000 -1.520121e-004 1.435525e-004 6.045192e-001 -6.266032e-001 -5.540428e-005 2.174562e-005 6.065616e-001 -6.291237e-001
342465000 -6.980356e-005 -4.099677e-006 5.812188e-001 -6.403718e-001 -1.435562e-006 1.976046e-005 5.839930e-001 -6.432655e-001
342750000 -4.864763e-005 -4.166073e-006 5.585416e-001 -6.540223e-001 -3.208085e-005 2.539120e-005 5.615041e-001 -6.569580e-001
343035000 -5.392155e-005 -6.245438e-005 5.358664e-001 -6.672819e-001 6.626972e-006 2.052034e-005 5.384781e-001 -6.695809e-001
343320000 -9.220768e-005 -5.045463e-005 5.131583e-001 -6.786687e-001 1.560405e-005 -7.980638e-005 5.153775e-001 -6.807853e-001
343605000 -4.943261e-005 -7.359164e-005 4.903775e-001 -6.900038e-001 -3.375578e-005 1.129985e-004 4.921184e-001 -6.922938e-001
343890000 3.162620e-005 6.411886e-006 4.675743e-001 -6.997015e-001 4.434879e-005 -8.321703e-005 4.692693e-001 -7.027498e-001
