!Agilent Technologies,N5230C,SG49000117,A.08.50.07
!Agilent N5230C: A.08.50.07
!Date: Sunday, March 17, 2024 07:09:39
!Correction: S11(Off) 
!S21(Off) 
!S12(Off) 
!S22(Off) 
!S2P File: Measurements: S11, S21, S12, S22:
# Hz S  RI   R 50
300000000 3.883858e-006 -4.720599e-006 -5.974854e-001 -6.827310e-001 1.223269e-006 -2.591049e-006 -5.996420e-001 -6.852134e-001
300285000 -4.238726e-006 8.923213e-006 -6.141375e-001 -6.598328e-001 2.098899e-006 -3.801337e-006 -6.163456e-001 -6.623152e-001
300570000 3.426472e-006 -1.622181e-005 -6.298576e-001 -6.367407e-001 2.646748e-005 -4.893336e-006 -6.323006e-001 -6.391348e-001
300855000 -4.549962e-006 -5.190840e-006 -6.448002e-001 -6.135570e-001 5.965611e-006 -1.330059e-005 -6.471196e-001 -6.157824e-001
301140000 2.744484e-006 1.302608e-006 -6.588265e-001 -5.900389e-001 -2.985922e-006 -7.332769e-006 -6.612861e-001 -5.923045e-001
301425000 6.891239e-006 -4.531651e-006 -6.719403e-001 -5.666091e-001 8.627552e-006 -2.886654e-006 -6.744177e-001 -5.687637e-001
301710000 8.945716e-006 -1.715670e-005 -6.842555e-001 -5.431578e-001 -7.893382e-006 6.612283e-007 -6.868193e-001 -5.451183e-001
301995000 -1.996020e-006 -2.530156e-005 -6.957618e-001 -5.196266e-001 -1.052212e-005 -1.153375e-005 -6.982992e-001 -5.215605e-001
302280000 1.116458e-005 -3.189769e-006 -7.063839e-001 -4.962144e-001 -5.247654e-006 -1.575363e-005 -7.090876e-001 -4.981276e-001
302565000 -1.303433e-006 -1.475634e-005 -7.162385e-001 -4.727710e-001 -1.184034e-005 6.918066e-006 -7.189654e-001 -4.746006e-001
302850000 7.353977e-006 -3.862167e-006 -7.254879e-001 -4.495100e-001 1.781698e-005 3.266390e-006 -7.281969e-001 -4.510704e-001
303135000 5.980584e-006 -7.867256e-006 -7.338911e-001 -4.261860e-001 3.248099e-006 -2.035507e-006 -7.366804e-001 -4.277704e-001
303420000 5.641633e-006 -2.703773e-006 -7.417676e-001 -4.030334e-001 -5.145164e-006 -8.310788e-007 -7.444510e-001 -4.045417e-001
303705000 1.020651e-005 -4.492537e-007 -7.488085e-001 -3.799494e-001 4.995319e-006 1.542832e-005 -7.516446e-001 -3.813710e-001
303990000 8.177452e-006 -1.448775e-006 -7.552445e-001 -3.570162e-001 -6.804486e-006 -9.045333e-006 -7.580463e-001 -3.583252e-001
304275000 -9.153838e-006 1.475566e-006 -7.610573e-001 -3.341321e-001 -3.682131e-006 -1.188229e-005 -7.639586e-001 -3.354203e-001
304560000 3.230289e-006 2.293447e-005 -7.662355e-001 -3.114465e-001 7.483434e-006 1.315860e-005 -7.692101e-001 -3.125944e-001
304845000 1.238472e-005 6.310369e-006 -7.710280e-001 -2.889562e-001 -1.780990e-005 1.189010e-005 -7.739431e-001 -2.900436e-001
305130000 -1.030289e-005 3.645287e-007 -7.750869e-001 -2.664293e-001 1.949442e-006 2.559623e-005 -7.779892e-001 -2.675078e-001
305415000 -6.720990e-006 7.779980e-006 -7.785949e-001 -2.441737e-001 -4.335006e-006 2.601407e-005 -7.815883e-001 -2.451014e-001
305700000 2.649126e-006 -6.679435e-007 -7.815707e-001 -2.220162e-001 -5.875836e-006 1.893970e-006 -7.846235e-001 -2.228536e-001
305985000 -8.759874e-006 6.145183e-006 -7.841402e-001 -1.999519e-001 -4.516992e-006 9.416472e-006 -7.871442e-001 -2.007466e-001
306270000 -1.270967e-005 -5.126336e-006 -7.861369e-001 -1.780919e-001 9.444603e-006 4.774869e-006 -7.891201e-001 -1.788146e-001
306555000 -8.172398e-006 -1.534367e-005 -7.876278e-001 -1.563713e-001 2.184370e-006 -3.798544e-006 -7.906510e-001 -1.569943e-001
306840000 -3.169213e-006 7.797651e-006 -7.886729e-001 -1.347911e-001 7.035566e-006 -2.007803e-005 -7.917353e-001 -1.353670e-001
307125000 -1.590423e-005 -1.014370e-005 -7.893168e-001 -1.134365e-001 -7.384392e-006 -1.526693e-005 -7.923620e-001 -1.138303e-001
307410000 3.082782e-006 -1.359493e-005 -7.894945e-001 -9.215340e-002 5.156523e-006 -2.856584e-005 -7.925083e-001 -9.255317e-002
307695000 3.816769e-006 -4.987488e-006 -7.892542e-001 -7.102890e-002 5.416849e-006 -2.666121e-006 -7.923222e-001 -7.130925e-002
307980000 9.020349e-006 -9.122944e-006 -7.886428e-001 -5.004320e-002 -9.806409e-006 1.002795e-005 -7.916803e-001 -5.026455e-002
308265000 2.825008e-005 -6.452810e-006 -7.876169e-001 -2.927101e-002 -1.087732e-005 -1.528400e-005 -7.906622e-001 -2.935377e-002
308550000 -5.471067e-006 5.229759e-006 -7.861777e-001 -8.571210e-003 1.225666e-005 4.900623e-006 -7.891977e-001 -8.588681e-003
308835000 1.461961e-005 7.070964e-006 -7.843351e-001 1.199404e-002 1.797682e-005 3.401695e-006 -7.873935e-001 1.201539e-002
309120000 -1.783077e-007 -4.462752e-006 -7.821092e-001 3.241448e-002 4.827940e-006 9.256389e-006 -7.851313e-001 3.258307e-002
309405000 -2.619691e-006 -1.270431e-006 -7.795200e-001 5.274186e-002 2.109255e-006 -7.830797e-006 -7.825790e-001 5.291443e-002
309690000 6.949507e-006 9.851323e-006 -7.765709e-001 7.288839e-002 -2.036178e-005 -1.220424e-005 -7.796062e-001 7.315174e-002
309975000 -2.969339e-006 1.139035e-005 -7.732248e-001 9.290945e-002 -1.333213e-005 4.900605e-006 -7.762606e-001 9.322874e-002
310260000 -6.438635e-007 -2.067506e-005 -7.695144e-001 1.128212e-001 -1.404482e-005 1.187917e-005 -7.725819e-001 1.132321e-001
310545000 -8.751817e-006 -1.034797e-006 -7.654843e-001 1.326175e-001 -2.938354e-006 -3.406176e-006 -7.685575e-001 1.331564e-001
310830000 9.259947e-006 -9.198503e-006 -7.611946e-001 1.523219e-001 -2.053883e-006 -8.328436e-006 -7.641673e-001 1.529100e-001
311115000 2.090723e-006 7.851781e-006 -7.564762e-001 1.719201e-001 -6.179113e-006 8.956105e-007 -7.594033e-001 1.725704e-001
311400000 -5.272266e-006 4.744330e-008 -7.512987e-001 1.914128e-001 -8.771286e-007 -5.372703e-006 -7.543267e-001 1.921309e-001
311685000 8.342897e-006 3.947324e-006 -7.459249e-001 2.107535e-001 -8.059824e-006 1.250894e-006 -7.488475e-001 2.116404e-001
311970000 -1.103179e-006 -1.309647e-006 -7.401146e-001 2.301023e-001 -2.288852e-005 -1.344622e-005 -7.430194e-001 2.309940e-001
312255000 -2.215313e-007 -7.030379e-006 -7.339512e-001 2.492326e-001 5.947226e-006 -2.593026e-006 -7.368562e-001 2.502926e-001
312540000 -1.193889e-006 1.204869e-006 -7.273989e-001 2.684687e-001 -1.377266e-006 -7.058737e-006 -7.303652e-001 2.694519e-001
312825000 -7.074098e-006 -2.948622e-006 -7.205738e-001 2.874087e-001 -8.428753e-006 -6.315717e-006 -7.234533e-001 2.885838e-001
313110000 1.509252e-006 -9.976838e-006 -7.133256e-001 3.063110e-001 2.621563e-006 4.272788e-006 -7.160971e-001 3.075944e-001
313395000 3.428407e-006 -2.406836e-005 -7.057399e-001 3.251977e-001 -1.277304e-005 3.881023e-006 -7.085859e-001 3.265074e-001
313680000 3.607407e-007 9.968006e-006 -6.977510e-001 3.440330e-001 4.513553e-007 -3.476175e-006 -7.005613e-001 3.454464e-001
313965000 -1.250031e-006 -7.296927e-006 -6.893646e-001 3.627315e-001 1.622729e-006 -3.529243e-006 -6.921716e-001 3.641493e-001
314250000 -1.745223e-006 -8.010808e-006 -6.806313e-001 3.812935e-001 6.440649e-006 -5.280329e-006 -6.833586e-001 3.828902e-001
314535000 7.178340e-006 -7.487389e-007 -6.715053e-001 3.999584e-001 -3.798085e-007 9.491624e-007 -6.741803e-001 4.014625e-001
314820000 -1.185959e-006 2.172226e-006 -6.619962e-001 4.182835e-001 -4.584902e-006 -1.388343e-005 -6.645788e-001 4.200495e-001
315105000 -7.577340e-006 -7.505807e-006 -6.519603e-001 4.367492e-001 -4.971915e-006 -2.156601e-005 -6.545785e-001 4.385167e-001
315390000 1.121659e-006 -1.560327e-005 -6.416077e-001 4.550471e-001 -1.158258e-005 -9.908962e-006 -6.441315e-001 4.569057e-001
315675000 1.640978e-005 3.773974e-007 -6.307712e-001 4.733359e-001 -1.380777e-005 1.660077e-006 -6.332403e-001 4.752021e-001
315960000 -4.480073e-006 1.033429e-006 -6.194672e-001 4.914720e-001 -5.847081e-006 -6.137929e-006 -6.219767e-001 4.933767e-001
316245000 -1.201460e-006 4.401946e-006 -6.077321e-001 5.094154e-001 -4.363201e-007 -1.964076e-006 -6.102239e-001 5.115735e-001
316530000 4.328775e-006 1.074643e-005 -5.955288e-001 5.274034e-001 6.950924e-006 -8.744639e-006 -5.979497e-001 5.296046e-001
316815000 -5.432507e-006 4.602757e-006 -5.828403e-001 5.453128e-001 -1.568881e-005 -1.456437e-005 -5.852264e-001 5.474335e-001
317100000 8.613603e-006 -1.573373e-005 -5.697385e-001 5.629665e-001 -1.121797e-005 -1.489504e-005 -5.720291e-001 5.652375e-001
317385000 3.632627e-006 -1.758232e-006 -5.559778e-001 5.806103e-001 1.071191e-005 -6.749161e-006 -5.582231e-001 5.829985e-001
317670000 -2.074255e-006 -1.917217e-005 -5.417224e-001 5.980836e-001 8.029180e-006 -1.392373e-005 -5.439759e-001 6.005228e-001
317955000 7.834471e-007 1.096535e-005 -5.270283e-001 6.154213e-001 -3.955000e-006 2.466045e-006 -5.291138e-001 6.179553e-001
318240000 -6.406657e-006 1.279588e-005 -5.117303e-001 6.326818e-001 -5.085753e-006 1.124871e-005 -5.138036e-001 6.351852e-001
318525000 -2.690417e-006 -3.266171e-006 -4.959103e-001 6.496319e-001 -4.327482e-006 7.745151e-006 -4.979041e-001 6.523516e-001
318810000 8.194984e-007 -9.072703e-006 -4.793771e-001 6.665015e-001 3.629225e-006 -1.584800e-005 -4.813853e-001 6.692171e-001
319095000 2.744745e-006 1.798187e-006 -4.623443e-001 6.831678e-001 -1.242333e-006 -2.415297e-006 -4.643216e-001 6.858328e-001
319380000 2.267390e-005 5.032141e-006 -4.447033e-001 6.995727e-001 4.255577e-006 -4.737246e-006 -4.464985e-001 7.024580e-001
319665000 -8.478557e-006 -3.696516e-006 -4.263803e-001 7.157633e-001 -9.560232e-006 -1.514555e-005 -4.281389e-001 7.187094e-001
319950000 -4.798070e-006 -4.973462e-006 -4.074306e-001 7.316723e-001 -1.430688e-005 1.104262e-005 -4.090813e-001 7.347167e-001
320235000 -9.248186e-006 7.084927e-006 -3.877836e-001 7.473052e-001 -6.647992e-006 -9.097371e-006 -3.893357e-001 7.503888e-001
320520000 3.456952e-006 8.756193e-006 -3.674715e-001 7.626054e-001 6.637676e-006 -7.866014e-006 -3.689622e-001 7.656842e-001
320805000 9.805278e-006 1.561123e-006 -3.464920e-001 7.775539e-001 -5.798116e-006 -8.047593e-006 -3.479522e-001 7.807660e-001
321090000 -1.806996e-006 -5.877269e-006 -3.247895e-001 7.921261e-001 8.207800e-006 1.439856e-005 -3.261316e-001 7.954924e-001
321375000 -4.536061e-006 -1.244704e-005 -3.023443e-001 8.063940e-001 -6.042430e-007 -5.677575e-006 -3.036275e-001 8.097115e-001
321660000 -8.957311e-006 -1.378913e-006 -2.791994e-001 8.201431e-001 -8.106640e-006 -1.110278e-006 -2.804340e-001 8.234445e-001
321945000 4.969696e-006 9.903103e-006 -2.552958e-001 8.333268e-001 -1.965772e-005 -7.103801e-006 -2.563591e-001 8.368211e-001
322230000 -1.729502e-006 1.799373e-005 -2.306513e-001 8.461089e-001 -1.939372e-006 -5.441670e-006 -2.316992e-001 8.495368e-001
322515000 -7.314464e-006 6.474122e-006 -2.052357e-001 8.582468e-001 2.019428e-006 1.997653e-006 -2.060998e-001 8.617485e-001
322800000 -1.096337e-005 1.032507e-005 -1.791489e-001 8.696787e-001 8.699923e-006 -3.498480e-006 -1.798554e-001 8.733118e-001
323085000 1.167364e-006 -1.861988e-005 -1.522368e-001 8.805287e-001 1.325588e-006 -1.003897e-006 -1.528004e-001 8.841521e-001
323370000 -2.359076e-006 -6.001717e-006 -1.245542e-001 8.907117e-001 -7.023741e-006 4.290932e-006 -1.250177e-001 8.944784e-001
323655000 -7.660051e-006 -4.225453e-006 -9.603174e-002 9.001139e-001 6.167016e-006 -3.991009e-006 -9.645961e-002 9.037390e-001
323940000 -1.872072e-005 -1.224954e-005 -6.685580e-002 9.085206e-001 1.711688e-006 2.507840e-006 -6.707950e-002 9.123170e-001
324225000 -8.818578e-006 -2.866117e-006 -3.694658e-002 9.161369e-001 -5.171042e-007 -1.393441e-005 -3.721416e-002 9.199860e-001
324510000 -9.409810e-006 -1.586041e-005 -6.301566e-003 9.228227e-001 -1.280795e-005 -3.493469e-006 -6.380440e-003 9.267137e-001
324795000 -1.261525e-005 -9.125325e-006 2.507160e-002 9.284161e-001 1.262454e-005 1.716814e-005 2.518219e-002 9.323635e-001
325080000 8.306628e-006 -5.887181e-006 5.686669e-002 9.331667e-001 -1.250856e-005 -1.388995e-006 5.720495e-002 9.369795e-001
325365000 -2.365585e-006 -6.304906e-006 8.959872e-002 9.364684e-001 -3.029449e-006 9.151839e-007 9.003497e-002 9.403446e-001
325650000 9.784590e-006 -5.042444e-007 1.227783e-001 9.387141e-001 -8.746691e-006 -6.803616e-006 1.233906e-001 9.425770e-001
325935000 5.176527e-007 5.195511e-006 1.565937e-001 9.395590e-001 -2.246613e-005 -4.989270e-006 1.573079e-001 9.436465e-001
326220000 2.997048e-007 1.062058e-005 1.908822e-001 9.392306e-001 1.019173e-006 3.516184e-006 1.916361e-001 9.432041e-001
326505000 -7.657542e-006 7.344627e-006 2.255978e-001 9.374119e-001 3.433330e-006 -1.620812e-005 2.266552e-001 9.413928e-001
326790000 7.438798e-006 3.350938e-006 2.607193e-001 9.341617e-001 3.031397e-006 -3.558890e-007 2.617483e-001 9.382239e-001
327075000 -9.698893e-006 1.556551e-005 2.960817e-001 9.294845e-001 -4.271389e-006 -1.369871e-005 2.973333e-001 9.333827e-001
327360000 -1.611911e-005 7.570961e-006 3.316704e-001 9.231331e-001 2.030420e-006 2.939533e-006 3.331560e-001 9.269311e-001
327645000 -7.559176e-006 -3.551468e-006 3.674852e-001 9.152310e-001 -1.167655e-005 -1.134721e-005 3.689785e-001 9.190531e-001
327930000 -1.350933e-005 -4.085488e-006 4.031422e-001 9.055903e-001 1.165611e-005 -1.034109e-006 4.050769e-001 9.093917e-001
328215000 -2.289695e-006 -1.542371e-006 4.390320e-001 8.942071e-001 -1.729605e-005 4.718823e-006 4.408941e-001 8.980060e-001
328500000 -1.007293e-005 9.432553e-006 4.746757e-001 8.812153e-001 -1.954097e-005 1.093807e-005 4.766904e-001 8.849123e-001
328785000 2.289587e-006 -1.436028e-005 5.099699e-001 8.664232e-001 -5.120562e-006 1.591892e-006 5.121032e-001 8.701037e-001
329070000 5.420295e-006 4.243672e-006 5.449627e-001 8.498676e-001 -1.192547e-006 -1.278087e-005 5.473258e-001 8.536409e-001
329355000 1.734833e-006 -3.717404e-006 5.794354e-001 8.315685e-001 -1.416133e-005 -1.321410e-005 5.820232e-001 8.350903e-001
329640000 5.962439e-006 3.464028e-006 6.133773e-001 8.115177e-001 -1.322694e-005 -6.023904e-007 6.160682e-001 8.149319e-001
329925000 1.206282e-005 7.657383e-006 6.465362e-001 7.896624e-001 1.483374e-006 -7.385194e-006 6.493120e-001 7.930096e-001
330210000 8.271485e-006 -5.075010e-006 6.788566e-001 7.661740e-001 1.424233e-005 -5.777229e-006 6.817486e-001 7.694191e-001
330495000 2.081169e-005 2.744962e-006 7.101585e-001 7.409836e-001 6.426213e-006 -8.931548e-006 7.131701e-001 7.441144e-001
330780000 -4.699400e-006 4.029408e-006 7.403647e-001 7.140860e-001 1.582838e-005 -1.617974e-005 7.436313e-001 7.171602e-001
331065000 -1.865712e-006 2.076593e-005 7.694405e-001 6.857781e-001 6.329514e-006 1.507538e-006 7.726602e-001 6.887491e-001
331350000 1.335656e-005 4.685664e-007 7.970559e-001 6.558594e-001 1.956824e-005 4.203320e-006 8.005170e-001 6.587560e-001
331635000 -1.049575e-005 -5.717252e-006 8.234511e-001 6.245961e-001 5.217750e-006 1.066588e-005 8.270217e-001 6.272906e-001
331920000 -8.795824e-006 -2.877495e-006 8.481482e-001 5.920490e-001 -1.214078e-005 -1.257818e-005 8.518894e-001 5.945687e-001
332205000 4.553825e-006 -1.113976e-005 8.714367e-001 5.582176e-001 -7.550365e-006 5.913315e-006 8.751345e-001 5.605763e-001
332490000 -1.818554e-006 3.015312e-007 8.928905e-001 5.232890e-001 9.073137e-006 2.275531e-005 8.966973e-001 5.255396e-001
332775000 -2.768789e-006 -4.518071e-006 9.125348e-001 4.873297e-001 -6.108017e-007 6.439162e-006 9.166219e-001 4.894479e-001
333060000 1.069127e-005 4.253660e-006 9.305333e-001 4.506609e-001 3.380934e-007 -3.271231e-006 9.345315e-001 4.526248e-001
333345000 -9.521391e-006 -8.428554e-007 9.466366e-001 4.130268e-001 -2.271408e-005 -7.054959e-006 9.506580e-001 4.148266e-001
333630000 -2.463282e-006 -2.010677e-006 9.607798e-001 3.748744e-001 1.300332e-006 1.461321e-006 9.649361e-001 3.765276e-001
333915000 4.094150e-006 8.382501e-006 9.730050e-001 3.362095e-001 3.586752e-006 4.277851e-006 9.772744e-001 3.377625e-001
334200000 -7.581104e-006 2.654687e-007 9.832408e-001 2.973331e-001 -1.599619e-006 1.492336e-005 9.876156e-001 2.985594e-001
334485000 -1.493303e-005 9.153250e-006 9.916049e-001 2.581313e-001 -3.299794e-006 -7.586855e-006 9.959636e-001 2.592259e-001
334770000 -1.234736e-006 -2.141901e-006 9.981093e-001 2.187754e-001 -1.292149e-006 1.534280e-005 1.002400e+000 2.197664e-001
335055000 4.960837e-006 6.760217e-007 1.002610e+000 1.795680e-001 -1.061651e-005 -8.933073e-006 1.007025e+000 1.802919e-001
335340000 -6.742834e-006 2.681374e-006 1.005330e+000 1.404217e-001 6.483300e-006 -1.914430e-006 1.009570e+000 1.411173e-001
335625000 -7.011786e-006 -6.221346e-007 1.006096e+000 1.016863e-001 1.564104e-006 -3.371144e-006 1.010494e+000 1.021054e-001
335910000 -8.434466e-006 -1.311096e-006 1.005062e+000 6.320579e-002 -4.885446e-006 5.949807e-006 1.009503e+000 6.341650e-002
336195000 -6.518773e-006 7.818941e-006 1.002336e+000 2.525051e-002 -4.261166e-006 -1.190542e-006 1.006698e+000 2.539178e-002
336480000 3.066989e-006 2.006922e-006 9.980853e-001 -1.213962e-002 -1.815188e-005 2.380387e-005 1.002357e+000 -1.219589e-002
336765000 -3.671939e-006 -3.873227e-006 9.921075e-001 -4.889330e-002 -7.881575e-006 1.211184e-005 9.963388e-001 -4.911927e-002
337050000 -8.586180e-006 3.885231e-006 9.847149e-001 -8.493269e-002 -1.666705e-005 2.418762e-005 9.890256e-001 -8.529236e-002
337335000 -5.950015e-006 -1.314319e-005 9.758075e-001 -1.201818e-001 -9.547112e-006 8.092809e-006 9.799577e-001 -1.207462e-001
337620000 -4.545359e-006 -2.619471e-007 9.655235e-001 -1.546129e-001 -4.674036e-006 -2.605636e-006 9.697405e-001 -1.552144e-001
337905000 1.129064e-005 4.220091e-006 9.540448e-001 -1.880983e-001 1.543951e-006 -9.949512e-007 9.582241e-001 -1.888938e-001
338190000 -9.450127e-006 -5.732791e-006 9.413910e-001 -2.205654e-001 2.253749e-006 1.350131e-005 9.453903e-001 -2.216091e-001
338475000 8.680960e-006 -8.844576e-006 9.275243e-001 -2.522616e-001 -4.326499e-007 1.507684e-006 9.316002e-001 -2.533146e-001
338760000 -7.781202e-006 -7.661048e-006 9.127128e-001 -2.828072e-001 1.810429e-005 -6.250744e-006 9.166399e-001 -2.840362e-001
339045000 5.767246e-006 9.169550e-006 8.969601e-001 -3.123138e-001 -8.640272e-006 2.900668e-007 9.007503e-001 -3.135984e-001
339330000 -9.495237e-006 6.248068e-006 8.803090e-001 -3.408265e-001 1.711227e-006 -8.164755e-007 8.840236e-001 -3.422948e-001
339615000 8.000389e-006 -6.788876e-006 8.628419e-001 -3.682160e-001 8.263092e-006 -5.782325e-006 8.665006e-001 -3.697711e-001
339900000 6.841691e-006 -1.233549e-005 8.446719e-001 -3.946321e-001 -1.066657e-005 9.034181e-006 8.482628e-001 -3.962504e-001
340185000 7.685163e-006 4.296468e-006 8.257922e-001 -4.198573e-001 4.412790e-006 -4.772819e-006 8.292828e-001 -4.216818e-001
340470000 -1.091520e-006 1.519896e-005 8.064145e-001 -4.441226e-001 -9.280825e-006 -9.439970e-006 8.098677e-001 -4.459334e-001
340755000 1.332676e-006 1.784156e-006 7.865521e-001 -4.673210e-001 6.542253e-006 -7.889035e-006 7.898081e-001 -4.692994e-001
341040000 -4.570681e-006 6.594882e-006 7.661327e-001 -4.894268e-001 4.720180e-006 7.373912e-006 7.693546e-001 -4.915798e-001
341325000 -3.353764e-007 1.041158e-005 7.452400e-001 -5.105872e-001 6.794141e-006 2.998456e-006 7.483801e-001 -5.128186e-001
341610000 5.527539e-006 5.113250e-006 7.241396e-001 -5.307730e-001 1.138451e-005 -5.333655e-006 7.272402e-001 -5.330057e-001
341895000 -1.598987e-005 -1.471885e-007 7.025921e-001 -5.498787e-001 6.208163e-006 -1.165356e-005 7.056353e-001 -5.522344e-001
342180000 -1.067749e-005 4.791565e-006 6.809749e-001 -5.680811e-001 -8.191594e-007 1.224137e-006 6.838554e-001 -5.704178e-001
342465000 -1.274692e-005 -4.206770e-006 6.589717e-001 -5.852785e-001 9.655037e-006 6.298665e-006 6.618609e-001 -5.878469e-001
342750000 1.218026e-006 8.395719e-006 6.369783e-001 -6.016704e-001 -9.858190e-006 1.024106e-005 6.395838e-001 -6.041948e-001
343035000 4.911622e-006 6.617408e-006 6.147031e-001 -6.171145e-001 -1.779688e-005 5.496581e-006 6.172296e-001 -6.196789e-001
343320000 -5.473270e-007 -1.429825e-005 5.923553e-001 -6.316571e-001 -1.766744e-005 -1.388392e-005 5.948111e-001 -6.343870e-001
343605000 -5.646823e-006 -2.465497e-006 5.699811e-001 -6.454852e-001 -1.886269e-005 -1.131612e-005 5.723295e-001 -6.481990e-001
343890000 7.504142e-006 1.058729e-005 5.473323e-001 -6.583877e-001 -1.097159e-005 -4.420906e-006 5.497037e-001 -6.611392e-001
