!Agilent Technologies,N5230C,SG49000117,A.08.50.07
!Agilent N5230C: A.08.50.07
!Date: Sunday, March 17, 2024 07:07:13
!Correction: S11(Off) 
!S21(Off) 
!S12(Off) 
!S22(Off) 
!S2P File: Measurements: S11, S21, S12, S22:
# Hz S  RI   R 50
300000000 1.131579e-005 -1.423797e-005 -6.016133e-001 -6.775610e-001 4.677044e-006 5.729657e-006 -6.037040e-001 -6.800879e-001
300285000 1.170852e-005 9.224023e-006 -6.180344e-001 -6.547536e-001 -4.197315e-006 6.117655e-007 -6.202378e-001 -6.571156e-001
300570000 1.405117e-005 4.895133e-006 -6.335629e-001 -6.315649e-001 6.177991e-006 -4.822111e-006 -6.359719e-001 -6.338193e-001
300855000 -2.280753e-006 1.683007e-005 -6.482566e-001 -6.081875e-001 1.057994e-005 1.715755e-005 -6.506281e-001 -6.104698e-001
301140000 9.433857e-006 1.748483e-005 -6.620709e-001 -5.847121e-001 -1.026718e-005 9.537732e-007 -6.645610e-001 -5.869855e-001
301425000 1.510656e-005 1.509824e-005 -6.750573e-001 -5.613331e-001 2.164619e-007 1.123243e-007 -6.775112e-001 -5.633393e-001
301710000 -9.961480e-006 6.803125e-006 -6.870921e-001 -5.378843e-001 1.924628e-005 1.867507e-006 -6.897240e-001 -5.398255e-001
301995000 -1.721799e-005 1.198395e-005 -6.984240e-001 -5.142488e-001 -6.640910e-006 -1.525198e-005 -7.010321e-001 -5.162534e-001
302280000 -1.714181e-005 -4.875770e-006 -7.089777e-001 -4.908149e-001 7.808382e-006 2.801909e-006 -7.115856e-001 -4.926718e-001
302565000 -1.393424e-006 -4.895793e-006 -7.186143e-001 -4.673984e-001 1.704022e-006 1.595010e-006 -7.214165e-001 -4.692029e-001
302850000 -1.142649e-005 -8.505633e-006 -7.276922e-001 -4.440620e-001 7.708199e-006 2.078100e-005 -7.304037e-001 -4.457362e-001
303135000 -7.597941e-006 -2.360289e-005 -7.359575e-001 -4.207643e-001 9.249804e-006 -7.479742e-006 -7.387443e-001 -4.223799e-001
303420000 6.630884e-007 -2.123639e-005 -7.436006e-001 -3.976591e-001 1.966657e-006 -1.603656e-006 -7.463892e-001 -3.991010e-001
303705000 -2.936872e-007 -7.768621e-006 -7.505695e-001 -3.745452e-001 1.293937e-005 3.845899e-006 -7.533557e-001 -3.759384e-001
303990000 7.480586e-006 -2.330569e-005 -7.568016e-001 -3.516720e-001 -9.553754e-006 1.986143e-005 -7.597217e-001 -3.529267e-001
304275000 1.052313e-005 1.749196e-007 -7.624431e-001 -3.287691e-001 4.510802e-006 -4.515749e-006 -7.653839e-001 -3.300676e-001
304560000 6.522687e-007 -1.001399e-005 -7.675866e-001 -3.061174e-001 3.503366e-006 -6.214804e-007 -7.705343e-001 -3.072686e-001
304845000 1.196644e-005 1.769870e-005 -7.721008e-001 -2.835427e-001 -1.745750e-005 -4.454864e-006 -7.750707e-001 -2.846291e-001
305130000 1.085760e-005 -1.597553e-005 -7.761031e-001 -2.611023e-001 1.270511e-005 6.048855e-006 -7.790353e-001 -2.621463e-001
305415000 1.071755e-005 -4.196450e-006 -7.795417e-001 -2.388685e-001 -7.363021e-006 -6.437040e-006 -7.825298e-001 -2.397610e-001
305700000 1.453045e-005 -5.802850e-006 -7.824471e-001 -2.167646e-001 -1.391443e-006 6.321393e-006 -7.853627e-001 -2.175868e-001
305985000 1.140410e-005 6.153998e-006 -7.847872e-001 -1.946868e-001 1.190829e-005 -1.126676e-005 -7.878008e-001 -1.955187e-001
306270000 9.488435e-006 4.701428e-006 -7.866595e-001 -1.728992e-001 8.669476e-006 -1.157272e-005 -7.896668e-001 -1.734647e-001
306555000 1.073019e-005 6.939677e-006 -7.880517e-001 -1.511600e-001 4.921580e-006 1.964023e-006 -7.910587e-001 -1.517572e-001
306840000 1.328602e-006 1.106867e-005 -7.890410e-001 -1.296658e-001 1.342931e-006 -1.904279e-005 -7.920888e-001 -1.301412e-001
307125000 2.077752e-007 1.008225e-005 -7.894742e-001 -1.081962e-001 -1.002826e-005 -2.019806e-005 -7.925517e-001 -1.086958e-001
307410000 -3.062256e-006 9.632921e-006 -7.896043e-001 -8.701595e-002 2.770790e-006 -1.127400e-005 -7.927047e-001 -8.730727e-002
307695000 2.564563e-006 1.489057e-005 -7.892552e-001 -6.591993e-002 9.278167e-006 -5.807469e-006 -7.922920e-001 -6.615289e-002
307980000 6.871967e-006 3.952092e-006 -7.884027e-001 -4.495033e-002 9.610420e-006 5.931678e-007 -7.915179e-001 -4.509075e-002
308265000 -1.452047e-005 1.827477e-006 -7.872477e-001 -2.409267e-002 3.569037e-006 -5.212205e-006 -7.904153e-001 -2.420909e-002
308550000 -1.046827e-005 -1.080210e-006 -7.857522e-001 -3.510679e-003 2.421944e-005 6.199586e-006 -7.888438e-001 -3.515245e-003
308835000 -1.854785e-005 -7.176835e-006 -7.838511e-001 1.700934e-002 -7.337732e-006 -2.219835e-006 -7.869037e-001 1.708302e-002
309120000 -9.316624e-006 -3.041563e-006 -7.815482e-001 3.740007e-002 -4.577764e-006 1.122203e-005 -7.845778e-001 3.752711e-002
309405000 8.881128e-006 -2.572157e-005 -7.789171e-001 5.764807e-002 -1.151650e-005 2.926530e-006 -7.818918e-001 5.792059e-002
309690000 -9.684758e-006 -9.015274e-006 -7.757556e-001 7.788280e-002 -7.024741e-006 -5.659295e-006 -7.788279e-001 7.818756e-002
309975000 1.626241e-005 -2.022180e-005 -7.723300e-001 9.782600e-002 -2.174122e-005 5.373397e-006 -7.754127e-001 9.825082e-002
310260000 -9.107411e-007 -2.289534e-006 -7.686169e-001 1.177278e-001 -9.958737e-006 6.198478e-006 -7.716382e-001 1.181843e-001
310545000 3.456933e-006 -6.133926e-006 -7.644165e-001 1.374887e-001 -1.150313e-005 7.158795e-006 -7.674299e-001 1.380495e-001
310830000 2.020673e-005 -1.438092e-006 -7.599357e-001 1.571587e-001 -4.112622e-006 -1.251410e-005 -7.629092e-001 1.578177e-001
311115000 1.447086e-005 -1.066079e-005 -7.551584e-001 1.767582e-001 -1.409303e-005 2.410285e-006 -7.581319e-001 1.774942e-001
311400000 2.956575e-007 -4.334674e-006 -7.499576e-001 1.962137e-001 -2.460037e-006 -7.743832e-006 -7.529048e-001 1.970633e-001
311685000 1.982368e-005 1.430132e-005 -7.444568e-001 2.156297e-001 -6.425421e-006 -5.111130e-006 -7.473399e-001 2.164446e-001
311970000 1.146851e-005 2.878540e-006 -7.385285e-001 2.349200e-001 -1.598463e-006 -1.248682e-005 -7.414232e-001 2.357681e-001
312255000 8.766378e-006 9.226894e-007 -7.323202e-001 2.540289e-001 -2.948166e-005 -1.033492e-005 -7.351972e-001 2.550471e-001
312540000 -3.764068e-006 6.897287e-006 -7.256700e-001 2.731739e-001 -2.039772e-005 -7.259271e-006 -7.285619e-001 2.742302e-001
312825000 -6.754547e-006 -1.626207e-005 -7.186810e-001 2.920990e-001 2.540645e-006 2.106879e-006 -7.215137e-001 2.932972e-001
313110000 -2.526852e-006 -2.240291e-005 -7.113373e-001 3.110366e-001 2.801073e-005 -4.844552e-006 -7.141733e-001 3.123734e-001
313395000 3.610684e-006 5.001843e-006 -7.036049e-001 3.298716e-001 4.177509e-006 -1.443394e-005 -7.064089e-001 3.312719e-001
313680000 -3.384534e-006 6.475524e-006 -6.955459e-001 3.487058e-001 -1.184354e-005 1.133460e-005 -6.983097e-001 3.501102e-001
313965000 9.359976e-006 -1.661344e-005 -6.870773e-001 3.673537e-001 -2.221202e-007 3.753323e-006 -6.897763e-001 3.688042e-001
314250000 -8.553296e-006 -1.559922e-005 -6.781777e-001 3.859430e-001 3.035903e-006 6.650889e-006 -6.809099e-001 3.874942e-001
314535000 -9.040301e-006 -7.052464e-006 -6.689468e-001 4.045195e-001 1.249700e-006 -2.394214e-007 -6.716086e-001 4.061074e-001
314820000 -5.217638e-006 3.811570e-006 -6.592479e-001 4.228827e-001 5.708764e-006 3.146978e-006 -6.619674e-001 4.246049e-001
315105000 9.079994e-006 5.119271e-006 -6.491995e-001 4.412493e-001 1.456120e-005 4.681904e-006 -6.517840e-001 4.430407e-001
315390000 -2.380415e-006 -6.574916e-006 -6.386909e-001 4.594603e-001 -3.649640e-006 2.010805e-006 -6.412657e-001 4.613776e-001
315675000 -1.842237e-005 -3.802443e-006 -6.277420e-001 4.777707e-001 -1.019820e-005 3.009072e-006 -6.302649e-001 4.796563e-001
315960000 -9.065820e-006 -2.001845e-005 -6.163298e-001 4.958183e-001 1.690967e-006 -6.713301e-006 -6.188529e-001 4.978821e-001
316245000 -4.104271e-006 -1.148227e-005 -6.044171e-001 5.138134e-001 -9.893627e-006 -9.462336e-006 -6.069576e-001 5.159163e-001
316530000 2.319672e-006 -3.874725e-006 -5.921590e-001 5.317600e-001 -4.097673e-006 -1.748718e-005 -5.946210e-001 5.339150e-001
316815000 -9.103803e-009 -1.153795e-005 -5.794161e-001 5.495149e-001 4.940519e-007 -9.777246e-006 -5.816807e-001 5.518354e-001
317100000 3.472522e-006 -9.856385e-007 -5.660191e-001 5.672916e-001 7.192135e-006 -1.334479e-005 -5.684462e-001 5.695236e-001
317385000 -3.585056e-006 -5.236650e-006 -5.522311e-001 5.848448e-001 -1.163771e-005 -2.115441e-005 -5.544748e-001 5.872735e-001
317670000 6.875726e-006 -8.907529e-006 -5.378803e-001 6.023214e-001 4.120226e-006 -4.907456e-006 -5.400438e-001 6.047084e-001
317955000 7.449269e-007 3.167790e-007 -5.230199e-001 6.195557e-001 -9.251581e-006 -2.684036e-005 -5.251065e-001 6.220981e-001
318240000 3.150517e-006 8.659411e-007 -5.076026e-001 6.366528e-001 8.527622e-007 -1.770422e-006 -5.096663e-001 6.392344e-001
318525000 -1.712249e-008 9.556951e-006 -4.915013e-001 6.536803e-001 7.839246e-006 -1.529058e-005 -4.935369e-001 6.563183e-001
318810000 5.825002e-006 -2.062337e-006 -4.749225e-001 6.704141e-001 1.283092e-005 1.102628e-005 -4.768885e-001 6.731254e-001
319095000 -1.232729e-005 6.515681e-006 -4.578265e-001 6.870725e-001 2.455464e-005 -7.321706e-006 -4.595929e-001 6.898454e-001
319380000 -2.044175e-005 -6.191269e-006 -4.398282e-001 7.033516e-001 1.481718e-005 -5.585676e-006 -4.416505e-001 7.062932e-001
319665000 6.292687e-006 -5.841317e-006 -4.214464e-001 7.194456e-001 7.858580e-006 3.817872e-006 -4.231759e-001 7.223759e-001
319950000 -9.409036e-006 -1.206659e-005 -4.022850e-001 7.352864e-001 1.183227e-007 1.357935e-005 -4.039533e-001 7.383491e-001
320235000 -1.539785e-005 -1.426198e-005 -3.825508e-001 7.508063e-001 -9.908896e-006 7.886262e-006 -3.841142e-001 7.539329e-001
320520000 -6.749563e-006 3.615519e-006 -3.620881e-001 7.660746e-001 -9.548736e-006 1.331493e-005 -3.636155e-001 7.691130e-001
320805000 2.442070e-005 -3.847424e-006 -3.409377e-001 7.809113e-001 -2.701084e-005 -6.250003e-006 -3.423049e-001 7.841210e-001
321090000 8.705846e-006 -1.210543e-005 -3.190897e-001 7.953970e-001 -9.349648e-006 7.355760e-006 -3.203692e-001 7.986016e-001
321375000 -8.387695e-006 -8.497684e-007 -2.963874e-001 8.094271e-001 -1.106520e-005 -1.417861e-005 -2.976912e-001 8.127282e-001
321660000 2.146260e-006 -4.437792e-006 -2.730932e-001 8.229830e-001 -2.732016e-006 1.411160e-006 -2.742788e-001 8.263564e-001
321945000 2.129611e-005 -4.280870e-006 -2.490979e-001 8.361466e-001 1.501459e-006 -5.642678e-006 -2.500935e-001 8.396019e-001
322230000 -4.857108e-006 3.004394e-006 -2.242477e-001 8.486856e-001 -1.130783e-005 4.296608e-006 -2.252290e-001 8.521910e-001
322515000 -6.137700e-006 2.747458e-006 -1.986458e-001 8.606594e-001 -7.196401e-006 -5.152972e-006 -1.995188e-001 8.642234e-001
322800000 4.664275e-008 6.262599e-006 -1.724067e-001 8.720163e-001 1.970368e-005 -1.505343e-006 -1.730995e-001 8.756241e-001
323085000 7.792692e-006 1.696336e-005 -1.452967e-001 8.826343e-001 -5.860097e-006 2.112498e-006 -1.459047e-001 8.864862e-001
323370000 8.986614e-006 2.135138e-007 -1.173826e-001 8.926274e-001 9.305214e-007 -8.169653e-006 -1.179669e-001 8.963221e-001
323655000 -1.262347e-006 5.208889e-007 -8.876406e-002 9.017653e-001 -3.171547e-006 2.011921e-006 -8.921652e-002 9.055473e-001
323940000 -7.005531e-006 -4.282933e-007 -5.951710e-002 9.101120e-001 1.703445e-005 -1.747320e-005 -5.976109e-002 9.137830e-001
324225000 -1.724258e-005 8.703578e-006 -2.934589e-002 9.174383e-001 9.597162e-006 -7.190551e-006 -2.955039e-002 9.212541e-001
324510000 -4.782457e-006 3.969608e-006 1.370690e-003 9.237849e-001 8.910492e-006 2.154059e-007 1.384359e-003 9.276193e-001
324795000 7.853899e-007 2.627281e-006 3.282125e-002 9.291339e-001 -1.718394e-006 1.396353e-005 3.297702e-002 9.330708e-001
325080000 -9.737469e-006 -1.195616e-005 6.496951e-002 9.334586e-001 -6.865692e-006 7.078865e-006 6.511449e-002 9.373813e-001
325365000 1.077205e-006 -2.170637e-006 9.773064e-002 9.365608e-001 1.352485e-005 -5.350674e-006 9.807917e-002 9.405623e-001
325650000 -5.540305e-007 -1.653911e-005 1.310594e-001 9.384822e-001 -1.673799e-006 1.452223e-005 1.315723e-001 9.424949e-001
325935000 5.866851e-006 -5.803814e-006 1.648796e-001 9.391199e-001 2.166654e-006 -2.609970e-006 1.656147e-001 9.431180e-001
326220000 7.452197e-006 -1.880085e-005 1.992369e-001 9.384136e-001 8.179429e-006 -5.157703e-006 2.000509e-001 9.424654e-001
326505000 -1.787724e-006 1.935306e-005 2.341018e-001 9.361786e-001 -1.252455e-005 -9.152115e-006 2.350272e-001 9.402471e-001
326790000 1.529350e-006 -2.760313e-006 2.691838e-001 9.326385e-001 -3.134605e-006 8.944267e-006 2.703969e-001 9.366430e-001
327075000 3.856073e-006 5.107262e-006 3.046232e-001 9.275587e-001 5.732670e-006 1.420081e-005 3.058594e-001 9.314908e-001
327360000 4.507907e-006 1.775877e-005 3.402742e-001 9.208390e-001 -9.596110e-007 8.134899e-007 3.416710e-001 9.246858e-001
327645000 -2.252386e-007 -3.276123e-006 3.760590e-001 9.125135e-001 -8.692041e-006 -6.958844e-006 3.776451e-001 9.163297e-001
327930000 -7.758872e-006 1.040711e-005 4.118468e-001 9.025095e-001 -2.726357e-006 1.550500e-005 4.135141e-001 9.063467e-001
328215000 -4.551584e-006 7.055616e-006 4.475652e-001 8.908098e-001 8.641715e-006 -5.088360e-006 4.494666e-001 8.945289e-001
328500000 -2.254341e-006 6.619239e-006 4.830980e-001 8.772928e-001 -4.211675e-006 6.055243e-006 4.852059e-001 8.810842e-001
328785000 -1.269861e-005 -1.549702e-005 5.183138e-001 8.621205e-001 4.435739e-006 -1.537939e-006 5.205884e-001 8.658503e-001
329070000 -2.317855e-006 -2.340963e-005 5.531363e-001 8.451884e-001 -1.094542e-006 1.253800e-005 5.554700e-001 8.488695e-001
329355000 -9.639368e-006 7.625916e-007 5.875944e-001 8.264050e-001 3.870194e-006 1.426300e-005 5.901293e-001 8.299513e-001
329640000 -1.155159e-005 -7.468444e-006 6.212204e-001 8.059922e-001 -7.792650e-006 -3.923360e-006 6.239566e-001 8.094845e-001
329925000 1.072479e-005 -8.887283e-006 6.542120e-001 7.838091e-001 -4.479304e-006 1.057380e-005 6.570415e-001 7.870984e-001
330210000 -1.258707e-006 5.814427e-006 6.862428e-001 7.598814e-001 -5.890053e-006 1.434097e-005 6.892469e-001 7.631474e-001
330495000 -1.068724e-005 1.578979e-006 7.174200e-001 7.343820e-001 1.075686e-006 6.972394e-006 7.204325e-001 7.375178e-001
330780000 1.203057e-006 5.370546e-006 7.472907e-001 7.070450e-001 -6.988760e-006 -6.755801e-006 7.505566e-001 7.101727e-001
331065000 -8.044124e-006 8.174519e-006 7.760224e-001 6.783837e-001 -7.322474e-006 -6.465547e-007 7.792797e-001 6.812709e-001
331350000 1.962498e-006 1.643220e-006 8.034015e-001 6.481557e-001 -1.514836e-005 -5.549989e-006 8.069440e-001 6.509271e-001
331635000 6.850285e-006 6.675421e-007 8.293701e-001 6.164984e-001 -1.622938e-006 -1.448719e-005 8.329411e-001 6.192052e-001
331920000 -8.383661e-006 8.364957e-006 8.537580e-001 5.836523e-001 -1.670409e-006 1.010236e-005 8.574868e-001 5.862168e-001
332205000 -1.557662e-005 2.487419e-006 8.765309e-001 5.495864e-001 1.994096e-006 -4.651999e-006 8.803381e-001 5.520201e-001
332490000 -1.406589e-005 -1.637676e-007 8.977256e-001 5.144735e-001 1.296328e-005 7.753562e-007 9.015394e-001 5.166743e-001
332775000 -6.207379e-006 4.411514e-006 9.169137e-001 4.783403e-001 8.925520e-006 -1.009349e-005 9.209814e-001 4.804126e-001
333060000 -1.521404e-005 7.310849e-006 9.343939e-001 4.413873e-001 3.141322e-006 -3.954383e-006 9.384920e-001 4.433020e-001
333345000 -3.818412e-006 8.453095e-006 9.501311e-001 4.036293e-001 5.868717e-006 -2.668278e-006 9.541626e-001 4.053894e-001
333630000 1.492583e-006 -3.308733e-006 9.637548e-001 3.654458e-001 1.231871e-005 -1.716711e-006 9.679779e-001 3.670787e-001
333915000 -2.376290e-006 1.737081e-005 9.754739e-001 3.266706e-001 -1.548392e-005 -2.612225e-006 9.797701e-001 3.280743e-001
334200000 -1.316323e-005 -3.241257e-006 9.853880e-001 2.876444e-001 -8.929755e-006 9.054240e-006 9.897100e-001 2.889763e-001
334485000 -1.269144e-005 3.180326e-006 9.933632e-001 2.483361e-001 -4.369764e-006 -2.184421e-006 9.977021e-001 2.494418e-001
334770000 8.767169e-007 1.274170e-005 9.993095e-001 2.091023e-001 -8.366212e-006 2.686272e-006 1.003641e+000 2.099690e-001
335055000 -1.465487e-005 -6.418888e-009 1.003418e+000 1.698540e-001 -2.044368e-006 -3.129541e-006 1.007806e+000 1.705170e-001
335340000 5.023192e-006 1.554401e-005 1.005604e+000 1.308253e-001 4.287094e-007 -3.072058e-006 1.009896e+000 1.313674e-001
335625000 -7.950055e-007 6.101785e-006 1.005864e+000 9.210293e-002 -2.025060e-006 2.590160e-007 1.010257e+000 9.243105e-002
335910000 -2.391153e-005 -7.190825e-006 1.004596e+000 5.373083e-002 1.638048e-006 5.118206e-006 1.008958e+000 5.389117e-002
336195000 7.321816e-006 -2.997850e-006 1.001349e+000 1.586945e-002 6.782337e-007 -1.196497e-005 1.005867e+000 1.592777e-002
336480000 -7.880325e-006 1.304319e-007 9.966981e-001 -2.139133e-002 1.666476e-005 6.844678e-006 1.001079e+000 -2.149900e-002
336765000 -1.680155e-005 -4.049192e-006 9.904260e-001 -5.807635e-002 -1.263067e-006 1.516095e-005 9.947155e-001 -5.826930e-002
337050000 2.883973e-006 6.023701e-006 9.826038e-001 -9.385073e-002 -1.255108e-005 7.368360e-006 9.868302e-001 -9.430075e-002
337335000 -1.583755e-005 -3.347336e-006 9.733444e-001 -1.289796e-001 1.243835e-005 -3.783110e-006 9.776396e-001 -1.295050e-001
337620000 -6.052874e-006 -8.909637e-006 9.627675e-001 -1.631489e-001 1.597457e-005 -9.373365e-006 9.670269e-001 -1.638461e-001
337905000 -4.841366e-006 -1.060802e-005 9.510189e-001 -1.964497e-001 -1.910021e-005 6.079676e-006 9.551916e-001 -1.973391e-001
338190000 8.134098e-006 1.531466e-007 9.380433e-001 -2.287135e-001 2.579887e-006 -4.966782e-006 9.421033e-001 -2.298526e-001
338475000 -1.730806e-005 4.040386e-006 9.238707e-001 -2.601852e-001 1.193410e-006 3.428755e-007 9.280185e-001 -2.611510e-001
338760000 -3.933534e-007 -1.053058e-005 9.089093e-001 -2.904202e-001 -7.685326e-007 3.727843e-006 9.128277e-001 -2.917087e-001
339045000 -6.108587e-006 -8.200472e-008 8.927993e-001 -3.198438e-001 -3.524251e-006 -8.223560e-006 8.966988e-001 -3.210455e-001
339330000 1.433864e-007 3.838435e-006 8.759629e-001 -3.479553e-001 -8.113412e-007 -4.940668e-006 8.797550e-001 -3.494956e-001
339615000 -7.335783e-006 -1.223519e-005 8.583441e-001 -3.751668e-001 1.104519e-006 3.034623e-006 8.619620e-001 -3.767347e-001
339900000 8.794641e-006 -1.420076e-006 8.399409e-001 -4.012732e-001 -8.552253e-006 -1.583623e-006 8.435972e-001 -4.030218e-001
340185000 2.943551e-006 -3.491674e-006 8.209223e-001 -4.263063e-001 8.682508e-007 -1.214536e-006 8.245441e-001 -4.282103e-001
340470000 -3.445070e-006 1.202180e-005 8.013113e-001 -4.502670e-001 1.738959e-006 8.002705e-006 8.048626e-001 -4.523554e-001
340755000 7.892846e-007 1.343335e-005 7.813020e-001 -4.731661e-001 -1.258000e-005 -1.429038e-005 7.846691e-001 -4.751883e-001
341040000 -1.008724e-005 1.856560e-005 7.607638e-001 -4.951139e-001 8.198232e-006 -6.414514e-007 7.640777e-001 -4.972514e-001
341325000 -5.363807e-006 1.162785e-005 7.398475e-001 -5.160883e-001 2.183415e-005 -1.463342e-005 7.430006e-001 -5.183158e-001
341610000 2.015964e-006 8.561640e-006 7.185937e-001 -5.359675e-001 -9.327487e-006 -1.362313e-005 7.216306e-001 -5.381936e-001
341895000 -1.666924e-005 6.996969e-006 6.971146e-001 -5.548558e-001 -1.031219e-005 9.993005e-006 6.999789e-001 -5.572258e-001
342180000 -2.200309e-005 1.205966e-006 6.752074e-001 -5.728211e-001 -2.174405e-006 2.348118e-006 6.781537e-001 -5.751967e-001
342465000 -1.184398e-005 1.077231e-006 6.532469e-001 -5.898458e-001 1.139289e-005 -9.451310e-006 6.560208e-001 -5.922688e-001
342750000 -3.441238e-005 -3.875358e-006 6.310982e-001 -6.060401e-001 4.193965e-006 -1.149466e-005 6.337415e-001 -6.084625e-001
343035000 -2.926773e-006 -1.273527e-005 6.088067e-001 -6.211650e-001 2.438716e-005 -1.337006e-005 6.113922e-001 -6.238202e-001
343320000 -4.187536e-007 -1.511016e-005 5.864682e-001 -6.355997e-001 -1.452443e-005 3.539376e-006 5.888551e-001 -6.382273e-001
343605000 4.798789e-006 -9.725964e-006 5.639649e-001 -6.491044e-001 8.059915e-006 1.819837e-005 5.663573e-001 -6.518058e-001
343890000 1.289560e-006 -1.874316e-006 5.413995e-001 -6.618016e-001 -4.224564e-006 1.566845e-006 5.437573e-001 -6.645216e-001
