!Agilent Technologies,N5230C,SG49000117,A.08.50.07
!Agilent N5230C: A.08.50.07
!Date: Sunday, March 17, 2024 07:05:23
!Correction: S11(Off) 
!S21(Off) 
!S12(Off) 
!S22(Off) 
!S2P File: Measurements: S11, S21, S12, S22:
# Hz S  RI   R 50
300000000 -2.629931e-006 1.507577e-006 -6.054689e-001 -6.727559e-001 7.890711e-006 -1.448562e-006 -6.076875e-001 -6.752174e-001
300285000 3.983536e-006 4.889874e-006 -6.216781e-001 -6.497858e-001 1.091914e-006 1.435063e-005 -6.239578e-001 -6.521396e-001
300570000 3.621465e-007 2.348209e-006 -6.371269e-001 -6.265278e-001 -6.273832e-007 1.377114e-005 -6.393500e-001 -6.288508e-001
300855000 1.498835e-006 -1.647046e-005 -6.514972e-001 -6.033030e-001 -3.176534e-006 1.074871e-005 -6.539916e-001 -6.054587e-001
301140000 7.833034e-006 -1.910415e-005 -6.652623e-001 -5.797031e-001 5.877192e-006 -1.524680e-005 -6.676480e-001 -5.819096e-001
301425000 -1.800580e-005 -2.096483e-005 -6.780786e-001 -5.561801e-001 -7.280963e-006 1.360663e-005 -6.805083e-001 -5.583243e-001
301710000 1.309779e-005 6.372365e-006 -6.899678e-001 -5.327030e-001 1.239423e-005 -8.593157e-006 -6.925089e-001 -5.346340e-001
301995000 1.373952e-005 -8.316693e-007 -7.010500e-001 -5.091978e-001 7.828165e-007 -1.044841e-005 -7.037035e-001 -5.110742e-001
302280000 -4.026662e-006 -1.003424e-005 -7.114044e-001 -4.857073e-001 5.008117e-006 -1.104585e-005 -7.140766e-001 -4.875215e-001
302565000 1.433317e-007 6.635558e-006 -7.210448e-001 -4.623145e-001 1.492615e-006 2.400301e-006 -7.236598e-001 -4.640180e-001
302850000 1.299892e-006 5.478389e-006 -7.297983e-001 -4.389426e-001 6.990359e-006 -6.052761e-006 -7.325093e-001 -4.405347e-001
303135000 -2.426827e-006 -6.008125e-006 -7.379844e-001 -4.155897e-001 8.915478e-006 2.696958e-006 -7.407357e-001 -4.172270e-001
303420000 3.459315e-006 -2.532447e-006 -7.454392e-001 -3.924843e-001 2.305504e-006 -6.964233e-006 -7.482048e-001 -3.939718e-001
303705000 -5.160653e-006 -3.953083e-006 -7.521917e-001 -3.693564e-001 9.668192e-006 -4.435758e-006 -7.550558e-001 -3.708597e-001
303990000 6.403056e-006 1.849306e-006 -7.583758e-001 -3.464243e-001 -1.245156e-005 -3.431689e-006 -7.612119e-001 -3.477766e-001
304275000 2.820506e-006 1.502373e-006 -7.639058e-001 -3.236218e-001 -1.744784e-006 -2.088561e-006 -7.668011e-001 -3.248605e-001
304560000 7.216375e-006 6.420134e-006 -7.688427e-001 -3.009146e-001 -6.854764e-006 2.092561e-006 -7.718444e-001 -3.021259e-001
304845000 -3.322654e-006 3.792479e-006 -7.732522e-001 -2.784434e-001 -8.533215e-006 9.254206e-007 -7.761846e-001 -2.794590e-001
305130000 -5.522542e-006 8.778961e-006 -7.771841e-001 -2.560358e-001 2.837605e-006 1.905116e-006 -7.800562e-001 -2.569843e-001
305415000 -3.470160e-006 -5.255072e-006 -7.804197e-001 -2.337837e-001 -8.666800e-006 -3.371930e-006 -7.834039e-001 -2.346734e-001
305700000 9.013051e-007 -2.501571e-005 -7.831578e-001 -2.116077e-001 8.553038e-006 -1.743890e-005 -7.861861e-001 -2.124404e-001
305985000 4.036429e-006 5.056011e-006 -7.853808e-001 -1.896302e-001 1.023887e-005 -1.434064e-007 -7.884570e-001 -1.903508e-001
306270000 -4.242850e-006 1.781646e-006 -7.871486e-001 -1.678431e-001 -1.001326e-005 -7.914236e-006 -7.901963e-001 -1.685186e-001
306555000 1.374698e-005 -9.187444e-006 -7.885323e-001 -1.461098e-001 7.631757e-006 -3.275522e-006 -7.915258e-001 -1.466954e-001
306840000 1.668638e-005 5.045955e-006 -7.893417e-001 -1.246003e-001 -7.508108e-006 -1.292957e-005 -7.923589e-001 -1.250997e-001
307125000 4.383383e-006 -2.763550e-007 -7.896935e-001 -1.033086e-001 7.606047e-006 -1.407243e-005 -7.927712e-001 -1.036360e-001
307410000 -7.263539e-006 2.626168e-006 -7.896936e-001 -8.204214e-002 9.909572e-006 -7.301072e-006 -7.927349e-001 -8.235665e-002
307695000 8.956851e-006 4.360094e-006 -7.892280e-001 -6.092687e-002 1.667881e-005 -4.723770e-006 -7.922916e-001 -6.127010e-002
307980000 -1.702967e-006 3.086042e-006 -7.883926e-001 -4.003333e-002 2.026700e-006 1.114123e-005 -7.914119e-001 -4.022378e-002
308265000 -6.997785e-006 -2.974296e-006 -7.871130e-001 -1.923602e-002 3.966225e-006 -8.477899e-006 -7.901716e-001 -1.936898e-002
308550000 6.520516e-006 2.923689e-008 -7.853899e-001 1.421755e-003 -3.816182e-006 -9.572062e-006 -7.884591e-001 1.318186e-003
308835000 -2.934533e-006 5.826093e-006 -7.833778e-001 2.184578e-002 2.089790e-006 -1.264775e-006 -7.864782e-001 2.199318e-002
309120000 4.442418e-006 -9.058233e-006 -7.810208e-001 4.224573e-002 -3.039379e-007 -5.579916e-006 -7.840099e-001 4.243445e-002
309405000 6.801961e-006 -1.026444e-005 -7.782107e-001 6.244924e-002 -1.194479e-006 1.038370e-005 -7.812483e-001 6.273530e-002
309690000 1.065981e-005 -1.483251e-005 -7.750682e-001 8.262899e-002 4.764624e-006 1.341174e-007 -7.781124e-001 8.292823e-002
309975000 4.734970e-006 -3.846864e-006 -7.715482e-001 1.026273e-001 -4.169127e-006 6.913224e-006 -7.745657e-001 1.030343e-001
310260000 -1.382428e-006 5.088195e-006 -7.676469e-001 1.224841e-001 -3.471578e-006 2.564189e-006 -7.706958e-001 1.229578e-001
310545000 1.006089e-005 -1.477370e-005 -7.634335e-001 1.422546e-001 -4.047021e-006 7.101907e-006 -7.664376e-001 1.428339e-001
310830000 -4.829208e-006 2.051799e-005 -7.588946e-001 1.618729e-001 -9.960940e-006 5.375247e-006 -7.618591e-001 1.624986e-001
311115000 1.588934e-005 -1.539822e-005 -7.539396e-001 1.814751e-001 -1.172786e-005 -4.677067e-006 -7.569137e-001 1.821592e-001
311400000 7.555043e-006 -7.951606e-006 -7.486479e-001 2.008890e-001 -1.928541e-005 -1.059376e-005 -7.516665e-001 2.017494e-001
311685000 6.322774e-006 6.208134e-006 -7.429836e-001 2.202108e-001 -1.237421e-005 -1.418042e-005 -7.459302e-001 2.211274e-001
311970000 -3.000400e-006 -1.722123e-006 -7.370188e-001 2.394801e-001 -7.466436e-006 -2.384442e-005 -7.399840e-001 2.404430e-001
312255000 1.790073e-006 -2.716209e-006 -7.306586e-001 2.586548e-001 1.894879e-006 -1.124032e-005 -7.335551e-001 2.596527e-001
312540000 8.153673e-006 2.902960e-006 -7.239112e-001 2.777446e-001 -7.366242e-006 -9.036715e-006 -7.268628e-001 2.788165e-001
312825000 -1.509316e-005 -1.731498e-005 -7.168769e-001 2.966822e-001 -1.336380e-005 -1.512342e-006 -7.197172e-001 2.978327e-001
313110000 -1.836750e-006 8.947479e-007 -7.094463e-001 3.155918e-001 -9.127128e-006 6.171108e-006 -7.122430e-001 3.168741e-001
313395000 -8.944860e-006 -1.313356e-005 -7.016377e-001 3.344492e-001 1.014673e-007 -9.285223e-006 -7.044567e-001 3.357081e-001
313680000 -2.045391e-005 -8.228985e-007 -6.934035e-001 3.531461e-001 -9.413238e-006 9.697377e-006 -6.962460e-001 3.546049e-001
313965000 -8.382220e-006 1.631625e-005 -6.848653e-001 3.718076e-001 -7.254245e-006 1.223135e-005 -6.876353e-001 3.733045e-001
314250000 -6.953225e-006 -1.251256e-005 -6.758799e-001 3.903842e-001 1.412116e-005 6.174452e-006 -6.786430e-001 3.919389e-001
314535000 1.988580e-006 2.251531e-006 -6.665199e-001 4.089003e-001 -4.183506e-006 -3.651190e-006 -6.692322e-001 4.105587e-001
314820000 1.212965e-005 -5.667985e-006 -6.568042e-001 4.272847e-001 1.056388e-005 -4.477239e-006 -6.594447e-001 4.290549e-001
315105000 -7.791987e-006 4.831084e-006 -6.464673e-001 4.456132e-001 -7.043772e-006 1.315232e-005 -6.491565e-001 4.474077e-001
315390000 -4.974629e-006 1.904621e-006 -6.359684e-001 4.638762e-001 -2.547758e-006 5.393020e-006 -6.384652e-001 4.657039e-001
315675000 -6.103189e-006 -1.421939e-006 -6.248053e-001 4.820401e-001 -2.065125e-006 3.279294e-006 -6.273752e-001 4.840082e-001
315960000 -4.582007e-006 -5.913004e-007 -6.133536e-001 5.000742e-001 4.302331e-006 -1.660397e-007 -6.158645e-001 5.020958e-001
316245000 -5.723733e-006 6.579471e-006 -6.014079e-001 5.181066e-001 -8.872159e-007 -3.598658e-006 -6.038952e-001 5.201459e-001
316530000 -7.572582e-006 6.855795e-006 -5.890224e-001 5.359829e-001 8.457653e-006 -7.799490e-006 -5.913640e-001 5.381059e-001
316815000 -7.703092e-006 -8.484183e-006 -5.760738e-001 5.538031e-001 -4.501991e-006 -2.420802e-006 -5.783561e-001 5.559443e-001
317100000 -1.198130e-006 -3.110916e-006 -5.626079e-001 5.713207e-001 3.938697e-006 -7.907031e-006 -5.648663e-001 5.736958e-001
317385000 -1.955636e-006 -1.063944e-005 -5.486715e-001 5.889351e-001 -6.800492e-006 -1.064768e-007 -5.509024e-001 5.912787e-001
317670000 4.341301e-006 -1.424657e-005 -5.341798e-001 6.062877e-001 -9.045166e-006 -6.322894e-006 -5.363604e-001 6.087465e-001
317955000 -2.537538e-006 -1.743019e-005 -5.190855e-001 6.235216e-001 -2.384495e-006 -1.646121e-006 -5.212263e-001 6.261037e-001
318240000 1.093093e-005 -1.071767e-005 -5.035436e-001 6.405888e-001 3.787345e-006 -6.202461e-006 -5.055971e-001 6.432495e-001
318525000 -7.790713e-006 1.321932e-005 -4.873944e-001 6.575032e-001 1.572016e-005 4.555094e-006 -4.893703e-001 6.601575e-001
318810000 1.393869e-005 3.603432e-008 -4.706497e-001 6.742631e-001 1.017623e-005 8.454583e-006 -4.726262e-001 6.769546e-001
319095000 -5.645349e-006 5.374103e-006 -4.533376e-001 6.907078e-001 -8.545902e-006 2.553997e-006 -4.551343e-001 6.935564e-001
319380000 3.076169e-006 4.177258e-006 -4.353816e-001 7.070085e-001 -2.442969e-006 6.409669e-006 -4.371494e-001 7.099102e-001
319665000 1.403014e-005 4.147655e-006 -4.167131e-001 7.229863e-001 -1.024014e-005 2.014946e-006 -4.184241e-001 7.260225e-001
319950000 6.754995e-007 -4.782090e-007 -3.974301e-001 7.387708e-001 1.505293e-006 9.744769e-006 -3.990577e-001 7.418591e-001
320235000 6.966981e-007 7.543209e-006 -3.775524e-001 7.542170e-001 9.251765e-006 5.725543e-006 -3.790883e-001 7.573351e-001
320520000 5.280027e-006 -1.058171e-005 -3.568163e-001 7.693961e-001 4.000686e-006 -9.171516e-006 -3.583866e-001 7.725596e-001
320805000 -1.406717e-005 2.158514e-006 -3.355809e-001 7.841074e-001 -1.408036e-005 -1.117310e-006 -3.369517e-001 7.873654e-001
321090000 1.158671e-005 -1.756250e-006 -3.135498e-001 7.984304e-001 -2.995251e-006 -6.054922e-006 -3.148843e-001 8.017935e-001
321375000 -2.728562e-006 1.526492e-005 -2.908735e-001 8.123733e-001 1.174333e-005 -8.234051e-007 -2.919024e-001 8.157703e-001
321660000 -7.256404e-006 1.414441e-005 -2.673604e-001 8.258776e-001 -7.792289e-006 -1.355811e-005 -2.683694e-001 8.292668e-001
321945000 -1.723397e-005 -8.350577e-006 -2.431189e-001 8.388098e-001 5.780641e-007 2.382060e-006 -2.440169e-001 8.422647e-001
322230000 -8.397216e-006 1.321865e-006 -2.180893e-001 8.511453e-001 -1.618416e-005 1.111412e-005 -2.190158e-001 8.547705e-001
322515000 -1.973647e-006 1.393255e-006 -1.923144e-001 8.630008e-001 -1.342709e-006 -7.784964e-006 -1.931437e-001 8.665435e-001
322800000 1.485217e-006 -9.179401e-006 -1.658562e-001 8.741819e-001 3.840479e-006 -1.368996e-005 -1.665463e-001 8.778604e-001
323085000 5.399477e-006 -1.580939e-005 -1.386271e-001 8.847025e-001 5.074436e-006 1.743758e-005 -1.391896e-001 8.884140e-001
323370000 6.617813e-006 -1.486417e-005 -1.106011e-001 8.944684e-001 1.463279e-005 7.963642e-007 -1.110196e-001 8.981924e-001
323655000 5.161261e-006 -6.460571e-006 -8.182756e-002 9.033561e-001 -9.882381e-006 -1.505170e-006 -8.221051e-002 9.071362e-001
323940000 -6.011762e-006 -5.486113e-006 -5.238455e-002 9.114583e-001 1.587971e-005 5.445620e-006 -5.260667e-002 9.152542e-001
324225000 9.828911e-006 2.255821e-006 -2.221976e-002 9.186069e-001 1.216690e-005 6.052474e-007 -2.221882e-002 9.224522e-001
324510000 -4.352334e-006 2.734241e-006 8.752981e-003 9.247391e-001 -1.171493e-006 -1.881587e-006 8.846427e-003 9.286559e-001
324795000 -4.948598e-006 -1.147725e-005 4.033644e-002 9.299214e-001 -1.513176e-005 3.652060e-006 4.057588e-002 9.338639e-001
325080000 -7.799577e-006 4.341654e-007 7.262384e-002 9.338825e-001 -3.809023e-006 -3.997390e-006 7.294053e-002 9.378721e-001
325365000 1.394143e-006 -3.480746e-007 1.054925e-001 9.367509e-001 2.478024e-006 1.097021e-006 1.060460e-001 9.408015e-001
325650000 4.441053e-006 8.564608e-007 1.389517e-001 9.383157e-001 -8.734070e-006 1.028324e-006 1.395694e-001 9.423770e-001
325935000 3.674010e-006 -8.491531e-007 1.728715e-001 9.386415e-001 1.013965e-005 6.013780e-006 1.736961e-001 9.427019e-001
326220000 -3.218570e-006 -2.264219e-006 2.073219e-001 9.376678e-001 2.000850e-006 -6.858454e-006 2.081672e-001 9.416298e-001
326505000 -1.313983e-006 1.276454e-006 2.421813e-001 9.351811e-001 3.362832e-006 2.199895e-005 2.432214e-001 9.391566e-001
326790000 -4.259708e-006 4.473399e-006 2.773880e-001 9.311871e-001 -3.410200e-006 7.563286e-007 2.786010e-001 9.351616e-001
327075000 2.860922e-006 -1.104140e-005 3.128536e-001 9.256967e-001 -8.199828e-006 4.866638e-006 3.141182e-001 9.296008e-001
327360000 -1.628571e-005 6.721580e-006 3.485661e-001 9.186710e-001 7.152348e-006 -2.709185e-006 3.499765e-001 9.225410e-001
327645000 -1.666578e-006 2.738643e-006 3.842993e-001 9.099473e-001 -1.273675e-005 -9.114217e-006 3.859515e-001 9.137977e-001
327930000 -3.651890e-006 -1.704729e-005 4.200378e-001 8.995472e-001 -7.383504e-006 -8.066444e-006 4.219478e-001 9.033936e-001
328215000 -4.753400e-006 5.342094e-006 4.557463e-001 8.874344e-001 -8.711138e-006 3.341205e-006 4.576916e-001 8.912008e-001
328500000 1.082112e-005 1.343995e-007 4.912602e-001 8.736207e-001 -7.696005e-007 7.873250e-006 4.933605e-001 8.773687e-001
328785000 -1.013129e-006 1.085326e-006 5.263491e-001 8.580118e-001 2.135056e-005 -1.981327e-007 5.286579e-001 8.616707e-001
329070000 -5.450101e-006 1.525296e-005 5.611139e-001 8.406802e-001 7.576335e-006 -1.532227e-006 5.634594e-001 8.443062e-001
329355000 -1.979076e-005 -2.824696e-006 5.953885e-001 8.215134e-001 -7.293310e-006 -3.264184e-007 5.979595e-001 8.250597e-001
329640000 -9.086714e-006 9.298436e-006 6.288995e-001 8.007966e-001 4.461295e-006 -2.421784e-006 6.315807e-001 8.041712e-001
329925000 3.106184e-006 -5.906088e-006 6.616234e-001 7.780985e-001 7.163698e-006 -8.705523e-006 6.645253e-001 7.814671e-001
330210000 -1.841952e-005 -4.483799e-006 6.934550e-001 7.538596e-001 -3.427155e-006 1.115211e-005 6.964245e-001 7.570727e-001
330495000 -3.695024e-006 -3.894086e-006 7.243189e-001 7.279643e-001 -7.647909e-007 5.031236e-007 7.273809e-001 7.310341e-001
330780000 -3.162008e-006 -6.503632e-006 7.539687e-001 7.003031e-001 -1.041214e-005 -7.832143e-006 7.572082e-001 7.033795e-001
331065000 -1.068740e-005 -2.215778e-005 7.823702e-001 6.712867e-001 -1.048161e-005 -4.430866e-006 7.857268e-001 6.741623e-001
331350000 -5.511039e-006 -5.226504e-006 8.094572e-001 6.407772e-001 6.896266e-006 2.871641e-007 8.129755e-001 6.435738e-001
331635000 6.037938e-006 7.827418e-007 8.350728e-001 6.087626e-001 1.574735e-005 1.165258e-005 8.386708e-001 6.115133e-001
331920000 -8.701423e-006 1.147737e-006 8.591525e-001 5.756766e-001 -1.866514e-005 -6.984426e-008 8.628389e-001 5.781876e-001
332205000 7.203872e-006 5.865387e-006 8.814899e-001 5.413818e-001 -8.566095e-006 -1.728931e-006 8.854086e-001 5.436750e-001
332490000 3.737832e-006 8.719171e-006 9.022677e-001 5.060294e-001 3.374457e-006 4.651692e-007 9.061527e-001 5.082371e-001
332775000 8.664752e-006 1.185055e-005 9.210972e-001 4.695897e-001 4.766391e-006 6.112232e-007 9.251049e-001 4.716668e-001
333060000 9.600516e-006 2.493961e-006 9.381627e-001 4.325435e-001 1.835912e-006 4.583665e-006 9.422593e-001 4.344074e-001
333345000 1.292489e-005 -4.282339e-006 9.534280e-001 3.946410e-001 -3.658171e-006 6.945936e-006 9.575101e-001 3.963941e-001
333630000 -6.958732e-006 5.644345e-006 9.665896e-001 3.562016e-001 -7.591702e-006 4.290141e-006 9.708433e-001 3.578597e-001
333915000 -5.524957e-006 -1.208902e-005 9.779295e-001 3.174478e-001 -4.145486e-006 -9.032589e-008 9.822366e-001 3.188006e-001
334200000 1.552380e-005 8.957823e-006 9.874220e-001 2.783447e-001 -1.039829e-005 3.926789e-006 9.917217e-001 2.795965e-001
334485000 -1.179382e-006 1.467543e-006 9.949372e-001 2.390248e-001 -1.246539e-005 7.213594e-006 9.992264e-001 2.401116e-001
334770000 2.740259e-007 1.858619e-005 1.000436e+000 1.997855e-001 -1.481862e-005 7.429037e-006 1.004797e+000 2.005926e-001
335055000 1.546322e-005 1.341599e-005 1.004107e+000 1.605377e-001 -1.559873e-005 -6.298384e-006 1.008588e+000 1.612398e-001
335340000 8.074193e-006 -1.598516e-006 1.005818e+000 1.215029e-001 6.742069e-006 3.494321e-006 1.010324e+000 1.220170e-001
335625000 2.670258e-006 7.126618e-006 1.005854e+000 8.284672e-002 4.487006e-006 4.677512e-007 1.010217e+000 8.325742e-002
335910000 2.726618e-006 -3.167786e-006 1.004038e+000 4.458006e-002 -9.710850e-006 -1.183846e-005 1.008366e+000 4.478035e-002
336195000 -1.456126e-005 4.058360e-006 1.000530e+000 6.907964e-003 -1.101080e-005 2.876171e-006 1.004922e+000 6.888499e-003
336480000 1.062817e-005 8.794917e-006 9.954597e-001 -3.029501e-002 4.055241e-006 3.771265e-006 9.998454e-001 -3.041413e-002
336765000 3.288916e-006 2.292874e-006 9.887717e-001 -6.678922e-002 -1.345533e-005 2.385234e-006 9.930871e-001 -6.697462e-002
337050000 -1.587176e-006 -1.157652e-005 9.807009e-001 -1.025131e-001 -1.280073e-005 1.972603e-006 9.848732e-001 -1.029016e-001
337335000 -1.008735e-005 1.371899e-005 9.710519e-001 -1.373334e-001 -2.233762e-006 -7.985124e-006 9.752838e-001 -1.379475e-001
337620000 1.053432e-005 -6.383332e-006 9.601638e-001 -1.713346e-001 -6.914484e-006 -4.713873e-006 9.643815e-001 -1.721542e-001
337905000 5.717343e-007 -1.995518e-006 9.481839e-001 -2.044868e-001 5.961366e-006 3.170257e-006 9.521731e-001 -2.053340e-001
338190000 -8.560641e-006 -2.341910e-006 9.349179e-001 -2.365986e-001 9.813133e-006 -7.695386e-006 9.388811e-001 -2.375459e-001
338475000 8.147980e-008 -6.868555e-006 9.204595e-001 -2.677400e-001 -3.112161e-007 5.508693e-006 9.245107e-001 -2.688705e-001
338760000 2.513253e-006 -3.879843e-007 9.052235e-001 -2.977661e-001 -4.468843e-006 4.054759e-007 9.091125e-001 -2.991382e-001
339045000 6.642169e-006 -4.336870e-006 8.889334e-001 -3.268349e-001 4.950234e-006 -1.712592e-006 8.927190e-001 -3.282741e-001
339330000 -1.990140e-007 7.163582e-006 8.718198e-001 -3.549415e-001 7.789719e-006 -3.909802e-006 8.756583e-001 -3.564738e-001
339615000 1.956223e-005 1.204452e-005 8.540362e-001 -3.818378e-001 4.607601e-006 2.660946e-006 8.576825e-001 -3.834530e-001
339900000 9.980669e-006 -3.221945e-006 8.354991e-001 -4.077160e-001 -9.467489e-006 -3.262425e-006 8.390168e-001 -4.094782e-001
340185000 1.119426e-005 -3.557650e-006 8.163350e-001 -4.324448e-001 -4.899305e-006 6.585952e-006 8.198224e-001 -4.343911e-001
340470000 -6.458710e-006 -6.567919e-006 7.966192e-001 -4.563446e-001 -1.867310e-005 1.995786e-005 7.999461e-001 -4.582341e-001
340755000 1.090223e-006 8.715360e-006 7.763411e-001 -4.789975e-001 -6.332774e-006 2.386469e-006 7.796806e-001 -4.810086e-001
341040000 -3.488585e-006 -5.829152e-006 7.557302e-001 -5.005868e-001 -5.753716e-007 2.914292e-006 7.589817e-001 -5.027363e-001
341325000 -8.466196e-006 -1.619667e-005 7.346980e-001 -5.213266e-001 -1.125010e-005 3.805076e-006 7.378622e-001 -5.235206e-001
341610000 -1.196765e-005 2.294687e-006 7.133440e-001 -5.410278e-001 -6.519174e-006 -9.493938e-006 7.163272e-001 -5.432824e-001
341895000 1.951394e-005 -1.155461e-005 6.916971e-001 -5.596634e-001 -8.086034e-006 6.377525e-006 6.946551e-001 -5.620016e-001
342180000 1.282001e-005 -7.508339e-006 6.698342e-001 -5.774058e-001 -1.230907e-005 -1.783310e-006 6.726691e-001 -5.798712e-001
342465000 6.809114e-006 -1.057413e-005 6.477742e-001 -5.941637e-001 -1.189774e-005 -1.140933e-005 6.505378e-001 -5.966979e-001
342750000 3.001582e-006 -1.460421e-006 6.256251e-001 -6.101120e-001 -3.739309e-006 -3.264121e-006 6.282084e-001 -6.126125e-001
343035000 1.108012e-005 1.540136e-006 6.032438e-001 -6.250385e-001 -9.527579e-006 1.045872e-005 6.057832e-001 -6.277065e-001
343320000 -7.649379e-006 1.156679e-005 5.807583e-001 -6.392734e-001 -7.958131e-006 3.363550e-006 5.832279e-001 -6.418988e-001
343605000 -1.519776e-005 1.337012e-005 5.582891e-001 -6.525655e-001 -9.528749e-007 7.442809e-008 5.606034e-001 -6.553229e-001
343890000 8.365711e-006 -2.628994e-006 5.356864e-001 -6.651599e-001 1.180967e-006 -8.925170e-006 5.379423e-001 -6.679128e-001
