!Agilent Technologies,N5230C,SG49000117,A.08.50.07
!Agilent N5230C: A.08.50.07
!Date: Sunday, March 17, 2024 09:03:04
!Correction: S11(Off) 
!S21(Off) 
!S12(Off) 
!S22(Full 1 Port(2)) 
!S2P File: Measurements: S11, S21, S12, S22:
# Hz S  RI   R 50
300000000 -1.139053e-005 1.193187e-005 -6.084766e-001 -6.680384e-001 -6.750404e-005 2.105235e-005 1.018644e+000 -1.136983e-001
300285000 -5.631433e-005 5.048553e-007 -6.249192e-001 -6.450213e-001 -7.912068e-005 2.087569e-005 1.020368e+000 -1.139748e-001
300570000 -3.681499e-005 -1.120425e-004 -6.399903e-001 -6.214478e-001 1.912345e-005 4.921171e-005 1.020614e+000 -1.129594e-001
300855000 -3.129402e-005 -4.163944e-005 -6.540576e-001 -5.983313e-001 2.258116e-006 -1.029604e-004 1.021176e+000 -1.129085e-001
301140000 1.150283e-004 -8.769564e-005 -6.682954e-001 -5.745371e-001 3.788972e-005 -1.112345e-004 1.020584e+000 -1.148644e-001
301425000 -7.812638e-005 -1.140542e-004 -6.805400e-001 -5.514564e-001 -5.394030e-005 -3.811931e-005 1.020549e+000 -1.137677e-001
301710000 -1.416148e-005 -4.087667e-005 -6.923989e-001 -5.278555e-001 8.412338e-005 -5.354088e-005 1.021587e+000 -1.146168e-001
301995000 3.408062e-005 -5.848305e-005 -7.033533e-001 -5.036800e-001 5.274835e-005 2.409105e-005 1.018443e+000 -1.139820e-001
302280000 4.663436e-005 5.928474e-005 -7.136357e-001 -4.805932e-001 7.875604e-005 -5.185424e-005 1.020163e+000 -1.138488e-001
302565000 -6.055347e-005 -1.946699e-005 -7.234818e-001 -4.570655e-001 -2.290794e-005 2.341766e-005 1.020999e+000 -1.155692e-001
302850000 5.784681e-005 1.202950e-005 -7.314583e-001 -4.339657e-001 -8.353827e-005 1.774662e-005 1.019634e+000 -1.139026e-001
303135000 2.914276e-005 -2.363752e-005 -7.397151e-001 -4.105195e-001 -5.146708e-005 1.959784e-005 1.019639e+000 -1.135081e-001
303420000 7.832979e-005 1.972828e-005 -7.469070e-001 -3.871320e-001 7.244027e-005 -3.052042e-005 1.019223e+000 -1.162567e-001
303705000 -3.489451e-005 5.091087e-005 -7.536332e-001 -3.646475e-001 -5.442483e-005 -1.352821e-004 1.020522e+000 -1.150362e-001
303990000 2.892792e-005 5.222628e-006 -7.596586e-001 -3.412319e-001 -5.657707e-005 6.626613e-005 1.020231e+000 -1.141177e-001
304275000 5.228724e-005 6.841080e-005 -7.650467e-001 -3.186043e-001 -9.918607e-005 9.044169e-005 1.020780e+000 -1.160330e-001
304560000 3.130577e-006 2.351244e-005 -7.696338e-001 -2.956348e-001 4.168135e-005 -3.630021e-006 1.019894e+000 -1.152499e-001
304845000 -7.493277e-005 8.918088e-005 -7.740946e-001 -2.738339e-001 2.029400e-005 1.091814e-004 1.019380e+000 -1.146640e-001
305130000 8.211865e-005 8.851309e-005 -7.781799e-001 -2.513719e-001 5.862127e-005 1.387802e-005 1.020164e+000 -1.156453e-001
305415000 -2.217461e-005 7.783674e-005 -7.812769e-001 -2.286908e-001 -2.929019e-005 -7.445036e-005 1.020815e+000 -1.150643e-001
305700000 -1.019346e-004 1.016158e-004 -7.838013e-001 -2.068422e-001 -2.547939e-005 2.645911e-005 1.020675e+000 -1.147046e-001
305985000 4.459275e-006 -9.184735e-006 -7.861017e-001 -1.849264e-001 -1.276691e-005 -9.102409e-005 1.020440e+000 -1.154310e-001
306270000 -1.423805e-004 1.600835e-005 -7.872683e-001 -1.630906e-001 -3.021229e-005 -4.073367e-005 1.020306e+000 -1.156881e-001
306555000 2.653381e-005 -8.492338e-005 -7.886864e-001 -1.413568e-001 7.404145e-007 5.110689e-005 1.020848e+000 -1.173972e-001
306840000 -8.774258e-005 -4.704160e-005 -7.896275e-001 -1.199445e-001 -3.343349e-005 -6.425524e-005 1.019125e+000 -1.147473e-001
307125000 -1.018165e-004 -2.912879e-005 -7.898044e-001 -9.849729e-002 2.022052e-005 -1.333282e-004 1.020984e+000 -1.153439e-001
307410000 6.378412e-005 2.826514e-005 -7.894886e-001 -7.670312e-002 -3.482080e-005 2.533194e-005 1.021237e+000 -1.160165e-001
307695000 6.953003e-005 -1.464909e-004 -7.887714e-001 -5.644407e-002 -3.864195e-005 -2.307338e-004 1.021312e+000 -1.162007e-001
307980000 -9.684619e-005 -1.184797e-004 -7.877402e-001 -3.526917e-002 3.063333e-005 -9.171674e-005 1.019468e+000 -1.182521e-001
308265000 -1.007852e-004 -5.067379e-005 -7.866842e-001 -1.443184e-002 6.376220e-005 -2.691962e-005 1.019677e+000 -1.171494e-001
308550000 7.795742e-008 -3.283218e-005 -7.847150e-001 6.388471e-003 7.354687e-005 2.344347e-006 1.019911e+000 -1.149861e-001
308835000 1.145353e-004 -3.266159e-005 -7.829114e-001 2.700718e-002 -1.047940e-005 7.425651e-005 1.018873e+000 -1.159621e-001
309120000 6.767499e-005 -2.749630e-005 -7.804005e-001 4.693559e-002 1.283803e-005 -2.879961e-005 1.022106e+000 -1.169593e-001
309405000 -2.457284e-005 5.921668e-005 -7.773722e-001 6.677040e-002 3.950564e-005 1.085335e-005 1.023322e+000 -1.158548e-001
309690000 6.036798e-005 1.318196e-004 -7.741175e-001 8.723529e-002 7.225825e-006 -8.780701e-005 1.020577e+000 -1.170860e-001
309975000 1.220464e-004 3.031915e-005 -7.706469e-001 1.073033e-001 -9.670102e-005 -2.216290e-006 1.020874e+000 -1.173846e-001
310260000 -1.232574e-005 -9.868498e-005 -7.664781e-001 1.268634e-001 -6.555395e-005 5.286918e-005 1.022623e+000 -1.167277e-001
310545000 2.539575e-006 1.054789e-005 -7.626489e-001 1.471150e-001 1.535146e-005 6.761598e-005 1.022112e+000 -1.192456e-001
310830000 -2.140290e-005 -2.384822e-005 -7.573851e-001 1.666798e-001 -9.066721e-005 2.276481e-005 1.022269e+000 -1.166622e-001
311115000 4.064206e-005 -4.445140e-005 -7.523564e-001 1.861276e-001 9.477090e-005 1.284926e-005 1.021809e+000 -1.186039e-001
311400000 7.748712e-005 2.911506e-006 -7.475969e-001 2.052698e-001 7.129124e-005 -7.255004e-005 1.021908e+000 -1.187173e-001
311685000 1.134808e-005 7.256796e-005 -7.411354e-001 2.245738e-001 1.406060e-004 1.218417e-004 1.021165e+000 -1.182425e-001
311970000 -1.018448e-005 1.822627e-005 -7.351723e-001 2.435644e-001 5.363716e-005 7.919322e-005 1.019280e+000 -1.189224e-001
312255000 -1.522503e-004 -1.850620e-005 -7.289607e-001 2.634658e-001 5.650567e-005 9.219444e-005 1.020600e+000 -1.184234e-001
312540000 2.145164e-005 -6.544566e-005 -7.221937e-001 2.822596e-001 -2.067806e-005 4.466340e-005 1.019886e+000 -1.180298e-001
312825000 -1.110023e-004 -5.405501e-005 -7.152539e-001 3.012862e-001 -6.677889e-005 -7.578990e-005 1.019361e+000 -1.198242e-001
313110000 -4.774122e-005 -9.258585e-006 -7.075978e-001 3.196398e-001 -1.039525e-004 -8.185617e-005 1.020022e+000 -1.205933e-001
313395000 -1.681999e-005 -4.611273e-005 -6.997691e-001 3.386402e-001 2.183365e-005 1.179031e-005 1.019572e+000 -1.190530e-001
313680000 -3.559852e-005 -1.486236e-005 -6.910735e-001 3.575902e-001 -3.938162e-005 3.805514e-005 1.021339e+000 -1.185505e-001
313965000 -6.781686e-005 -4.706894e-005 -6.827031e-001 3.760461e-001 5.997490e-006 4.242799e-005 1.020745e+000 -1.196769e-001
314250000 9.212328e-005 -4.234494e-005 -6.737061e-001 3.942578e-001 -4.816800e-005 2.153129e-005 1.020136e+000 -1.179722e-001
314535000 -1.177018e-005 -3.874837e-005 -6.638917e-001 4.128972e-001 -4.721782e-005 -2.974313e-005 1.019681e+000 -1.190450e-001
314820000 1.155662e-005 -3.537238e-005 -6.544013e-001 4.312412e-001 -5.876600e-005 -4.345604e-005 1.019935e+000 -1.202368e-001
315105000 9.138272e-005 -2.569761e-005 -6.442240e-001 4.493397e-001 4.732750e-007 -3.471134e-006 1.018325e+000 -1.196779e-001
315390000 5.516237e-005 3.062460e-006 -6.332288e-001 4.676003e-001 7.488433e-006 -6.124443e-005 1.023469e+000 -1.193071e-001
315675000 3.293377e-005 6.179563e-005 -6.217902e-001 4.859839e-001 -1.316949e-005 2.221171e-005 1.018580e+000 -1.197960e-001
315960000 -2.783802e-005 1.739993e-005 -6.103497e-001 5.037530e-001 1.350867e-004 -8.772108e-005 1.018985e+000 -1.204930e-001
316245000 -7.467461e-005 5.038457e-005 -5.986329e-001 5.216218e-001 9.477488e-005 -2.687564e-005 1.019691e+000 -1.203679e-001
316530000 -3.114966e-005 3.675257e-006 -5.858425e-001 5.398566e-001 4.827471e-005 5.227637e-005 1.020528e+000 -1.207164e-001
316815000 -1.183437e-004 8.548363e-005 -5.724998e-001 5.572749e-001 8.463426e-005 -1.086302e-004 1.021001e+000 -1.192769e-001
317100000 -9.568673e-006 -1.187237e-004 -5.594920e-001 5.748571e-001 9.972800e-005 1.298539e-004 1.018943e+000 -1.204750e-001
317385000 3.906467e-005 3.801723e-005 -5.452413e-001 5.923021e-001 3.536899e-005 -3.773327e-006 1.021060e+000 -1.185259e-001
317670000 -2.214339e-005 9.872076e-005 -5.304925e-001 6.100910e-001 4.920929e-005 -2.860387e-005 1.021751e+000 -1.206502e-001
317955000 2.028303e-006 4.363516e-005 -5.152753e-001 6.272199e-001 1.569392e-005 -1.092934e-005 1.021993e+000 -1.195822e-001
318240000 -3.846378e-005 7.379932e-005 -4.994828e-001 6.440433e-001 5.164156e-005 1.182184e-004 1.020554e+000 -1.215799e-001
318525000 3.718174e-005 -7.858443e-006 -4.833708e-001 6.606519e-001 8.410923e-006 2.152156e-005 1.019511e+000 -1.201674e-001
318810000 -5.834319e-005 1.390133e-004 -4.666034e-001 6.771712e-001 1.252170e-004 -1.264518e-005 1.019535e+000 -1.199132e-001
319095000 4.719699e-005 7.857371e-005 -4.492429e-001 6.939235e-001 -4.193539e-005 1.917793e-005 1.019721e+000 -1.199013e-001
319380000 1.731055e-005 1.905141e-005 -4.306986e-001 7.101059e-001 -1.037797e-004 1.956262e-005 1.021086e+000 -1.209578e-001
319665000 -9.163094e-005 1.752486e-005 -4.123518e-001 7.260706e-001 -1.532620e-005 3.408212e-005 1.022174e+000 -1.192381e-001
319950000 9.873906e-007 2.380364e-005 -3.924139e-001 7.424107e-001 -2.553258e-005 -2.248470e-005 1.021280e+000 -1.228518e-001
320235000 -1.220260e-004 3.878613e-005 -3.726142e-001 7.573414e-001 -1.173850e-004 4.553863e-006 1.021227e+000 -1.206502e-001
320520000 -6.881352e-005 -2.813882e-005 -3.516502e-001 7.723818e-001 -1.846996e-004 -1.331627e-005 1.020813e+000 -1.209165e-001
320805000 -7.458023e-005 7.433554e-006 -3.303070e-001 7.865825e-001 -3.860190e-005 -7.526225e-005 1.019415e+000 -1.215445e-001
321090000 5.491948e-005 2.344584e-005 -3.082118e-001 8.010226e-001 -4.509081e-005 -7.533706e-005 1.020269e+000 -1.216752e-001
321375000 -4.791832e-006 5.962721e-005 -2.852781e-001 8.142376e-001 -1.090707e-004 4.499680e-005 1.020532e+000 -1.210538e-001
321660000 6.794256e-005 -6.085513e-005 -2.618430e-001 8.281316e-001 -5.677441e-005 -6.675780e-005 1.020141e+000 -1.207530e-001
321945000 -4.587256e-005 -1.887873e-005 -2.371992e-001 8.407532e-001 -1.265945e-006 2.666034e-005 1.020698e+000 -1.226271e-001
322230000 -4.359191e-005 -2.576936e-005 -2.124676e-001 8.534345e-001 3.813750e-005 -1.564237e-005 1.020127e+000 -1.236057e-001
322515000 7.933359e-005 -1.135085e-004 -1.865230e-001 8.654172e-001 -1.431488e-005 -2.395730e-005 1.019250e+000 -1.233295e-001
322800000 -1.883029e-005 -9.338167e-005 -1.597093e-001 8.755840e-001 -1.196289e-004 -6.954881e-005 1.021154e+000 -1.213498e-001
323085000 -2.815095e-005 6.683276e-007 -1.319990e-001 8.865697e-001 5.900245e-005 -1.776024e-004 1.020817e+000 -1.215646e-001
323370000 -3.248253e-005 1.747427e-005 -1.038382e-001 8.958834e-001 6.228649e-006 4.852836e-005 1.021050e+000 -1.222375e-001
323655000 1.985562e-005 -6.355331e-005 -7.519078e-002 9.045599e-001 1.170101e-004 1.236369e-005 1.020863e+000 -1.229239e-001
323940000 1.322598e-005 -1.042073e-004 -4.542030e-002 9.128480e-001 1.122041e-004 2.099252e-005 1.020982e+000 -1.240387e-001
324225000 8.830347e-005 -1.007001e-005 -1.554325e-002 9.193516e-001 6.739559e-005 2.409017e-005 1.019154e+000 -1.231126e-001
324510000 1.366143e-004 -3.890660e-005 1.599617e-002 9.253802e-001 1.538282e-005 9.090302e-005 1.021770e+000 -1.232715e-001
324795000 -7.604853e-005 -3.765471e-005 4.759584e-002 9.303108e-001 8.705138e-005 -8.907737e-005 1.021134e+000 -1.233218e-001
325080000 7.171521e-005 -4.265226e-006 7.991998e-002 9.342362e-001 9.636651e-005 5.502522e-005 1.022221e+000 -1.232860e-001
325365000 -2.706968e-005 8.056239e-005 1.126665e-001 9.366311e-001 -7.817521e-005 -3.871671e-005 1.021757e+000 -1.231597e-001
325650000 -4.406759e-005 6.121507e-005 1.465253e-001 9.378014e-001 2.313422e-005 -6.499293e-006 1.021688e+000 -1.214886e-001
325935000 -1.234553e-005 7.351187e-005 1.802716e-001 9.382225e-001 4.139010e-005 -1.011491e-004 1.021476e+000 -1.238189e-001
326220000 -3.963539e-005 1.302212e-004 2.149603e-001 9.363106e-001 -5.169904e-005 -9.936761e-006 1.021666e+000 -1.250710e-001
326505000 -3.636443e-005 -2.772449e-005 2.494706e-001 9.335636e-001 -3.664316e-005 -6.603924e-005 1.021749e+000 -1.246192e-001
326790000 3.724086e-005 -8.216773e-005 2.845564e-001 9.297585e-001 -2.869406e-005 7.022577e-005 1.019987e+000 -1.233202e-001
327075000 -2.362702e-005 -2.729755e-006 3.207154e-001 9.237285e-001 2.985932e-006 -4.854850e-005 1.022191e+000 -1.248104e-001
327360000 4.813762e-005 -1.100494e-004 3.561848e-001 9.162056e-001 -4.661532e-005 -1.448102e-004 1.022849e+000 -1.247747e-001
327645000 4.055090e-005 -1.687869e-004 3.924203e-001 9.070157e-001 -2.719722e-005 -9.159094e-005 1.021694e+000 -1.241112e-001
327930000 -3.695617e-006 -6.638643e-005 4.278829e-001 8.960197e-001 -1.241254e-005 -7.761078e-005 1.021214e+000 -1.242356e-001
328215000 8.066272e-005 -2.542359e-005 4.640552e-001 8.841839e-001 2.135621e-005 1.470729e-005 1.020800e+000 -1.252097e-001
328500000 6.662350e-005 5.551607e-005 4.986875e-001 8.698546e-001 2.743321e-005 -2.500563e-005 1.021292e+000 -1.246140e-001
328785000 2.711875e-005 1.221038e-005 5.340795e-001 8.536959e-001 -3.315144e-005 -3.221360e-005 1.020731e+000 -1.243406e-001
329070000 -4.006110e-005 -3.744219e-005 5.686206e-001 8.368098e-001 -1.344232e-004 2.786770e-005 1.020809e+000 -1.241343e-001
329355000 -3.218175e-005 2.214239e-005 6.029143e-001 8.167943e-001 4.311362e-005 2.421424e-005 1.021478e+000 -1.260190e-001
329640000 9.088623e-006 6.900712e-005 6.357783e-001 7.955337e-001 -6.305987e-006 5.296144e-005 1.022344e+000 -1.251378e-001
329925000 -4.470896e-005 4.757928e-005 6.684675e-001 7.723724e-001 -2.136287e-005 3.469524e-006 1.021580e+000 -1.254534e-001
330210000 2.734733e-005 4.840045e-005 6.995558e-001 7.476000e-001 9.422522e-006 1.611599e-005 1.019928e+000 -1.256168e-001
330495000 -3.583209e-005 5.952864e-005 7.305604e-001 7.222375e-001 -1.445046e-006 4.031097e-005 1.020837e+000 -1.257662e-001
330780000 2.910025e-006 -1.118650e-004 7.599778e-001 6.933033e-001 1.192103e-004 4.075077e-005 1.021251e+000 -1.266840e-001
331065000 1.328786e-005 6.358913e-005 7.883308e-001 6.639352e-001 -4.288212e-005 -2.401706e-005 1.019690e+000 -1.245129e-001
331350000 -2.056671e-005 -5.961000e-005 8.150406e-001 6.335664e-001 -5.550075e-005 -1.987054e-005 1.019057e+000 -1.246003e-001
331635000 3.663307e-005 -6.219943e-005 8.399253e-001 6.011513e-001 -8.433981e-006 2.063820e-005 1.021001e+000 -1.253069e-001
331920000 1.309239e-004 -4.190064e-005 8.638653e-001 5.682894e-001 5.064921e-005 -2.282682e-006 1.020994e+000 -1.261193e-001
332205000 -2.507475e-005 -7.570691e-005 8.859318e-001 5.339957e-001 6.961455e-005 -6.261023e-005 1.020020e+000 -1.266861e-001
332490000 7.926402e-006 5.166458e-005 9.063112e-001 4.978353e-001 -3.879545e-005 -1.882540e-005 1.021353e+000 -1.263143e-001
332775000 -4.462995e-005 3.057284e-005 9.243714e-001 4.611103e-001 -1.018905e-004 -8.809569e-005 1.021506e+000 -1.268300e-001
333060000 -1.981578e-005 4.191238e-005 9.417011e-001 4.241093e-001 -1.541787e-005 1.719366e-005 1.020944e+000 -1.267739e-001
333345000 -8.937964e-006 2.860429e-005 9.560693e-001 3.861692e-001 -1.972147e-005 2.292216e-005 1.021374e+000 -1.271715e-001
333630000 -6.526418e-005 -2.056817e-005 9.688501e-001 3.476953e-001 5.426414e-005 6.627998e-006 1.021599e+000 -1.284920e-001
333915000 -3.739757e-005 5.064161e-006 9.801866e-001 3.085226e-001 -1.946878e-005 1.120796e-004 1.020235e+000 -1.268482e-001
334200000 4.737213e-005 7.118886e-005 9.886809e-001 2.697890e-001 -1.743727e-005 -1.071239e-004 1.021702e+000 -1.280661e-001
334485000 -4.920758e-005 7.254090e-005 9.965312e-001 2.300585e-001 -6.022076e-005 -4.456318e-005 1.020196e+000 -1.273044e-001
334770000 -4.263487e-005 1.187825e-004 1.001295e+000 1.912129e-001 9.690505e-005 4.281904e-005 1.021124e+000 -1.273820e-001
335055000 1.988234e-005 -6.359368e-005 1.004363e+000 1.516894e-001 -1.238221e-005 1.900687e-005 1.021866e+000 -1.273082e-001
335340000 -1.638205e-005 8.379200e-005 1.005376e+000 1.128071e-001 -9.906977e-005 7.807234e-005 1.021016e+000 -1.284783e-001
335625000 -5.379489e-005 2.830650e-005 1.005910e+000 7.460085e-002 -5.079382e-006 3.584252e-005 1.021324e+000 -1.283565e-001
335910000 3.200359e-005 1.547149e-005 1.003393e+000 3.583036e-002 -4.908853e-005 5.468413e-006 1.020999e+000 -1.281346e-001
336195000 4.846801e-005 4.020993e-005 9.987884e-001 -1.488175e-003 -1.342332e-005 4.627374e-005 1.019572e+000 -1.286259e-001
336480000 -1.030216e-004 -8.462280e-005 9.935773e-001 -3.856206e-002 -7.628694e-005 -8.707765e-005 1.021132e+000 -1.270696e-001
336765000 -4.353850e-005 1.914116e-005 9.863757e-001 -7.521713e-002 3.636979e-006 1.970332e-006 1.021580e+000 -1.274937e-001
337050000 6.118714e-005 -3.318352e-005 9.779881e-001 -1.100539e-001 4.787755e-006 7.132580e-005 1.021734e+000 -1.291398e-001
337335000 2.276872e-005 3.525068e-005 9.693065e-001 -1.450682e-001 -3.978060e-006 6.755632e-006 1.020615e+000 -1.301096e-001
337620000 3.304810e-005 -6.939885e-005 9.575856e-001 -1.793846e-001 -2.127576e-005 4.046080e-007 1.021517e+000 -1.294176e-001
337905000 -5.119131e-005 -4.321312e-005 9.452592e-001 -2.123583e-001 6.201018e-005 -2.234864e-005 1.018985e+000 -1.278694e-001
338190000 -2.640820e-005 -8.684471e-005 9.315697e-001 -2.439402e-001 -3.873109e-005 6.211153e-005 1.021208e+000 -1.283778e-001
338475000 9.128413e-006 -1.244393e-004 9.169881e-001 -2.745477e-001 5.563631e-005 -1.163081e-005 1.021834e+000 -1.272423e-001
338760000 -4.637662e-006 -6.981437e-005 9.015250e-001 -3.050354e-001 -1.139933e-004 5.469611e-005 1.021056e+000 -1.285207e-001
339045000 -6.704777e-005 -1.266326e-004 8.853342e-001 -3.336827e-001 6.779534e-005 3.440562e-005 1.020921e+000 -1.284542e-001
339330000 7.061011e-005 5.859479e-005 8.671641e-001 -3.615671e-001 -1.135230e-005 3.333664e-005 1.021408e+000 -1.267175e-001
339615000 1.720042e-004 1.113567e-004 8.497361e-001 -3.876723e-001 7.156222e-005 1.462733e-004 1.021014e+000 -1.295375e-001
339900000 1.714219e-005 -5.769782e-005 8.303987e-001 -4.138867e-001 6.051010e-005 -1.089749e-004 1.020560e+000 -1.307739e-001
340185000 1.140443e-005 6.259797e-005 8.117432e-001 -4.380749e-001 3.487079e-006 -3.586310e-005 1.020103e+000 -1.303814e-001
340470000 -3.334345e-005 9.145607e-005 7.918624e-001 -4.614148e-001 -1.342679e-005 1.306689e-004 1.021422e+000 -1.297995e-001
340755000 -1.642521e-005 1.670142e-005 7.713239e-001 -4.843855e-001 3.399669e-005 -1.028982e-004 1.020424e+000 -1.311165e-001
341040000 -1.117483e-004 -2.984109e-005 7.511249e-001 -5.061421e-001 -3.059337e-005 1.208816e-005 1.021227e+000 -1.311609e-001
341325000 -2.670011e-005 7.432602e-005 7.296813e-001 -5.260690e-001 -4.072498e-005 3.978455e-005 1.021933e+000 -1.290132e-001
341610000 -1.150363e-004 4.942659e-005 7.082698e-001 -5.451826e-001 -1.731815e-004 -3.402379e-005 1.022259e+000 -1.290913e-001
341895000 -6.031364e-005 -8.829501e-005 6.861333e-001 -5.638565e-001 1.580685e-005 4.127728e-005 1.021392e+000 -1.320568e-001
342180000 -1.084508e-004 -9.111900e-005 6.643313e-001 -5.817691e-001 1.589427e-005 8.557204e-005 1.022484e+000 -1.309862e-001
342465000 -7.951766e-006 5.484861e-006 6.422806e-001 -5.984356e-001 1.407683e-004 1.037084e-004 1.020502e+000 -1.310983e-001
342750000 2.704948e-005 -1.356124e-004 6.203932e-001 -6.141350e-001 1.118229e-004 -1.025571e-004 1.023085e+000 -1.291984e-001
343035000 1.220382e-004 -1.177735e-005 5.974480e-001 -6.286100e-001 -3.736186e-005 8.278837e-005 1.020629e+000 -1.308714e-001
343320000 2.305094e-005 7.593699e-005 5.750469e-001 -6.427725e-001 2.774164e-005 1.323392e-005 1.018924e+000 -1.316913e-001
343605000 7.279983e-005 -9.224291e-005 5.521533e-001 -6.554868e-001 4.235063e-005 5.110349e-005 1.021059e+000 -1.312410e-001
343890000 7.479979e-006 4.976058e-005 5.297496e-001 -6.678368e-001 -2.368822e-005 1.641321e-004 1.022744e+000 -1.313408e-001
