!Agilent Technologies,N5230C,SG49000117,A.08.50.07
!Agilent N5230C: A.08.50.07
!Date: Sunday, March 17, 2024 07:02:07
!Correction: S11(Off) 
!S21(Off) 
!S12(Off) 
!S22(Off) 
!S2P File: Measurements: S11, S21, S12, S22:
# Hz S  RI   R 50
300000000 1.365580e-005 8.880695e-006 -6.089361e-001 -6.682831e-001 1.835446e-005 1.854947e-005 -6.112064e-001 -6.707355e-001
300285000 -1.446219e-006 -3.576479e-006 -6.250612e-001 -6.452672e-001 -5.035844e-006 2.054878e-005 -6.273222e-001 -6.475379e-001
300570000 -6.178957e-006 4.493544e-006 -6.402463e-001 -6.220086e-001 -7.991809e-006 -5.092423e-006 -6.426069e-001 -6.242797e-001
300855000 6.735083e-006 3.236819e-007 -6.545691e-001 -5.986122e-001 2.374751e-005 8.674931e-006 -6.569394e-001 -6.008455e-001
301140000 1.599997e-005 3.226255e-006 -6.682343e-001 -5.751176e-001 2.992785e-006 3.855090e-006 -6.705854e-001 -5.772268e-001
301425000 1.460640e-005 -9.654102e-006 -6.807078e-001 -5.515611e-001 9.033821e-006 2.666323e-006 -6.832631e-001 -5.536069e-001
301710000 8.762122e-006 -8.939934e-006 -6.923931e-001 -5.279782e-001 -8.561769e-006 3.460653e-006 -6.949819e-001 -5.300182e-001
301995000 1.138160e-006 1.027578e-005 -7.033932e-001 -5.045245e-001 -9.799865e-006 -1.392561e-006 -7.060595e-001 -5.064796e-001
302280000 -7.645342e-007 1.673832e-005 -7.135501e-001 -4.810296e-001 2.971966e-006 3.317591e-006 -7.162206e-001 -4.827418e-001
302565000 -4.440663e-006 1.562670e-005 -7.230764e-001 -4.575292e-001 -4.617364e-006 8.273450e-006 -7.258365e-001 -4.592962e-001
302850000 -1.204468e-005 -7.078102e-006 -7.317500e-001 -4.342039e-001 1.354972e-006 -2.799585e-006 -7.344926e-001 -4.358827e-001
303135000 8.590077e-007 -9.509302e-006 -7.397660e-001 -4.108585e-001 -8.787451e-006 -1.192866e-005 -7.425547e-001 -4.124327e-001
303420000 1.318092e-005 -1.899445e-005 -7.471070e-001 -3.877412e-001 5.775534e-006 -2.502136e-007 -7.499301e-001 -3.892141e-001
303705000 -1.136385e-005 5.524362e-006 -7.537698e-001 -3.646434e-001 -2.530094e-006 1.432700e-005 -7.565804e-001 -3.661103e-001
303990000 1.533347e-006 -5.635369e-006 -7.597803e-001 -3.417623e-001 7.236701e-006 -1.786698e-005 -7.626079e-001 -3.430671e-001
304275000 -3.931368e-006 -7.860152e-006 -7.651473e-001 -3.188785e-001 -1.149426e-005 -1.972662e-005 -7.680700e-001 -3.201379e-001
304560000 2.202970e-006 5.020991e-006 -7.700403e-001 -2.962443e-001 6.796087e-006 -2.074509e-005 -7.729040e-001 -2.973469e-001
304845000 -1.036625e-005 5.148303e-006 -7.742804e-001 -2.736969e-001 -2.843944e-007 -1.324958e-005 -7.772546e-001 -2.748549e-001
305130000 -7.896047e-007 4.240331e-006 -7.780189e-001 -2.513777e-001 9.438460e-006 5.205904e-006 -7.809942e-001 -2.522706e-001
305415000 -1.442029e-005 -2.087135e-005 -7.811683e-001 -2.291430e-001 2.833574e-006 7.541108e-006 -7.841686e-001 -2.299857e-001
305700000 5.926801e-006 -1.187711e-005 -7.838737e-001 -2.070509e-001 1.791351e-005 3.347378e-006 -7.869405e-001 -2.078911e-001
305985000 1.095715e-006 -6.666457e-006 -7.859778e-001 -1.850284e-001 -1.019612e-005 1.480567e-005 -7.889562e-001 -1.857059e-001
306270000 5.768879e-006 -2.340768e-005 -7.876545e-001 -1.632131e-001 5.765266e-008 -3.197944e-006 -7.907535e-001 -1.639178e-001
306555000 -6.397903e-006 -1.213409e-005 -7.888229e-001 -1.415189e-001 6.901693e-006 4.376462e-006 -7.918972e-001 -1.421077e-001
306840000 1.646583e-006 -2.589395e-006 -7.895489e-001 -1.200917e-001 8.196640e-008 -3.701944e-007 -7.925454e-001 -1.205392e-001
307125000 -5.394339e-007 -1.949155e-005 -7.898517e-001 -9.873033e-002 -1.384061e-006 -1.550849e-005 -7.929581e-001 -9.900039e-002
307410000 6.797424e-006 -5.530101e-006 -7.896877e-001 -7.748339e-002 -6.696019e-006 2.860986e-006 -7.928166e-001 -7.778101e-002
307695000 1.720381e-005 -5.496736e-006 -7.891523e-001 -5.645959e-002 -4.755551e-006 -9.891070e-006 -7.922020e-001 -5.658865e-002
307980000 4.879210e-006 -1.696747e-006 -7.882316e-001 -3.551967e-002 3.689953e-006 -1.319514e-005 -7.912751e-001 -3.567782e-002
308265000 1.263374e-005 1.861171e-005 -7.869193e-001 -1.482431e-002 7.340669e-006 -1.935226e-005 -7.899888e-001 -1.482229e-002
308550000 -8.932102e-007 -7.129448e-006 -7.851210e-001 5.954612e-003 1.550779e-005 -1.083706e-005 -7.881663e-001 5.878363e-003
308835000 4.611675e-006 3.519422e-006 -7.829779e-001 2.629805e-002 -6.632034e-006 -1.078660e-005 -7.860614e-001 2.639170e-002
309120000 4.089684e-006 2.338262e-006 -7.804433e-001 4.670263e-002 1.073210e-005 4.908421e-006 -7.835765e-001 4.690414e-002
309405000 -6.842889e-006 1.798720e-005 -7.775999e-001 6.687078e-002 1.065980e-005 -1.317953e-005 -7.805978e-001 6.709289e-002
309690000 -2.357628e-006 1.278267e-005 -7.743569e-001 8.696266e-002 -9.051828e-006 -7.790843e-006 -7.774015e-001 8.731947e-002
309975000 -6.151243e-006 1.869565e-005 -7.706925e-001 1.069676e-001 6.367256e-006 -4.015866e-006 -7.738129e-001 1.073587e-001
310260000 -6.589619e-006 -3.599721e-006 -7.667814e-001 1.268244e-001 -2.064045e-006 1.861477e-006 -7.697849e-001 1.272661e-001
310545000 -7.210660e-006 -1.605970e-005 -7.625439e-001 1.465987e-001 7.753241e-006 2.958100e-006 -7.655192e-001 1.471220e-001
310830000 -7.426027e-006 -1.704573e-006 -7.578330e-001 1.662003e-001 8.963389e-007 -6.512279e-006 -7.608156e-001 1.668173e-001
311115000 -1.213017e-005 -1.202934e-005 -7.528710e-001 1.857410e-001 2.174671e-005 -2.375044e-006 -7.558115e-001 1.864753e-001
311400000 -2.174040e-006 -1.390309e-005 -7.473614e-001 2.052225e-001 -1.772110e-006 -5.637788e-006 -7.503731e-001 2.060135e-001
311685000 2.459431e-006 -1.522049e-005 -7.417032e-001 2.244782e-001 2.313132e-006 -1.467513e-007 -7.446242e-001 2.253444e-001
311970000 -8.844846e-006 1.210468e-005 -7.356043e-001 2.437011e-001 5.694712e-006 8.380016e-006 -7.385307e-001 2.445935e-001
312255000 3.772713e-006 -6.083882e-006 -7.291307e-001 2.628520e-001 -1.196768e-005 -1.881185e-005 -7.321053e-001 2.638337e-001
312540000 1.206097e-005 -6.829082e-007 -7.223685e-001 2.819157e-001 -1.288525e-005 -6.802300e-007 -7.252690e-001 2.830160e-001
312825000 8.476726e-006 9.576116e-006 -7.152263e-001 3.008180e-001 4.059734e-006 1.145493e-005 -7.179990e-001 3.020403e-001
313110000 1.166874e-006 6.790414e-006 -7.077091e-001 3.197408e-001 3.741518e-006 9.823726e-008 -7.104439e-001 3.210219e-001
313395000 1.015496e-005 1.395537e-006 -6.998076e-001 3.385047e-001 -1.791798e-005 -1.284443e-006 -7.026213e-001 3.399278e-001
313680000 1.536841e-005 8.033011e-006 -6.915585e-001 3.572355e-001 -1.773321e-005 -9.368816e-006 -6.943052e-001 3.586580e-001
313965000 -1.419603e-006 5.525737e-006 -6.829208e-001 3.758473e-001 -2.052280e-006 -3.648086e-006 -6.855681e-001 3.774225e-001
314250000 9.711450e-006 4.338288e-006 -6.737811e-001 3.944321e-001 9.751212e-006 1.393788e-005 -6.764622e-001 3.959705e-001
314535000 -1.537322e-005 2.352186e-005 -6.643014e-001 4.129558e-001 1.135498e-005 -6.688958e-006 -6.670153e-001 4.146030e-001
314820000 -7.591400e-006 6.325591e-007 -6.544760e-001 4.312818e-001 4.030104e-006 -1.795233e-005 -6.571157e-001 4.329925e-001
315105000 -8.770699e-006 1.000255e-005 -6.441347e-001 4.495783e-001 1.475431e-005 -6.450103e-006 -6.467794e-001 4.514096e-001
315390000 -1.356307e-005 -7.355473e-006 -6.334425e-001 4.678617e-001 3.999870e-006 -8.369185e-006 -6.359801e-001 4.697333e-001
315675000 -1.134763e-005 -1.940785e-006 -6.222547e-001 4.859651e-001 -1.084738e-005 9.023424e-006 -6.248046e-001 4.879071e-001
315960000 -1.709844e-005 9.301963e-006 -6.106207e-001 5.039814e-001 9.768615e-006 6.496985e-006 -6.131270e-001 5.060288e-001
316245000 2.535102e-006 -1.757414e-006 -5.985585e-001 5.219151e-001 4.558645e-007 1.490821e-005 -6.009403e-001 5.240360e-001
316530000 1.244368e-006 1.030569e-006 -5.860356e-001 5.397714e-001 -3.999326e-007 2.399427e-006 -5.883547e-001 5.419462e-001
316815000 -7.805090e-006 -1.510675e-005 -5.728705e-001 5.574942e-001 4.353490e-006 3.829045e-006 -5.752992e-001 5.597380e-001
317100000 4.914177e-006 3.348967e-006 -5.593768e-001 5.750822e-001 -1.436294e-005 -2.438216e-006 -5.616909e-001 5.774171e-001
317385000 1.478970e-006 -2.552149e-005 -5.452871e-001 5.925712e-001 -5.522674e-006 -8.004756e-006 -5.474979e-001 5.949851e-001
317670000 1.186409e-005 -8.332596e-006 -5.307611e-001 6.099465e-001 8.328849e-006 1.503876e-005 -5.329087e-001 6.123788e-001
317955000 -1.636272e-006 -1.889985e-005 -5.155981e-001 6.270809e-001 -1.438526e-005 -2.168938e-006 -5.176632e-001 6.296903e-001
318240000 1.515158e-005 -3.714776e-006 -4.998230e-001 6.441653e-001 4.228694e-006 -4.214255e-006 -5.019678e-001 6.468435e-001
318525000 1.524879e-005 1.430223e-005 -4.835683e-001 6.610342e-001 -6.330553e-006 -2.241795e-005 -4.856257e-001 6.637877e-001
318810000 1.710575e-005 -3.179619e-006 -4.667405e-001 6.776724e-001 3.522446e-006 -1.740513e-006 -4.686325e-001 6.803874e-001
319095000 1.231082e-005 5.393007e-006 -4.493075e-001 6.940807e-001 3.304031e-006 -9.565701e-009 -4.510929e-001 6.969542e-001
319380000 -9.697000e-006 6.732311e-006 -4.311235e-001 7.103453e-001 9.390729e-006 -1.175898e-005 -4.328940e-001 7.132136e-001
319665000 -9.473423e-006 1.646232e-006 -4.123442e-001 7.262618e-001 -9.876218e-006 -2.959352e-006 -4.140348e-001 7.292336e-001
319950000 -1.190516e-005 -7.837796e-006 -3.929594e-001 7.419436e-001 5.156454e-006 -1.512761e-005 -3.945808e-001 7.449983e-001
320235000 -5.966680e-006 1.766192e-006 -3.729169e-001 7.572767e-001 -5.240079e-006 -2.254430e-006 -3.743414e-001 7.604442e-001
320520000 -7.655893e-006 7.764029e-006 -3.521436e-001 7.723329e-001 1.229933e-005 -4.236580e-006 -3.536160e-001 7.754933e-001
320805000 -1.965783e-005 -7.901738e-006 -3.306699e-001 7.869563e-001 4.149897e-006 8.704877e-006 -3.319969e-001 7.902273e-001
321090000 -1.502701e-005 -1.621269e-006 -3.085054e-001 8.012528e-001 2.246957e-006 -1.284068e-005 -3.097580e-001 8.045560e-001
321375000 -1.181070e-005 3.836424e-006 -2.855641e-001 8.150516e-001 -2.676324e-006 1.288794e-005 -2.867698e-001 8.184328e-001
321660000 -1.013522e-005 -1.589160e-005 -2.619525e-001 8.284138e-001 1.117156e-005 -5.356998e-006 -2.630947e-001 8.318631e-001
321945000 -1.919763e-006 -5.990644e-006 -2.375488e-001 8.412428e-001 -3.188294e-006 -9.353629e-006 -2.385931e-001 8.447385e-001
322230000 -2.022910e-006 -2.047399e-006 -2.124880e-001 8.535243e-001 -3.273320e-006 1.186383e-005 -2.133147e-001 8.570275e-001
322515000 -5.921918e-006 -2.675512e-005 -1.865632e-001 8.652285e-001 -9.568377e-006 -5.832546e-006 -1.873910e-001 8.687674e-001
322800000 1.853784e-006 -1.528103e-005 -1.599818e-001 8.762367e-001 7.395970e-006 -4.391448e-006 -1.605878e-001 8.798174e-001
323085000 1.252850e-006 -3.883492e-006 -1.325410e-001 8.865198e-001 -2.175900e-005 -1.079004e-005 -1.330508e-001 8.902082e-001
323370000 2.037229e-005 -2.040844e-006 -1.043456e-001 8.960586e-001 -1.135891e-005 -1.860210e-005 -1.048397e-001 8.998008e-001
323655000 6.897216e-006 6.272689e-006 -7.551906e-002 9.048236e-001 -7.608419e-006 -1.211516e-005 -7.575548e-002 9.086626e-001
323940000 6.207709e-006 -2.024368e-006 -4.578082e-002 9.126851e-001 2.481331e-006 -5.547200e-006 -4.595426e-002 9.165474e-001
324225000 1.958530e-006 -2.871552e-006 -1.547248e-002 9.197113e-001 -1.356509e-005 -2.191385e-005 -1.558737e-002 9.234390e-001
324510000 1.343365e-005 -1.468012e-005 1.557204e-002 9.255404e-001 8.724570e-006 -7.878779e-007 1.560932e-002 9.294331e-001
324795000 5.365080e-006 8.708636e-006 4.735723e-002 9.305065e-001 4.386824e-006 -6.244838e-006 4.749136e-002 9.344389e-001
325080000 -1.058585e-005 -3.174691e-006 7.965076e-002 9.343047e-001 5.770654e-006 -1.471040e-006 7.994591e-002 9.381648e-001
325365000 -6.559453e-006 -2.379064e-006 1.126489e-001 9.368917e-001 6.384553e-006 -1.162857e-005 1.131732e-001 9.407645e-001
325650000 -1.281461e-005 -1.998704e-006 1.461351e-001 9.382344e-001 -3.653702e-006 -8.305265e-006 1.468050e-001 9.421780e-001
325935000 -6.239962e-006 1.485882e-005 1.802046e-001 9.381778e-001 -1.938481e-006 9.148343e-006 1.809554e-001 9.420989e-001
326220000 -1.195080e-005 6.108537e-006 2.147121e-001 9.368979e-001 -5.628302e-006 8.525238e-006 2.156042e-001 9.408312e-001
326505000 -1.089599e-005 -4.067121e-006 2.496628e-001 9.340420e-001 9.620204e-006 1.250085e-005 2.507468e-001 9.380034e-001
326790000 -1.150515e-005 -1.145035e-005 2.850012e-001 9.297673e-001 -1.436755e-005 7.932839e-006 2.861113e-001 9.337951e-001
327075000 -2.240455e-005 -9.161779e-006 3.203563e-001 9.241139e-001 4.277077e-006 -1.645827e-006 3.216831e-001 9.278722e-001
327360000 -8.748682e-006 -5.816136e-006 3.561334e-001 9.165582e-001 3.139640e-006 -2.298016e-007 3.576692e-001 9.204755e-001
327645000 -1.005192e-005 -3.267817e-006 3.916927e-001 9.074693e-001 -2.117616e-006 -2.535064e-006 3.935582e-001 9.114119e-001
327930000 -1.447518e-005 -1.812941e-005 4.275382e-001 8.968762e-001 2.635244e-006 -5.376128e-006 4.294489e-001 9.005621e-001
328215000 2.043662e-005 1.017328e-005 4.631983e-001 8.843369e-001 1.046695e-005 6.446509e-006 4.651567e-001 8.880714e-001
328500000 2.990865e-006 8.283158e-006 4.986813e-001 8.701435e-001 8.368133e-006 1.003678e-005 5.008229e-001 8.738998e-001
328785000 1.251773e-006 5.219323e-006 5.337026e-001 8.541892e-001 1.001398e-005 2.135567e-006 5.360146e-001 8.578089e-001
329070000 -8.158438e-006 1.068578e-005 5.682400e-001 8.365199e-001 -8.385043e-006 -1.935565e-006 5.706723e-001 8.401706e-001
329355000 5.777023e-006 -5.331914e-006 6.024930e-001 8.169556e-001 -4.423295e-006 5.629083e-006 6.049706e-001 8.204347e-001
329640000 -1.026889e-005 -4.145981e-007 6.358010e-001 7.958865e-001 -8.743878e-006 -1.543731e-005 6.384398e-001 7.992044e-001
329925000 6.628080e-007 4.642759e-006 6.682954e-001 7.728262e-001 -2.688773e-006 7.362441e-006 6.711841e-001 7.762274e-001
330210000 -1.824720e-005 -8.976724e-006 6.999480e-001 7.482420e-001 -6.820168e-006 7.932807e-006 7.029059e-001 7.514306e-001
330495000 -1.353988e-005 -1.445013e-008 7.306710e-001 7.219800e-001 -9.742469e-006 -3.685883e-006 7.336960e-001 7.251034e-001
330780000 -1.665419e-005 8.460316e-006 7.600414e-001 6.940490e-001 -1.316057e-006 -6.018272e-006 7.633246e-001 6.971939e-001
331065000 -1.956976e-006 9.364234e-006 7.881508e-001 6.647249e-001 -7.443934e-006 3.223473e-006 7.915583e-001 6.677132e-001
331350000 -1.285244e-006 -8.709518e-006 8.149131e-001 6.339408e-001 -6.360299e-006 -2.733116e-006 8.184978e-001 6.367306e-001
331635000 -2.302452e-005 -1.557697e-005 8.402345e-001 6.017643e-001 2.925070e-006 -2.132800e-006 8.437593e-001 6.043831e-001
331920000 1.125794e-005 -5.550642e-006 8.639482e-001 5.684157e-001 6.995047e-007 1.844996e-006 8.676146e-001 5.708038e-001
332205000 -9.206995e-006 -5.153590e-006 8.860052e-001 5.338233e-001 -9.351746e-006 7.879487e-006 8.898176e-001 5.361221e-001
332490000 -2.762509e-006 8.471618e-007 9.063445e-001 4.981312e-001 1.117665e-005 1.145469e-005 9.101563e-001 5.003720e-001
332775000 -2.130578e-006 1.061846e-005 9.247688e-001 4.616773e-001 -1.480524e-005 5.089963e-006 9.288311e-001 4.637080e-001
333060000 9.974605e-006 -7.147849e-006 9.414886e-001 4.244458e-001 6.641945e-007 5.467264e-006 9.456400e-001 4.263151e-001
333345000 1.375979e-005 -6.570195e-007 9.563097e-001 3.863443e-001 -5.433574e-006 1.239235e-005 9.604837e-001 3.880955e-001
333630000 1.245607e-005 5.030554e-006 9.692677e-001 3.479795e-001 5.460830e-006 4.498118e-007 9.734736e-001 3.494238e-001
333915000 1.248078e-005 -9.504341e-006 9.800916e-001 3.089670e-001 -5.807557e-007 1.863619e-005 9.844655e-001 3.102738e-001
334200000 -4.322037e-006 -7.270462e-006 9.891157e-001 2.698347e-001 3.338305e-006 -1.253889e-005 9.934509e-001 2.710214e-001
334485000 -8.421264e-006 4.253704e-006 9.962617e-001 2.305834e-001 1.179119e-005 -7.739658e-007 1.000593e+000 2.315571e-001
334770000 7.884232e-006 -2.995945e-006 1.001405e+000 1.912455e-001 1.559238e-007 2.049363e-006 1.005829e+000 1.920754e-001
335055000 2.520449e-006 -2.353662e-006 1.004629e+000 1.520065e-001 -2.403739e-006 -1.490543e-006 1.009050e+000 1.526567e-001
335340000 1.734470e-005 1.028012e-005 1.005981e+000 1.130983e-001 -4.438039e-007 -4.900384e-006 1.010485e+000 1.135051e-001
335625000 -1.076220e-005 2.907509e-006 1.005691e+000 7.452118e-002 -5.436447e-006 1.950403e-006 1.010018e+000 7.476089e-002
335910000 -7.758060e-006 8.181265e-006 1.003482e+000 3.621476e-002 1.195365e-006 1.169712e-005 1.007799e+000 3.644335e-002
336195000 2.062983e-005 -1.601191e-005 9.997327e-001 -1.360364e-003 -5.779495e-006 -1.018975e-005 1.003977e+000 -1.390309e-003
336480000 -4.871098e-006 9.601872e-006 9.941648e-001 -3.839112e-002 -5.091477e-006 -5.738764e-006 9.985584e-001 -3.848829e-002
336765000 -5.580034e-006 1.283133e-005 9.871773e-001 -7.473712e-002 -1.377966e-005 -1.290095e-005 9.915081e-001 -7.503049e-002
337050000 -1.281091e-005 -1.423988e-005 9.787773e-001 -1.102808e-001 -1.777523e-005 1.768058e-006 9.830928e-001 -1.107614e-001
337335000 2.582224e-006 6.575756e-006 9.689421e-001 -1.449638e-001 4.728879e-007 1.698675e-005 9.730826e-001 -1.456868e-001
337620000 -1.116009e-005 -1.670822e-006 9.577340e-001 -1.788322e-001 -1.910890e-005 -8.158409e-006 9.618959e-001 -1.796504e-001
337905000 5.907320e-006 7.702515e-006 9.454464e-001 -2.117463e-001 -9.484431e-006 -1.247595e-006 9.495243e-001 -2.126617e-001
338190000 -9.573749e-006 -2.378628e-006 9.318463e-001 -2.436744e-001 -1.117075e-005 -9.914282e-006 9.359062e-001 -2.447554e-001
338475000 4.824352e-006 -1.034252e-006 9.173551e-001 -2.746096e-001 -2.985614e-006 -1.178475e-005 9.212769e-001 -2.757415e-001
338760000 9.625694e-006 -4.512884e-006 9.018028e-001 -3.044286e-001 -6.118325e-006 -8.520416e-006 9.057091e-001 -3.058515e-001
339045000 -1.922076e-006 6.249213e-006 8.853205e-001 -3.333146e-001 5.043736e-006 -4.850103e-006 8.892015e-001 -3.347212e-001
339330000 1.113006e-005 2.760030e-006 8.680546e-001 -3.610967e-001 -2.859000e-006 -1.328450e-006 8.717388e-001 -3.627290e-001
339615000 6.759635e-006 2.651495e-005 8.500073e-001 -3.878849e-001 -4.501116e-007 8.872715e-006 8.536569e-001 -3.895220e-001
339900000 -8.061540e-006 1.010351e-005 8.312736e-001 -4.135601e-001 7.913286e-006 -1.549570e-006 8.348520e-001 -4.152527e-001
340185000 -1.090966e-007 1.404329e-005 8.120562e-001 -4.381294e-001 -1.135380e-006 1.787672e-005 8.154538e-001 -4.399942e-001
340470000 -1.894654e-005 3.713146e-006 7.921951e-001 -4.615948e-001 2.145167e-006 1.499179e-005 7.955028e-001 -4.635995e-001
340755000 -5.548038e-006 3.491274e-006 7.718111e-001 -4.841470e-001 -9.312947e-006 5.343356e-007 7.751411e-001 -4.861888e-001
341040000 2.584920e-006 4.415518e-006 7.510807e-001 -5.056302e-001 -1.238900e-005 -1.543274e-006 7.542942e-001 -5.076681e-001
341325000 -1.428908e-005 3.743437e-007 7.299532e-001 -5.260627e-001 -1.630912e-005 9.839371e-006 7.330360e-001 -5.283093e-001
341610000 5.430500e-006 1.330001e-005 7.084875e-001 -5.454791e-001 7.612828e-006 1.440940e-006 7.114540e-001 -5.478259e-001
341895000 3.423678e-007 -7.518784e-006 6.868241e-001 -5.639647e-001 -7.623439e-006 2.562458e-006 6.896974e-001 -5.663331e-001
342180000 -8.433019e-006 1.596766e-006 6.648708e-001 -5.814852e-001 -1.732589e-006 -1.404997e-005 6.677045e-001 -5.839481e-001
342465000 -5.006067e-006 -2.349344e-006 6.427324e-001 -5.981171e-001 -1.358950e-006 2.162510e-006 6.454271e-001 -6.006373e-001
342750000 4.328112e-006 -1.585860e-006 6.204686e-001 -6.137787e-001 -3.241994e-006 -2.155557e-005 6.230260e-001 -6.164015e-001
343035000 -3.954087e-006 1.135958e-005 5.980409e-001 -6.286922e-001 7.955899e-006 -5.622226e-006 6.004956e-001 -6.312388e-001
343320000 1.215742e-005 9.850813e-006 5.755945e-001 -6.426080e-001 -1.060676e-005 3.993097e-006 5.779908e-001 -6.453325e-001
343605000 -1.944451e-006 1.000447e-006 5.530177e-001 -6.557547e-001 9.359221e-006 9.861444e-006 5.553730e-001 -6.584188e-001
343890000 -6.943582e-006 -4.096033e-006 5.304875e-001 -6.680704e-001 4.737858e-006 -9.308756e-007 5.327181e-001 -6.708687e-001
