!Agilent Technologies,N5230C,SG49000117,A.08.50.07
!Agilent N5230C: A.08.50.07
!Date: Sunday, March 17, 2024 06:58:30
!Correction: S11(Off) 
!S21(Off) 
!S12(Off) 
!S22(Off) 
!S2P File: Measurements: S11, S21, S12, S22:
# Hz S  RI   R 50
300000000 -7.781381e-006 -5.428254e-006 -6.128883e-001 -6.633404e-001 -7.351870e-007 -1.301638e-005 -6.150895e-001 -6.657504e-001
300285000 -7.570866e-006 -2.369986e-006 -6.287833e-001 -6.403682e-001 1.118891e-005 2.360674e-006 -6.310442e-001 -6.426214e-001
300570000 1.325388e-005 6.113200e-006 -6.437794e-001 -6.169579e-001 8.999651e-006 -1.691452e-005 -6.462110e-001 -6.193077e-001
300855000 -7.178201e-006 -2.453013e-006 -6.578979e-001 -5.936514e-001 2.347862e-006 -1.224428e-005 -6.603631e-001 -5.957460e-001
301140000 -2.123052e-006 3.137077e-007 -6.712557e-001 -5.700517e-001 -2.504484e-006 1.047630e-005 -6.737804e-001 -5.721831e-001
301425000 -1.099377e-006 8.399786e-006 -6.836950e-001 -5.464998e-001 6.295985e-006 -1.211217e-005 -6.862553e-001 -5.485246e-001
301710000 1.934890e-006 6.630571e-007 -6.952921e-001 -5.228617e-001 -5.472416e-006 5.742249e-006 -6.978485e-001 -5.248800e-001
301995000 -7.924634e-006 4.961803e-007 -7.060782e-001 -4.993520e-001 -3.235023e-006 4.390113e-006 -7.086393e-001 -5.012379e-001
302280000 -5.057012e-006 -1.248119e-005 -7.160406e-001 -4.758471e-001 -1.010273e-006 1.162992e-005 -7.187405e-001 -4.776444e-001
302565000 -3.498291e-006 -6.810129e-006 -7.253053e-001 -4.523615e-001 1.853806e-006 4.655435e-007 -7.280580e-001 -4.540995e-001
302850000 1.006077e-005 1.506275e-006 -7.339273e-001 -4.290815e-001 -1.522639e-005 4.700042e-006 -7.366546e-001 -4.306943e-001
303135000 7.128619e-006 -7.849915e-006 -7.416818e-001 -4.057567e-001 -6.737135e-006 -6.332411e-006 -7.444885e-001 -4.072745e-001
303420000 1.009043e-005 9.016543e-006 -7.488884e-001 -3.825934e-001 -7.251613e-006 2.491694e-006 -7.517209e-001 -3.839922e-001
303705000 -7.005146e-006 -9.274594e-006 -7.553831e-001 -3.595422e-001 -3.195738e-006 6.700403e-008 -7.582244e-001 -3.608252e-001
303990000 -6.264996e-007 4.610577e-007 -7.613083e-001 -3.366016e-001 -1.488907e-005 -1.192131e-005 -7.642508e-001 -3.377953e-001
304275000 -8.629466e-006 -1.436153e-005 -7.665889e-001 -3.138472e-001 4.778686e-006 -1.081613e-005 -7.694556e-001 -3.150500e-001
304560000 -7.655452e-006 4.803539e-007 -7.712762e-001 -2.910810e-001 4.377772e-006 -9.305373e-006 -7.741419e-001 -2.922473e-001
304845000 4.363180e-006 -4.367305e-007 -7.754292e-001 -2.686418e-001 1.892718e-006 -1.439767e-005 -7.783259e-001 -2.695904e-001
305130000 -3.284541e-006 1.722741e-006 -7.790657e-001 -2.462664e-001 2.018601e-005 -2.867369e-006 -7.819300e-001 -2.471339e-001
305415000 -9.127240e-006 -1.032225e-005 -7.820599e-001 -2.240415e-001 1.393547e-005 -4.681136e-006 -7.851083e-001 -2.249060e-001
305700000 -9.886686e-006 2.324960e-007 -7.846027e-001 -2.019414e-001 1.974580e-006 -1.220455e-005 -7.875688e-001 -2.027273e-001
305985000 3.381145e-006 -1.168537e-005 -7.865903e-001 -1.800296e-001 -3.357077e-006 -1.385383e-006 -7.895980e-001 -1.806515e-001
306270000 -1.568108e-005 -8.549850e-006 -7.881429e-001 -1.581680e-001 -4.757723e-006 3.162191e-006 -7.912056e-001 -1.588053e-001
306555000 1.068691e-005 -9.399760e-006 -7.891453e-001 -1.365443e-001 -1.650357e-005 2.303358e-005 -7.922751e-001 -1.370189e-001
306840000 6.061428e-006 1.035691e-006 -7.899060e-001 -1.151116e-001 -2.225643e-006 1.012128e-005 -7.929903e-001 -1.154419e-001
307125000 2.203807e-006 -5.635518e-006 -7.900549e-001 -9.375204e-002 -9.188921e-006 7.075990e-006 -7.930775e-001 -9.409548e-002
307410000 1.714358e-006 -1.234564e-006 -7.897891e-001 -7.254029e-002 1.944790e-005 -3.635673e-006 -7.928752e-001 -7.279851e-002
307695000 -2.602210e-006 -8.215688e-006 -7.891163e-001 -5.155479e-002 -2.141670e-006 -8.783488e-006 -7.921771e-001 -5.172263e-002
307980000 3.021906e-006 -8.345213e-006 -7.880605e-001 -3.062833e-002 -2.539203e-006 6.727560e-006 -7.911189e-001 -3.074035e-002
308265000 9.056344e-006 -2.077284e-005 -7.866953e-001 -9.878997e-003 -1.051212e-005 1.712983e-005 -7.897120e-001 -9.889551e-003
308550000 2.387797e-006 -1.479166e-005 -7.847998e-001 1.073509e-002 -1.985867e-005 1.623149e-005 -7.878695e-001 1.074477e-002
308835000 -1.684971e-006 -9.619821e-006 -7.825458e-001 3.119701e-002 5.340532e-006 2.888805e-006 -7.856472e-001 3.124320e-002
309120000 2.412478e-006 3.604453e-006 -7.799451e-001 5.150630e-002 -1.070437e-005 3.060314e-006 -7.829823e-001 5.171636e-002
309405000 -1.747836e-006 -1.481429e-005 -7.769410e-001 7.171644e-002 -1.511542e-005 9.870316e-006 -7.799453e-001 7.199550e-002
309690000 -1.197018e-005 -8.845655e-006 -7.736880e-001 9.178898e-002 -4.451727e-008 -4.882346e-006 -7.766739e-001 9.217142e-002
309975000 -1.598464e-005 1.001569e-005 -7.699442e-001 1.117471e-001 1.570892e-005 -4.953190e-006 -7.728657e-001 1.121562e-001
310260000 1.189619e-005 3.852532e-006 -7.658539e-001 1.315570e-001 1.459609e-005 2.983696e-006 -7.688837e-001 1.321173e-001
310545000 -1.348091e-005 -2.192874e-006 -7.614613e-001 1.513016e-001 3.846751e-006 -5.127897e-006 -7.645269e-001 1.519215e-001
310830000 -1.188447e-006 7.011444e-006 -7.567199e-001 1.709114e-001 2.429350e-006 -1.470339e-005 -7.596546e-001 1.716568e-001
311115000 -9.672009e-006 1.580477e-005 -7.516030e-001 1.904102e-001 1.487596e-005 3.847908e-006 -7.545099e-001 1.911084e-001
311400000 -9.496900e-006 1.303581e-005 -7.460958e-001 2.098391e-001 1.550425e-005 1.461826e-005 -7.490600e-001 2.106285e-001
311685000 -8.307060e-006 1.067671e-006 -7.403238e-001 2.291597e-001 1.978383e-006 6.704209e-006 -7.432922e-001 2.300595e-001
311970000 2.442132e-006 -1.510703e-007 -7.340982e-001 2.483650e-001 7.136562e-006 5.013162e-006 -7.369959e-001 2.492851e-001
312255000 -1.474134e-006 7.032186e-006 -7.275736e-001 2.674873e-001 -1.222828e-006 1.614736e-006 -7.304457e-001 2.685022e-001
312540000 7.424809e-006 -3.208240e-007 -7.206849e-001 2.865318e-001 5.065047e-007 6.922163e-006 -7.235883e-001 2.876295e-001
312825000 9.638739e-006 -9.540840e-007 -7.134050e-001 3.053559e-001 -1.023946e-005 1.280548e-005 -7.163231e-001 3.066067e-001
313110000 2.452108e-006 -1.494535e-005 -7.057950e-001 3.242850e-001 3.695180e-006 -5.013418e-006 -7.085965e-001 3.256479e-001
313395000 5.896530e-007 4.788623e-007 -6.977380e-001 3.430360e-001 -7.659859e-006 -1.327596e-005 -7.005774e-001 3.444122e-001
313680000 3.989443e-006 -2.014631e-006 -6.893600e-001 3.617770e-001 4.711554e-007 -8.730497e-006 -6.921423e-001 3.632543e-001
313965000 1.828655e-005 3.206158e-006 -6.806436e-001 3.803087e-001 -6.037329e-006 -1.999314e-005 -6.833621e-001 3.818677e-001
314250000 8.182035e-006 3.138937e-006 -6.714614e-001 3.988441e-001 3.477017e-006 -8.491943e-006 -6.741706e-001 4.005120e-001
314535000 -1.807870e-006 -6.817730e-006 -6.618291e-001 4.173540e-001 -1.438310e-005 5.525093e-006 -6.645500e-001 4.190696e-001
314820000 -3.813223e-008 7.476096e-006 -6.518540e-001 4.356608e-001 1.309995e-006 -1.474009e-005 -6.544362e-001 4.374080e-001
315105000 9.818682e-006 -7.514162e-006 -6.415250e-001 4.539793e-001 -3.361989e-006 5.101027e-006 -6.440139e-001 4.558538e-001
315390000 -5.946767e-006 4.507299e-006 -6.306068e-001 4.721694e-001 -9.848888e-006 1.858861e-006 -6.332554e-001 4.740545e-001
315675000 -1.442875e-005 -1.106066e-005 -6.194195e-001 4.902577e-001 7.461297e-006 -5.401478e-006 -6.218702e-001 4.922025e-001
315960000 -7.260438e-008 -9.409745e-006 -6.076410e-001 5.082641e-001 8.747307e-006 -6.824342e-006 -6.100672e-001 5.102947e-001
316245000 9.663756e-007 -8.797902e-006 -5.955129e-001 5.262008e-001 -5.836688e-006 -5.335486e-006 -5.978143e-001 5.282565e-001
316530000 1.069596e-005 -8.776234e-006 -5.827823e-001 5.439386e-001 1.938850e-006 6.880613e-006 -5.851448e-001 5.461765e-001
316815000 -4.002707e-006 1.383561e-006 -5.695881e-001 5.616214e-001 -2.203065e-005 -9.055989e-006 -5.718471e-001 5.639815e-001
317100000 1.433133e-006 4.029501e-006 -5.559229e-001 5.791739e-001 -9.796570e-006 -7.146877e-006 -5.582004e-001 5.816407e-001
317385000 -6.058707e-006 -1.249727e-005 -5.416334e-001 5.966731e-001 -1.986300e-006 2.590372e-006 -5.438918e-001 5.991338e-001
317670000 3.310833e-006 -1.364714e-005 -5.270103e-001 6.140028e-001 -1.926851e-005 -6.742244e-006 -5.291345e-001 6.164500e-001
317955000 9.444119e-006 -1.878590e-005 -5.116616e-001 6.310743e-001 -1.161041e-005 -5.743899e-006 -5.137749e-001 6.337926e-001
318240000 2.848538e-006 -8.305918e-006 -4.958522e-001 6.479949e-001 -2.204152e-005 -5.325922e-006 -4.978512e-001 6.507196e-001
318525000 -4.043514e-006 9.084978e-006 -4.794082e-001 6.648390e-001 -5.536061e-006 -1.759643e-005 -4.814114e-001 6.675487e-001
318810000 -1.450082e-005 -1.275167e-005 -4.624136e-001 6.815273e-001 2.102603e-005 -1.727559e-005 -4.643070e-001 6.842732e-001
319095000 2.103094e-006 -4.579025e-006 -4.447365e-001 6.978824e-001 4.905023e-006 -4.956723e-006 -4.466715e-001 7.006636e-001
319380000 -6.406093e-007 -1.803821e-005 -4.265876e-001 7.139773e-001 -3.136090e-006 1.932013e-006 -4.282947e-001 7.169669e-001
319665000 -9.402328e-006 7.126633e-006 -4.076307e-001 7.297689e-001 -5.574056e-006 3.980335e-006 -4.092529e-001 7.328233e-001
319950000 -7.034786e-006 1.208535e-005 -3.880328e-001 7.454569e-001 4.268115e-006 -1.844221e-006 -3.896543e-001 7.485042e-001
320235000 -1.497631e-006 1.177293e-005 -3.678304e-001 7.607820e-001 5.499404e-007 -9.986594e-008 -3.693095e-001 7.638460e-001
320520000 -6.595224e-008 -3.812310e-006 -3.468515e-001 7.756651e-001 3.460119e-006 -3.812308e-006 -3.482928e-001 7.788520e-001
320805000 -1.987834e-005 1.603255e-006 -3.253184e-001 7.902067e-001 1.383823e-005 8.797345e-006 -3.266608e-001 7.934765e-001
321090000 -2.292890e-005 -5.511053e-006 -3.030061e-001 8.043364e-001 8.736278e-007 2.490261e-005 -3.042599e-001 8.076388e-001
321375000 9.634419e-007 7.975963e-006 -2.798218e-001 8.180580e-001 -7.600144e-006 -7.710756e-006 -2.809567e-001 8.214608e-001
321660000 -3.599499e-006 -6.283441e-006 -2.561158e-001 8.311762e-001 -2.080076e-005 -3.090913e-007 -2.570753e-001 8.346775e-001
321945000 5.170579e-006 -7.986322e-006 -2.314485e-001 8.439826e-001 -1.027018e-005 3.878706e-006 -2.323945e-001 8.474592e-001
322230000 1.897978e-006 -2.933108e-006 -2.061644e-001 8.560460e-001 -4.296858e-006 -8.509707e-006 -2.071299e-001 8.596172e-001
322515000 1.008811e-006 1.220984e-005 -1.801908e-001 8.675262e-001 7.847780e-007 7.628826e-006 -1.808774e-001 8.711914e-001
322800000 1.855006e-006 -1.302690e-005 -1.533307e-001 8.784088e-001 -1.037149e-005 -9.478930e-006 -1.540869e-001 8.821102e-001
323085000 -5.653506e-006 -2.409998e-005 -1.258312e-001 8.885751e-001 8.927058e-006 -7.916802e-007 -1.262926e-001 8.922197e-001
323370000 -2.511547e-006 -1.256580e-006 -9.755147e-002 8.979031e-001 5.584851e-006 1.109875e-005 -9.792793e-002 9.016427e-001
323655000 1.371657e-005 -2.132229e-005 -6.843369e-002 9.063606e-001 7.249628e-006 -3.329892e-006 -6.876160e-002 9.102870e-001
323940000 4.078135e-006 3.547507e-006 -3.857975e-002 9.140684e-001 -4.880832e-006 4.431827e-006 -3.882436e-002 9.179469e-001
324225000 9.842380e-006 1.851922e-006 -8.231730e-003 9.207963e-001 2.544172e-006 -8.205172e-006 -8.238588e-003 9.246163e-001
324510000 7.972058e-006 -6.124119e-008 2.305842e-002 9.265293e-001 4.237249e-006 1.554466e-006 2.306625e-002 9.303998e-001
324795000 6.678416e-006 1.451178e-005 5.497468e-002 9.311298e-001 -5.987565e-006 1.018300e-005 5.511818e-002 9.350774e-001
325080000 -7.073981e-006 -6.912088e-006 8.730435e-002 9.346144e-001 -1.543922e-005 1.326840e-005 8.775081e-002 9.385415e-001
325365000 -1.322802e-005 4.009022e-006 1.205209e-001 9.369445e-001 -8.863348e-006 -5.056080e-006 1.210030e-001 9.408795e-001
325650000 -1.515631e-005 -9.518061e-006 1.541219e-001 9.379900e-001 5.274808e-007 -2.860614e-006 1.547520e-001 9.419358e-001
325935000 -1.490050e-005 -4.862035e-006 1.882920e-001 9.377446e-001 -6.040683e-006 6.339231e-006 1.890734e-001 9.416615e-001
326220000 -1.622889e-005 -1.182565e-005 2.228559e-001 9.360384e-001 -1.316720e-005 -1.166492e-005 2.237248e-001 9.400139e-001
326505000 -1.769695e-006 2.425844e-006 2.578987e-001 9.329169e-001 -2.366479e-006 -1.309233e-005 2.589029e-001 9.368996e-001
326790000 4.075926e-006 -9.381901e-006 2.930537e-001 9.283232e-001 -3.355511e-007 -1.212563e-005 2.943732e-001 9.322602e-001
327075000 -8.510095e-006 -1.507327e-005 3.287343e-001 9.220018e-001 9.416019e-006 2.711926e-008 3.300172e-001 9.260661e-001
327360000 -8.749024e-006 -7.523949e-006 3.644473e-001 9.143426e-001 -2.113512e-006 3.739422e-006 3.659999e-001 9.181983e-001
327645000 -5.596163e-006 -7.250813e-006 4.001229e-001 9.049262e-001 -7.215690e-006 -9.799578e-007 4.019139e-001 9.087439e-001
327930000 4.325630e-006 -7.334779e-006 4.358986e-001 8.937907e-001 -4.668956e-006 -1.204048e-005 4.377281e-001 8.975390e-001
328215000 2.623769e-006 7.270420e-006 4.714211e-001 8.809382e-001 -1.677284e-006 -1.054663e-005 4.734596e-001 8.847764e-001
328500000 1.694558e-005 3.223702e-006 5.067209e-001 8.663374e-001 -6.719970e-006 6.970532e-006 5.089619e-001 8.700013e-001
328785000 4.572058e-006 3.332637e-006 5.416880e-001 8.500233e-001 -1.071407e-006 -4.156514e-006 5.440141e-001 8.537341e-001
329070000 -2.430423e-005 1.409842e-006 5.761536e-001 8.318681e-001 -2.789557e-005 -5.167273e-006 5.787058e-001 8.354405e-001
329355000 5.379955e-006 -7.780905e-006 6.102023e-001 8.120834e-001 -5.258683e-006 -9.758246e-006 6.128410e-001 8.154978e-001
329640000 1.292832e-006 -1.353781e-005 6.433756e-001 7.904840e-001 -3.222351e-006 -7.217038e-006 6.461016e-001 7.938791e-001
329925000 -1.412507e-005 -4.288698e-006 6.756204e-001 7.670918e-001 2.016783e-008 -7.268120e-006 6.787227e-001 7.703950e-001
330210000 -7.398484e-006 7.384822e-007 7.071435e-001 7.422114e-001 1.644216e-006 7.394900e-006 7.101597e-001 7.452735e-001
330495000 -3.798213e-006 -1.026838e-005 7.375124e-001 7.155019e-001 3.499014e-006 3.586471e-006 7.406014e-001 7.185756e-001
330780000 4.932131e-006 -2.076890e-006 7.666309e-001 6.873405e-001 -7.074779e-007 3.455761e-006 7.699034e-001 6.902418e-001
331065000 1.428011e-005 1.254406e-005 7.944878e-001 6.574988e-001 -3.702608e-006 -4.069603e-006 7.978638e-001 6.604134e-001
331350000 -3.137398e-006 3.966885e-006 8.209588e-001 6.264643e-001 -1.101085e-005 -7.823484e-007 8.244298e-001 6.291791e-001
331635000 1.183893e-005 -1.062407e-006 8.458567e-001 5.940529e-001 2.321927e-006 -1.189928e-005 8.496281e-001 5.965201e-001
331920000 -1.810508e-005 -3.766363e-006 8.691852e-001 5.603408e-001 -2.754185e-006 2.105366e-006 8.729530e-001 5.627156e-001
332205000 2.642767e-006 5.511382e-006 8.908152e-001 5.254636e-001 -6.384348e-006 -1.101067e-005 8.947222e-001 5.278332e-001
332490000 -1.262959e-005 -9.885552e-008 9.108317e-001 4.896314e-001 -3.352398e-006 2.567139e-006 9.148023e-001 4.918265e-001
332775000 -1.728079e-005 -5.248629e-006 9.289535e-001 4.529661e-001 5.020010e-006 8.634199e-007 9.329606e-001 4.549066e-001
333060000 -1.807436e-005 -1.789893e-005 9.452331e-001 4.155136e-001 -1.268496e-005 -4.056336e-006 9.492813e-001 4.173079e-001
333345000 -2.771025e-006 -9.471573e-006 9.595762e-001 3.774092e-001 8.241195e-006 -7.583239e-006 9.637430e-001 3.789595e-001
333630000 -5.068394e-006 -6.055957e-006 9.719650e-001 3.387778e-001 9.526897e-007 -6.898767e-006 9.761671e-001 3.402865e-001
333915000 3.835667e-006 -2.097442e-006 9.825194e-001 2.997564e-001 6.377742e-006 -9.449437e-006 9.868134e-001 3.010965e-001
334200000 1.058729e-005 2.154209e-006 9.910987e-001 2.605632e-001 2.088306e-005 -1.456098e-006 9.954737e-001 2.617636e-001
334485000 2.943571e-006 -7.036987e-006 9.977594e-001 2.212000e-001 4.172008e-006 -1.499209e-006 1.002138e+000 2.222122e-001
334770000 -5.740468e-006 2.727960e-006 1.002471e+000 1.818583e-001 1.058648e-005 -4.244373e-007 1.006871e+000 1.827100e-001
335055000 -6.884902e-006 -3.172540e-006 1.005335e+000 1.427354e-001 -1.502214e-005 7.775322e-006 1.009705e+000 1.432080e-001
335340000 -7.216465e-006 -5.321662e-006 1.006248e+000 1.038518e-001 -5.797066e-006 1.712334e-006 1.010688e+000 1.042880e-001
335625000 2.002066e-006 3.822438e-006 1.005450e+000 6.526135e-002 2.994070e-006 3.489883e-006 1.009863e+000 6.556252e-002
335910000 -4.450634e-006 1.815448e-005 1.002900e+000 2.717767e-002 3.568976e-006 -1.165485e-005 1.007286e+000 2.740370e-002
336195000 7.502864e-006 8.230237e-006 9.987062e-001 -1.035367e-002 -5.527420e-006 9.079457e-006 1.003039e+000 -1.042242e-002
336480000 -6.473405e-006 1.660031e-005 9.928508e-001 -4.724123e-002 -8.817506e-006 1.050602e-005 9.972090e-001 -4.748289e-002
336765000 -7.533779e-006 -1.087385e-007 9.855922e-001 -8.343970e-002 -6.182974e-007 7.020887e-006 9.897633e-001 -8.379931e-002
337050000 -1.157330e-005 -3.023899e-006 9.768026e-001 -1.187382e-001 -7.802548e-006 -6.639193e-006 9.809662e-001 -1.193798e-001
337335000 8.913090e-006 4.502701e-006 9.666284e-001 -1.533861e-001 -6.884094e-006 4.528888e-006 9.707354e-001 -1.541251e-001
337620000 -3.866518e-006 1.774583e-005 9.550399e-001 -1.870687e-001 9.035246e-006 -9.677156e-006 9.592588e-001 -1.878692e-001
337905000 -1.201475e-005 -2.096363e-006 9.424321e-001 -2.196968e-001 -1.844529e-005 2.855250e-006 9.464793e-001 -2.206640e-001
338190000 -7.722194e-006 -9.469321e-006 9.286386e-001 -2.514410e-001 -1.623916e-005 2.078059e-006 9.326259e-001 -2.524890e-001
338475000 6.926831e-006 1.009246e-005 9.137962e-001 -2.821207e-001 6.038070e-006 -3.985302e-006 9.177147e-001 -2.833310e-001
338760000 4.821470e-006 5.104622e-008 8.979703e-001 -3.117690e-001 -4.229472e-006 7.096273e-006 9.019360e-001 -3.131312e-001
339045000 -7.361430e-006 1.733143e-006 8.813893e-001 -3.404706e-001 -5.244337e-006 6.987648e-006 8.851489e-001 -3.419001e-001
339330000 3.174006e-006 1.762544e-005 8.638737e-001 -3.679733e-001 -2.403593e-006 2.679763e-006 8.676268e-001 -3.695807e-001
339615000 -1.201103e-005 5.268731e-006 8.456760e-001 -3.944390e-001 -1.135684e-007 8.059456e-006 8.492903e-001 -3.961151e-001
339900000 -1.398507e-006 2.353969e-006 8.268160e-001 -4.198745e-001 -7.382174e-008 1.397003e-005 8.302869e-001 -4.216495e-001
340185000 -4.713721e-006 -4.903521e-007 8.073009e-001 -4.442643e-001 -1.263220e-005 9.919615e-006 8.108242e-001 -4.461126e-001
340470000 -7.122421e-006 1.726573e-006 7.873693e-001 -4.675514e-001 -1.783136e-005 1.222855e-005 7.906869e-001 -4.695636e-001
340755000 4.444047e-006 4.754512e-006 7.668365e-001 -4.899010e-001 -1.470150e-005 1.382027e-005 7.702155e-001 -4.919308e-001
341040000 9.287769e-006 -1.021550e-005 7.460513e-001 -5.110230e-001 -5.766401e-006 2.771611e-006 7.491741e-001 -5.131757e-001
341325000 -1.341509e-005 1.454126e-006 7.247357e-001 -5.311863e-001 -2.445197e-006 8.292617e-006 7.278346e-001 -5.334823e-001
341610000 -1.169887e-005 5.802784e-006 7.031941e-001 -5.504475e-001 -8.611823e-006 -3.987705e-006 7.062035e-001 -5.527894e-001
341895000 3.907740e-006 1.747548e-006 6.813897e-001 -5.687814e-001 2.187412e-005 -5.606995e-006 6.842566e-001 -5.710365e-001
342180000 -2.347463e-006 -8.839743e-006 6.593683e-001 -5.860076e-001 6.177896e-006 9.656220e-006 6.621625e-001 -5.884548e-001
342465000 6.461994e-006 1.334101e-005 6.372176e-001 -6.023803e-001 1.361890e-005 -7.198082e-006 6.398880e-001 -6.049294e-001
342750000 1.076377e-006 1.102876e-006 6.149106e-001 -6.178753e-001 2.194806e-006 5.011688e-006 6.174485e-001 -6.204125e-001
343035000 4.589575e-006 -3.179956e-006 5.924405e-001 -6.323940e-001 -2.060282e-006 -7.279918e-006 5.948488e-001 -6.351256e-001
343320000 -2.528202e-006 7.663753e-006 5.698825e-001 -6.462504e-001 -1.036146e-005 8.369682e-006 5.723328e-001 -6.489843e-001
343605000 -5.806311e-006 8.188956e-006 5.472731e-001 -6.592243e-001 -1.065735e-005 -3.878273e-006 5.496080e-001 -6.619366e-001
343890000 -1.144975e-005 5.865841e-006 5.247462e-001 -6.713933e-001 1.215499e-005 4.413974e-006 5.269449e-001 -6.741943e-001
