!Agilent Technologies,N5230C,SG49000117,A.08.50.07
!Agilent N5230C: A.08.50.07
!Date: Sunday, March 17, 2024 06:55:28
!Correction: S11(Off) 
!S21(Off) 
!S12(Off) 
!S22(Off) 
!S2P File: Measurements: S11, S21, S12, S22:
# Hz S  RI   R 50
300000000 1.109100e-005 1.291357e-005 -6.204264e-001 -6.533924e-001 6.160658e-006 2.378079e-006 -6.227173e-001 -6.557533e-001
300285000 1.944546e-005 1.258669e-005 -6.359345e-001 -6.301911e-001 8.266197e-006 -1.994119e-006 -6.382600e-001 -6.324962e-001
300570000 -4.522625e-008 6.346407e-006 -6.506307e-001 -6.067947e-001 1.618981e-005 -1.147597e-005 -6.529591e-001 -6.090646e-001
300855000 1.010465e-006 1.528409e-006 -6.643290e-001 -5.833976e-001 -3.090678e-006 4.252289e-006 -6.668026e-001 -5.855007e-001
301140000 -6.299380e-006 6.795838e-006 -6.772752e-001 -5.597489e-001 -5.388840e-006 1.414474e-005 -6.797564e-001 -5.617797e-001
301425000 -8.776022e-006 -1.596971e-005 -6.893056e-001 -5.361190e-001 1.501407e-006 -5.702157e-007 -6.920018e-001 -5.381142e-001
301710000 -4.630767e-007 -1.174492e-006 -7.006453e-001 -5.125444e-001 1.956099e-006 -1.395463e-005 -7.032057e-001 -5.143900e-001
301995000 -1.836288e-006 -5.181471e-006 -7.110438e-001 -4.889865e-001 2.428451e-006 3.727294e-006 -7.137668e-001 -4.907884e-001
302280000 4.469437e-006 -1.049216e-005 -7.207644e-001 -4.654849e-001 1.947424e-006 6.752726e-006 -7.235199e-001 -4.671858e-001
302565000 7.004361e-007 -2.533827e-007 -7.297720e-001 -4.419276e-001 -3.759370e-006 4.267660e-006 -7.324164e-001 -4.436304e-001
302850000 2.927422e-006 -4.196868e-006 -7.379606e-001 -4.185648e-001 -1.104498e-005 4.223352e-007 -7.407297e-001 -4.201446e-001
303135000 -5.617877e-006 7.300922e-006 -7.454746e-001 -3.952511e-001 -1.632075e-006 -9.925846e-006 -7.483025e-001 -3.967191e-001
303420000 7.483936e-006 -1.278085e-005 -7.523787e-001 -3.721160e-001 1.232474e-005 4.202111e-007 -7.552306e-001 -3.735602e-001
303705000 -2.579457e-006 6.982847e-006 -7.586006e-001 -3.490037e-001 -2.531740e-006 -6.460958e-006 -7.613978e-001 -3.503949e-001
303990000 8.756455e-006 3.905835e-006 -7.641412e-001 -3.261497e-001 -4.193611e-006 -4.865019e-006 -7.670781e-001 -3.273719e-001
304275000 5.821084e-006 -2.803820e-006 -7.691803e-001 -3.033935e-001 -8.077373e-006 -1.186950e-005 -7.720965e-001 -3.045740e-001
304560000 -6.376200e-006 -1.841160e-006 -7.736287e-001 -2.807418e-001 -5.637220e-006 -3.056130e-006 -7.765891e-001 -2.818217e-001
304845000 6.643411e-006 -1.159719e-005 -7.775089e-001 -2.583193e-001 -1.175067e-007 -1.104621e-005 -7.804269e-001 -2.592121e-001
305130000 8.742708e-006 2.304312e-006 -7.808043e-001 -2.359420e-001 -8.856717e-006 -2.885304e-006 -7.838057e-001 -2.368464e-001
305415000 -2.672697e-007 -9.927852e-006 -7.836228e-001 -2.137452e-001 1.730149e-006 -1.903724e-005 -7.866626e-001 -2.146021e-001
305700000 1.368989e-005 -1.437211e-005 -7.858953e-001 -1.916838e-001 -1.816353e-006 -1.063701e-005 -7.889839e-001 -1.924294e-001
305985000 9.534937e-006 -3.885726e-006 -7.876542e-001 -1.697766e-001 2.779663e-006 5.295610e-006 -7.907856e-001 -1.703766e-001
306270000 6.942404e-006 4.703501e-006 -7.890115e-001 -1.480608e-001 -3.495622e-006 3.504685e-006 -7.920974e-001 -1.486010e-001
306555000 1.405372e-005 -9.740013e-007 -7.898815e-001 -1.263929e-001 1.343167e-005 -5.873880e-006 -7.929468e-001 -1.268243e-001
306840000 4.077455e-006 5.141985e-006 -7.901926e-001 -1.050104e-001 5.713561e-006 1.130125e-007 -7.932516e-001 -1.054146e-001
307125000 1.335158e-005 5.724304e-006 -7.901909e-001 -8.365583e-002 1.053064e-005 -3.626281e-007 -7.932827e-001 -8.392525e-002
307410000 5.302838e-006 1.213429e-005 -7.897303e-001 -6.253099e-002 5.178267e-006 -1.676467e-005 -7.928154e-001 -6.273337e-002
307695000 8.987368e-006 1.658752e-005 -7.888652e-001 -4.162226e-002 -6.318351e-007 2.365947e-005 -7.919357e-001 -4.166814e-002
307980000 -9.708313e-007 -9.241941e-006 -7.876559e-001 -2.068039e-002 1.686361e-006 -4.452966e-007 -7.906931e-001 -2.079843e-002
308265000 -2.147106e-006 6.502230e-006 -7.859572e-001 -6.787825e-005 -3.341421e-006 1.283663e-007 -7.889669e-001 -1.282260e-005
308550000 -2.557845e-005 2.630702e-006 -7.839010e-001 2.056071e-002 5.884150e-006 1.501534e-005 -7.869168e-001 2.059573e-002
308835000 -2.457966e-005 -1.404753e-005 -7.815399e-001 4.095845e-002 -3.651605e-006 -9.663028e-006 -7.845734e-001 4.106144e-002
309120000 5.600946e-006 -7.225795e-006 -7.786777e-001 6.122908e-002 -2.007078e-006 2.487119e-009 -7.817086e-001 6.155216e-002
309405000 4.681010e-006 -1.730010e-005 -7.755157e-001 8.140096e-002 1.064594e-005 -9.532514e-006 -7.785242e-001 8.173856e-002
309690000 -3.726820e-006 -9.920394e-006 -7.719833e-001 1.014291e-001 1.323594e-005 -6.598394e-006 -7.750174e-001 1.018196e-001
309975000 3.811231e-006 -7.816422e-006 -7.681176e-001 1.213547e-001 -1.274909e-005 -1.907364e-005 -7.710776e-001 1.217890e-001
310260000 -8.433064e-006 -1.150941e-005 -7.637643e-001 1.411643e-001 1.990916e-006 -7.821987e-006 -7.668123e-001 1.416754e-001
310545000 2.303962e-006 -1.248306e-005 -7.591723e-001 1.608353e-001 -6.802665e-006 -1.772544e-005 -7.622213e-001 1.614519e-001
310830000 2.009896e-005 -3.367270e-006 -7.542679e-001 1.803357e-001 4.447544e-006 -8.344580e-006 -7.572339e-001 1.810701e-001
311115000 2.231467e-005 -1.437892e-005 -7.489067e-001 1.998811e-001 5.862360e-006 1.028330e-005 -7.518367e-001 2.005858e-001
311400000 6.615091e-006 7.608854e-006 -7.432648e-001 2.192256e-001 1.138287e-005 9.315712e-006 -7.462618e-001 2.200833e-001
311685000 7.006861e-006 4.596526e-007 -7.372695e-001 2.384783e-001 1.676449e-005 3.438633e-006 -7.401528e-001 2.394613e-001
311970000 1.992890e-005 1.250531e-006 -7.308888e-001 2.576515e-001 -9.039394e-006 1.067060e-005 -7.337455e-001 2.586645e-001
312255000 6.850932e-006 4.326219e-006 -7.241281e-001 2.767504e-001 -1.116736e-006 -2.677528e-006 -7.270190e-001 2.777514e-001
312540000 1.851176e-006 1.281117e-005 -7.170206e-001 2.957135e-001 -6.805218e-006 -4.856632e-006 -7.199369e-001 2.968885e-001
312825000 -4.150879e-006 1.002737e-005 -7.095775e-001 3.145126e-001 -1.175464e-005 -1.391527e-006 -7.124667e-001 3.157992e-001
313110000 3.020738e-006 1.397660e-005 -7.017237e-001 3.334205e-001 -1.249757e-006 7.431397e-006 -7.045226e-001 3.347387e-001
313395000 8.971439e-007 7.968337e-006 -6.935278e-001 3.521056e-001 -7.692915e-006 -8.245137e-006 -6.963324e-001 3.535225e-001
313680000 3.373080e-006 -7.056453e-008 -6.849947e-001 3.707294e-001 -8.004087e-006 -6.800587e-006 -6.876791e-001 3.722549e-001
313965000 9.043237e-007 -1.193496e-005 -6.759212e-001 3.893215e-001 -4.551636e-006 -2.745641e-005 -6.786617e-001 3.908924e-001
314250000 -1.204385e-005 -1.256945e-005 -6.665975e-001 4.077363e-001 5.375526e-006 -2.215051e-005 -6.692855e-001 4.093995e-001
314535000 -2.169956e-005 -1.594805e-006 -6.568186e-001 4.261710e-001 -1.472859e-007 -1.214198e-005 -6.594560e-001 4.279107e-001
314820000 -9.088872e-006 -9.745655e-006 -6.465409e-001 4.444884e-001 1.781993e-006 -2.291461e-006 -6.491742e-001 4.462370e-001
315105000 8.938328e-006 -1.987841e-005 -6.359502e-001 4.627266e-001 3.351071e-006 4.618542e-006 -6.384314e-001 4.645986e-001
315390000 4.605624e-006 -2.363266e-006 -6.248556e-001 4.807957e-001 5.595784e-006 4.477218e-006 -6.273681e-001 4.827122e-001
315675000 -6.432242e-006 -1.260256e-005 -6.134014e-001 4.988663e-001 1.386311e-005 -4.629578e-006 -6.158531e-001 5.008627e-001
315960000 3.133782e-006 -9.543344e-006 -6.014215e-001 5.168256e-001 1.484648e-006 -5.491028e-006 -6.037716e-001 5.188938e-001
316245000 6.473820e-006 2.236358e-006 -5.889531e-001 5.346386e-001 -6.197808e-007 9.683537e-006 -5.913348e-001 5.368065e-001
316530000 3.666717e-006 7.633225e-007 -5.760407e-001 5.523904e-001 2.402381e-006 -1.181981e-005 -5.783787e-001 5.546128e-001
316815000 1.206141e-005 9.287382e-006 -5.625882e-001 5.699705e-001 8.491210e-007 4.122431e-006 -5.649292e-001 5.722926e-001
317100000 -7.242402e-007 4.210546e-008 -5.486771e-001 5.873918e-001 1.778651e-005 -1.228763e-006 -5.509545e-001 5.898456e-001
317385000 4.330282e-007 7.810931e-006 -5.341944e-001 6.047880e-001 3.274650e-006 1.805441e-006 -5.363812e-001 6.072907e-001
317670000 -6.982583e-006 -1.086817e-005 -5.192187e-001 6.219819e-001 -1.360084e-005 6.358200e-006 -5.213193e-001 6.244856e-001
317955000 1.239173e-006 -7.398148e-006 -5.035899e-001 6.389467e-001 -1.305307e-006 6.529086e-006 -5.056554e-001 6.416606e-001
318240000 -8.344257e-006 -9.952371e-006 -4.875722e-001 6.558205e-001 -1.007919e-005 9.980561e-006 -4.895772e-001 6.585675e-001
318525000 3.505218e-006 4.528205e-006 -4.707989e-001 6.726008e-001 -1.133824e-005 2.226706e-006 -4.727396e-001 6.752740e-001
318810000 -6.282248e-007 -5.343135e-006 -4.535344e-001 6.890028e-001 -1.244147e-005 -1.074811e-005 -4.553310e-001 6.918175e-001
319095000 -1.246080e-006 1.746018e-006 -4.356070e-001 7.051985e-001 -1.295724e-005 -9.728452e-006 -4.374609e-001 7.081283e-001
319380000 -8.042376e-006 -2.128987e-006 -4.169712e-001 7.211301e-001 -1.438781e-005 8.884762e-007 -4.186803e-001 7.241560e-001
319665000 4.237040e-006 -9.107933e-007 -3.978562e-001 7.368467e-001 -9.121021e-006 1.101704e-006 -3.994113e-001 7.398963e-001
319950000 -1.005180e-005 -1.394877e-006 -3.779166e-001 7.522575e-001 9.106480e-006 -3.810831e-006 -3.795127e-001 7.553720e-001
320235000 -1.523489e-007 -7.549050e-007 -3.573974e-001 7.673712e-001 6.331666e-007 -7.093291e-006 -3.589198e-001 7.705370e-001
320520000 -2.565169e-006 -1.217981e-005 -3.361633e-001 7.821221e-001 8.111028e-007 -1.616305e-005 -3.375709e-001 7.852851e-001
320805000 -6.836929e-007 1.444333e-006 -3.141475e-001 7.963901e-001 3.446290e-006 -7.622116e-006 -3.154961e-001 7.997329e-001
321090000 -9.431236e-006 2.165407e-006 -2.915739e-001 8.102552e-001 -1.764940e-006 2.735803e-006 -2.927890e-001 8.135671e-001
321375000 2.094257e-005 -1.376433e-005 -2.681484e-001 8.237442e-001 -2.905261e-006 5.494254e-006 -2.692395e-001 8.272064e-001
321660000 -1.580958e-006 4.857622e-007 -2.440034e-001 8.366907e-001 3.761669e-006 -1.652955e-007 -2.451252e-001 8.401718e-001
321945000 -4.617789e-006 7.002205e-006 -2.191166e-001 8.491221e-001 1.160726e-005 1.345090e-005 -2.200871e-001 8.526270e-001
322230000 2.126446e-005 4.685383e-006 -1.935582e-001 8.608947e-001 -1.161935e-005 8.656613e-006 -1.944030e-001 8.645040e-001
322515000 8.674806e-006 -1.585509e-006 -1.671561e-001 8.720894e-001 -2.741540e-006 3.465539e-006 -1.678507e-001 8.757455e-001
322800000 -2.140904e-006 6.273170e-006 -1.399897e-001 8.825220e-001 1.340769e-007 -6.787593e-006 -1.406664e-001 8.862449e-001
323085000 2.493581e-005 9.564013e-009 -1.121795e-001 8.923121e-001 -9.201065e-006 7.674420e-006 -1.125992e-001 8.960291e-001
323370000 1.200590e-005 -4.783489e-007 -8.351228e-002 9.012863e-001 -1.487991e-008 -4.539180e-006 -8.387231e-002 9.050342e-001
323655000 7.737020e-006 -3.461362e-006 -5.412791e-002 9.093329e-001 -1.109609e-005 -5.753580e-006 -5.433900e-002 9.131303e-001
323940000 -9.603044e-006 -1.018898e-005 -2.405766e-002 9.165368e-001 -1.486572e-005 -9.564648e-006 -2.415097e-002 9.203984e-001
324225000 -1.311678e-005 1.842354e-006 6.751535e-003 9.228233e-001 -1.849696e-006 -1.607665e-005 6.779228e-003 9.267042e-001
324510000 -1.436438e-006 -1.203139e-005 3.819703e-002 9.280531e-001 -7.479172e-006 -1.073343e-005 3.835975e-002 9.318292e-001
324795000 -7.421299e-006 2.690136e-006 7.031232e-002 9.320707e-001 1.144969e-005 -9.621701e-006 7.056659e-002 9.359957e-001
325080000 -1.289281e-005 4.543882e-006 1.030881e-001 9.350156e-001 9.244085e-006 -5.951722e-006 1.035073e-001 9.389753e-001
325365000 -1.883361e-005 -5.196243e-006 1.364094e-001 9.367446e-001 1.205051e-006 9.964057e-007 1.370198e-001 9.406829e-001
325650000 -1.296147e-006 5.568382e-006 1.701905e-001 9.371258e-001 -7.610275e-006 8.661962e-006 1.709497e-001 9.411312e-001
325935000 -8.355452e-006 -1.731971e-006 2.044583e-001 9.362307e-001 1.524033e-007 -4.649434e-006 2.054437e-001 9.401707e-001
326220000 -8.557554e-007 6.154557e-006 2.393275e-001 9.338560e-001 -1.274770e-006 -4.719260e-006 2.403488e-001 9.377830e-001
326505000 -6.179760e-006 -7.339885e-006 2.743648e-001 9.300395e-001 -6.785345e-006 -6.168604e-008 2.755648e-001 9.340230e-001
326790000 1.018455e-005 -9.608576e-006 3.097404e-001 9.246752e-001 -8.536817e-007 3.149021e-006 3.110473e-001 9.286535e-001
327075000 -1.898620e-007 -8.779236e-007 3.453299e-001 9.178439e-001 2.306297e-006 3.722101e-006 3.468514e-001 9.217228e-001
327360000 4.006105e-006 -1.320352e-005 3.810898e-001 9.092994e-001 -1.245538e-005 1.001225e-005 3.826794e-001 9.131273e-001
327645000 -8.925103e-006 -1.212752e-005 4.167334e-001 8.990912e-001 -1.323686e-005 1.175825e-005 4.185826e-001 9.029239e-001
327930000 -1.478383e-005 4.948757e-006 4.523068e-001 8.871649e-001 5.806787e-007 -8.984668e-007 4.543004e-001 8.909439e-001
328215000 -1.100275e-005 7.980213e-006 4.879164e-001 8.735865e-001 -6.555509e-006 1.137715e-005 4.898914e-001 8.772659e-001
328500000 -1.509762e-005 -7.062904e-006 5.230134e-001 8.582225e-001 -1.031791e-006 -3.797520e-006 5.252364e-001 8.618029e-001
328785000 -4.746554e-006 9.641672e-006 5.577409e-001 8.411139e-001 -3.973531e-006 -2.313622e-005 5.600799e-001 8.446714e-001
329070000 -5.319039e-006 -5.611995e-006 5.919086e-001 8.222128e-001 5.755443e-006 2.235470e-006 5.944582e-001 8.256986e-001
329355000 -1.140751e-006 -2.920007e-006 6.255956e-001 8.014602e-001 7.924374e-006 -2.077794e-006 6.283246e-001 8.049604e-001
329640000 -6.724221e-006 6.767583e-006 6.582612e-001 7.791466e-001 9.122637e-006 -1.671984e-005 6.611817e-001 7.825085e-001
329925000 8.773856e-006 5.625206e-006 6.902739e-001 7.549943e-001 -1.263855e-007 -3.295639e-006 6.931743e-001 7.582737e-001
330210000 -6.670371e-006 8.777331e-006 7.212271e-001 7.293654e-001 -3.006405e-006 4.777278e-006 7.243354e-001 7.324557e-001
330495000 3.412218e-007 7.898766e-006 7.509953e-001 7.019658e-001 -9.442845e-006 1.938807e-006 7.542647e-001 7.049115e-001
330780000 1.859584e-006 -1.737599e-005 7.796050e-001 6.730251e-001 -7.707079e-006 2.357041e-006 7.829594e-001 6.759337e-001
331065000 1.586590e-006 -2.531844e-006 8.068192e-001 6.427499e-001 1.492135e-006 1.268268e-005 8.103222e-001 6.455058e-001
331350000 -7.491667e-006 -7.151121e-007 8.326260e-001 6.109387e-001 -2.677187e-006 3.264674e-006 8.361609e-001 6.136413e-001
331635000 4.892563e-006 1.366017e-005 8.568075e-001 5.778884e-001 -6.094995e-006 8.804648e-006 8.605838e-001 5.804429e-001
331920000 -6.135723e-007 -3.224941e-006 8.793789e-001 5.437412e-001 -7.950717e-006 -8.970621e-006 8.832407e-001 5.460752e-001
332205000 6.812089e-006 8.492028e-007 9.002628e-001 5.083827e-001 4.988658e-007 -8.399821e-006 9.042043e-001 5.106666e-001
332490000 -4.390120e-006 7.932585e-006 9.194415e-001 4.722088e-001 -1.261897e-005 1.395475e-006 9.233812e-001 4.742303e-001
332775000 -5.869417e-007 -6.045855e-006 9.366148e-001 4.351209e-001 -2.955805e-006 -4.039323e-006 9.407135e-001 4.370371e-001
333060000 -1.089214e-005 1.317287e-007 9.520014e-001 3.973295e-001 -1.261160e-006 -8.036041e-006 9.561519e-001 3.990505e-001
333345000 2.408719e-006 -5.291313e-006 9.655439e-001 3.589135e-001 -4.389230e-006 -6.817609e-006 9.697636e-001 3.604886e-001
333630000 -8.543837e-006 1.091899e-006 9.771651e-001 3.202353e-001 1.362601e-006 -6.957782e-006 9.813988e-001 3.215415e-001
333915000 -1.054550e-005 4.213272e-006 9.867783e-001 2.809804e-001 1.551790e-006 -7.744850e-006 9.910936e-001 2.822150e-001
334200000 -2.399151e-005 4.362229e-006 9.943105e-001 2.416975e-001 1.225434e-006 -1.091276e-005 9.987864e-001 2.427592e-001
334485000 -1.346101e-005 -2.551181e-006 1.000178e+000 2.023872e-001 -5.966659e-006 -1.548807e-005 1.004562e+000 2.032547e-001
334770000 -1.501925e-005 3.382851e-006 1.004039e+000 1.630489e-001 -1.263240e-005 -3.155951e-006 1.008412e+000 1.637766e-001
335055000 -9.949608e-006 -2.714463e-007 1.006054e+000 1.238399e-001 -1.166804e-005 -1.299790e-005 1.010434e+000 1.244899e-001
335340000 -7.184912e-006 7.771398e-006 1.006169e+000 8.507935e-002 -1.673839e-005 1.514097e-005 1.010630e+000 8.542408e-002
335625000 -1.551700e-005 7.658742e-006 1.004503e+000 4.669310e-002 -1.056427e-005 -1.515109e-005 1.008893e+000 4.694482e-002
335910000 -5.070512e-006 6.272362e-006 1.001116e+000 8.899942e-003 3.519030e-006 -7.658306e-006 1.005563e+000 8.900610e-003
336195000 -5.048988e-006 6.794526e-006 9.961335e-001 -2.841086e-002 8.026005e-006 -1.522337e-005 1.000534e+000 -2.846590e-002
336480000 -7.622907e-006 3.771218e-006 9.896264e-001 -6.504895e-002 3.966938e-006 2.398802e-006 9.939357e-001 -6.523430e-002
336765000 -8.832002e-006 -8.040037e-006 9.816055e-001 -1.009188e-001 -4.366257e-006 -4.027812e-007 9.859005e-001 -1.012501e-001
337050000 -3.883808e-006 3.885510e-006 9.721141e-001 -1.358695e-001 -8.660623e-006 3.123737e-006 9.763341e-001 -1.363737e-001
337335000 -2.077605e-006 -1.612743e-006 9.612173e-001 -1.700749e-001 -7.689919e-007 1.820767e-005 9.654786e-001 -1.708407e-001
337620000 -1.273236e-006 -1.379443e-005 9.492556e-001 -2.033080e-001 -7.385891e-007 8.432772e-006 9.533849e-001 -2.042063e-001
337905000 -1.826945e-006 -4.882368e-006 9.360507e-001 -2.356507e-001 4.330162e-006 3.329513e-006 9.400455e-001 -2.366489e-001
338190000 3.808944e-006 -8.215961e-006 9.217579e-001 -2.668371e-001 -4.816519e-006 8.348075e-006 9.256759e-001 -2.679381e-001
338475000 6.499109e-006 -1.383279e-005 9.063903e-001 -2.971201e-001 -1.398454e-006 7.920538e-006 9.103003e-001 -2.984096e-001
338760000 -6.340610e-006 -1.291096e-005 8.901374e-001 -3.263411e-001 -1.247570e-005 9.206140e-006 8.940117e-001 -3.276610e-001
339045000 -9.599234e-006 -1.449732e-005 8.729655e-001 -3.544149e-001 3.136337e-006 9.524627e-006 8.768172e-001 -3.559394e-001
339330000 4.756555e-006 -1.375000e-006 8.551232e-001 -3.815838e-001 -1.044815e-005 1.086541e-005 8.588418e-001 -3.831354e-001
339615000 2.006437e-007 -8.179212e-006 8.365687e-001 -4.075451e-001 -1.798353e-005 -2.344856e-006 8.401023e-001 -4.092890e-001
339900000 1.285026e-005 8.784701e-006 8.173874e-001 -4.324706e-001 -1.530232e-005 -8.204136e-006 8.208432e-001 -4.343231e-001
340185000 1.914016e-005 3.525063e-007 7.976646e-001 -4.563501e-001 -2.151447e-006 -1.660560e-005 8.010478e-001 -4.582625e-001
340470000 7.169208e-006 -6.092237e-007 7.773055e-001 -4.791815e-001 -1.772352e-005 -7.508658e-006 7.806682e-001 -4.811946e-001
340755000 -2.729597e-007 4.158229e-006 7.565880e-001 -5.008857e-001 -1.040617e-005 -1.745840e-006 7.598454e-001 -5.030795e-001
341040000 1.168388e-006 5.290035e-006 7.355105e-001 -5.216204e-001 3.586749e-006 5.580726e-006 7.386600e-001 -5.238891e-001
341325000 3.570953e-006 -3.057900e-006 7.140462e-001 -5.413688e-001 7.634893e-006 3.416987e-006 7.171152e-001 -5.437144e-001
341610000 -1.239772e-005 8.362205e-006 6.923814e-001 -5.601005e-001 3.621286e-006 -1.090299e-006 6.953129e-001 -5.625899e-001
341895000 -1.031225e-005 8.370434e-006 6.703851e-001 -5.780092e-001 1.407975e-005 8.609493e-006 6.731359e-001 -5.803631e-001
342180000 -6.363426e-006 -4.496472e-006 6.483057e-001 -5.948272e-001 -5.196942e-006 1.209380e-005 6.509000e-001 -5.973390e-001
342465000 -1.024391e-005 5.365240e-006 6.258886e-001 -6.107451e-001 8.951971e-006 -1.625411e-007 6.285155e-001 -6.133322e-001
342750000 5.316670e-006 1.942949e-006 6.034886e-001 -6.258268e-001 3.470612e-007 -3.391317e-006 6.060012e-001 -6.284354e-001
343035000 1.897613e-006 -1.032572e-006 5.809200e-001 -6.399932e-001 -4.019862e-006 1.123255e-005 5.834171e-001 -6.426075e-001
343320000 5.400675e-006 -2.667133e-006 5.583414e-001 -6.533744e-001 -8.888973e-006 7.846961e-006 5.606964e-001 -6.561119e-001
343605000 6.276399e-006 -8.818357e-006 5.357043e-001 -6.659198e-001 -1.950683e-005 6.286952e-006 5.380160e-001 -6.686740e-001
343890000 -6.248863e-006 1.833416e-005 5.130339e-001 -6.776500e-001 8.673947e-006 4.090792e-007 5.152055e-001 -6.805433e-001
