!Agilent Technologies,N5230C,SG49000117,A.08.50.07
!Agilent N5230C: A.08.50.07
!Date: Sunday, March 17, 2024 05:36:06
!Correction: S11(Off) 
!S21(Off) 
!S12(Off) 
!S22(Full 1 Port(2)) 
!S2P File: Measurements: S11, S21, S12, S22:
# Hz S  RI   R 50
300000000 1.533882e-005 -7.761021e-007 -6.338148e-001 -6.342435e-001 -8.060408e-006 1.329682e-005 1.001272e+000 -2.108336e-001
300285000 5.137327e-006 1.338384e-005 -6.486067e-001 -6.109548e-001 -2.249171e-006 -1.296791e-006 1.001996e+000 -2.109882e-001
300570000 9.931442e-006 3.778819e-006 -6.625502e-001 -5.873942e-001 -5.736502e-006 6.966887e-006 1.002539e+000 -2.117044e-001
300855000 6.269647e-007 7.183922e-006 -6.756024e-001 -5.638601e-001 -6.937463e-006 9.599906e-006 1.002695e+000 -2.112539e-001
301140000 -1.584565e-005 7.082216e-006 -6.878281e-001 -5.401245e-001 -1.742415e-005 -8.813375e-007 1.002127e+000 -2.120238e-001
301425000 2.756179e-006 -2.783115e-006 -6.992715e-001 -5.164253e-001 -7.565953e-006 -9.997018e-006 1.003229e+000 -2.118155e-001
301710000 2.192491e-006 2.512544e-006 -7.098374e-001 -4.928220e-001 -1.755520e-006 1.588105e-006 1.003214e+000 -2.136940e-001
301995000 -9.690741e-006 3.122021e-006 -7.197398e-001 -4.691674e-001 6.150397e-006 1.086836e-006 1.002154e+000 -2.119091e-001
302280000 -2.267733e-005 -3.375899e-006 -7.287375e-001 -4.456651e-001 -1.211197e-005 -1.690728e-005 1.002978e+000 -2.126031e-001
302565000 5.217320e-006 -6.050099e-007 -7.371672e-001 -4.222074e-001 -1.345052e-005 -1.625476e-005 1.003699e+000 -2.133697e-001
302850000 2.320331e-006 -1.611482e-005 -7.447020e-001 -3.988206e-001 6.010019e-006 -2.431688e-005 1.002113e+000 -2.119442e-001
303135000 -9.837406e-006 -2.103828e-005 -7.517781e-001 -3.755935e-001 5.163497e-006 -1.153644e-005 1.001857e+000 -2.129877e-001
303420000 6.410296e-006 -1.838747e-005 -7.580761e-001 -3.524484e-001 1.674438e-005 -2.476243e-006 1.001791e+000 -2.147671e-001
303705000 1.496644e-005 -1.162043e-005 -7.637231e-001 -3.294469e-001 1.466966e-005 -1.363592e-005 1.003841e+000 -2.142213e-001
303990000 -2.191354e-006 -7.043276e-006 -7.688537e-001 -3.065423e-001 7.843753e-006 -2.196363e-006 1.001537e+000 -2.134824e-001
304275000 5.258074e-006 -8.298456e-006 -7.733533e-001 -2.838870e-001 -1.158651e-005 -3.618303e-006 1.002492e+000 -2.140497e-001
304560000 1.007227e-005 5.968584e-006 -7.772849e-001 -2.612739e-001 1.174579e-005 3.801455e-006 1.002380e+000 -2.140815e-001
304845000 -1.172853e-005 -2.081046e-005 -7.806519e-001 -2.388905e-001 1.829789e-006 -2.581620e-006 1.001596e+000 -2.138623e-001
305130000 -5.504354e-006 6.354171e-006 -7.835625e-001 -2.166014e-001 1.395780e-005 8.142875e-006 1.001107e+000 -2.140770e-001
305415000 -6.751342e-006 1.165227e-005 -7.858427e-001 -1.945110e-001 -9.314088e-007 1.080882e-005 1.001895e+000 -2.150351e-001
305700000 1.055564e-005 3.372097e-006 -7.877294e-001 -1.725246e-001 2.313257e-006 -6.873885e-006 1.002457e+000 -2.144321e-001
305985000 5.649782e-006 1.275157e-005 -7.889751e-001 -1.505710e-001 1.376993e-005 -3.078717e-006 1.002834e+000 -2.157736e-001
306270000 7.619020e-006 3.827123e-006 -7.899624e-001 -1.290090e-001 -1.232815e-005 -1.272871e-006 1.003671e+000 -2.143139e-001
306555000 -1.016943e-005 -5.455344e-006 -7.903996e-001 -1.074683e-001 3.251777e-006 -6.450354e-006 1.002898e+000 -2.167687e-001
306840000 -7.003355e-006 -7.884598e-006 -7.903393e-001 -8.617590e-002 1.901171e-007 -8.907082e-006 1.001854e+000 -2.146370e-001
307125000 1.044799e-005 2.881719e-006 -7.899677e-001 -6.495725e-002 3.972115e-006 -6.299436e-006 1.001975e+000 -2.158672e-001
307410000 1.686970e-006 -5.307467e-007 -7.890368e-001 -4.388185e-002 1.226352e-005 -1.770709e-005 1.002608e+000 -2.160392e-001
307695000 2.498439e-008 7.649533e-006 -7.877983e-001 -2.299728e-002 2.470093e-006 -4.811316e-006 1.002562e+000 -2.168919e-001
307980000 2.086726e-006 -1.125585e-005 -7.861152e-001 -2.267265e-003 6.567648e-006 -9.058910e-006 1.001280e+000 -2.165757e-001
308265000 -4.298607e-006 -1.048797e-005 -7.840635e-001 1.832336e-002 4.531789e-006 -1.077400e-005 1.001527e+000 -2.167872e-001
308550000 7.476268e-006 3.178007e-007 -7.816434e-001 3.879984e-002 1.373518e-005 -8.353471e-006 1.001095e+000 -2.164330e-001
308835000 1.646409e-006 1.820478e-005 -7.788406e-001 5.913302e-002 -1.037198e-005 -4.647472e-006 1.001121e+000 -2.172468e-001
309120000 1.726851e-006 4.978401e-006 -7.756584e-001 7.932997e-002 -8.546075e-006 -8.508360e-006 1.002358e+000 -2.185471e-001
309405000 -3.284082e-006 -9.572796e-006 -7.721393e-001 9.943382e-002 -2.411685e-006 2.645605e-006 1.003890e+000 -2.178571e-001
309690000 4.927570e-006 -1.682109e-007 -7.682419e-001 1.192699e-001 -1.049773e-006 -1.290765e-006 1.002737e+000 -2.178527e-001
309975000 -1.524217e-005 -1.797364e-005 -7.639942e-001 1.391580e-001 -1.047280e-005 -1.258104e-005 1.001534e+000 -2.180344e-001
310260000 5.585566e-006 -2.405006e-005 -7.593489e-001 1.589164e-001 -1.120438e-005 -1.518481e-005 1.003402e+000 -2.183137e-001
310545000 5.294112e-006 1.665196e-007 -7.543424e-001 1.784302e-001 -1.753404e-005 -1.801200e-005 1.002096e+000 -2.189897e-001
310830000 6.674771e-006 -1.745694e-005 -7.490407e-001 1.979104e-001 -1.973078e-005 -1.010733e-005 1.003561e+000 -2.192291e-001
311115000 -3.243214e-006 -3.882737e-006 -7.433951e-001 2.172658e-001 -7.239873e-006 -9.956753e-006 1.001742e+000 -2.190709e-001
311400000 1.405022e-005 -1.013049e-006 -7.373526e-001 2.365983e-001 -3.301620e-006 -3.257421e-006 1.001786e+000 -2.193133e-001
311685000 2.029661e-006 1.719680e-006 -7.309797e-001 2.557413e-001 -1.002138e-005 -1.368250e-005 1.002490e+000 -2.188746e-001
311970000 -3.891476e-006 2.823443e-006 -7.242898e-001 2.748005e-001 -7.529523e-006 -1.018412e-006 1.000703e+000 -2.190766e-001
312255000 -5.040777e-006 5.382919e-006 -7.171251e-001 2.937979e-001 -5.525869e-006 -1.722026e-005 1.001500e+000 -2.193088e-001
312540000 -9.810501e-006 1.400156e-006 -7.097106e-001 3.126409e-001 -2.183688e-007 1.484327e-005 1.001583e+000 -2.197540e-001
312825000 -1.868345e-005 3.040763e-006 -7.017952e-001 3.314314e-001 1.346643e-005 -4.518144e-006 1.001596e+000 -2.204030e-001
313110000 1.359974e-005 -8.040915e-006 -6.935784e-001 3.501987e-001 -4.226501e-006 8.527626e-006 1.001609e+000 -2.215288e-001
313395000 1.305832e-006 -1.392180e-006 -6.850227e-001 3.687720e-001 1.429447e-006 -5.239129e-006 1.001853e+000 -2.201514e-001
313680000 3.033933e-007 -2.493102e-005 -6.760131e-001 3.873553e-001 1.912823e-005 8.793018e-006 1.002537e+000 -2.203054e-001
313965000 -1.712922e-005 5.610683e-006 -6.667091e-001 4.057864e-001 -6.982172e-006 -7.151757e-006 1.002251e+000 -2.208306e-001
314250000 -5.656577e-006 -4.929512e-006 -6.568043e-001 4.241451e-001 2.349792e-006 -6.210105e-006 1.000861e+000 -2.210864e-001
314535000 -6.963678e-006 -1.440608e-005 -6.466998e-001 4.424179e-001 -3.417283e-006 -1.364797e-005 1.001207e+000 -2.210405e-001
314820000 1.902895e-006 3.448125e-006 -6.360651e-001 4.606497e-001 2.326566e-007 -9.803851e-006 1.001225e+000 -2.222619e-001
315105000 1.077280e-005 -5.788407e-006 -6.249629e-001 4.787218e-001 -1.678386e-006 4.598284e-006 9.988713e-001 -2.220645e-001
315390000 -3.155986e-006 9.072824e-006 -6.134716e-001 4.967405e-001 6.509543e-006 5.216514e-006 1.001813e+000 -2.222879e-001
315675000 -5.755758e-006 2.587870e-005 -6.016019e-001 5.145821e-001 -5.687300e-006 3.655199e-006 1.000368e+000 -2.214888e-001
315960000 2.499057e-006 -2.631173e-005 -5.891153e-001 5.323656e-001 7.702070e-006 -1.665796e-006 1.000493e+000 -2.223238e-001
316245000 -5.847813e-006 -6.268856e-006 -5.762026e-001 5.499988e-001 -2.316551e-006 -5.888289e-006 9.998918e-001 -2.220340e-001
316530000 -6.038559e-006 -6.942349e-006 -5.628253e-001 5.676152e-001 4.446167e-006 -4.885549e-006 1.001069e+000 -2.231130e-001
316815000 6.270760e-006 -6.128823e-006 -5.489156e-001 5.850920e-001 -3.069533e-007 -2.041851e-005 1.001686e+000 -2.221691e-001
317100000 -5.010380e-006 -1.520317e-005 -5.345100e-001 6.023678e-001 -9.558950e-007 -5.473060e-006 1.000209e+000 -2.220028e-001
317385000 -6.596216e-006 2.979973e-006 -5.196064e-001 6.195666e-001 2.136135e-006 -2.008527e-005 1.002113e+000 -2.220266e-001
317670000 -1.538105e-006 -9.745658e-006 -5.041152e-001 6.364982e-001 -5.465740e-008 -1.359975e-005 1.001734e+000 -2.235999e-001
317955000 -3.606709e-006 6.103925e-006 -4.879623e-001 6.532900e-001 9.956188e-006 -8.558387e-006 1.002230e+000 -2.233106e-001
318240000 -1.220756e-005 -5.154301e-006 -4.713936e-001 6.699434e-001 1.326447e-005 1.329134e-005 1.001121e+000 -2.239828e-001
318525000 -4.887812e-006 -1.800437e-006 -4.540988e-001 6.863836e-001 1.313932e-006 1.011911e-005 1.001237e+000 -2.234906e-001
318810000 -8.816454e-006 2.572454e-007 -4.362043e-001 7.024953e-001 8.709740e-006 -1.604244e-005 1.000459e+000 -2.240955e-001
319095000 -1.866413e-005 -1.156867e-005 -4.177634e-001 7.183595e-001 -2.446563e-006 6.477348e-007 1.000222e+000 -2.234260e-001
319380000 -4.756861e-006 -9.047995e-006 -3.985375e-001 7.340568e-001 2.236745e-006 3.446668e-006 1.001212e+000 -2.253466e-001
319665000 9.642352e-006 -6.442267e-006 -3.788804e-001 7.494404e-001 -1.953373e-006 5.375547e-007 1.001616e+000 -2.243660e-001
319950000 1.311859e-005 3.978486e-006 -3.583990e-001 7.645165e-001 6.997503e-006 -1.109026e-005 1.000916e+000 -2.260427e-001
320235000 -1.189033e-005 8.661011e-006 -3.371774e-001 7.791699e-001 -1.669479e-005 -4.528778e-006 1.001398e+000 -2.262705e-001
320520000 -4.518077e-006 4.579410e-006 -3.154025e-001 7.934595e-001 -1.521945e-005 -1.294385e-005 1.000865e+000 -2.259251e-001
320805000 3.153883e-006 1.164321e-005 -2.929345e-001 8.073570e-001 -7.997787e-006 -4.694416e-006 1.000046e+000 -2.254123e-001
321090000 -4.302421e-006 -4.795112e-007 -2.696052e-001 8.207623e-001 1.220586e-005 1.341333e-005 9.999142e-001 -2.254080e-001
321375000 5.377236e-006 -1.829307e-006 -2.456159e-001 8.337004e-001 -7.905059e-006 3.286067e-007 1.000700e+000 -2.257318e-001
321660000 -3.653695e-006 -1.834820e-005 -2.207950e-001 8.460598e-001 -4.481772e-007 -9.585254e-006 1.001136e+000 -2.263198e-001
321945000 -1.035429e-006 1.854244e-005 -1.953287e-001 8.578084e-001 2.153537e-006 -2.930233e-006 1.000342e+000 -2.275006e-001
322230000 3.214543e-006 2.796389e-006 -1.692216e-001 8.690820e-001 3.699322e-006 1.200035e-005 9.999065e-001 -2.273757e-001
322515000 -2.442004e-005 3.031931e-007 -1.422072e-001 8.795811e-001 -3.446841e-006 7.195659e-006 9.994279e-001 -2.276438e-001
322800000 -2.020844e-006 -3.543393e-006 -1.144525e-001 8.893497e-001 -1.234128e-005 -2.596966e-006 1.001618e+000 -2.272782e-001
323085000 -9.770790e-006 -3.996728e-006 -8.608320e-002 8.982992e-001 -7.601854e-006 -6.870306e-006 1.000656e+000 -2.272668e-001
323370000 -2.445694e-005 -6.909966e-006 -5.677817e-002 9.064416e-001 -6.015994e-007 -4.643186e-006 1.000898e+000 -2.280247e-001
323655000 -2.580266e-006 3.343848e-006 -2.688321e-002 9.136790e-001 8.844080e-006 4.642538e-006 1.000052e+000 -2.285227e-001
323940000 -2.347999e-009 3.972615e-006 3.705679e-003 9.199595e-001 -1.968926e-005 2.830662e-008 1.000022e+000 -2.290662e-001
324225000 -1.651383e-006 -3.242816e-006 3.503957e-002 9.253160e-001 6.793558e-006 -3.588304e-006 9.984121e-001 -2.284951e-001
324510000 -4.752216e-006 -4.416907e-006 6.697079e-002 9.294555e-001 6.897204e-006 1.758678e-005 1.001096e+000 -2.300175e-001
324795000 -1.432037e-005 -6.433257e-007 9.962644e-002 9.325865e-001 1.582304e-007 7.783817e-007 1.000234e+000 -2.290802e-001
325080000 1.737562e-005 1.187847e-005 1.327154e-001 9.344212e-001 -1.189634e-005 1.020863e-005 1.000108e+000 -2.290517e-001
325365000 -9.634196e-006 5.568967e-006 1.664862e-001 9.348562e-001 5.909316e-008 7.748141e-006 1.000770e+000 -2.292339e-001
325650000 5.974543e-006 6.505613e-006 2.005257e-001 9.341387e-001 4.274870e-007 -3.182783e-006 1.000457e+000 -2.289163e-001
325935000 -4.468502e-007 3.609940e-006 2.351400e-001 9.319741e-001 -1.197096e-006 8.098719e-007 9.999399e-001 -2.301570e-001
326220000 1.007714e-005 1.330316e-005 2.701115e-001 9.283362e-001 -6.016702e-006 -1.200791e-005 1.000510e+000 -2.303116e-001
326505000 -1.021273e-005 2.695267e-006 3.053071e-001 9.232340e-001 6.443001e-006 -1.550151e-006 9.999940e-001 -2.308417e-001
326790000 7.351140e-006 8.798644e-006 3.407897e-001 9.165208e-001 -1.004092e-005 -3.990915e-006 9.989266e-001 -2.298542e-001
327075000 -6.556989e-006 5.344912e-006 3.764071e-001 9.083044e-001 3.901036e-006 -1.293690e-005 9.997095e-001 -2.314277e-001
327360000 -1.088100e-005 -3.281258e-006 4.120875e-001 8.982849e-001 6.691984e-006 -7.194685e-006 1.000780e+000 -2.310382e-001
327645000 -7.603361e-006 -7.979804e-006 4.476020e-001 8.865797e-001 -6.324048e-006 1.581793e-005 1.000255e+000 -2.309590e-001
327930000 -2.995313e-006 3.601517e-006 4.829523e-001 8.731833e-001 -1.704729e-006 5.169299e-006 9.994538e-001 -2.307359e-001
328215000 6.629518e-006 -1.044719e-005 5.181445e-001 8.581187e-001 -1.875291e-005 -6.997242e-006 9.997505e-001 -2.315965e-001
328500000 6.930733e-007 -1.271279e-006 5.528455e-001 8.413185e-001 1.330490e-006 -8.672798e-006 9.992177e-001 -2.322444e-001
328785000 -1.813147e-006 -1.377647e-005 5.870367e-001 8.226257e-001 3.005432e-006 -9.916888e-006 9.992216e-001 -2.314231e-001
329070000 -1.191398e-005 -4.855442e-006 6.206288e-001 8.023621e-001 9.945745e-006 -1.084976e-005 9.994969e-001 -2.319320e-001
329355000 4.559174e-007 3.009569e-005 6.535740e-001 7.801577e-001 1.031146e-005 -2.100750e-005 9.993395e-001 -2.327902e-001
329640000 5.842109e-006 5.075941e-006 6.854801e-001 7.563263e-001 -7.113541e-006 -5.453712e-006 9.995868e-001 -2.328914e-001
329925000 7.342774e-006 2.311182e-005 7.164843e-001 7.308662e-001 2.961373e-006 -1.183838e-005 9.991498e-001 -2.328074e-001
330210000 -1.045739e-005 5.606835e-006 7.465117e-001 7.038617e-001 2.568508e-005 8.188514e-006 9.983390e-001 -2.333077e-001
330495000 -1.345928e-005 -8.966433e-006 7.752632e-001 6.752000e-001 4.619630e-006 1.282482e-005 9.986916e-001 -2.331517e-001
330780000 -7.377931e-006 -2.481327e-006 8.025976e-001 6.450464e-001 4.309235e-006 5.188834e-007 9.996496e-001 -2.343007e-001
331065000 -2.939915e-006 -4.340085e-006 8.285182e-001 6.135713e-001 2.440937e-006 2.514304e-006 9.978732e-001 -2.325071e-001
331350000 -6.842769e-007 8.485312e-007 8.530058e-001 5.806614e-001 1.005031e-007 -7.365833e-007 9.985269e-001 -2.335361e-001
331635000 8.372834e-006 2.445017e-006 8.757287e-001 5.466975e-001 -2.655213e-007 -3.464177e-006 9.995574e-001 -2.338549e-001
331920000 8.814710e-006 4.000492e-006 8.968654e-001 5.115919e-001 -1.344370e-006 6.610596e-006 9.991570e-001 -2.338381e-001
332205000 7.601596e-007 1.220838e-005 9.162160e-001 4.754800e-001 -7.953945e-007 5.395121e-006 9.985970e-001 -2.349633e-001
332490000 -1.995207e-006 1.130451e-005 9.336891e-001 4.385304e-001 -1.054448e-005 1.251337e-006 9.994207e-001 -2.345294e-001
332775000 -1.438851e-005 -6.124155e-006 9.494463e-001 4.008342e-001 -5.022156e-006 -4.345900e-006 9.987481e-001 -2.352838e-001
333060000 2.019179e-005 2.199074e-006 9.631346e-001 3.626048e-001 -3.801081e-006 1.235588e-005 9.989786e-001 -2.351893e-001
333345000 -8.992988e-006 -3.836098e-006 9.749017e-001 3.238627e-001 -1.546330e-005 1.761257e-005 9.998425e-001 -2.346770e-001
333630000 9.441444e-006 3.082101e-006 9.847996e-001 2.847838e-001 9.064335e-007 -2.319017e-006 9.988582e-001 -2.365153e-001
333915000 -2.430234e-006 8.780921e-006 9.927707e-001 2.454078e-001 -1.473192e-005 5.567026e-006 9.983698e-001 -2.358143e-001
334200000 1.146160e-005 1.695740e-005 9.987767e-001 2.061197e-001 1.173948e-007 -7.123794e-006 9.990460e-001 -2.369008e-001
334485000 -1.049297e-005 6.190017e-006 1.002858e+000 1.667538e-001 -5.870982e-006 -1.321221e-005 9.985592e-001 -2.357515e-001
334770000 -8.111138e-006 1.227781e-006 1.005211e+000 1.275801e-001 -5.120763e-006 -5.983934e-006 9.988310e-001 -2.365956e-001
335055000 -1.360912e-006 7.737852e-006 1.005507e+000 8.866742e-002 -2.626019e-005 8.599382e-006 9.993991e-001 -2.364750e-001
335340000 9.014541e-006 -2.757983e-006 1.004170e+000 5.019980e-002 -1.100556e-005 1.152072e-006 9.990968e-001 -2.378282e-001
335625000 1.423423e-005 -9.867742e-006 1.001017e+000 1.227247e-002 1.425669e-006 9.342490e-006 9.989821e-001 -2.374278e-001
335910000 5.329744e-006 2.095632e-005 9.962154e-001 -2.509659e-002 3.594404e-006 8.838061e-007 9.985960e-001 -2.370970e-001
336195000 -5.896089e-006 2.058334e-005 9.898358e-001 -6.186692e-002 -9.169927e-006 3.674198e-006 9.976714e-001 -2.373216e-001
336480000 1.022607e-005 3.290029e-007 9.818963e-001 -9.784523e-002 -2.764711e-006 1.481800e-005 9.987478e-001 -2.371838e-001
336765000 -3.380361e-006 3.424935e-006 9.726121e-001 -1.330143e-001 3.324962e-006 7.014897e-006 9.984918e-001 -2.379640e-001
337050000 -2.781280e-006 7.175624e-007 9.618878e-001 -1.673699e-001 -9.588107e-006 2.938928e-006 9.990353e-001 -2.381817e-001
337335000 -4.323920e-008 -4.255051e-006 9.499888e-001 -2.007541e-001 -1.180977e-005 -1.518024e-005 9.982623e-001 -2.397949e-001
337620000 3.566252e-006 1.004955e-005 9.368962e-001 -2.331818e-001 -1.686209e-005 -7.029801e-007 9.982134e-001 -2.395466e-001
337905000 -1.732436e-006 5.358237e-006 9.226899e-001 -2.645701e-001 -3.355609e-006 6.700017e-006 9.973426e-001 -2.378276e-001
338190000 -6.231327e-006 -3.387893e-006 9.074726e-001 -2.949196e-001 -1.347228e-005 -3.541336e-006 9.978754e-001 -2.395299e-001
338475000 -2.017558e-006 -1.384207e-005 8.912399e-001 -3.243349e-001 -6.639307e-006 -4.580068e-006 9.988125e-001 -2.381682e-001
338760000 -1.409053e-005 -7.965162e-006 8.741915e-001 -3.526728e-001 -1.656407e-006 3.749608e-007 9.983785e-001 -2.392316e-001
339045000 2.822049e-006 -6.264047e-006 8.563060e-001 -3.798883e-001 3.760238e-007 -2.654411e-006 9.983722e-001 -2.393319e-001
339330000 4.700190e-006 1.812303e-006 8.377905e-001 -4.059849e-001 -1.469506e-005 1.173168e-005 9.993276e-001 -2.384947e-001
339615000 2.273369e-006 -7.451988e-006 8.185045e-001 -4.311340e-001 1.163398e-005 -8.133262e-006 9.986396e-001 -2.403152e-001
339900000 1.309558e-006 1.358199e-005 7.987503e-001 -4.550680e-001 1.023437e-005 -6.911343e-006 9.977381e-001 -2.407303e-001
340185000 -3.758066e-006 -4.540484e-006 7.784950e-001 -4.779978e-001 4.942578e-006 -8.762193e-006 9.981321e-001 -2.408860e-001
340470000 -6.364945e-007 6.313425e-006 7.576550e-001 -5.000017e-001 4.536711e-006 -7.793073e-006 9.981369e-001 -2.397257e-001
340755000 -1.024300e-007 6.864410e-006 7.365505e-001 -5.207595e-001 1.077403e-005 8.817680e-006 9.980230e-001 -2.414311e-001
341040000 -4.879460e-006 -2.624098e-006 7.151560e-001 -5.405954e-001 2.127153e-005 1.364966e-005 9.976356e-001 -2.417309e-001
341325000 8.904764e-007 9.548845e-006 6.932734e-001 -5.595106e-001 3.830179e-006 -2.292039e-006 9.986087e-001 -2.397270e-001
341610000 4.650598e-006 -1.061611e-005 6.712610e-001 -5.774167e-001 -1.573385e-005 9.514162e-006 9.992141e-001 -2.407047e-001
341895000 -7.884870e-006 -9.844363e-006 6.491175e-001 -5.942824e-001 6.668628e-006 -4.298523e-006 9.975810e-001 -2.422480e-001
342180000 1.231102e-005 2.241324e-005 6.266776e-001 -6.102856e-001 7.773627e-007 1.949136e-006 9.986842e-001 -2.425040e-001
342465000 -8.226403e-006 -1.962072e-005 6.042504e-001 -6.254320e-001 -1.243489e-005 -3.568973e-006 9.979024e-001 -2.425659e-001
342750000 -5.166753e-007 1.009674e-005 5.815768e-001 -6.396880e-001 -7.235606e-006 -2.191426e-006 9.997000e-001 -2.417415e-001
343035000 5.556343e-006 1.030476e-005 5.590541e-001 -6.531063e-001 -1.116446e-005 -6.788762e-007 9.975242e-001 -2.434709e-001
343320000 -6.778711e-006 9.534635e-006 5.362155e-001 -6.656644e-001 5.691144e-006 5.060719e-006 9.972964e-001 -2.426815e-001
343605000 -6.875183e-006 2.754390e-006 5.135206e-001 -6.774561e-001 9.173789e-006 1.201032e-005 9.971922e-001 -2.427028e-001
343890000 5.462716e-006 2.658168e-006 4.908369e-001 -6.884680e-001 9.296767e-006 -1.352697e-005 9.982197e-001 -2.433755e-001
