!Agilent Technologies,N5230C,SG49000117,A.08.50.07
!Agilent N5230C: A.08.50.07
!Date: Sunday, March 17, 2024 05:32:40
!Correction: S11(Off) 
!S21(Off) 
!S12(Off) 
!S22(Full 1 Port(2)) 
!S2P File: Measurements: S11, S21, S12, S22:
# Hz S  RI   R 50
300000000 -9.091722e-006 -9.161536e-006 -6.408476e-001 -6.236321e-001 -4.867920e-006 2.669253e-006 9.936582e-001 -2.401081e-001
300285000 2.045773e-006 -8.849213e-006 -6.551908e-001 -6.003260e-001 7.057175e-006 -6.849600e-006 9.941722e-001 -2.403755e-001
300570000 -1.399685e-006 -8.400208e-006 -6.687859e-001 -5.767319e-001 -3.980917e-006 -3.285799e-006 9.945561e-001 -2.409355e-001
300855000 -1.084768e-006 5.532225e-006 -6.814947e-001 -5.530313e-001 4.879731e-006 -9.133881e-006 9.950351e-001 -2.405708e-001
301140000 1.457955e-006 5.315338e-006 -6.933661e-001 -5.292671e-001 9.050421e-006 -1.345228e-005 9.943681e-001 -2.414260e-001
301425000 1.398463e-005 8.734692e-006 -7.044075e-001 -5.055560e-001 9.749876e-007 -9.541809e-006 9.951795e-001 -2.413435e-001
301710000 1.405256e-005 -3.723463e-006 -7.146608e-001 -4.818895e-001 7.458151e-007 -1.333915e-005 9.952447e-001 -2.431461e-001
301995000 -8.231846e-006 3.718869e-006 -7.241189e-001 -4.582283e-001 1.558533e-005 -2.411952e-006 9.942440e-001 -2.412987e-001
302280000 -2.121702e-006 2.582787e-005 -7.329415e-001 -4.347626e-001 -8.809936e-006 -3.400749e-006 9.951217e-001 -2.422463e-001
302565000 -4.669010e-006 -3.436748e-006 -7.409076e-001 -4.113315e-001 2.714085e-006 3.847586e-006 9.952824e-001 -2.428629e-001
302850000 -2.385334e-008 4.086998e-006 -7.482748e-001 -3.879321e-001 7.113403e-006 -8.953888e-006 9.943388e-001 -2.415926e-001
303135000 -9.391099e-006 -2.227985e-006 -7.549355e-001 -3.646585e-001 1.407612e-006 7.438623e-006 9.940867e-001 -2.425811e-001
303420000 -1.215449e-005 9.354101e-006 -7.609000e-001 -3.415687e-001 -7.222748e-006 8.093594e-008 9.937316e-001 -2.442160e-001
303705000 1.058762e-006 -6.115111e-006 -7.663892e-001 -3.185363e-001 -2.240083e-006 -1.887064e-006 9.955356e-001 -2.439160e-001
303990000 -2.347177e-005 -1.094283e-005 -7.711585e-001 -2.957761e-001 1.108187e-005 8.793170e-006 9.936101e-001 -2.431785e-001
304275000 1.927084e-005 -1.546333e-007 -7.753648e-001 -2.730670e-001 -3.574077e-006 -5.231169e-006 9.942994e-001 -2.438153e-001
304560000 -1.154515e-006 -1.762511e-005 -7.790624e-001 -2.504913e-001 -1.935224e-005 -6.591108e-006 9.944386e-001 -2.438000e-001
304845000 -7.106838e-006 -9.707670e-006 -7.821813e-001 -2.281663e-001 -3.053410e-006 -1.183260e-006 9.935979e-001 -2.437378e-001
305130000 -1.270742e-005 2.892280e-006 -7.848104e-001 -2.058898e-001 -1.771088e-005 -6.904928e-006 9.931359e-001 -2.437868e-001
305415000 1.291081e-005 -2.092767e-005 -7.868539e-001 -1.838989e-001 -5.014213e-006 -8.490859e-006 9.940169e-001 -2.444749e-001
305700000 1.137287e-005 -1.933375e-005 -7.884185e-001 -1.619661e-001 -2.267847e-006 6.202698e-007 9.942694e-001 -2.443081e-001
305985000 -2.025146e-007 -1.883133e-005 -7.895195e-001 -1.401732e-001 4.542975e-006 -1.596845e-005 9.945155e-001 -2.453493e-001
306270000 2.345706e-005 7.170857e-006 -7.902435e-001 -1.185669e-001 7.671671e-006 2.862430e-006 9.954679e-001 -2.441110e-001
306555000 9.005776e-006 -1.057530e-005 -7.904295e-001 -9.709677e-002 8.119485e-006 -2.087962e-005 9.946880e-001 -2.467309e-001
306840000 7.827000e-006 4.515859e-006 -7.901326e-001 -7.577426e-002 3.156617e-006 3.564397e-006 9.938532e-001 -2.447422e-001
307125000 9.579172e-007 2.096673e-005 -7.895088e-001 -5.462807e-002 1.234094e-005 -1.109962e-005 9.935668e-001 -2.459143e-001
307410000 7.206555e-006 -2.616696e-006 -7.884092e-001 -3.366448e-002 -6.167017e-006 -9.727086e-006 9.943242e-001 -2.461650e-001
307695000 -1.206641e-005 6.588373e-006 -7.869549e-001 -1.278183e-002 3.946715e-006 4.498870e-006 9.944503e-001 -2.471094e-001
307980000 -1.377104e-005 2.891200e-006 -7.851109e-001 7.846856e-003 -4.721792e-006 -1.571515e-005 9.927016e-001 -2.467407e-001
308265000 -1.189487e-005 -1.041502e-006 -7.828053e-001 2.839486e-002 7.770931e-006 -5.880656e-006 9.930218e-001 -2.470302e-001
308550000 -3.296998e-006 6.619856e-006 -7.801983e-001 4.883822e-002 -8.239052e-006 3.214631e-006 9.926756e-001 -2.464113e-001
308835000 -1.142783e-005 4.336837e-006 -7.772312e-001 6.909603e-002 -1.341206e-005 -8.046047e-006 9.927487e-001 -2.475405e-001
309120000 -8.741553e-006 3.198788e-006 -7.738318e-001 8.926030e-002 -7.523568e-006 -5.262659e-007 9.938542e-001 -2.487720e-001
309405000 -3.524592e-006 -1.032742e-005 -7.700521e-001 1.093310e-001 9.977864e-006 5.766049e-006 9.955695e-001 -2.481187e-001
309690000 2.410492e-006 -3.102546e-006 -7.659168e-001 1.291880e-001 -1.777224e-006 -3.859295e-007 9.942677e-001 -2.481813e-001
309975000 -1.289623e-005 -4.018567e-006 -7.614802e-001 1.489608e-001 -1.267078e-005 6.941091e-007 9.934121e-001 -2.480928e-001
310260000 -5.498182e-006 2.017033e-006 -7.566799e-001 1.685515e-001 -1.202783e-006 -1.761412e-005 9.950235e-001 -2.486481e-001
310545000 -1.026473e-005 -6.178769e-006 -7.515403e-001 1.881221e-001 2.297997e-006 -3.034020e-006 9.938295e-001 -2.495542e-001
310830000 -5.752888e-007 4.188933e-006 -7.460386e-001 2.075260e-001 -6.128034e-006 4.704748e-006 9.950310e-001 -2.496634e-001
311115000 5.301924e-006 -1.290038e-005 -7.400909e-001 2.268553e-001 6.513649e-007 -6.378698e-006 9.933786e-001 -2.492295e-001
311400000 1.063146e-005 -1.651948e-005 -7.338757e-001 2.460497e-001 6.611394e-006 -8.596708e-006 9.933824e-001 -2.496625e-001
311685000 1.371439e-005 -5.652470e-006 -7.273306e-001 2.651335e-001 9.576273e-006 -8.982485e-006 9.938484e-001 -2.492941e-001
311970000 1.240559e-005 -7.213001e-006 -7.203797e-001 2.842299e-001 -2.620771e-006 -1.035113e-005 9.924740e-001 -2.495947e-001
312255000 -4.827227e-006 -1.294468e-005 -7.130976e-001 3.031350e-001 1.343068e-005 -1.058022e-005 9.931455e-001 -2.500336e-001
312540000 -4.472804e-006 1.890532e-005 -7.053429e-001 3.219847e-001 -2.951649e-007 -1.340996e-005 9.930432e-001 -2.503530e-001
312825000 -3.648043e-007 5.066274e-006 -6.973382e-001 3.406835e-001 5.489060e-007 -4.558941e-006 9.930760e-001 -2.507886e-001
313110000 1.239994e-005 -1.384389e-006 -6.888766e-001 3.593649e-001 -4.617303e-006 -2.062791e-006 9.929557e-001 -2.519479e-001
313395000 5.806226e-007 -1.063186e-005 -6.800690e-001 3.778781e-001 -4.179706e-006 -8.281902e-006 9.933974e-001 -2.507357e-001
313680000 -1.092310e-005 9.169890e-006 -6.708835e-001 3.963602e-001 -1.022461e-005 1.280604e-005 9.941046e-001 -2.508157e-001
313965000 -2.486914e-005 -2.818124e-006 -6.613046e-001 4.147337e-001 1.440394e-006 -8.205498e-006 9.934099e-001 -2.515129e-001
314250000 -1.624924e-005 -3.804991e-006 -6.513546e-001 4.330661e-001 -1.940948e-006 -1.062439e-005 9.921168e-001 -2.517643e-001
314535000 -2.459118e-006 5.225275e-006 -6.408524e-001 4.512312e-001 9.159879e-006 -1.314667e-005 9.925146e-001 -2.516737e-001
314820000 -9.231220e-006 -1.180859e-005 -6.299645e-001 4.693995e-001 -1.207912e-005 -3.836324e-006 9.927594e-001 -2.528632e-001
315105000 -1.452011e-005 -1.545537e-005 -6.187053e-001 4.874084e-001 -1.041285e-005 -1.580013e-005 9.901370e-001 -2.526329e-001
315390000 5.711653e-006 -1.845581e-005 -6.069823e-001 5.053166e-001 -5.712367e-006 -7.757444e-006 9.930095e-001 -2.530107e-001
315675000 -1.277215e-005 7.383914e-006 -5.947297e-001 5.231548e-001 -3.182407e-007 -3.611311e-006 9.918661e-001 -2.521414e-001
315960000 -2.391386e-006 -1.190258e-005 -5.821189e-001 5.408658e-001 7.617488e-006 -2.705031e-006 9.917115e-001 -2.530915e-001
316245000 -1.003059e-005 -3.522554e-006 -5.689559e-001 5.583650e-001 8.242844e-006 -6.387671e-006 9.912552e-001 -2.527648e-001
316530000 -4.102901e-006 -5.605684e-006 -5.552587e-001 5.759102e-001 4.895716e-006 -1.713367e-005 9.922563e-001 -2.537016e-001
316815000 -6.232734e-006 -9.239457e-006 -5.411319e-001 5.932053e-001 6.094012e-006 -1.637075e-005 9.930459e-001 -2.529400e-001
317100000 -6.545104e-006 2.393354e-007 -5.264826e-001 6.104134e-001 7.347677e-006 -3.132398e-006 9.915368e-001 -2.529081e-001
317385000 4.158868e-006 7.995487e-007 -5.112090e-001 6.274735e-001 -8.299559e-006 4.913834e-006 9.936007e-001 -2.529781e-001
317670000 -2.681456e-005 1.057864e-005 -4.955107e-001 6.442770e-001 1.890004e-006 1.674262e-005 9.929908e-001 -2.544547e-001
317955000 -1.827474e-005 -8.815116e-006 -4.791167e-001 6.609167e-001 -4.247540e-006 1.069154e-005 9.934173e-001 -2.543546e-001
318240000 -2.863066e-006 2.235071e-006 -4.622196e-001 6.774287e-001 2.930168e-006 -1.772711e-006 9.923329e-001 -2.547192e-001
318525000 -1.829600e-005 7.719681e-006 -4.446770e-001 6.937342e-001 -7.984368e-006 1.775560e-006 9.924055e-001 -2.543779e-001
318810000 -2.457182e-006 5.390357e-006 -4.264904e-001 7.096481e-001 -6.677531e-006 5.411748e-007 9.917859e-001 -2.549094e-001
319095000 -4.335986e-006 -9.601173e-006 -4.077854e-001 7.254301e-001 -1.653927e-005 1.337651e-006 9.913688e-001 -2.543635e-001
319380000 -5.018572e-007 -5.668147e-006 -3.883206e-001 7.409263e-001 7.076112e-006 -1.325450e-006 9.925289e-001 -2.564064e-001
319665000 -1.172027e-005 -8.814629e-006 -3.682199e-001 7.560776e-001 -1.044036e-005 -7.931840e-006 9.930489e-001 -2.552240e-001
319950000 -7.649411e-007 2.096517e-006 -3.474340e-001 7.709005e-001 -2.208500e-005 4.607271e-006 9.919362e-001 -2.572089e-001
320235000 -6.831321e-006 5.721524e-007 -3.260093e-001 7.853714e-001 3.326873e-006 2.769733e-006 9.924682e-001 -2.573555e-001
320520000 9.108729e-006 -1.977165e-005 -3.038386e-001 7.994418e-001 -6.110301e-007 -1.317720e-005 9.920292e-001 -2.571586e-001
320805000 -9.734821e-006 -1.533527e-005 -2.810128e-001 8.130211e-001 5.992192e-006 -1.744294e-005 9.910346e-001 -2.563331e-001
321090000 6.156943e-006 -8.931353e-006 -2.573629e-001 8.262340e-001 -4.047116e-008 -2.018939e-005 9.909821e-001 -2.565742e-001
321375000 -6.072491e-008 -1.443277e-005 -2.330755e-001 8.388262e-001 1.511878e-005 -5.326900e-006 9.917265e-001 -2.569982e-001
321660000 -4.964337e-006 9.335685e-006 -2.080242e-001 8.508693e-001 6.703699e-006 -7.600867e-006 9.921911e-001 -2.575647e-001
321945000 -1.618294e-005 -1.207062e-005 -1.821936e-001 8.623257e-001 1.861650e-006 -3.245827e-007 9.913797e-001 -2.585300e-001
322230000 -1.288565e-005 -7.623639e-007 -1.556936e-001 8.731507e-001 -1.385763e-006 2.922178e-006 9.908798e-001 -2.585544e-001
322515000 5.758139e-006 2.213031e-006 -1.283336e-001 8.833292e-001 2.757198e-006 1.100211e-005 9.905619e-001 -2.589257e-001
322800000 -3.436306e-006 1.133724e-005 -1.002854e-001 8.926328e-001 -5.028481e-006 1.317184e-005 9.925916e-001 -2.585327e-001
323085000 -5.976218e-006 5.799394e-006 -7.153397e-002 9.011714e-001 2.896114e-006 1.178809e-005 9.916638e-001 -2.586190e-001
323370000 -4.863888e-006 -2.473043e-006 -4.199265e-002 9.089404e-001 -7.576902e-006 -4.723173e-006 9.919447e-001 -2.594316e-001
323655000 1.168480e-005 8.642623e-006 -1.186277e-002 9.156894e-001 -3.906103e-007 -9.828286e-007 9.911478e-001 -2.600558e-001
323940000 -6.997599e-006 1.780009e-007 1.908201e-002 9.214471e-001 -1.604772e-005 -1.509611e-005 9.909388e-001 -2.605728e-001
324225000 -2.621468e-006 -1.455495e-005 5.063268e-002 9.262602e-001 -1.045029e-005 -6.261178e-006 9.895638e-001 -2.597087e-001
324510000 -1.455085e-005 -1.793578e-006 8.276701e-002 9.298562e-001 -1.691002e-006 5.366237e-006 9.920652e-001 -2.614659e-001
324795000 -3.070554e-006 -8.121978e-007 1.155832e-001 9.323587e-001 -7.850229e-006 -1.018482e-005 9.913939e-001 -2.604461e-001
325080000 -1.099289e-005 -5.860146e-006 1.488720e-001 9.335044e-001 -4.131936e-006 -4.820207e-006 9.910247e-001 -2.605101e-001
325365000 7.741619e-006 -4.709184e-006 1.828210e-001 9.335130e-001 -9.791120e-006 -5.293218e-006 9.916507e-001 -2.608092e-001
325650000 5.626830e-006 3.205154e-006 2.171025e-001 9.320340e-001 -1.555555e-005 -1.727760e-006 9.913472e-001 -2.605021e-001
325935000 -2.696881e-006 9.994139e-008 2.519196e-001 9.292786e-001 3.186304e-006 -1.132954e-005 9.908977e-001 -2.617123e-001
326220000 1.196861e-005 -3.540546e-006 2.868791e-001 9.248745e-001 9.694198e-007 2.332665e-006 9.914035e-001 -2.619769e-001
326505000 -4.184903e-006 -1.094943e-005 3.222890e-001 9.190261e-001 6.702946e-006 8.714321e-006 9.908271e-001 -2.624459e-001
326790000 -9.243823e-007 -1.443738e-005 3.577034e-001 9.115965e-001 -2.669999e-006 -4.885927e-006 9.896466e-001 -2.612832e-001
327075000 1.292834e-006 7.520244e-006 3.932207e-001 9.025291e-001 -8.285749e-006 7.708843e-006 9.904936e-001 -2.629326e-001
327360000 -1.848768e-007 6.009162e-008 4.287671e-001 8.917776e-001 -8.028811e-006 1.060345e-005 9.916111e-001 -2.629247e-001
327645000 -1.313405e-005 -2.800285e-006 4.642723e-001 8.793545e-001 -1.415631e-007 9.371171e-006 9.910419e-001 -2.626364e-001
327930000 -3.797928e-006 -4.693123e-006 4.994929e-001 8.652053e-001 -1.120840e-005 3.590071e-006 9.904455e-001 -2.624996e-001
328215000 -1.065539e-005 2.040388e-006 5.344592e-001 8.493195e-001 5.555285e-006 1.201348e-005 9.904984e-001 -2.633755e-001
328500000 -2.936659e-005 -5.879254e-006 5.687889e-001 8.315635e-001 -1.064717e-005 -1.990648e-006 9.898840e-001 -2.637972e-001
328785000 -7.151024e-007 6.508686e-006 6.027361e-001 8.121545e-001 8.373304e-006 -1.086554e-005 9.899389e-001 -2.630326e-001
329070000 -4.088402e-006 5.684407e-006 6.359844e-001 7.910075e-001 -9.163071e-006 6.825615e-006 9.902912e-001 -2.637411e-001
329355000 -5.573071e-006 -1.091796e-005 6.685285e-001 7.680770e-001 -3.925161e-006 1.329767e-006 9.900697e-001 -2.646096e-001
329640000 1.052831e-005 2.543357e-006 6.999940e-001 7.435391e-001 6.612680e-006 6.194209e-006 9.904382e-001 -2.647928e-001
329925000 -1.153412e-006 -8.629920e-006 7.304752e-001 7.173637e-001 1.020466e-005 1.828168e-006 9.898379e-001 -2.644652e-001
330210000 1.554676e-007 -9.907345e-006 7.599050e-001 6.896189e-001 1.418134e-005 9.188952e-006 9.891251e-001 -2.650022e-001
330495000 7.125233e-007 3.558649e-006 7.879378e-001 6.602055e-001 2.992803e-006 7.530110e-006 9.896318e-001 -2.649650e-001
330780000 1.776902e-005 -4.783685e-006 8.146220e-001 6.295114e-001 -3.762417e-006 -7.974724e-006 9.902983e-001 -2.663003e-001
331065000 -5.831195e-006 1.219070e-005 8.398029e-001 5.974087e-001 5.350290e-006 2.662313e-006 9.887971e-001 -2.645263e-001
331350000 2.149805e-006 -7.291708e-006 8.635309e-001 5.640081e-001 -7.582995e-006 3.349028e-006 9.893417e-001 -2.654594e-001
331635000 -1.761628e-005 5.082461e-006 8.854901e-001 5.295015e-001 -1.980243e-006 -1.159938e-007 9.902695e-001 -2.659891e-001
331920000 9.254624e-007 -5.759846e-006 9.058221e-001 4.938790e-001 -1.886152e-005 1.746458e-006 9.900643e-001 -2.660154e-001
332205000 -4.750118e-006 -7.681245e-006 9.243851e-001 4.573737e-001 -3.163867e-006 -1.458016e-005 9.892018e-001 -2.669379e-001
332490000 -1.306868e-006 -4.103571e-006 9.409819e-001 4.201306e-001 -4.372223e-006 -5.797845e-006 9.901209e-001 -2.664478e-001
332775000 -1.372726e-005 5.361057e-006 9.557866e-001 3.821301e-001 1.431266e-006 1.004642e-005 9.894547e-001 -2.673337e-001
333060000 -1.236186e-005 -1.103546e-005 9.686015e-001 3.436708e-001 6.751992e-006 1.514520e-005 9.895830e-001 -2.673594e-001
333345000 -5.242788e-006 -2.264264e-005 9.795505e-001 3.047390e-001 9.768848e-006 -1.021058e-005 9.904389e-001 -2.667902e-001
333630000 -1.213597e-005 -6.849854e-007 9.884824e-001 2.655036e-001 -2.606779e-006 7.504343e-006 9.895077e-001 -2.687237e-001
333915000 -1.250538e-005 7.061941e-006 9.955667e-001 2.260815e-001 -5.640220e-006 2.869784e-007 9.889490e-001 -2.680615e-001
334200000 -8.044159e-006 -4.531200e-006 1.000613e+000 1.868225e-001 -3.005968e-006 5.510876e-006 9.898393e-001 -2.691836e-001
334485000 -3.839975e-006 -2.843347e-006 1.003888e+000 1.474631e-001 1.442824e-005 -1.076524e-006 9.890740e-001 -2.680046e-001
334770000 -8.804151e-007 1.958408e-005 1.005245e+000 1.084225e-001 -5.762995e-006 1.548519e-005 9.893987e-001 -2.688031e-001
335055000 -8.167046e-006 9.947619e-008 1.004814e+000 6.962937e-002 -2.511589e-006 1.401748e-005 9.899060e-001 -2.686625e-001
335340000 1.336889e-006 1.383509e-005 1.002522e+000 3.140487e-002 -1.108807e-005 -4.262035e-006 9.896441e-001 -2.702045e-001
335625000 3.168064e-006 1.354354e-005 9.986412e-001 -6.320516e-003 -1.035236e-005 7.305198e-006 9.893564e-001 -2.700280e-001
335910000 -4.542806e-006 6.073964e-006 9.930608e-001 -4.345207e-002 1.337421e-006 -1.708796e-005 9.891745e-001 -2.696140e-001
336195000 8.897351e-006 2.221666e-005 9.859127e-001 -7.991379e-002 -3.043141e-006 3.368024e-006 9.882419e-001 -2.696238e-001
336480000 -7.682705e-006 7.327498e-006 9.773833e-001 -1.155084e-001 -1.269751e-005 2.991981e-006 9.893547e-001 -2.695672e-001
336765000 -2.152005e-005 -2.799432e-006 9.672993e-001 -1.503205e-001 6.408269e-007 -1.583069e-005 9.890737e-001 -2.705517e-001
337050000 -1.025306e-005 -7.391142e-006 9.561142e-001 -1.840989e-001 7.716541e-006 7.738372e-006 9.895925e-001 -2.707645e-001
337335000 -2.381554e-007 2.071886e-005 9.434683e-001 -2.171583e-001 4.865683e-006 1.746030e-005 9.884769e-001 -2.722486e-001
337620000 1.594537e-006 4.252614e-006 9.298853e-001 -2.491563e-001 1.615528e-005 9.296441e-006 9.884855e-001 -2.720241e-001
337905000 -7.771014e-006 5.605284e-006 9.150589e-001 -2.800332e-001 9.763176e-006 -7.588340e-006 9.877188e-001 -2.703841e-001
338190000 2.520492e-006 -8.994230e-006 8.993247e-001 -3.099762e-001 -1.014869e-005 7.241793e-006 9.879752e-001 -2.720922e-001
338475000 -2.541033e-006 -4.862276e-006 8.826140e-001 -3.389210e-001 1.345122e-005 2.974065e-005 9.892083e-001 -2.711372e-001
338760000 1.602529e-005 -1.148874e-005 8.651648e-001 -3.666661e-001 1.829391e-005 7.383759e-006 9.886302e-001 -2.717197e-001
339045000 1.064230e-005 6.227844e-007 8.468607e-001 -3.934165e-001 -5.582058e-006 8.092245e-006 9.886205e-001 -2.723120e-001
339330000 3.673733e-006 -1.062745e-005 8.279781e-001 -4.190729e-001 -7.237256e-006 5.493600e-006 9.894496e-001 -2.710609e-001
339615000 5.820506e-007 -6.100384e-006 8.084352e-001 -4.436055e-001 5.221558e-006 -1.064269e-005 9.885967e-001 -2.728881e-001
339900000 8.079610e-006 -5.907128e-006 7.884005e-001 -4.671261e-001 -5.618340e-006 9.698881e-006 9.879291e-001 -2.736238e-001
340185000 1.166530e-005 -3.471242e-006 7.677943e-001 -4.895452e-001 4.523436e-006 1.045983e-006 9.882968e-001 -2.737954e-001
340470000 8.549157e-007 1.288772e-005 7.467933e-001 -5.108761e-001 -2.020248e-005 -4.339810e-006 9.883087e-001 -2.725751e-001
340755000 3.338900e-006 2.392026e-005 7.254848e-001 -5.312625e-001 -3.711563e-007 -1.131462e-005 9.880533e-001 -2.744049e-001
341040000 -4.577349e-006 9.340206e-006 7.037805e-001 -5.506560e-001 9.165204e-006 -3.530792e-007 9.877506e-001 -2.746368e-001
341325000 -2.714129e-006 5.874177e-006 6.817610e-001 -5.689809e-001 -7.565841e-006 -2.496045e-006 9.889300e-001 -2.727747e-001
341610000 1.120988e-006 -6.005363e-006 6.597088e-001 -5.864489e-001 -9.192089e-006 -4.643905e-006 9.894708e-001 -2.738637e-001
341895000 -9.757798e-006 7.508565e-006 6.372786e-001 -6.028266e-001 -1.022007e-005 8.469628e-006 9.874134e-001 -2.751632e-001
342180000 -4.254307e-006 -6.492683e-006 6.147799e-001 -6.184384e-001 5.972133e-006 2.117869e-006 9.885874e-001 -2.754463e-001
342465000 -6.151019e-007 1.072544e-005 5.922148e-001 -6.331318e-001 3.888170e-008 -3.055182e-006 9.879453e-001 -2.756578e-001
342750000 -4.077540e-006 -2.744222e-006 5.695505e-001 -6.469539e-001 -1.225112e-005 7.013780e-006 9.896334e-001 -2.747881e-001
343035000 4.677068e-006 3.306663e-007 5.468001e-001 -6.598994e-001 -2.371639e-006 -6.977583e-006 9.874788e-001 -2.764971e-001
343320000 7.600573e-006 -2.404437e-005 5.240289e-001 -6.721278e-001 -5.084397e-006 9.827586e-007 9.871286e-001 -2.759605e-001
343605000 1.111836e-005 -1.648148e-006 5.013301e-001 -6.834828e-001 9.863587e-007 2.960674e-006 9.872180e-001 -2.760430e-001
343890000 -1.578106e-005 -5.105546e-006 4.785100e-001 -6.941639e-001 -1.268733e-005 -4.064891e-007 9.880939e-001 -2.766999e-001
