!Agilent Technologies,N5230C,SG49000117,A.08.50.07
!Agilent N5230C: A.08.50.07
!Date: Sunday, March 17, 2024 05:30:00
!Correction: S11(Off) 
!S21(Off) 
!S12(Off) 
!S22(Full 1 Port(2)) 
!S2P File: Measurements: S11, S21, S12, S22:
# Hz S  RI   R 50
300000000 -8.535186e-007 -1.585478e-005 -6.473966e-001 -6.136250e-001 -2.246968e-006 -4.388206e-006 9.856489e-001 -2.674877e-001
300285000 8.405951e-006 1.642886e-006 -6.614195e-001 -5.901740e-001 9.308646e-006 7.737252e-006 9.862934e-001 -2.676358e-001
300570000 1.793023e-005 -4.712310e-006 -6.745484e-001 -5.665584e-001 -1.451311e-007 1.086681e-005 9.865203e-001 -2.682572e-001
300855000 2.672454e-006 -1.366584e-005 -6.869155e-001 -5.428823e-001 -4.142106e-006 -1.079691e-005 9.868611e-001 -2.679298e-001
301140000 -2.846444e-006 2.700083e-006 -6.984850e-001 -5.190315e-001 6.879420e-006 -5.686155e-006 9.861816e-001 -2.689168e-001
301425000 7.081296e-007 -8.696159e-007 -7.092174e-001 -4.952973e-001 2.140159e-006 1.305852e-006 9.872075e-001 -2.686515e-001
301710000 2.274994e-006 2.469712e-005 -7.191435e-001 -4.716248e-001 6.923122e-006 -3.862986e-006 9.871353e-001 -2.706838e-001
301995000 6.594644e-006 1.236317e-005 -7.282307e-001 -4.479722e-001 -3.419108e-006 -4.131382e-006 9.861199e-001 -2.689963e-001
302280000 -5.628115e-006 4.299012e-006 -7.367287e-001 -4.244371e-001 7.055082e-006 3.544100e-006 9.868018e-001 -2.696719e-001
302565000 9.876993e-006 5.300641e-006 -7.444121e-001 -4.009765e-001 6.139702e-006 1.035685e-005 9.871855e-001 -2.702642e-001
302850000 1.660042e-005 -1.514969e-006 -7.514823e-001 -3.777198e-001 1.666652e-005 -9.137143e-006 9.860131e-001 -2.690652e-001
303135000 -3.679781e-006 1.500038e-005 -7.577873e-001 -3.544524e-001 -4.176667e-006 1.071096e-005 9.856864e-001 -2.702947e-001
303420000 -7.097039e-006 9.584523e-006 -7.634665e-001 -3.314148e-001 1.700576e-007 2.635314e-006 9.853064e-001 -2.719287e-001
303705000 -6.872036e-006 -5.285102e-006 -7.686411e-001 -3.084384e-001 -6.256902e-006 6.054676e-006 9.872719e-001 -2.716398e-001
303990000 -9.734561e-007 -3.940752e-006 -7.732560e-001 -2.856465e-001 -2.795310e-006 1.421823e-006 9.853685e-001 -2.707577e-001
304275000 -1.873413e-006 -3.992219e-006 -7.771916e-001 -2.629789e-001 -2.646145e-006 -6.334778e-006 9.860052e-001 -2.715493e-001
304560000 2.304001e-006 4.930266e-006 -7.806154e-001 -2.405300e-001 -1.650721e-005 -8.096487e-006 9.861508e-001 -2.714497e-001
304845000 -1.789317e-006 -2.520592e-005 -7.835343e-001 -2.181574e-001 3.871883e-006 2.942459e-006 9.851990e-001 -2.715404e-001
305130000 -4.260541e-006 -1.564194e-005 -7.859073e-001 -1.959857e-001 -1.465276e-005 2.649046e-006 9.849404e-001 -2.714550e-001
305415000 1.521877e-005 -1.431072e-005 -7.877489e-001 -1.739067e-001 1.170999e-007 -3.604940e-006 9.854409e-001 -2.723540e-001
305700000 5.640874e-006 -1.054007e-005 -7.891006e-001 -1.520564e-001 -2.523947e-006 -8.424860e-006 9.860967e-001 -2.720619e-001
305985000 -3.106855e-006 7.138207e-006 -7.900006e-001 -1.303324e-001 -2.603397e-006 -5.099749e-006 9.860701e-001 -2.733917e-001
306270000 1.457980e-005 -3.350828e-006 -7.904118e-001 -1.087322e-001 -7.783805e-006 -1.846928e-005 9.872813e-001 -2.723291e-001
306555000 7.150659e-006 2.043172e-006 -7.904153e-001 -8.727630e-002 1.007232e-005 -1.549906e-005 9.863126e-001 -2.744828e-001
306840000 1.789478e-006 -1.737704e-005 -7.899042e-001 -6.604290e-002 1.389287e-006 -1.324648e-005 9.853390e-001 -2.724685e-001
307125000 1.454061e-006 3.017496e-006 -7.890897e-001 -4.498352e-002 -1.446011e-006 -5.084963e-007 9.852157e-001 -2.737561e-001
307410000 6.103440e-006 -1.025187e-005 -7.877785e-001 -2.402021e-002 -2.240283e-006 -1.716300e-006 9.860619e-001 -2.741545e-001
307695000 -6.253567e-006 -1.121102e-005 -7.861027e-001 -3.229401e-003 -3.032237e-006 -3.454228e-006 9.858810e-001 -2.750300e-001
307980000 9.429054e-006 1.227874e-005 -7.840499e-001 1.750653e-002 1.249534e-006 -8.495358e-006 9.844514e-001 -2.745837e-001
308265000 -7.798137e-006 -1.427620e-005 -7.816193e-001 3.780586e-002 -2.128490e-005 -8.393804e-007 9.845159e-001 -2.750798e-001
308550000 -6.686322e-006 -6.432526e-006 -7.787687e-001 5.826996e-002 3.049357e-006 6.868277e-006 9.843956e-001 -2.743655e-001
308835000 -1.341505e-005 -2.851705e-006 -7.755377e-001 7.844094e-002 -1.542359e-005 -1.530533e-006 9.843222e-001 -2.756537e-001
309120000 1.377310e-006 7.216206e-006 -7.719516e-001 9.858221e-002 -1.588294e-006 -8.753140e-006 9.854616e-001 -2.767055e-001
309405000 2.676249e-006 1.197754e-005 -7.680175e-001 1.185729e-001 -1.590999e-007 -9.948063e-006 9.871153e-001 -2.762359e-001
309690000 -1.965481e-005 -5.592407e-006 -7.636814e-001 1.383992e-001 -1.253221e-005 6.587955e-006 9.858105e-001 -2.763276e-001
309975000 -2.614210e-006 1.814607e-006 -7.590716e-001 1.580815e-001 -1.451250e-005 -1.275776e-005 9.846857e-001 -2.764129e-001
310260000 3.806905e-006 -1.545918e-007 -7.541547e-001 1.776552e-001 2.034277e-007 7.787902e-006 9.866077e-001 -2.766224e-001
310545000 1.072229e-005 -9.859206e-006 -7.487028e-001 1.971658e-001 7.606583e-006 -1.579913e-005 9.850913e-001 -2.776906e-001
310830000 6.618150e-008 -8.545308e-006 -7.430654e-001 2.165653e-001 -3.817167e-006 -2.100451e-005 9.863713e-001 -2.778650e-001
311115000 -5.670278e-006 -7.009368e-006 -7.369598e-001 2.358244e-001 7.120128e-006 -1.589371e-005 9.846633e-001 -2.776359e-001
311400000 1.985110e-005 3.142254e-006 -7.305247e-001 2.549788e-001 6.719109e-007 3.003110e-006 9.847291e-001 -2.777753e-001
311685000 1.032808e-005 -1.484112e-006 -7.237221e-001 2.740332e-001 1.023780e-005 -7.342897e-006 9.853697e-001 -2.777774e-001
311970000 -2.891204e-006 -3.584844e-006 -7.165788e-001 2.929809e-001 -3.117430e-006 1.184361e-006 9.837993e-001 -2.779278e-001
312255000 -4.634229e-006 -1.555027e-006 -7.090988e-001 3.118230e-001 -1.328175e-005 5.352294e-006 9.843482e-001 -2.784551e-001
312540000 -9.319620e-006 -1.832308e-007 -7.012711e-001 3.305967e-001 5.313907e-006 -4.385982e-006 9.842203e-001 -2.784632e-001
312825000 -9.838006e-006 6.139896e-006 -6.930101e-001 3.493646e-001 -9.343673e-006 -1.301841e-005 9.844152e-001 -2.791921e-001
313110000 -3.790029e-006 8.627159e-006 -6.844225e-001 3.679250e-001 -1.286039e-005 -6.979564e-007 9.841393e-001 -2.805098e-001
313395000 -2.538353e-005 -7.374872e-006 -6.753819e-001 3.864275e-001 -1.546500e-005 5.961577e-006 9.847015e-001 -2.790298e-001
313680000 9.542183e-006 -1.728962e-006 -6.660222e-001 4.048106e-001 9.332030e-006 3.976487e-007 9.852108e-001 -2.794402e-001
313965000 -7.681468e-006 -1.197666e-005 -6.561643e-001 4.231421e-001 -4.179972e-006 1.329441e-006 9.845423e-001 -2.797575e-001
314250000 4.183371e-006 1.497157e-006 -6.459659e-001 4.413922e-001 -4.766820e-006 -1.482615e-005 9.833366e-001 -2.799808e-001
314535000 -1.764162e-006 -6.419984e-006 -6.353250e-001 4.595416e-001 -2.556687e-005 -1.033224e-005 9.837204e-001 -2.800787e-001
314820000 -1.024111e-005 -1.990319e-005 -6.242287e-001 4.775848e-001 -3.867783e-006 1.142511e-006 9.836978e-001 -2.813949e-001
315105000 -9.960048e-007 -6.055314e-006 -6.127637e-001 4.955138e-001 -3.573715e-006 -1.847092e-005 9.812213e-001 -2.811115e-001
315390000 -2.548694e-006 -1.424321e-005 -6.007566e-001 5.133926e-001 -4.487235e-006 -6.089132e-006 9.840844e-001 -2.817586e-001
315675000 -4.692789e-006 6.926185e-006 -5.883686e-001 5.311384e-001 6.606796e-006 -7.922664e-008 9.829885e-001 -2.806177e-001
315960000 4.298161e-006 5.678903e-006 -5.753779e-001 5.487604e-001 6.144452e-006 -5.835003e-006 9.826240e-001 -2.815228e-001
316245000 1.046688e-005 2.242004e-006 -5.620293e-001 5.662638e-001 -6.211681e-006 1.315043e-006 9.823306e-001 -2.813365e-001
316530000 -5.539255e-007 9.943241e-006 -5.481343e-001 5.835904e-001 1.000914e-006 -1.419050e-006 9.834899e-001 -2.824869e-001
316815000 -2.656048e-006 -9.910458e-006 -5.337306e-001 6.008326e-001 -1.083037e-005 7.446282e-006 9.840723e-001 -2.817457e-001
317100000 -6.563262e-006 7.913895e-006 -5.188541e-001 6.178877e-001 -1.116288e-005 5.600209e-006 9.825351e-001 -2.816394e-001
317385000 -3.248477e-006 7.715592e-006 -5.033370e-001 6.348661e-001 -1.281088e-005 7.466018e-006 9.845518e-001 -2.817788e-001
317670000 -3.794335e-006 -1.471697e-005 -4.872666e-001 6.515704e-001 -1.173496e-005 5.964458e-006 9.838393e-001 -2.832915e-001
317955000 -9.741640e-006 -7.045116e-006 -4.706501e-001 6.681024e-001 -1.446987e-005 7.945262e-006 9.843938e-001 -2.832614e-001
318240000 -5.612398e-006 -2.383389e-006 -4.534446e-001 6.845704e-001 -1.364756e-005 -5.264448e-007 9.833218e-001 -2.834756e-001
318525000 -8.139586e-006 -5.833395e-007 -4.356785e-001 7.006280e-001 -1.793167e-007 -7.590344e-006 9.833840e-001 -2.832704e-001
318810000 -4.905577e-008 -1.909249e-005 -4.172834e-001 7.164493e-001 6.516091e-006 -9.272624e-007 9.826122e-001 -2.838081e-001
319095000 -1.443589e-005 -7.691135e-006 -3.982045e-001 7.319966e-001 -4.273885e-006 -1.855418e-006 9.825219e-001 -2.831462e-001
319380000 -2.083225e-006 -2.026246e-005 -3.784564e-001 7.473378e-001 -7.551801e-006 1.745722e-006 9.834210e-001 -2.853233e-001
319665000 -5.114254e-006 1.507868e-007 -3.581157e-001 7.623307e-001 -3.152761e-006 -9.839682e-006 9.837382e-001 -2.842228e-001
319950000 -1.680638e-005 -9.461385e-006 -3.370531e-001 7.769095e-001 6.135441e-006 1.498268e-006 9.827005e-001 -2.861761e-001
320235000 -8.654758e-006 9.546975e-007 -3.153120e-001 7.911414e-001 -4.615109e-006 8.479888e-007 9.832149e-001 -2.862586e-001
320520000 1.388215e-005 -4.842399e-006 -2.927546e-001 8.049868e-001 3.911028e-006 2.150075e-006 9.830365e-001 -2.861100e-001
320805000 1.265936e-005 8.608156e-006 -2.696228e-001 8.182924e-001 -6.776731e-006 4.087962e-007 9.821010e-001 -2.852997e-001
321090000 -6.513917e-006 5.831495e-006 -2.457583e-001 8.311653e-001 1.166645e-006 4.212468e-006 9.817998e-001 -2.856853e-001
321375000 3.958674e-007 -1.423559e-006 -2.211187e-001 8.435345e-001 -1.184381e-006 -2.302258e-007 9.825138e-001 -2.858609e-001
321660000 -1.232488e-005 -7.447569e-007 -1.956924e-001 8.552677e-001 7.523312e-006 -2.768250e-006 9.830280e-001 -2.865714e-001
321945000 -6.217201e-006 1.187624e-005 -1.695967e-001 8.664452e-001 1.389883e-006 -2.003148e-006 9.820684e-001 -2.875595e-001
322230000 9.516899e-006 9.431577e-006 -1.428060e-001 8.769336e-001 9.138023e-006 4.336732e-006 9.817486e-001 -2.877353e-001
322515000 -1.117121e-006 3.491939e-006 -1.151698e-001 8.866861e-001 -1.462590e-005 2.570515e-006 9.812269e-001 -2.879147e-001
322800000 -1.687227e-005 2.488035e-006 -8.682805e-002 8.957035e-001 -3.287332e-006 -6.164736e-006 9.835139e-001 -2.876799e-001
323085000 -6.619471e-006 1.584263e-007 -5.780248e-002 9.038551e-001 -1.120854e-005 2.589869e-005 9.824381e-001 -2.879129e-001
323370000 -9.712005e-006 3.936932e-006 -2.799384e-002 9.110768e-001 -1.580399e-005 9.659307e-006 9.827219e-001 -2.887307e-001
323655000 -6.081496e-006 6.095108e-006 2.480064e-003 9.173024e-001 -6.283334e-006 2.315116e-006 9.818377e-001 -2.892271e-001
323940000 -2.185176e-006 -1.342828e-005 3.364545e-002 9.226316e-001 1.240716e-007 -1.172526e-005 9.817017e-001 -2.896620e-001
324225000 -6.176556e-007 -5.727491e-006 6.539472e-002 9.269017e-001 8.275951e-006 -1.204347e-005 9.802978e-001 -2.889661e-001
324510000 -3.421265e-006 1.055075e-006 9.786806e-002 9.299933e-001 1.248991e-005 9.290001e-006 9.825481e-001 -2.907202e-001
324795000 2.012836e-006 -1.313795e-005 1.308500e-001 9.319453e-001 7.012139e-006 -6.991131e-007 9.819431e-001 -2.900079e-001
325080000 1.257261e-006 -3.012367e-006 1.644030e-001 9.325578e-001 -1.935247e-006 -1.509224e-005 9.815370e-001 -2.898455e-001
325365000 2.507294e-006 9.831189e-007 1.984873e-001 9.318984e-001 -8.422194e-006 -5.699186e-006 9.823278e-001 -2.902320e-001
325650000 -3.255417e-006 -5.821292e-006 2.328521e-001 9.298336e-001 9.582768e-006 -2.056222e-006 9.819771e-001 -2.898201e-001
325935000 -2.124305e-006 3.284320e-005 2.676495e-001 9.263236e-001 6.164898e-006 -1.717678e-006 9.814321e-001 -2.911408e-001
326220000 3.006723e-007 2.995399e-006 3.027945e-001 9.212892e-001 -7.483745e-007 1.700741e-007 9.819398e-001 -2.914123e-001
326505000 -6.776561e-006 -8.352107e-006 3.381928e-001 9.146727e-001 1.047847e-005 1.430701e-006 9.813551e-001 -2.919256e-001
326790000 4.652110e-006 6.012021e-006 3.736451e-001 9.065261e-001 5.005615e-006 2.549039e-006 9.803869e-001 -2.907595e-001
327075000 -1.255459e-005 1.230016e-005 4.091533e-001 8.967385e-001 2.415871e-008 1.873099e-005 9.808498e-001 -2.924389e-001
327360000 -8.876598e-006 3.514909e-006 4.446337e-001 8.852586e-001 -2.489595e-005 1.091410e-005 9.822854e-001 -2.925430e-001
327645000 -7.452800e-006 5.242633e-006 4.799308e-001 8.720573e-001 -1.109456e-005 9.476094e-006 9.816793e-001 -2.921710e-001
327930000 -7.316569e-006 1.095215e-005 5.150509e-001 8.571518e-001 1.833698e-006 3.796185e-007 9.810166e-001 -2.920060e-001
328215000 1.144774e-005 -5.131422e-007 5.496842e-001 8.404782e-001 1.089872e-005 -6.411778e-006 9.810219e-001 -2.929450e-001
328500000 -4.414141e-006 6.832836e-007 5.839583e-001 8.220184e-001 9.659218e-006 9.935926e-006 9.803278e-001 -2.934540e-001
328785000 -7.667132e-006 4.558395e-006 6.174469e-001 8.018990e-001 -4.595279e-006 -2.248868e-006 9.805937e-001 -2.928336e-001
329070000 -5.792264e-006 1.061616e-005 6.502520e-001 7.800115e-001 1.378596e-006 -3.118349e-007 9.807110e-001 -2.931963e-001
329355000 -1.065043e-006 1.729558e-006 6.824453e-001 7.563074e-001 -1.069158e-006 9.661941e-006 9.804832e-001 -2.943593e-001
329640000 -1.753338e-005 -6.908966e-006 7.134936e-001 7.311149e-001 1.189717e-005 -4.376009e-006 9.808242e-001 -2.943525e-001
329925000 -1.195681e-006 5.780887e-006 7.434178e-001 7.041737e-001 -2.120121e-006 -1.864570e-007 9.804066e-001 -2.942541e-001
330210000 -1.056450e-005 -3.067060e-006 7.721629e-001 6.757255e-001 -2.277783e-005 -2.529125e-007 9.795681e-001 -2.947434e-001
330495000 -1.319698e-005 1.590756e-005 7.996669e-001 6.458119e-001 1.568339e-006 3.607055e-006 9.800831e-001 -2.947520e-001
330780000 7.623988e-006 6.511472e-006 8.256719e-001 6.144696e-001 -1.191147e-005 4.554609e-006 9.807784e-001 -2.960716e-001
331065000 -4.876505e-006 -1.148418e-006 8.502434e-001 5.817563e-001 -1.340122e-005 4.570704e-006 9.791317e-001 -2.943884e-001
331350000 7.909498e-006 3.045165e-006 8.731856e-001 5.478480e-001 1.244280e-006 -2.513858e-006 9.794914e-001 -2.955441e-001
331635000 -6.274197e-006 9.771263e-006 8.944356e-001 5.129284e-001 -9.332176e-006 -1.241051e-005 9.806135e-001 -2.957515e-001
331920000 -1.006171e-005 4.649099e-006 9.139538e-001 4.769577e-001 5.612333e-006 2.110760e-007 9.802074e-001 -2.960040e-001
332205000 -1.590214e-005 1.270040e-006 9.316779e-001 4.400717e-001 -8.018283e-006 -1.244722e-005 9.792280e-001 -2.968251e-001
332490000 -6.479896e-006 5.882260e-006 9.474180e-001 4.025030e-001 2.141345e-006 9.843396e-006 9.802116e-001 -2.965646e-001
332775000 -1.322318e-005 6.443459e-006 9.613070e-001 3.642521e-001 9.509112e-006 7.454895e-006 9.796568e-001 -2.972779e-001
333060000 -4.854844e-006 -5.879365e-006 9.733826e-001 3.255966e-001 1.455580e-005 -7.696645e-007 9.799032e-001 -2.972971e-001
333345000 -1.757166e-005 -6.396748e-006 9.834360e-001 2.864737e-001 -4.593021e-006 1.002620e-006 9.808621e-001 -2.968941e-001
333630000 -1.385698e-005 4.657816e-006 9.915301e-001 2.471952e-001 6.959150e-007 -3.818950e-006 9.795610e-001 -2.988002e-001
333915000 -1.436974e-005 7.099812e-006 9.977999e-001 2.078323e-001 -8.491857e-006 -3.209000e-006 9.791935e-001 -2.980136e-001
334200000 1.799451e-006 2.880146e-006 1.002016e+000 1.683950e-001 -3.614978e-007 7.048902e-006 9.799145e-001 -2.991931e-001
334485000 -6.182903e-006 1.318491e-005 1.004364e+000 1.292213e-001 -5.332799e-006 1.117956e-005 9.792598e-001 -2.981362e-001
334770000 -9.448837e-006 -2.654095e-006 1.005032e+000 9.029560e-002 8.609555e-006 2.638386e-005 9.796115e-001 -2.989624e-001
335055000 4.985079e-006 1.432564e-005 1.003725e+000 5.170009e-002 5.611442e-006 5.419810e-006 9.801162e-001 -2.989613e-001
335340000 -1.200210e-005 -2.446906e-006 1.000690e+000 1.369530e-002 3.191293e-008 -4.980722e-006 9.795992e-001 -3.003678e-001
335625000 1.227626e-005 1.622627e-005 9.959911e-001 -2.383621e-002 4.482545e-006 8.830735e-006 9.794929e-001 -3.001684e-001
335910000 -1.834744e-005 -7.950484e-006 9.897304e-001 -6.060135e-002 2.855829e-006 2.538300e-006 9.793742e-001 -2.997639e-001
336195000 -7.571614e-006 -3.211208e-006 9.818452e-001 -9.666686e-002 -1.373262e-006 2.839992e-006 9.782508e-001 -2.998127e-001
336480000 -6.243640e-006 -9.761023e-006 9.725894e-001 -1.319976e-001 -3.967819e-006 6.204065e-006 9.795029e-001 -3.001268e-001
336765000 -6.778066e-006 -1.315336e-005 9.619924e-001 -1.664279e-001 -1.381013e-006 1.383825e-005 9.789624e-001 -3.007643e-001
337050000 -7.326116e-006 -9.998160e-006 9.501349e-001 -1.998365e-001 -1.416295e-005 -6.159041e-006 9.795667e-001 -3.010578e-001
337335000 -2.346906e-005 -7.280080e-006 9.370218e-001 -2.325048e-001 -1.392127e-005 -1.327552e-005 9.784544e-001 -3.028012e-001
337620000 -9.723531e-006 -1.348084e-005 9.228479e-001 -2.640679e-001 -7.508797e-007 -1.869449e-006 9.785284e-001 -3.024774e-001
337905000 -1.590942e-007 -1.986036e-005 9.075906e-001 -2.945349e-001 3.669877e-006 -1.301414e-005 9.775503e-001 -3.008103e-001
338190000 -3.585576e-006 -6.402504e-006 8.913683e-001 -3.239836e-001 2.009099e-005 -1.074377e-005 9.780545e-001 -3.026171e-001
338475000 -5.676308e-007 -5.977307e-006 8.742305e-001 -3.523472e-001 -1.655142e-006 -2.726740e-006 9.791523e-001 -3.013683e-001
338760000 5.916646e-006 3.362665e-006 8.564053e-001 -3.796667e-001 -1.491615e-005 -1.016365e-005 9.785332e-001 -3.022721e-001
339045000 4.657415e-006 -6.495903e-006 8.378478e-001 -4.059422e-001 4.319650e-007 -1.013842e-005 9.785042e-001 -3.026198e-001
339330000 -5.276907e-006 3.225864e-006 8.186367e-001 -4.311680e-001 3.845793e-006 -9.766562e-006 9.794334e-001 -3.017327e-001
339615000 5.873167e-006 -5.590871e-007 7.987423e-001 -4.552659e-001 -3.228827e-008 5.293752e-006 9.785202e-001 -3.034360e-001
339900000 2.284033e-005 2.391778e-006 7.783143e-001 -4.781454e-001 -1.592858e-005 1.219911e-005 9.776427e-001 -3.041686e-001
340185000 1.604838e-005 6.600783e-006 7.576253e-001 -5.000954e-001 -2.972847e-007 1.977832e-006 9.781476e-001 -3.041339e-001
340470000 3.196890e-006 3.137122e-006 7.363817e-001 -5.210992e-001 -3.404493e-006 2.092351e-006 9.782142e-001 -3.031797e-001
340755000 -4.774382e-006 1.045772e-005 7.148403e-001 -5.409423e-001 9.964862e-006 8.920031e-006 9.776736e-001 -3.052807e-001
341040000 1.269702e-006 3.976480e-006 6.930293e-001 -5.598165e-001 -9.546763e-006 5.341926e-006 9.773367e-001 -3.051854e-001
341325000 -6.966485e-007 -1.569621e-005 6.708722e-001 -5.778124e-001 -3.367730e-006 1.259483e-006 9.786918e-001 -3.034900e-001
341610000 -7.484371e-006 1.179819e-005 6.485227e-001 -5.947152e-001 -1.966455e-005 -3.469288e-006 9.790247e-001 -3.045302e-001
341895000 -3.007353e-006 -1.943882e-005 6.262162e-001 -6.107801e-001 4.270469e-006 -8.575091e-006 9.771050e-001 -3.060168e-001
342180000 -1.326766e-007 -6.522187e-006 6.035215e-001 -6.258582e-001 -1.410119e-005 -4.102806e-006 9.781538e-001 -3.063210e-001
342465000 -8.252954e-006 -1.393254e-005 5.809210e-001 -6.402288e-001 2.764373e-007 -7.678551e-006 9.775829e-001 -3.064072e-001
342750000 9.234701e-006 -1.828145e-005 5.581555e-001 -6.535719e-001 -7.233863e-006 -6.301379e-006 9.792869e-001 -3.057572e-001
343035000 1.429470e-005 -6.782228e-006 5.353583e-001 -6.661746e-001 5.176490e-006 -1.567363e-006 9.771096e-001 -3.073373e-001
343320000 6.200727e-006 -3.962292e-006 5.125530e-001 -6.779665e-001 -1.277099e-005 -1.014565e-005 9.767058e-001 -3.066542e-001
343605000 6.302090e-006 -9.895378e-006 4.897586e-001 -6.890168e-001 -1.127133e-005 -8.039572e-006 9.769366e-001 -3.068097e-001
343890000 3.488812e-006 -5.632143e-006 4.669871e-001 -6.992556e-001 1.034559e-005 -3.989773e-006 9.775162e-001 -3.076711e-001
