!Agilent Technologies,N5230C,SG49000117,A.08.50.07
!Agilent N5230C: A.08.50.07
!Date: Sunday, March 17, 2024 09:24:29
!Correction: S11(Off) 
!S21(Off) 
!S12(Off) 
!S22(Full 1 Port(2)) 
!S2P File: Measurements: S11, S21, S12, S22:
# Hz S  RI   R 50
300000000 -7.204519e-005 4.158177e-005 -6.081664e-001 -6.687919e-001 1.288706e-005 -3.279915e-005 1.019870e+000 -1.117446e-001
300285000 4.504797e-005 -1.360753e-004 -6.245491e-001 -6.461031e-001 -5.559832e-005 -8.665989e-006 1.020355e+000 -1.107280e-001
300570000 -4.594380e-005 -6.637868e-005 -6.392874e-001 -6.223180e-001 5.578111e-005 2.462614e-005 1.020150e+000 -1.122243e-001
300855000 -6.731464e-005 -2.926869e-005 -6.544137e-001 -5.987192e-001 2.139783e-006 -6.534187e-005 1.021915e+000 -1.103277e-001
301140000 2.207875e-005 -7.467442e-005 -6.683134e-001 -5.754304e-001 1.708779e-005 -1.306508e-004 1.021338e+000 -1.106753e-001
301425000 -1.997386e-005 -6.823771e-005 -6.804621e-001 -5.518107e-001 7.122602e-005 2.558211e-005 1.021393e+000 -1.122269e-001
301710000 6.759942e-005 -6.166082e-005 -6.924997e-001 -5.286431e-001 1.031771e-004 -1.267150e-005 1.021810e+000 -1.126134e-001
301995000 -1.066742e-004 -4.887812e-005 -7.023875e-001 -5.051575e-001 3.850868e-005 -1.695297e-005 1.019931e+000 -1.108011e-001
302280000 -7.326503e-005 -1.109456e-005 -7.130386e-001 -4.812944e-001 8.134973e-005 -2.576780e-007 1.020866e+000 -1.120553e-001
302565000 -1.292145e-004 -1.592046e-004 -7.224598e-001 -4.578990e-001 3.329034e-005 1.178035e-005 1.021247e+000 -1.102692e-001
302850000 8.704615e-005 -8.307305e-005 -7.315438e-001 -4.347724e-001 1.308288e-005 -1.344837e-005 1.020663e+000 -1.110969e-001
303135000 -7.134284e-006 -1.069319e-004 -7.392716e-001 -4.117471e-001 -5.044190e-005 4.426988e-006 1.021028e+000 -1.127272e-001
303420000 1.928909e-005 -2.863611e-005 -7.466258e-001 -3.883210e-001 2.477867e-005 2.661059e-005 1.020605e+000 -1.152319e-001
303705000 -2.142876e-005 -1.644730e-005 -7.531386e-001 -3.651098e-001 2.016611e-007 7.215727e-005 1.022533e+000 -1.123674e-001
303990000 -5.603138e-005 -2.763913e-005 -7.596374e-001 -3.418111e-001 1.254225e-004 -1.747440e-005 1.018755e+000 -1.131512e-001
304275000 -2.934419e-005 7.879532e-005 -7.650049e-001 -3.192364e-001 9.244811e-005 1.391699e-005 1.020346e+000 -1.123403e-001
304560000 7.678848e-005 -3.517141e-005 -7.698582e-001 -2.969244e-001 9.448364e-005 9.287161e-005 1.021669e+000 -1.124872e-001
304845000 1.971195e-005 -1.043299e-004 -7.739642e-001 -2.745533e-001 -4.067981e-005 -7.436627e-005 1.019691e+000 -1.123960e-001
305130000 -7.736667e-005 7.510182e-005 -7.772104e-001 -2.519936e-001 1.390226e-005 2.674972e-005 1.019343e+000 -1.123748e-001
305415000 7.280874e-005 8.071832e-005 -7.816209e-001 -2.302581e-001 1.172048e-005 1.258715e-004 1.021512e+000 -1.130491e-001
305700000 1.529491e-005 -8.920094e-005 -7.834566e-001 -2.074624e-001 4.749053e-006 4.639587e-005 1.020432e+000 -1.132716e-001
305985000 3.503877e-005 1.248569e-004 -7.857489e-001 -1.851910e-001 -1.053010e-004 -7.907961e-005 1.022277e+000 -1.143826e-001
306270000 6.721079e-005 -3.223970e-005 -7.872096e-001 -1.637852e-001 2.783954e-005 9.675248e-005 1.021786e+000 -1.118223e-001
306555000 6.223605e-005 1.898242e-005 -7.883286e-001 -1.422439e-001 -3.721547e-005 9.168798e-005 1.021769e+000 -1.148763e-001
306840000 -3.140197e-005 7.738100e-005 -7.890306e-001 -1.207057e-001 -7.359149e-006 -1.137661e-004 1.019256e+000 -1.135791e-001
307125000 -1.518155e-005 -4.257523e-005 -7.892091e-001 -9.915989e-002 -1.460908e-004 -1.602542e-004 1.020367e+000 -1.143599e-001
307410000 3.429642e-005 4.840048e-005 -7.896763e-001 -7.777680e-002 -6.586093e-005 -8.162807e-005 1.021139e+000 -1.145583e-001
307695000 -1.877170e-005 1.342596e-004 -7.886780e-001 -5.733770e-002 3.416133e-005 -5.990013e-005 1.022605e+000 -1.150790e-001
307980000 -2.831856e-005 3.805651e-007 -7.882419e-001 -3.641101e-002 6.305497e-006 -3.080364e-005 1.020094e+000 -1.136999e-001
308265000 5.181389e-006 6.631947e-005 -7.868422e-001 -1.568932e-002 -1.220176e-004 -1.232266e-005 1.018956e+000 -1.142709e-001
308550000 -6.582469e-005 -5.885920e-006 -7.849389e-001 5.240967e-003 4.100783e-006 -1.190984e-004 1.020563e+000 -1.139562e-001
308835000 -9.453610e-005 1.070172e-005 -7.829723e-001 2.572767e-002 2.197549e-005 -3.979479e-005 1.019125e+000 -1.156952e-001
309120000 -4.510990e-005 3.047527e-005 -7.801135e-001 4.611253e-002 6.888691e-005 7.321336e-005 1.021374e+000 -1.149689e-001
309405000 -5.669550e-006 1.357395e-005 -7.776314e-001 6.609685e-002 6.784635e-006 -3.077296e-005 1.023239e+000 -1.133025e-001
309690000 -6.257349e-005 -8.815102e-005 -7.740586e-001 8.656254e-002 6.285129e-005 1.450607e-005 1.021457e+000 -1.144912e-001
309975000 -6.310623e-005 -6.024280e-005 -7.705328e-001 1.069568e-001 2.183945e-005 3.346746e-005 1.020317e+000 -1.137053e-001
310260000 1.550245e-005 3.420108e-005 -7.662473e-001 1.262487e-001 3.653050e-005 -9.379054e-005 1.022632e+000 -1.155051e-001
310545000 1.068193e-004 4.749479e-005 -7.620027e-001 1.466163e-001 1.106459e-004 -3.942529e-005 1.019863e+000 -1.162782e-001
310830000 2.540746e-005 -4.576884e-005 -7.574399e-001 1.659422e-001 4.922079e-005 9.449326e-006 1.023073e+000 -1.158847e-001
311115000 6.630920e-005 7.656145e-005 -7.526932e-001 1.851516e-001 -2.384191e-005 6.389047e-005 1.019262e+000 -1.164373e-001
311400000 -1.175819e-005 9.782214e-005 -7.472739e-001 2.044274e-001 3.199185e-005 5.096875e-005 1.020942e+000 -1.155120e-001
311685000 -2.496340e-005 4.673226e-005 -7.417623e-001 2.241200e-001 7.904940e-005 1.186533e-004 1.021446e+000 -1.170764e-001
311970000 8.824147e-006 -9.146041e-005 -7.353960e-001 2.427177e-001 7.914138e-005 -1.961299e-005 1.019313e+000 -1.158457e-001
312255000 -1.872367e-004 -3.004476e-005 -7.294771e-001 2.623439e-001 -1.092049e-005 1.248863e-004 1.020488e+000 -1.156362e-001
312540000 5.904094e-005 1.782522e-005 -7.224758e-001 2.815902e-001 7.067354e-006 -8.776893e-007 1.020113e+000 -1.158506e-001
312825000 -1.214711e-005 1.311590e-005 -7.150177e-001 2.999772e-001 -4.573888e-005 -8.753406e-006 1.020493e+000 -1.162390e-001
313110000 -1.005656e-005 1.745394e-005 -7.074786e-001 3.190847e-001 -7.401987e-006 6.482198e-005 1.020412e+000 -1.174396e-001
313395000 -6.745089e-006 -1.521409e-004 -6.995875e-001 3.379402e-001 4.431626e-005 7.067541e-005 1.020443e+000 -1.156152e-001
313680000 5.658341e-005 -1.926967e-005 -6.915904e-001 3.564051e-001 -3.722527e-005 4.351039e-005 1.022407e+000 -1.168221e-001
313965000 8.030557e-005 -3.869880e-005 -6.831415e-001 3.756871e-001 -1.999549e-005 -7.698556e-005 1.021015e+000 -1.156000e-001
314250000 -2.848315e-005 -9.066663e-006 -6.738384e-001 3.939375e-001 5.624692e-005 2.162603e-005 1.019992e+000 -1.161787e-001
314535000 1.714960e-005 5.756520e-005 -6.642485e-001 4.125089e-001 -6.542903e-005 -6.557140e-005 1.020416e+000 -1.178559e-001
314820000 -5.540648e-005 -2.720499e-005 -6.546617e-001 4.304178e-001 2.212983e-005 -1.729600e-004 1.020915e+000 -1.177811e-001
315105000 6.025902e-005 -6.425596e-005 -6.442312e-001 4.488016e-001 3.664501e-005 4.011347e-005 1.018219e+000 -1.179845e-001
315390000 3.727307e-005 -6.309442e-005 -6.330436e-001 4.672064e-001 -1.718270e-004 1.632656e-005 1.020880e+000 -1.181140e-001
315675000 -3.161217e-005 -6.375020e-005 -6.221756e-001 4.857922e-001 1.160762e-004 -1.251467e-004 1.020104e+000 -1.171214e-001
315960000 7.592768e-005 -4.160506e-005 -6.108325e-001 5.033796e-001 6.909200e-006 -9.864064e-005 1.020203e+000 -1.172581e-001
316245000 1.065022e-004 7.219250e-005 -5.983900e-001 5.212717e-001 7.308157e-005 -1.006166e-004 1.018430e+000 -1.182130e-001
316530000 7.851889e-006 -1.573150e-005 -5.862076e-001 5.392454e-001 3.948619e-005 3.503875e-005 1.022221e+000 -1.179258e-001
316815000 1.431054e-005 -1.093879e-005 -5.733406e-001 5.567387e-001 6.950280e-005 -1.051408e-004 1.020946e+000 -1.157904e-001
317100000 2.604523e-005 6.691531e-005 -5.595008e-001 5.741918e-001 7.708325e-005 -3.769935e-005 1.020661e+000 -1.171508e-001
317385000 -3.703618e-005 -3.416591e-005 -5.449067e-001 5.918660e-001 3.050468e-005 1.004720e-004 1.021176e+000 -1.149878e-001
317670000 1.159917e-004 -4.347156e-006 -5.308859e-001 6.092838e-001 1.154697e-004 3.395424e-005 1.022070e+000 -1.188316e-001
317955000 -4.667878e-005 1.234783e-005 -5.164315e-001 6.263342e-001 -6.601679e-005 7.139792e-005 1.021849e+000 -1.173335e-001
318240000 6.280829e-006 -7.274076e-005 -5.000389e-001 6.439140e-001 -7.862176e-005 7.175634e-006 1.020919e+000 -1.180294e-001
318525000 -2.291203e-005 -1.670510e-005 -4.838763e-001 6.604053e-001 -6.913866e-006 8.984292e-005 1.019799e+000 -1.181077e-001
318810000 -1.527865e-005 1.325917e-005 -4.671864e-001 6.768728e-001 5.248360e-005 3.449512e-005 1.019365e+000 -1.172331e-001
319095000 -8.443173e-005 4.612049e-005 -4.493231e-001 6.931909e-001 9.300752e-005 4.028987e-005 1.019624e+000 -1.177332e-001
319380000 8.682074e-007 4.034501e-005 -4.316298e-001 7.098066e-001 7.591264e-005 2.184030e-005 1.021983e+000 -1.193066e-001
319665000 6.903479e-005 2.379460e-005 -4.125850e-001 7.255514e-001 -5.692089e-005 7.584709e-005 1.021933e+000 -1.180419e-001
319950000 -1.107300e-004 3.576348e-005 -3.938628e-001 7.412838e-001 -2.655052e-006 -3.775321e-005 1.020939e+000 -1.200980e-001
320235000 -8.477306e-006 -1.092447e-005 -3.735208e-001 7.563756e-001 -1.103402e-005 -4.146179e-005 1.021796e+000 -1.185229e-001
320520000 -6.627689e-005 5.549884e-005 -3.528613e-001 7.716411e-001 -1.247042e-004 4.833449e-005 1.021178e+000 -1.205610e-001
320805000 -9.339193e-005 -5.510294e-005 -3.311205e-001 7.864128e-001 -4.415373e-005 -1.632055e-004 1.020177e+000 -1.199053e-001
321090000 1.283399e-004 -2.197889e-005 -3.087600e-001 8.005993e-001 1.440190e-005 -5.139929e-005 1.019682e+000 -1.183350e-001
321375000 2.479499e-005 -1.012976e-004 -2.858319e-001 8.144515e-001 -8.146891e-005 -3.011277e-005 1.022130e+000 -1.197874e-001
321660000 -1.336600e-005 -1.255481e-004 -2.627036e-001 8.279160e-001 -3.335582e-007 -8.783767e-005 1.021916e+000 -1.185241e-001
321945000 6.039593e-005 -4.451116e-005 -2.379150e-001 8.404602e-001 1.290652e-006 -3.773630e-005 1.020423e+000 -1.203684e-001
322230000 -2.459822e-006 -9.905959e-005 -2.130703e-001 8.532143e-001 -1.072371e-004 -3.189781e-005 1.019845e+000 -1.203987e-001
322515000 1.115709e-004 4.234768e-005 -1.874687e-001 8.646455e-001 7.617233e-006 -1.350951e-005 1.019740e+000 -1.202784e-001
322800000 1.601302e-004 2.901304e-005 -1.604983e-001 8.754386e-001 -5.167122e-005 -8.305435e-005 1.022143e+000 -1.191586e-001
323085000 -1.600043e-005 2.299242e-005 -1.329222e-001 8.854837e-001 -5.294378e-005 -4.908986e-007 1.020507e+000 -1.198112e-001
323370000 8.079613e-005 -1.135977e-004 -1.050966e-001 8.952454e-001 7.612781e-005 -1.196106e-004 1.022320e+000 -1.195598e-001
323655000 7.131546e-005 3.436241e-005 -7.662355e-002 9.044449e-001 1.592166e-006 3.487663e-006 1.020088e+000 -1.215256e-001
323940000 3.429332e-005 8.790377e-005 -4.627739e-002 9.123139e-001 2.730797e-005 -1.147856e-004 1.020612e+000 -1.215840e-001
324225000 2.424606e-005 1.175232e-004 -1.630701e-002 9.195339e-001 4.336476e-005 -8.081688e-005 1.019929e+000 -1.201213e-001
324510000 6.823090e-005 3.533560e-005 1.518579e-002 9.248908e-001 3.156626e-005 1.409676e-005 1.021991e+000 -1.224928e-001
324795000 -8.335131e-006 1.190812e-004 4.658569e-002 9.297764e-001 -1.675101e-005 -1.060053e-004 1.021374e+000 -1.209395e-001
325080000 2.358370e-005 1.395727e-004 7.850441e-002 9.341847e-001 -1.349556e-005 -7.509797e-005 1.019989e+000 -1.203007e-001
325365000 -7.440070e-005 1.700013e-004 1.117792e-001 9.365680e-001 -3.717339e-006 1.140204e-006 1.021065e+000 -1.212324e-001
325650000 -3.892644e-005 -3.717572e-006 1.452586e-001 9.375085e-001 -4.777140e-005 -4.150810e-006 1.021797e+000 -1.195968e-001
325935000 -1.093706e-004 -4.992178e-005 1.797222e-001 9.377314e-001 2.077558e-005 4.585969e-005 1.020945e+000 -1.228985e-001
326220000 -7.370501e-005 -5.351333e-005 2.135344e-001 9.363614e-001 -3.765804e-006 1.958679e-005 1.020926e+000 -1.227928e-001
326505000 -2.517796e-005 -3.738527e-005 2.489522e-001 9.334278e-001 -4.775917e-006 1.782017e-005 1.019955e+000 -1.219456e-001
326790000 -5.330692e-005 -9.909191e-006 2.833349e-001 9.296410e-001 -7.506985e-005 6.399456e-005 1.019792e+000 -1.209428e-001
327075000 -1.180776e-004 -3.141788e-005 3.194128e-001 9.238542e-001 -2.542291e-005 -3.233309e-005 1.021475e+000 -1.219577e-001
327360000 -2.998012e-005 -9.366489e-005 3.552068e-001 9.167404e-001 -4.469316e-005 -6.160986e-006 1.023342e+000 -1.211301e-001
327645000 -3.391788e-005 -6.995237e-005 3.912461e-001 9.077120e-001 -5.248967e-005 -6.942582e-005 1.021574e+000 -1.212709e-001
327930000 6.615676e-006 -1.211343e-005 4.268209e-001 8.966228e-001 -4.501054e-005 1.459306e-005 1.020278e+000 -1.216111e-001
328215000 -3.072555e-006 8.629673e-005 4.618761e-001 8.847905e-001 1.012080e-004 -7.107385e-005 1.022316e+000 -1.223830e-001
328500000 -9.489125e-005 1.867698e-005 4.979441e-001 8.699287e-001 -6.879719e-005 1.784122e-005 1.020116e+000 -1.231079e-001
328785000 -2.639061e-005 9.806974e-006 5.327740e-001 8.544040e-001 7.444239e-005 6.455536e-005 1.020419e+000 -1.219412e-001
329070000 1.559658e-005 2.961601e-005 5.670291e-001 8.368428e-001 6.692029e-005 6.392944e-005 1.022080e+000 -1.223991e-001
329355000 -4.603428e-005 4.995411e-005 6.014746e-001 8.175364e-001 1.228853e-004 9.265611e-005 1.021571e+000 -1.235919e-001
329640000 -2.252407e-005 5.049475e-005 6.352243e-001 7.958310e-001 -4.496671e-005 9.867183e-005 1.021865e+000 -1.245743e-001
329925000 1.082860e-004 -6.665571e-005 6.674889e-001 7.732033e-001 1.548369e-005 5.394842e-005 1.021073e+000 -1.230590e-001
330210000 1.867078e-005 -7.980314e-005 6.988031e-001 7.484410e-001 -9.679531e-005 4.457569e-005 1.020072e+000 -1.226530e-001
330495000 1.867606e-005 -9.940288e-005 7.299753e-001 7.225674e-001 -2.790829e-005 3.549714e-005 1.020366e+000 -1.229441e-001
330780000 4.614285e-005 -9.900214e-005 7.587417e-001 6.943369e-001 -6.033327e-006 4.202706e-005 1.021497e+000 -1.238461e-001
331065000 -4.442781e-005 -4.299081e-006 7.865366e-001 6.652291e-001 3.050089e-005 4.304407e-005 1.020398e+000 -1.224835e-001
331350000 2.009438e-005 -5.490294e-005 8.136160e-001 6.345899e-001 4.928620e-006 -3.337567e-005 1.020817e+000 -1.225334e-001
331635000 -3.726426e-005 5.554665e-005 8.392230e-001 6.027470e-001 -7.384543e-005 8.953311e-005 1.022624e+000 -1.232275e-001
331920000 1.418796e-005 1.717576e-005 8.634242e-001 5.689099e-001 -4.150448e-006 -7.860296e-006 1.021044e+000 -1.244451e-001
332205000 -8.877324e-006 1.667711e-005 8.856384e-001 5.344871e-001 -3.897657e-005 -2.416007e-005 1.020681e+000 -1.257836e-001
332490000 3.546246e-005 -3.650580e-005 9.051812e-001 4.988420e-001 4.776260e-005 -8.663290e-005 1.020555e+000 -1.241654e-001
332775000 -2.654142e-005 6.270664e-005 9.241920e-001 4.624285e-001 5.174975e-005 5.091728e-005 1.020363e+000 -1.237346e-001
333060000 5.292603e-006 4.619519e-005 9.410914e-001 4.249001e-001 -2.357747e-005 -1.133823e-004 1.020844e+000 -1.241460e-001
333345000 8.716421e-005 3.787724e-006 9.553930e-001 3.872862e-001 1.263214e-005 -1.040943e-004 1.021767e+000 -1.245013e-001
333630000 -1.806554e-005 -1.786273e-005 9.689819e-001 3.488943e-001 7.899464e-005 5.992451e-005 1.021680e+000 -1.255557e-001
333915000 4.060063e-005 -5.721141e-005 9.796573e-001 3.101253e-001 -1.456767e-005 1.558005e-005 1.020594e+000 -1.241886e-001
334200000 -4.548820e-005 1.709839e-005 9.882775e-001 2.712489e-001 -1.491987e-005 -1.619276e-004 1.022199e+000 -1.253905e-001
334485000 7.982655e-005 -1.001585e-004 9.958182e-001 2.316293e-001 -9.464670e-005 -4.727096e-005 1.020341e+000 -1.248303e-001
334770000 -1.671997e-005 -9.866631e-005 1.001322e+000 1.920996e-001 -8.214686e-005 -2.293182e-005 1.021512e+000 -1.250904e-001
335055000 -2.735710e-006 -5.336935e-005 1.004904e+000 1.530812e-001 1.381350e-005 6.368086e-005 1.022340e+000 -1.251698e-001
335340000 -5.442835e-005 -1.019373e-004 1.006009e+000 1.136686e-001 -1.107530e-004 1.161094e-004 1.021826e+000 -1.260679e-001
335625000 1.517468e-004 2.219456e-005 1.005710e+000 7.550097e-002 -2.304192e-004 -2.998832e-005 1.020511e+000 -1.261217e-001
335910000 -1.540273e-005 9.382347e-005 1.003179e+000 3.760198e-002 -8.169617e-007 -1.512338e-005 1.021150e+000 -1.248261e-001
336195000 7.376150e-005 -1.207888e-004 9.994117e-001 -5.214991e-005 -3.177177e-005 -5.943740e-006 1.019607e+000 -1.262604e-001
336480000 6.912438e-005 -1.592289e-004 9.942089e-001 -3.777644e-002 -4.510158e-005 1.421092e-005 1.020668e+000 -1.252093e-001
336765000 2.620530e-005 -1.376214e-005 9.876009e-001 -7.381698e-002 -2.523971e-006 -9.187240e-005 1.021655e+000 -1.258232e-001
337050000 -2.456373e-006 1.532823e-006 9.791283e-001 -1.095606e-001 -1.064663e-004 -5.480055e-005 1.021506e+000 -1.261065e-001
337335000 1.104761e-004 1.182418e-005 9.691485e-001 -1.442689e-001 1.102092e-005 -5.882464e-005 1.020735e+000 -1.279669e-001
337620000 -3.658930e-005 7.258115e-005 9.575161e-001 -1.775826e-001 4.917095e-006 5.914416e-005 1.020640e+000 -1.275968e-001
337905000 6.387294e-005 -3.616691e-005 9.456448e-001 -2.104502e-001 5.085887e-005 -3.782940e-005 1.019898e+000 -1.262442e-001
338190000 -3.906508e-005 -4.176001e-005 9.317636e-001 -2.427055e-001 4.748690e-005 2.857892e-005 1.019723e+000 -1.279501e-001
338475000 9.239204e-006 -3.392289e-005 9.171693e-001 -2.739078e-001 6.545240e-005 6.106180e-007 1.021436e+000 -1.254768e-001
338760000 8.470969e-005 -3.579343e-005 9.016682e-001 -3.037934e-001 -2.047539e-005 6.729072e-006 1.021050e+000 -1.275146e-001
339045000 9.322152e-005 -2.199858e-005 8.852999e-001 -3.326760e-001 9.082303e-005 3.004141e-005 1.021157e+000 -1.263268e-001
339330000 9.551582e-005 -1.411102e-005 8.678015e-001 -3.602634e-001 6.719137e-005 -1.036913e-004 1.022362e+000 -1.256341e-001
339615000 -8.136694e-006 1.376419e-005 8.503258e-001 -3.868852e-001 -1.297103e-004 5.487166e-005 1.021635e+000 -1.272977e-001
339900000 7.728754e-005 5.047516e-005 8.314677e-001 -4.124225e-001 5.794417e-005 1.227285e-005 1.020556e+000 -1.273954e-001
340185000 4.234217e-005 4.420844e-005 8.120904e-001 -4.374672e-001 1.432247e-005 6.491218e-005 1.020530e+000 -1.268720e-001
340470000 3.446105e-005 -5.485522e-005 7.924014e-001 -4.603780e-001 -8.694364e-006 1.341014e-005 1.020962e+000 -1.268161e-001
340755000 -4.821994e-005 8.951863e-005 7.723333e-001 -4.837873e-001 8.028072e-005 5.043750e-005 1.022148e+000 -1.283178e-001
341040000 -9.902269e-005 8.719203e-005 7.520213e-001 -5.050167e-001 -3.700232e-005 8.645863e-005 1.020118e+000 -1.287611e-001
341325000 -6.773198e-006 1.197173e-004 7.308111e-001 -5.257686e-001 1.263151e-005 1.256198e-004 1.022418e+000 -1.261788e-001
341610000 1.309899e-004 -5.365787e-005 7.090598e-001 -5.441211e-001 -7.473720e-006 4.548837e-005 1.022168e+000 -1.267410e-001
341895000 -9.241841e-005 1.213583e-004 6.870334e-001 -5.625557e-001 -4.640452e-005 6.590471e-005 1.020801e+000 -1.287233e-001
342180000 -1.554731e-004 4.212362e-005 6.653702e-001 -5.804451e-001 5.425688e-005 -1.293777e-005 1.021875e+000 -1.300016e-001
342465000 -7.253646e-005 -4.257035e-006 6.434001e-001 -5.974124e-001 3.970572e-005 3.469136e-005 1.021614e+000 -1.294156e-001
342750000 -1.355681e-004 1.117417e-005 6.205558e-001 -6.133294e-001 -1.029268e-004 5.130212e-006 1.023841e+000 -1.269219e-001
343035000 -5.077135e-005 1.671939e-005 5.985625e-001 -6.279311e-001 -9.663969e-005 1.040163e-005 1.021024e+000 -1.281966e-001
343320000 -1.177259e-004 7.755068e-005 5.761578e-001 -6.418813e-001 -7.299649e-005 -6.831803e-005 1.021165e+000 -1.280927e-001
343605000 4.076512e-005 -4.414268e-005 5.537832e-001 -6.552905e-001 -3.173562e-005 -5.652795e-005 1.020691e+000 -1.287593e-001
343890000 1.347577e-005 -2.356142e-005 5.310519e-001 -6.676019e-001 1.566644e-005 -6.751587e-005 1.021153e+000 -1.297859e-001
