!Agilent Technologies,N5230C,SG49000117,A.08.50.07
!Agilent N5230C: A.08.50.07
!Date: Sunday, March 17, 2024 09:25:58
!Correction: S11(Off) 
!S21(Off) 
!S12(Off) 
!S22(Full 1 Port(2)) 
!S2P File: Measurements: S11, S21, S12, S22:
# Hz S  RI   R 50
300000000 -3.930820e-005 2.088006e-005 -6.180653e-001 -6.569445e-001 -3.830474e-005 -1.057742e-005 1.012977e+000 -1.465864e-001
300285000 -5.939713e-005 -4.756291e-005 -6.331198e-001 -6.332326e-001 -3.536624e-005 -6.163085e-006 1.015166e+000 -1.473867e-001
300570000 -7.970096e-005 -5.752163e-005 -6.478212e-001 -6.101688e-001 -5.902067e-006 5.257174e-005 1.014910e+000 -1.470869e-001
300855000 6.025730e-006 -9.468496e-005 -6.620796e-001 -5.864412e-001 5.371861e-005 3.133080e-005 1.015130e+000 -1.455051e-001
301140000 8.313222e-005 -5.529317e-006 -6.753013e-001 -5.631818e-001 -7.863820e-005 -2.211196e-005 1.014667e+000 -1.476816e-001
301425000 1.050689e-005 -1.062697e-004 -6.873268e-001 -5.394671e-001 9.680393e-005 -3.060454e-005 1.015625e+000 -1.487810e-001
301710000 7.163278e-005 3.362370e-005 -6.991413e-001 -5.162607e-001 1.265820e-004 4.229159e-005 1.016008e+000 -1.491208e-001
301995000 4.429566e-005 1.172227e-004 -7.088296e-001 -4.920442e-001 1.034936e-004 -6.510848e-005 1.013795e+000 -1.475982e-001
302280000 1.179187e-005 5.337610e-005 -7.186889e-001 -4.687875e-001 1.277461e-004 1.574800e-005 1.015071e+000 -1.484679e-001
302565000 -2.072535e-005 9.271083e-005 -7.279826e-001 -4.449964e-001 1.507544e-005 -2.199792e-005 1.017392e+000 -1.482725e-001
302850000 1.302194e-004 9.483849e-005 -7.363294e-001 -4.219594e-001 7.483349e-005 1.613657e-005 1.013922e+000 -1.466886e-001
303135000 1.126287e-004 -5.589330e-005 -7.436280e-001 -3.990488e-001 -1.566384e-005 2.623735e-005 1.014830e+000 -1.497338e-001
303420000 7.573879e-006 1.372882e-004 -7.511497e-001 -3.756033e-001 -1.077526e-004 -3.126214e-006 1.014425e+000 -1.499979e-001
303705000 -2.726671e-005 1.007150e-004 -7.567839e-001 -3.524582e-001 -7.952989e-005 -4.399367e-005 1.016237e+000 -1.503868e-001
303990000 -5.385945e-005 3.234702e-005 -7.631739e-001 -3.296931e-001 1.609728e-004 -3.080695e-005 1.013519e+000 -1.479491e-001
304275000 -6.870760e-005 -3.242879e-005 -7.678856e-001 -3.068669e-001 -7.580104e-005 6.618790e-005 1.014692e+000 -1.492816e-001
304560000 -4.055569e-005 -1.796112e-006 -7.724529e-001 -2.840901e-001 -1.791154e-005 -2.510949e-005 1.014821e+000 -1.497954e-001
304845000 9.134033e-006 3.533135e-005 -7.763751e-001 -2.620289e-001 5.040614e-005 -1.435448e-005 1.013997e+000 -1.483953e-001
305130000 -1.826633e-004 -4.748024e-005 -7.799272e-001 -2.391322e-001 -2.916866e-005 -5.555908e-005 1.014551e+000 -1.498108e-001
305415000 -1.546582e-004 -1.812824e-006 -7.825143e-001 -2.173720e-001 2.852998e-005 3.627331e-005 1.013571e+000 -1.501249e-001
305700000 5.823843e-005 -3.984831e-005 -7.852720e-001 -1.947036e-001 -5.800565e-005 -4.633928e-005 1.015914e+000 -1.487911e-001
305985000 3.568818e-005 -1.476691e-004 -7.870817e-001 -1.731669e-001 -8.635028e-005 -1.526046e-005 1.016663e+000 -1.495072e-001
306270000 2.823390e-005 2.674635e-005 -7.888821e-001 -1.515142e-001 -6.665668e-006 -2.601923e-005 1.015532e+000 -1.478193e-001
306555000 -4.456364e-005 -8.225644e-005 -7.893348e-001 -1.298611e-001 -1.386802e-004 -4.296576e-005 1.016073e+000 -1.516432e-001
306840000 -5.950619e-006 -9.084623e-005 -7.900817e-001 -1.081056e-001 -8.891863e-005 4.649710e-005 1.014571e+000 -1.473514e-001
307125000 1.108366e-004 3.874211e-006 -7.897517e-001 -8.752588e-002 -1.149782e-005 -3.564746e-006 1.013675e+000 -1.499839e-001
307410000 6.386177e-005 9.996757e-006 -7.896765e-001 -6.638013e-002 -8.094351e-005 1.224407e-005 1.015492e+000 -1.497501e-001
307695000 2.708189e-005 -4.900583e-007 -7.887877e-001 -4.513668e-002 -9.128476e-005 -4.125036e-005 1.015961e+000 -1.508450e-001
307980000 -7.138427e-005 -3.502246e-005 -7.875955e-001 -2.408585e-002 8.131699e-005 -1.846108e-005 1.014908e+000 -1.508389e-001
308265000 5.877877e-005 1.127115e-004 -7.859015e-001 -3.577103e-003 -5.743264e-005 -1.085042e-004 1.013304e+000 -1.499994e-001
308550000 3.716503e-005 1.076114e-004 -7.838700e-001 1.698943e-002 -5.646008e-005 -7.301359e-005 1.015592e+000 -1.520107e-001
308835000 -9.058109e-005 1.979563e-005 -7.816059e-001 3.752648e-002 4.185109e-005 -6.595057e-005 1.014551e+000 -1.518749e-001
309120000 -9.628611e-006 -1.556666e-005 -7.786484e-001 5.841327e-002 3.854933e-005 3.889500e-005 1.015081e+000 -1.518340e-001
309405000 -1.111834e-004 7.665596e-005 -7.757374e-001 7.772580e-002 1.137200e-004 1.944894e-005 1.016084e+000 -1.510514e-001
309690000 -8.889803e-005 6.620096e-005 -7.722924e-001 9.771999e-002 8.707990e-005 5.224435e-005 1.014285e+000 -1.516027e-001
309975000 -7.901429e-005 -1.641567e-005 -7.681931e-001 1.181502e-001 5.873925e-005 -6.035464e-006 1.014310e+000 -1.513604e-001
310260000 3.352373e-005 -5.549039e-005 -7.640772e-001 1.381281e-001 -1.277947e-005 3.047556e-005 1.015780e+000 -1.507891e-001
310545000 -3.202313e-005 5.273887e-005 -7.597299e-001 1.576181e-001 7.521747e-005 7.125844e-006 1.015677e+000 -1.524388e-001
310830000 4.812651e-005 9.930784e-005 -7.547514e-001 1.773469e-001 9.974417e-005 5.045495e-005 1.017379e+000 -1.530695e-001
311115000 -3.555809e-005 2.272584e-005 -7.495536e-001 1.966340e-001 7.063086e-005 1.703295e-005 1.014618e+000 -1.517185e-001
311400000 -5.940921e-007 4.355963e-005 -7.438294e-001 2.162254e-001 -1.169591e-004 1.682375e-005 1.014908e+000 -1.534398e-001
311685000 2.184884e-005 -1.272990e-006 -7.377478e-001 2.357252e-001 -9.369700e-005 9.815126e-005 1.015343e+000 -1.527435e-001
311970000 9.056467e-005 2.160071e-005 -7.319660e-001 2.544057e-001 -4.243603e-005 3.471978e-005 1.013717e+000 -1.522404e-001
312255000 -2.162076e-005 -1.224244e-004 -7.246421e-001 2.733638e-001 -5.400612e-005 2.353643e-006 1.014923e+000 -1.525035e-001
312540000 -4.040812e-006 -2.735940e-005 -7.180023e-001 2.921512e-001 -1.179309e-004 7.851780e-006 1.014215e+000 -1.528570e-001
312825000 2.325506e-005 -5.322637e-007 -7.106227e-001 3.116350e-001 -8.955023e-005 -1.172675e-004 1.013621e+000 -1.537589e-001
313110000 -2.602461e-005 1.243231e-005 -7.026675e-001 3.299179e-001 4.034149e-005 -4.536567e-005 1.016531e+000 -1.544671e-001
313395000 2.366999e-006 -1.163304e-004 -6.945372e-001 3.488916e-001 -7.678997e-005 -9.650877e-005 1.014703e+000 -1.522818e-001
313680000 4.487858e-005 4.855878e-005 -6.856733e-001 3.675283e-001 4.328310e-005 -5.706515e-005 1.015189e+000 -1.520115e-001
313965000 2.346872e-005 4.524469e-005 -6.772020e-001 3.865276e-001 -2.889308e-005 -1.268439e-004 1.016844e+000 -1.539969e-001
314250000 1.801184e-005 -1.461130e-005 -6.677085e-001 4.046935e-001 -4.816565e-005 6.914952e-005 1.014813e+000 -1.548727e-001
314535000 3.741844e-005 -9.925586e-005 -6.588315e-001 4.233557e-001 4.176611e-005 -7.147242e-005 1.014363e+000 -1.550844e-001
314820000 8.381240e-005 -5.471994e-005 -6.480882e-001 4.414818e-001 -8.683539e-006 8.998612e-006 1.015509e+000 -1.560268e-001
315105000 4.658759e-005 5.853669e-006 -6.373733e-001 4.592242e-001 -4.367406e-005 3.570342e-005 1.012352e+000 -1.551504e-001
315390000 1.879621e-006 6.583250e-005 -6.266497e-001 4.776908e-001 -8.617985e-005 -2.231898e-006 1.014472e+000 -1.556841e-001
315675000 2.529011e-005 7.298031e-005 -6.151472e-001 4.955468e-001 -1.116616e-004 -4.711608e-005 1.013332e+000 -1.545018e-001
315960000 -5.183012e-005 1.172707e-004 -6.031055e-001 5.140104e-001 -6.337462e-005 -2.863256e-005 1.014817e+000 -1.556838e-001
316245000 2.894457e-005 3.924692e-005 -5.908549e-001 5.317678e-001 2.452062e-006 7.040062e-005 1.014085e+000 -1.541063e-001
316530000 6.935457e-005 -7.630073e-005 -5.776940e-001 5.490859e-001 7.155501e-005 -2.932875e-005 1.014523e+000 -1.550529e-001
316815000 -1.478863e-005 -2.501870e-006 -5.647071e-001 5.671525e-001 2.271071e-005 -5.736054e-005 1.014823e+000 -1.543300e-001
317100000 -4.905709e-005 7.301757e-005 -5.504017e-001 5.845828e-001 5.874918e-005 -5.651725e-005 1.013939e+000 -1.547844e-001
317385000 -5.662406e-005 -6.462367e-006 -5.363522e-001 6.017448e-001 1.011081e-004 8.162740e-005 1.017078e+000 -1.547953e-001
317670000 -2.162083e-005 -8.240660e-006 -5.214762e-001 6.187456e-001 -3.634510e-005 9.238119e-005 1.015535e+000 -1.566234e-001
317955000 -5.520084e-006 -1.140330e-004 -5.063145e-001 6.362343e-001 8.449769e-007 -8.264625e-006 1.016336e+000 -1.549028e-001
318240000 4.242701e-008 -4.254919e-005 -4.897076e-001 6.528022e-001 2.191364e-004 3.549004e-005 1.014920e+000 -1.553704e-001
318525000 -1.092644e-004 -2.645036e-005 -4.731806e-001 6.697072e-001 8.660316e-005 3.825262e-006 1.015092e+000 -1.560968e-001
318810000 3.980344e-005 -4.558340e-005 -4.561997e-001 6.865714e-001 -5.818755e-005 -7.631786e-005 1.014368e+000 -1.557583e-001
319095000 -5.810267e-006 -8.338985e-006 -4.382142e-001 7.027408e-001 -7.446293e-006 -4.101238e-006 1.013776e+000 -1.555362e-001
319380000 4.271160e-005 -7.418236e-005 -4.198940e-001 7.186537e-001 -6.855974e-005 5.461290e-005 1.014956e+000 -1.576581e-001
319665000 4.797466e-005 3.127316e-005 -4.008830e-001 7.341828e-001 -5.279536e-005 7.270107e-005 1.014567e+000 -1.559806e-001
319950000 1.037167e-004 -1.587934e-005 -3.807566e-001 7.501060e-001 -1.233948e-004 3.566731e-005 1.014377e+000 -1.580715e-001
320235000 1.018542e-004 1.625921e-004 -3.610409e-001 7.650649e-001 -7.586003e-005 1.266863e-005 1.017128e+000 -1.580307e-001
320520000 4.347419e-006 -6.051674e-006 -3.396570e-001 7.797064e-001 2.494498e-005 5.995700e-005 1.015490e+000 -1.580753e-001
320805000 2.734534e-005 6.044572e-005 -3.177945e-001 7.944400e-001 -1.755614e-004 -2.064330e-005 1.013966e+000 -1.563461e-001
321090000 9.883545e-005 6.684908e-005 -2.948426e-001 8.080227e-001 -1.184220e-008 -1.089982e-004 1.013921e+000 -1.568045e-001
321375000 -7.446054e-006 -7.816635e-005 -2.713367e-001 8.215660e-001 1.048207e-005 -2.422085e-005 1.014374e+000 -1.570468e-001
321660000 2.931076e-005 8.622494e-005 -2.479119e-001 8.343301e-001 1.218534e-004 -8.026290e-005 1.016542e+000 -1.583249e-001
321945000 5.325684e-005 3.393421e-005 -2.233635e-001 8.471165e-001 -3.423656e-005 -6.039573e-005 1.015202e+000 -1.590290e-001
322230000 4.653576e-005 1.164447e-004 -1.979926e-001 8.589662e-001 8.471045e-005 -1.770532e-004 1.014086e+000 -1.588617e-001
322515000 8.107335e-005 -3.986225e-007 -1.712408e-001 8.701787e-001 2.020106e-005 2.988871e-005 1.013280e+000 -1.584510e-001
322800000 3.731325e-005 -2.456623e-005 -1.445797e-001 8.804386e-001 -2.305154e-005 6.673641e-006 1.016343e+000 -1.579399e-001
323085000 -1.656217e-005 2.776168e-005 -1.165984e-001 8.904081e-001 3.850412e-005 -7.695854e-005 1.015391e+000 -1.578748e-001
323370000 2.609128e-005 5.562245e-006 -8.824240e-002 8.997219e-001 4.201730e-005 4.108665e-005 1.016136e+000 -1.589965e-001
323655000 2.390829e-005 1.705526e-005 -5.940774e-002 9.078677e-001 8.710672e-005 -6.104772e-006 1.015791e+000 -1.597977e-001
323940000 4.060218e-005 6.654594e-006 -2.891745e-002 9.152871e-001 -1.899988e-006 -6.983806e-005 1.015353e+000 -1.600282e-001
324225000 -5.120626e-005 8.387845e-005 1.864426e-003 9.217736e-001 1.060850e-005 -6.835879e-005 1.014080e+000 -1.596149e-001
324510000 -3.938269e-005 9.121921e-005 3.303252e-002 9.269194e-001 5.713458e-005 -4.153051e-005 1.015841e+000 -1.594689e-001
324795000 -9.649810e-005 -6.959861e-005 6.571630e-002 9.315515e-001 6.586903e-005 6.491866e-005 1.015048e+000 -1.593985e-001
325080000 -2.299294e-005 3.600850e-005 9.806652e-002 9.344935e-001 -1.489971e-005 3.753561e-005 1.014785e+000 -1.590643e-001
325365000 -8.726574e-005 -5.737960e-005 1.306975e-001 9.365559e-001 4.796549e-006 3.026403e-005 1.016389e+000 -1.596262e-001
325650000 -3.166784e-005 5.311344e-005 1.648779e-001 9.372187e-001 -8.181403e-006 1.222953e-004 1.014506e+000 -1.591236e-001
325935000 -2.121890e-005 -6.786037e-006 1.994962e-001 9.361770e-001 -6.599706e-006 4.174301e-005 1.014874e+000 -1.602163e-001
326220000 3.501766e-005 -6.343643e-005 2.339427e-001 9.340935e-001 -1.017928e-004 1.274503e-004 1.016517e+000 -1.607506e-001
326505000 7.804576e-005 -5.558811e-005 2.686815e-001 9.307083e-001 5.238195e-005 -2.606514e-005 1.014832e+000 -1.613384e-001
326790000 1.056200e-004 3.775649e-005 3.041207e-001 9.258653e-001 8.392967e-005 -6.349645e-005 1.013399e+000 -1.603375e-001
327075000 -7.450646e-005 -4.727872e-005 3.397298e-001 9.189463e-001 -5.939940e-005 -2.027398e-005 1.014930e+000 -1.616019e-001
327360000 -1.095380e-004 -2.085704e-005 3.754275e-001 9.105251e-001 -5.064101e-005 -1.012953e-004 1.016254e+000 -1.611097e-001
327645000 -7.206824e-005 -2.037499e-005 4.115314e-001 9.006243e-001 -4.016619e-005 8.669354e-005 1.014954e+000 -1.609922e-001
327930000 -5.213675e-005 5.267043e-006 4.469706e-001 8.890384e-001 -4.187368e-006 4.558742e-005 1.015007e+000 -1.609037e-001
328215000 -5.460203e-005 -2.962359e-005 4.823304e-001 8.755983e-001 4.915719e-005 1.002648e-004 1.014893e+000 -1.610815e-001
328500000 1.411645e-005 8.054273e-005 5.178363e-001 8.605841e-001 7.861442e-005 3.661279e-005 1.014302e+000 -1.617305e-001
328785000 3.231754e-005 -5.271830e-006 5.518396e-001 8.428440e-001 8.175315e-005 -1.854657e-005 1.014533e+000 -1.617567e-001
329070000 -2.931460e-005 -3.591798e-005 5.868452e-001 8.248261e-001 -9.728081e-005 -6.536538e-005 1.014368e+000 -1.615578e-001
329355000 -1.992411e-004 2.362207e-005 6.203828e-001 8.046995e-001 7.767084e-005 2.354416e-005 1.014847e+000 -1.617481e-001
329640000 -3.728866e-005 -3.960579e-005 6.528189e-001 7.824991e-001 -8.711051e-005 3.192717e-006 1.014263e+000 -1.626066e-001
329925000 -7.847514e-005 -1.637854e-005 6.850200e-001 7.584715e-001 9.538435e-005 -3.596568e-005 1.014710e+000 -1.634710e-001
330210000 -3.496922e-005 1.468156e-004 7.159877e-001 7.333667e-001 8.979176e-005 1.421389e-005 1.014861e+000 -1.626699e-001
330495000 -3.682381e-006 -5.536122e-005 7.464862e-001 7.056502e-001 1.892862e-005 -8.638910e-006 1.013923e+000 -1.627101e-001
330780000 -9.166377e-005 7.601053e-006 7.742231e-001 6.772960e-001 5.432848e-005 -2.196594e-005 1.015084e+000 -1.636655e-001
331065000 8.631267e-006 5.965338e-005 8.022197e-001 6.472216e-001 -4.049802e-005 6.981383e-005 1.013605e+000 -1.617637e-001
331350000 -7.953469e-005 6.660734e-005 8.285125e-001 6.158633e-001 -8.494865e-007 1.809271e-005 1.014178e+000 -1.631864e-001
331635000 -4.380737e-005 3.167244e-005 8.523598e-001 5.830080e-001 -4.174174e-005 4.746839e-005 1.015668e+000 -1.630170e-001
331920000 -1.710747e-004 -3.105481e-005 8.758356e-001 5.489529e-001 -5.968237e-005 4.867541e-005 1.014717e+000 -1.626520e-001
332205000 5.461279e-005 -2.707841e-005 8.969052e-001 5.142751e-001 7.394962e-005 9.164604e-005 1.014892e+000 -1.646056e-001
332490000 4.205999e-005 -6.017535e-005 9.161836e-001 4.776366e-001 -1.383434e-005 8.193019e-005 1.015627e+000 -1.637472e-001
332775000 1.230786e-006 -8.400090e-005 9.333428e-001 4.411398e-001 4.673859e-005 8.408057e-006 1.013488e+000 -1.644027e-001
333060000 6.155982e-005 1.979379e-006 9.494922e-001 4.037263e-001 -6.963683e-006 7.220015e-005 1.014586e+000 -1.643487e-001
333345000 4.425273e-005 -3.182798e-005 9.628947e-001 3.652353e-001 1.240050e-005 4.197100e-005 1.015033e+000 -1.632269e-001
333630000 -8.249164e-005 6.427889e-005 9.748099e-001 3.261133e-001 -5.602679e-005 -5.953642e-005 1.014056e+000 -1.649261e-001
333915000 -6.155315e-005 9.139777e-005 9.851478e-001 2.873023e-001 -2.810420e-005 -1.535747e-005 1.014586e+000 -1.648776e-001
334200000 -5.678555e-005 8.694545e-005 9.925340e-001 2.476513e-001 -6.640035e-005 5.482221e-005 1.016612e+000 -1.656548e-001
334485000 -2.037590e-005 -2.922982e-005 9.992315e-001 2.085312e-001 -6.833518e-005 5.068541e-005 1.014947e+000 -1.646553e-001
334770000 -4.109995e-005 9.739408e-005 1.003125e+000 1.688129e-001 -3.468488e-005 1.134611e-005 1.015005e+000 -1.659211e-001
335055000 7.496170e-005 7.069195e-005 1.005547e+000 1.302077e-001 9.039082e-005 -1.768078e-005 1.015692e+000 -1.651640e-001
335340000 -9.464530e-006 -6.797628e-005 1.005416e+000 9.136268e-002 2.274482e-005 7.133157e-005 1.015326e+000 -1.654807e-001
335625000 3.178238e-005 -3.517581e-007 1.004175e+000 5.309125e-002 1.357245e-005 9.217599e-005 1.015056e+000 -1.656349e-001
335910000 -3.928415e-005 -1.002969e-004 1.001154e+000 1.486187e-002 -5.710017e-005 1.337994e-004 1.014271e+000 -1.656068e-001
336195000 -1.652459e-006 -7.675696e-006 9.970214e-001 -2.259257e-002 8.446561e-006 9.045345e-005 1.013424e+000 -1.655819e-001
336480000 4.570807e-005 -1.254075e-005 9.900464e-001 -5.928449e-002 -3.215802e-005 -3.221522e-005 1.015290e+000 -1.656784e-001
336765000 -6.531704e-005 1.837040e-004 9.827858e-001 -9.507546e-002 -1.206653e-004 9.189192e-006 1.014824e+000 -1.660264e-001
337050000 -1.821165e-005 9.700885e-006 9.731963e-001 -1.305990e-001 1.336592e-005 -4.309136e-006 1.015278e+000 -1.668523e-001
337335000 -9.342057e-005 -4.459501e-005 9.630063e-001 -1.648161e-001 -2.177474e-005 -1.440182e-004 1.014876e+000 -1.671114e-001
337620000 -2.236069e-005 -1.155462e-004 9.512283e-001 -1.978463e-001 -3.040679e-005 4.914976e-005 1.014917e+000 -1.677651e-001
337905000 4.668523e-005 -4.981604e-005 9.378098e-001 -2.302145e-001 -1.296907e-004 -1.019690e-005 1.013762e+000 -1.661263e-001
338190000 6.577688e-005 -4.722354e-005 9.234365e-001 -2.617312e-001 -9.215766e-005 1.352667e-005 1.013346e+000 -1.666448e-001
338475000 2.024740e-005 2.742515e-005 9.090488e-001 -2.920934e-001 -7.513726e-005 4.456385e-005 1.014398e+000 -1.648735e-001
338760000 -2.466871e-005 2.754696e-005 8.926989e-001 -3.211336e-001 -1.051212e-005 -5.878250e-005 1.014473e+000 -1.676107e-001
339045000 -9.131765e-005 -5.362207e-005 8.755528e-001 -3.499118e-001 -6.215862e-005 2.268268e-005 1.014840e+000 -1.679047e-001
339330000 -8.103492e-005 1.004939e-004 8.577101e-001 -3.765184e-001 -5.161469e-006 -2.309939e-005 1.016055e+000 -1.665770e-001
339615000 -3.629049e-005 8.563870e-006 8.392390e-001 -4.031284e-001 -5.001530e-007 -5.405497e-005 1.015419e+000 -1.677760e-001
339900000 8.722421e-005 -4.261841e-005 8.202717e-001 -4.276583e-001 -4.634394e-005 -4.006182e-005 1.013529e+000 -1.675318e-001
340185000 4.406945e-005 -2.291271e-006 8.007979e-001 -4.519538e-001 -3.859184e-005 -3.052062e-005 1.014473e+000 -1.686972e-001
340470000 -2.034665e-005 9.725305e-005 7.808952e-001 -4.747104e-001 4.808145e-005 -9.787614e-005 1.013503e+000 -1.680981e-001
340755000 2.351619e-005 6.330926e-005 7.595202e-001 -4.969715e-001 -4.805444e-005 6.338289e-005 1.014120e+000 -1.686235e-001
341040000 3.202302e-005 -1.446781e-005 7.383825e-001 -5.176920e-001 -8.358529e-005 -1.259388e-004 1.013350e+000 -1.688744e-001
341325000 6.614790e-005 1.779613e-005 7.175459e-001 -5.374429e-001 -1.608098e-006 4.919648e-005 1.015128e+000 -1.664812e-001
341610000 7.155678e-005 4.653992e-006 6.957594e-001 -5.568001e-001 -4.941697e-005 1.035111e-005 1.015965e+000 -1.671742e-001
341895000 9.360177e-005 -3.896765e-005 6.735983e-001 -5.745738e-001 2.721669e-005 -9.559062e-006 1.012994e+000 -1.686929e-001
342180000 -9.535298e-005 -3.001185e-005 6.518959e-001 -5.917323e-001 -1.444466e-004 2.587856e-005 1.014663e+000 -1.689461e-001
342465000 1.099948e-004 1.081389e-005 6.294479e-001 -6.079628e-001 -7.898392e-005 2.496292e-005 1.013421e+000 -1.710063e-001
342750000 6.905786e-006 -8.334719e-006 6.070467e-001 -6.229789e-001 -3.423163e-005 1.209685e-004 1.016205e+000 -1.677722e-001
343035000 7.593093e-005 3.577760e-005 5.841634e-001 -6.372615e-001 5.647769e-005 -8.029740e-006 1.014550e+000 -1.707042e-001
343320000 -2.790380e-005 2.723231e-005 5.620319e-001 -6.508075e-001 -2.195255e-005 -3.995579e-005 1.013749e+000 -1.694591e-001
343605000 1.729614e-005 -2.264852e-005 5.392246e-001 -6.634375e-001 -8.927851e-006 2.194456e-005 1.012626e+000 -1.709481e-001
343890000 2.817883e-005 -6.991888e-005 5.168484e-001 -6.752044e-001 -7.301187e-005 2.567578e-006 1.013701e+000 -1.699769e-001
