!Agilent Technologies,N5230C,SG49000117,A.08.50.07
!Agilent N5230C: A.08.50.07
!Date: Sunday, March 17, 2024 06:18:20
!Correction: S11(Off) 
!S21(Off) 
!S12(Off) 
!S22(Off) 
!S2P File: Measurements: S11, S21, S12, S22:
# Hz S  RI   R 50
300000000 -1.109917e-005 1.617308e-006 -7.216763e-001 -4.663809e-001 -1.628977e-005 -1.169079e-005 -7.242487e-001 -4.680377e-001
300285000 -1.003826e-005 -2.493207e-006 -7.306920e-001 -4.425576e-001 -9.844053e-007 -1.819883e-005 -7.333789e-001 -4.441089e-001
300570000 2.676721e-006 5.808659e-006 -7.390499e-001 -4.186239e-001 9.572412e-006 -2.894378e-006 -7.417521e-001 -4.200514e-001
300855000 1.415967e-005 -2.768246e-007 -7.465501e-001 -3.947755e-001 1.288914e-005 -6.451138e-006 -7.493985e-001 -3.962584e-001
301140000 -8.941230e-006 -6.751678e-006 -7.534881e-001 -3.709800e-001 8.548166e-006 -3.916707e-006 -7.562881e-001 -3.723601e-001
301425000 1.757747e-005 -5.697585e-006 -7.597011e-001 -3.473813e-001 7.044475e-006 -2.259363e-006 -7.624575e-001 -3.486205e-001
301710000 -5.913392e-006 3.278953e-006 -7.652628e-001 -3.239179e-001 1.250336e-005 4.467538e-006 -7.681389e-001 -3.251182e-001
301995000 1.960482e-005 5.046791e-006 -7.702271e-001 -3.006104e-001 5.865482e-006 -4.239927e-006 -7.730004e-001 -3.016930e-001
302280000 7.453962e-006 -9.136970e-006 -7.744159e-001 -2.774549e-001 -9.965805e-006 -6.243328e-006 -7.773423e-001 -2.784326e-001
302565000 -1.198651e-006 1.641270e-006 -7.781444e-001 -2.543463e-001 6.469318e-006 -6.741404e-006 -7.810494e-001 -2.552586e-001
302850000 5.533894e-006 -2.851079e-006 -7.812598e-001 -2.315651e-001 6.704673e-006 -1.334875e-005 -7.841819e-001 -2.323887e-001
303135000 1.072195e-005 -4.973521e-006 -7.838193e-001 -2.089093e-001 -7.619140e-006 -8.387304e-006 -7.867409e-001 -2.096984e-001
303420000 6.152721e-006 -2.798478e-006 -7.858927e-001 -1.863592e-001 -1.357124e-006 -3.267046e-006 -7.887673e-001 -1.871152e-001
303705000 1.042442e-005 1.164094e-006 -7.873877e-001 -1.640499e-001 8.795761e-006 5.675814e-006 -7.902675e-001 -1.647217e-001
303990000 -1.483430e-005 -9.507847e-006 -7.883760e-001 -1.419316e-001 1.459268e-005 -8.786102e-006 -7.912712e-001 -1.424908e-001
304275000 2.870936e-007 2.805436e-006 -7.888679e-001 -1.199704e-001 -1.734805e-006 1.973373e-007 -7.918856e-001 -1.204388e-001
304560000 -1.577357e-005 -1.721973e-005 -7.889572e-001 -9.819311e-002 -2.575813e-007 1.399599e-005 -7.919424e-001 -9.868379e-002
304845000 6.498955e-006 -1.038861e-005 -7.884985e-001 -7.664496e-002 1.953164e-006 -6.587034e-007 -7.916014e-001 -7.692611e-002
305130000 -7.478210e-006 1.227531e-006 -7.876929e-001 -5.524180e-002 3.106577e-006 5.421993e-006 -7.906846e-001 -5.534201e-002
305415000 2.838639e-006 2.346288e-006 -7.864234e-001 -3.398007e-002 8.689979e-008 7.620017e-007 -7.894414e-001 -3.417785e-002
305700000 2.080149e-005 -2.521498e-007 -7.846489e-001 -1.289691e-002 5.658374e-007 -1.877308e-005 -7.876806e-001 -1.300083e-002
305985000 9.983156e-006 4.002112e-006 -7.825471e-001 8.036276e-003 1.094578e-005 -6.846174e-007 -7.855414e-001 8.024779e-003
306270000 4.198818e-006 -7.831233e-006 -7.799990e-001 2.875333e-002 1.404698e-005 -8.644932e-006 -7.830021e-001 2.892772e-002
306555000 -8.843658e-007 -7.277147e-006 -7.770255e-001 4.936164e-002 5.902322e-006 -3.618126e-006 -7.799779e-001 4.959129e-002
306840000 4.326791e-006 1.309665e-006 -7.737116e-001 6.981583e-002 -1.304559e-006 -2.835596e-006 -7.767006e-001 7.011472e-002
307125000 6.295008e-006 4.751270e-006 -7.700055e-001 9.009144e-002 -8.962464e-006 -3.368113e-006 -7.729914e-001 9.047402e-002
307410000 -4.538547e-006 1.284092e-005 -7.659194e-001 1.102592e-001 -1.975448e-005 7.944726e-006 -7.689075e-001 1.105838e-001
307695000 1.689390e-006 -1.271022e-005 -7.614210e-001 1.301959e-001 1.009848e-006 3.037422e-006 -7.643511e-001 1.306480e-001
307980000 -8.742614e-006 -3.606220e-006 -7.566401e-001 1.499858e-001 -2.126413e-005 2.520953e-006 -7.596390e-001 1.505498e-001
308265000 -3.096865e-005 -2.298083e-006 -7.515176e-001 1.696215e-001 -1.348317e-005 8.808966e-006 -7.544267e-001 1.702654e-001
308550000 1.977345e-006 2.243546e-007 -7.459295e-001 1.891109e-001 -1.300448e-005 -9.694693e-006 -7.488151e-001 1.899152e-001
308835000 -5.419956e-006 -3.636339e-006 -7.400460e-001 2.085364e-001 -1.145620e-005 -2.825502e-006 -7.429512e-001 2.093446e-001
309120000 7.908633e-006 -8.382497e-006 -7.337803e-001 2.278690e-001 -2.938663e-007 3.685330e-006 -7.366937e-001 2.287385e-001
309405000 -9.230461e-006 4.507826e-006 -7.271699e-001 2.470315e-001 -1.044424e-006 -2.176278e-005 -7.300769e-001 2.478968e-001
309690000 -8.418701e-006 -4.747671e-006 -7.202240e-001 2.659645e-001 2.162096e-006 -1.258042e-005 -7.230030e-001 2.670313e-001
309975000 -2.905729e-006 -8.059565e-006 -7.129059e-001 2.849275e-001 7.312495e-006 -3.099031e-006 -7.157457e-001 2.860112e-001
310260000 7.975589e-006 -2.535674e-006 -7.052696e-001 3.036605e-001 2.827438e-005 -8.790502e-006 -7.080454e-001 3.047993e-001
310545000 -7.327698e-006 9.109521e-006 -6.971939e-001 3.222724e-001 1.190592e-005 -6.139912e-006 -7.000150e-001 3.235456e-001
310830000 -6.519927e-006 7.452586e-006 -6.887791e-001 3.407581e-001 1.617082e-005 5.599425e-006 -6.915171e-001 3.420964e-001
311115000 2.538720e-006 -1.054308e-005 -6.800967e-001 3.592148e-001 4.526645e-006 -8.115405e-006 -6.827254e-001 3.605373e-001
311400000 1.559235e-005 3.135995e-006 -6.709500e-001 3.774485e-001 -3.202177e-006 -7.208049e-009 -6.735627e-001 3.789961e-001
311685000 3.758577e-006 1.509506e-005 -6.613772e-001 3.956527e-001 1.890384e-007 -4.622528e-006 -6.639783e-001 3.972929e-001
311970000 9.912455e-006 -6.470009e-007 -6.514602e-001 4.137840e-001 2.210337e-007 6.416115e-006 -6.540707e-001 4.154143e-001
312255000 -6.125562e-006 2.246879e-005 -6.411347e-001 4.316302e-001 -8.844349e-006 9.262254e-006 -6.437030e-001 4.334903e-001
312540000 -3.633507e-006 8.003264e-006 -6.304316e-001 4.495137e-001 1.914702e-006 -5.995023e-006 -6.329408e-001 4.513120e-001
312825000 -1.159468e-005 1.388918e-005 -6.192981e-001 4.672541e-001 -5.079472e-006 4.008887e-006 -6.217703e-001 4.690796e-001
313110000 7.170502e-006 8.297612e-006 -6.077490e-001 4.848496e-001 -1.747700e-005 -1.798725e-005 -6.102207e-001 4.868686e-001
313395000 -4.805919e-006 -8.741497e-007 -5.957958e-001 5.023500e-001 -2.405519e-005 -1.290693e-005 -5.981875e-001 5.044098e-001
313680000 -1.054674e-005 1.468845e-006 -5.834019e-001 5.196719e-001 -1.331579e-005 -1.100143e-005 -5.857280e-001 5.217795e-001
313965000 -3.940914e-006 -1.281441e-005 -5.705125e-001 5.369054e-001 -9.701729e-006 -9.577980e-006 -5.727993e-001 5.390838e-001
314250000 -3.879371e-006 -1.852354e-005 -5.571781e-001 5.539573e-001 9.761727e-007 -2.734826e-005 -5.594882e-001 5.562357e-001
314535000 3.636367e-006 -7.088383e-006 -5.433540e-001 5.709418e-001 -3.136291e-006 -8.743739e-006 -5.456285e-001 5.732796e-001
314820000 -7.391039e-006 -2.269569e-005 -5.291194e-001 5.877907e-001 1.128847e-005 -1.315830e-006 -5.312940e-001 5.900738e-001
315105000 5.254833e-007 -2.028279e-005 -5.143122e-001 6.043983e-001 1.471340e-005 -1.299703e-005 -5.164472e-001 6.068062e-001
315390000 3.824862e-006 -4.216604e-006 -4.990520e-001 6.208300e-001 -3.659574e-006 8.611777e-006 -5.010414e-001 6.233142e-001
315675000 1.078519e-005 -9.827306e-007 -4.831538e-001 6.371022e-001 -3.727131e-006 1.257493e-005 -4.851924e-001 6.396580e-001
315960000 2.464431e-005 -2.415644e-005 -4.668830e-001 6.531823e-001 1.080593e-005 -1.192561e-005 -4.687409e-001 6.558299e-001
316245000 2.703359e-005 -1.675965e-005 -4.499063e-001 6.689382e-001 -1.584898e-006 1.756302e-005 -4.518487e-001 6.716523e-001
316530000 6.363214e-006 -1.832820e-007 -4.325437e-001 6.845668e-001 -9.731376e-006 1.397671e-005 -4.342115e-001 6.873891e-001
316815000 6.134509e-006 3.888528e-006 -4.144303e-001 6.999799e-001 1.384859e-006 1.446837e-006 -4.160939e-001 7.028682e-001
317100000 2.487768e-006 5.824048e-006 -3.958042e-001 7.151037e-001 -7.451355e-006 -3.488286e-006 -3.974149e-001 7.180054e-001
317385000 1.409619e-005 7.011169e-006 -3.765272e-001 7.299268e-001 6.900485e-006 -1.863450e-005 -3.780509e-001 7.328367e-001
317670000 -1.709687e-006 1.773203e-005 -3.566523e-001 7.443417e-001 -1.112488e-005 3.894163e-006 -3.580996e-001 7.474013e-001
317955000 1.017002e-005 4.520836e-006 -3.361033e-001 7.585571e-001 -2.041224e-005 -1.228484e-005 -3.375084e-001 7.616071e-001
318240000 -9.831968e-006 2.518733e-006 -3.149528e-001 7.723659e-001 1.540973e-005 7.669976e-006 -3.162606e-001 7.755029e-001
318525000 -5.446552e-006 -1.303964e-005 -2.931415e-001 7.857804e-001 3.194724e-006 1.092384e-005 -2.943536e-001 7.890149e-001
318810000 -5.156722e-006 -1.897662e-006 -2.706756e-001 7.987191e-001 3.618501e-006 1.297229e-005 -2.717956e-001 8.020080e-001
319095000 -1.846336e-005 -1.473471e-005 -2.475317e-001 8.111913e-001 -1.932722e-006 -2.078829e-006 -2.485963e-001 8.144554e-001
319380000 -1.720013e-007 -3.682273e-006 -2.236513e-001 8.231398e-001 -8.537683e-006 1.314824e-005 -2.245753e-001 8.265676e-001
319665000 1.598835e-006 -1.844294e-005 -1.991102e-001 8.346887e-001 -8.006069e-006 -1.014631e-005 -1.999163e-001 8.380336e-001
319950000 -1.811586e-006 -9.358694e-006 -1.739181e-001 8.454739e-001 3.847503e-007 2.894344e-006 -1.746112e-001 8.490535e-001
320235000 -8.858513e-006 -4.017738e-006 -1.479658e-001 8.557118e-001 -1.731888e-006 2.302538e-006 -1.486036e-001 8.593280e-001
320520000 -4.364701e-006 -5.900050e-006 -1.213496e-001 8.653368e-001 -6.913666e-006 -7.287022e-007 -1.217785e-001 8.689576e-001
320805000 6.524733e-006 -3.234385e-006 -9.398133e-002 8.742123e-001 -1.477696e-006 -5.180082e-006 -9.436356e-002 8.778654e-001
321090000 -7.702306e-006 -7.568811e-006 -6.598999e-002 8.823484e-001 8.694514e-006 -9.738881e-006 -6.627184e-002 8.859528e-001
321375000 -7.489231e-007 -7.367275e-006 -3.724440e-002 8.895451e-001 -1.600546e-007 5.726585e-006 -3.741444e-002 8.933028e-001
321660000 7.870014e-006 2.155329e-005 -7.843257e-003 8.958791e-001 -8.461471e-006 -6.298887e-006 -7.914579e-003 8.996924e-001
321945000 1.069825e-005 -5.486757e-006 2.212863e-002 9.014788e-001 2.199323e-006 -3.873117e-006 2.224223e-002 9.051403e-001
322230000 -1.334527e-005 1.488345e-006 5.280636e-002 9.058827e-001 -1.338053e-006 -5.575461e-006 5.293531e-002 9.095665e-001
322515000 -1.004131e-006 -9.383979e-006 8.409158e-002 9.093404e-001 1.476716e-005 5.043363e-006 8.445000e-002 9.130724e-001
322800000 4.983681e-006 8.994444e-006 1.159571e-001 9.116149e-001 -1.623847e-005 1.808521e-006 1.164382e-001 9.153763e-001
323085000 -3.136015e-006 -3.917251e-007 1.483085e-001 9.127024e-001 5.685864e-007 -1.828941e-005 1.488989e-001 9.165158e-001
323370000 -5.958129e-006 1.389667e-005 1.812828e-001 9.126036e-001 -2.151505e-005 -1.093972e-005 1.819396e-001 9.164335e-001
323655000 -8.214645e-006 -5.713165e-006 2.145386e-001 9.111764e-001 -5.605505e-006 -1.079926e-005 2.153921e-001 9.150999e-001
323940000 -1.126486e-005 3.060634e-006 2.482989e-001 9.085379e-001 -9.618871e-006 -3.455217e-007 2.492905e-001 9.123122e-001
324225000 -1.538671e-006 -6.800293e-006 2.822822e-001 9.043695e-001 -8.436500e-006 -7.513645e-006 2.835127e-001 9.081055e-001
324510000 -2.159330e-006 3.284080e-006 3.166335e-001 8.986934e-001 7.538466e-006 -3.689704e-006 3.179638e-001 9.024752e-001
324795000 9.064360e-006 6.012661e-006 3.511950e-001 8.915468e-001 5.565930e-006 -2.142647e-007 3.527048e-001 8.952839e-001
325080000 9.134603e-006 -7.993814e-006 3.857907e-001 8.829883e-001 4.141263e-006 1.717051e-005 3.874459e-001 8.865995e-001
325365000 -4.558539e-006 -1.780835e-006 4.204507e-001 8.727385e-001 -1.466682e-005 3.632779e-006 4.222754e-001 8.762686e-001
325650000 -1.513736e-005 -2.362435e-006 4.550711e-001 8.606859e-001 -9.527587e-006 1.180443e-005 4.569329e-001 8.643855e-001
325935000 -1.334194e-005 1.578134e-005 4.895349e-001 8.472077e-001 -3.882949e-006 2.088296e-006 4.915126e-001 8.506937e-001
326220000 3.467036e-006 9.999279e-006 5.236916e-001 8.319419e-001 6.671782e-006 -1.352055e-006 5.258263e-001 8.353822e-001
326505000 -1.423361e-005 1.676720e-006 5.574298e-001 8.148679e-001 6.682722e-006 2.228761e-005 5.598449e-001 8.184708e-001
326790000 -1.953013e-006 2.396826e-006 5.907583e-001 7.962433e-001 -1.724867e-006 8.355561e-006 5.932040e-001 7.997024e-001
327075000 2.932906e-006 -9.045810e-006 6.232668e-001 7.759535e-001 9.938828e-007 8.005769e-006 6.259826e-001 7.791958e-001
327360000 3.668940e-006 -4.465182e-006 6.553453e-001 7.539022e-001 -3.808681e-006 1.247010e-005 6.581727e-001 7.570918e-001
327645000 -1.385299e-005 9.575870e-006 6.864857e-001 7.301657e-001 -1.354448e-005 -1.339356e-005 6.894324e-001 7.333362e-001
327930000 -7.580140e-006 -1.555211e-005 7.167332e-001 7.048784e-001 -3.471878e-006 -2.126864e-006 7.197246e-001 7.078165e-001
328215000 -1.880114e-006 -6.950116e-006 7.458640e-001 6.779239e-001 -6.968651e-007 2.541116e-006 7.490776e-001 6.808400e-001
328500000 8.607810e-006 -2.826312e-006 7.737051e-001 6.493384e-001 7.026242e-006 -9.672160e-006 7.770644e-001 6.521295e-001
328785000 6.162643e-007 4.661153e-006 8.003588e-001 6.194558e-001 6.926446e-006 8.317203e-006 8.038369e-001 6.221545e-001
329070000 -4.721550e-006 5.253881e-006 8.256380e-001 5.882899e-001 1.066688e-005 -1.907051e-005 8.290527e-001 5.907977e-001
329355000 -6.643007e-006 -3.962711e-006 8.495063e-001 5.555656e-001 7.742877e-009 1.301907e-005 8.530812e-001 5.578290e-001
329640000 1.410253e-006 1.628909e-005 8.715935e-001 5.217669e-001 -9.277858e-006 1.829904e-006 8.753179e-001 5.240425e-001
329925000 -1.299203e-005 9.167380e-006 8.920903e-001 4.869178e-001 6.143377e-006 1.235653e-005 8.958372e-001 4.890383e-001
330210000 6.168747e-006 1.172424e-005 9.107493e-001 4.510512e-001 4.841913e-006 -2.812507e-006 9.147950e-001 4.529986e-001
330495000 -1.582801e-005 -2.578418e-007 9.278242e-001 4.142995e-001 -8.924973e-007 -8.273229e-006 9.317771e-001 4.161088e-001
330780000 -1.288474e-005 1.295741e-005 9.429316e-001 3.769749e-001 -6.140973e-006 -2.247387e-006 9.470137e-001 3.784980e-001
331065000 9.410173e-007 1.608731e-005 9.561897e-001 3.388309e-001 1.004713e-006 -6.827998e-006 9.603254e-001 3.401622e-001
331350000 1.265030e-006 7.714554e-006 9.675293e-001 3.001663e-001 -8.435260e-006 1.169512e-005 9.716859e-001 3.014824e-001
331635000 -1.401877e-005 1.311799e-006 9.768706e-001 2.613815e-001 -1.169960e-005 -8.628753e-006 9.810555e-001 2.624334e-001
331920000 -4.077125e-006 -3.348387e-006 9.843755e-001 2.221891e-001 -3.828446e-006 -5.040644e-006 9.886209e-001 2.232295e-001
332205000 4.896542e-006 -4.569677e-006 9.898083e-001 1.829969e-001 -8.483134e-006 -5.535310e-006 9.941567e-001 1.837617e-001
332490000 3.890820e-006 -1.445125e-005 9.934915e-001 1.437351e-001 -2.469935e-006 -3.985414e-006 9.978123e-001 1.443921e-001
332775000 9.393115e-006 1.691059e-005 9.952781e-001 1.047472e-001 -6.045661e-006 1.570092e-006 9.995534e-001 1.051686e-001
333060000 6.083802e-006 2.196903e-005 9.951143e-001 6.596503e-002 5.101359e-007 3.506096e-006 9.995126e-001 6.625825e-002
333345000 -2.313516e-006 1.344314e-005 9.931934e-001 2.746326e-002 -1.873117e-006 -2.214545e-006 9.976286e-001 2.768187e-002
333630000 -5.106654e-006 2.770995e-006 9.896269e-001 -1.042065e-002 9.463762e-006 -2.112213e-006 9.939585e-001 -1.049131e-002
333915000 4.318078e-006 -6.404659e-008 9.842960e-001 -4.773566e-002 -1.753903e-005 5.481059e-006 9.885796e-001 -4.792573e-002
334200000 4.510721e-006 4.185456e-006 9.773661e-001 -8.443420e-002 6.349728e-006 -8.961876e-006 9.816753e-001 -8.481140e-002
334485000 -8.153580e-006 6.503190e-006 9.688905e-001 -1.204411e-001 -4.870790e-007 -8.877199e-006 9.731124e-001 -1.208993e-001
334770000 -9.732253e-007 1.088059e-005 9.590065e-001 -1.554766e-001 -8.399126e-006 3.881918e-006 9.632409e-001 -1.561487e-001
335055000 -9.330684e-006 1.071139e-005 9.477343e-001 -1.896824e-001 -3.760639e-006 3.816567e-006 9.518905e-001 -1.904719e-001
335340000 2.538396e-006 -6.091366e-006 9.351353e-001 -2.229412e-001 -9.742123e-006 1.547475e-005 9.393125e-001 -2.239210e-001
335625000 6.260791e-006 -1.118853e-005 9.212465e-001 -2.551629e-001 -5.424341e-007 9.204793e-006 9.253759e-001 -2.562343e-001
335910000 -3.848807e-006 3.900497e-007 9.064018e-001 -2.863395e-001 8.150095e-006 9.294114e-006 9.104449e-001 -2.875561e-001
336195000 -7.324853e-006 2.126111e-006 8.904967e-001 -3.165368e-001 8.215768e-006 1.071143e-005 8.944015e-001 -3.178986e-001
336480000 1.081320e-005 -3.454316e-006 8.734382e-001 -3.455844e-001 1.257553e-005 -9.118932e-006 8.773328e-001 -3.472274e-001
336765000 -2.735899e-006 -8.204464e-006 8.557470e-001 -3.736566e-001 8.124661e-006 1.014462e-005 8.594138e-001 -3.751989e-001
337050000 6.052168e-006 9.712518e-006 8.371501e-001 -4.004547e-001 4.242777e-006 1.369141e-005 8.407714e-001 -4.022268e-001
337335000 1.458085e-005 -5.375018e-006 8.178350e-001 -4.263008e-001 1.175713e-007 7.200123e-006 8.212953e-001 -4.281832e-001
337620000 6.300582e-006 6.771475e-006 7.979075e-001 -4.509267e-001 3.563726e-006 2.044355e-005 8.013635e-001 -4.528764e-001
337905000 -2.130605e-006 -2.934816e-006 7.773268e-001 -4.746015e-001 -8.832371e-006 1.472008e-006 7.806572e-001 -4.765913e-001
338190000 -2.605583e-006 6.086081e-006 7.564024e-001 -4.968805e-001 -1.903327e-006 -1.974575e-005 7.595971e-001 -4.991557e-001
338475000 1.581852e-006 6.105625e-006 7.349392e-001 -5.183917e-001 7.310427e-006 -3.720081e-006 7.380471e-001 -5.205625e-001
338760000 3.309601e-006 -1.397166e-006 7.130681e-001 -5.386537e-001 -5.708134e-006 4.794809e-007 7.161079e-001 -5.410646e-001
339045000 4.404599e-006 -6.573649e-006 6.908359e-001 -5.579702e-001 -7.299313e-007 -5.829656e-006 6.938542e-001 -5.604017e-001
339330000 -6.582776e-006 8.082746e-006 6.684290e-001 -5.761876e-001 3.542235e-006 5.095507e-006 6.713222e-001 -5.786576e-001
339615000 5.319499e-006 6.144702e-006 6.456823e-001 -5.934867e-001 1.364531e-005 4.224280e-006 6.485412e-001 -5.960206e-001
339900000 1.294990e-006 -5.252974e-006 6.228337e-001 -6.097777e-001 -5.553081e-007 3.985074e-006 6.254783e-001 -6.123269e-001
340185000 5.447390e-006 -8.486504e-007 5.998548e-001 -6.250603e-001 -4.623060e-006 -9.298146e-006 6.024222e-001 -6.277462e-001
340470000 7.724100e-006 8.164681e-006 5.767324e-001 -6.394014e-001 1.262486e-005 7.012307e-006 5.791575e-001 -6.421757e-001
340755000 -3.489772e-007 1.133405e-005 5.535761e-001 -6.529213e-001 1.425258e-005 -7.419614e-006 5.559292e-001 -6.557024e-001
341040000 -4.975888e-007 -3.765340e-006 5.304057e-001 -6.655118e-001 1.051879e-006 -3.512869e-006 5.326257e-001 -6.684067e-001
341325000 -1.028526e-005 -6.901496e-007 5.070908e-001 -6.773668e-001 -5.683743e-006 1.583774e-006 5.092677e-001 -6.802093e-001
341610000 -1.143210e-005 -7.227538e-006 4.838808e-001 -6.883613e-001 -4.557914e-006 5.552165e-006 4.859875e-001 -6.912394e-001
341895000 -2.772652e-007 1.950223e-006 4.606700e-001 -6.985252e-001 -1.530548e-005 -1.700304e-005 4.626459e-001 -7.014691e-001
342180000 6.933911e-006 1.330093e-006 4.375154e-001 -7.079641e-001 -2.285688e-006 -6.028521e-006 4.393665e-001 -7.109335e-001
342465000 -8.902349e-007 -1.254982e-005 4.144725e-001 -7.166439e-001 7.804611e-006 1.598119e-005 4.162632e-001 -7.196584e-001
342750000 -4.748342e-006 6.708093e-006 3.915313e-001 -7.246075e-001 1.420829e-006 4.634205e-006 3.931956e-001 -7.278020e-001
343035000 1.081734e-005 -4.324324e-006 3.686363e-001 -7.319605e-001 6.343048e-006 -1.042579e-005 3.701200e-001 -7.350278e-001
343320000 -2.878640e-007 -6.981080e-006 3.457931e-001 -7.386276e-001 9.154940e-007 9.335764e-006 3.472635e-001 -7.417275e-001
343605000 -7.988645e-008 1.420464e-006 3.232074e-001 -7.446420e-001 1.359928e-006 2.477497e-006 3.245326e-001 -7.477835e-001
343890000 5.519983e-006 -6.182509e-006 3.006462e-001 -7.500647e-001 6.413552e-006 8.323834e-008 3.018989e-001 -7.532353e-001
