!Agilent Technologies,N5230C,SG49000117,A.08.50.07
!Agilent N5230C: A.08.50.07
!Date: Sunday, March 17, 2024 09:27:31
!Correction: S11(Off) 
!S21(Off) 
!S12(Off) 
!S22(Full 1 Port(2)) 
!S2P File: Measurements: S11, S21, S12, S22:
# Hz S  RI   R 50
300000000 -4.071130e-005 -5.061253e-005 -6.263222e-001 -6.445925e-001 7.466113e-005 -1.277237e-006 1.008295e+000 -1.813692e-001
300285000 -6.792889e-006 -1.476918e-005 -6.417895e-001 -6.212553e-001 -4.525122e-005 8.391415e-006 1.008143e+000 -1.806519e-001
300570000 -9.913438e-005 -4.461030e-005 -6.563839e-001 -5.982597e-001 -8.317352e-005 -1.493871e-004 1.008644e+000 -1.827820e-001
300855000 -3.613145e-005 -8.557985e-005 -6.689337e-001 -5.741252e-001 -1.163029e-004 3.379355e-005 1.009284e+000 -1.807328e-001
301140000 -3.977746e-005 -9.061860e-005 -6.817194e-001 -5.509641e-001 -6.287384e-005 2.661818e-005 1.008407e+000 -1.819016e-001
301425000 -2.086688e-005 6.788785e-005 -6.939362e-001 -5.272892e-001 -8.069306e-005 6.498617e-005 1.009652e+000 -1.814092e-001
301710000 1.722189e-004 2.449618e-005 -7.043586e-001 -5.038908e-001 -4.505040e-006 -4.880732e-005 1.010756e+000 -1.838472e-001
301995000 -5.748944e-005 6.731602e-006 -7.149353e-001 -4.798689e-001 -1.656506e-005 -1.283255e-005 1.008739e+000 -1.811637e-001
302280000 8.903484e-005 5.579588e-005 -7.241429e-001 -4.562321e-001 1.672581e-004 -3.928152e-005 1.009336e+000 -1.824005e-001
302565000 -2.175814e-005 4.126453e-005 -7.330226e-001 -4.328185e-001 -1.050032e-004 -6.258595e-005 1.010143e+000 -1.822872e-001
302850000 -1.634573e-005 6.686288e-005 -7.409420e-001 -4.098942e-001 -1.128570e-005 -4.416097e-005 1.007733e+000 -1.817835e-001
303135000 -3.791542e-005 6.496509e-005 -7.477360e-001 -3.864840e-001 7.170699e-005 4.105599e-005 1.009775e+000 -1.822636e-001
303420000 5.542987e-005 3.598961e-005 -7.547394e-001 -3.631727e-001 -4.907024e-005 2.825725e-005 1.008892e+000 -1.836669e-001
303705000 1.689454e-005 -1.942299e-005 -7.606984e-001 -3.404905e-001 3.823845e-005 -4.100785e-005 1.010164e+000 -1.846281e-001
303990000 -5.445414e-005 6.433808e-005 -7.663031e-001 -3.173078e-001 7.269118e-005 -8.035374e-005 1.008603e+000 -1.815768e-001
304275000 5.557776e-005 -5.570479e-005 -7.709093e-001 -2.948758e-001 6.124226e-005 6.166224e-006 1.009784e+000 -1.832840e-001
304560000 -1.123367e-005 5.619502e-005 -7.754818e-001 -2.723695e-001 3.794630e-005 1.084388e-004 1.009040e+000 -1.843831e-001
304845000 7.580773e-005 5.750913e-005 -7.787599e-001 -2.492912e-001 -1.794463e-005 -4.606881e-005 1.007514e+000 -1.839305e-001
305130000 -4.191669e-005 2.148703e-005 -7.819399e-001 -2.270698e-001 8.342549e-005 1.151358e-004 1.006952e+000 -1.842979e-001
305415000 -2.049434e-004 6.213468e-005 -7.845591e-001 -2.051984e-001 1.082580e-004 9.192698e-005 1.008350e+000 -1.834621e-001
305700000 -4.771302e-005 -3.339802e-005 -7.865604e-001 -1.834153e-001 5.989005e-005 -1.166244e-005 1.006903e+000 -1.833900e-001
305985000 3.374300e-005 3.563145e-005 -7.880833e-001 -1.612596e-001 -3.767236e-005 -3.678452e-006 1.009884e+000 -1.841659e-001
306270000 5.203284e-006 -4.412906e-005 -7.893353e-001 -1.394906e-001 -2.017980e-006 9.914099e-005 1.011249e+000 -1.835140e-001
306555000 6.333086e-005 -4.046314e-005 -7.900657e-001 -1.176069e-001 1.608714e-005 4.972719e-006 1.008703e+000 -1.869580e-001
306840000 -2.615466e-005 -1.051446e-005 -7.903188e-001 -9.648092e-002 2.801067e-005 9.282287e-005 1.007833e+000 -1.842407e-001
307125000 1.292197e-005 1.064336e-006 -7.902633e-001 -7.517259e-002 -1.140145e-004 -5.629972e-005 1.008136e+000 -1.847447e-001
307410000 3.655817e-005 -9.718634e-005 -7.899382e-001 -5.385576e-002 1.506750e-005 -4.278977e-005 1.010075e+000 -1.860032e-001
307695000 5.747245e-005 4.258825e-006 -7.886448e-001 -3.333324e-002 -1.172058e-005 7.054547e-005 1.008130e+000 -1.861854e-001
307980000 1.482925e-004 7.795866e-005 -7.870242e-001 -1.235953e-002 -5.483124e-005 -3.921731e-005 1.007308e+000 -1.869149e-001
308265000 5.610477e-005 -3.175165e-005 -7.848910e-001 7.857380e-003 -9.605026e-005 -1.278130e-004 1.008855e+000 -1.861352e-001
308550000 -2.140246e-005 -3.742569e-005 -7.827901e-001 2.850600e-002 6.229836e-005 8.111994e-005 1.006864e+000 -1.842719e-001
308835000 -1.503258e-005 6.978476e-007 -7.801459e-001 4.891474e-002 -2.895859e-005 -2.700686e-005 1.007234e+000 -1.864017e-001
309120000 7.963459e-005 4.993531e-005 -7.773688e-001 6.917482e-002 -5.815644e-005 -8.672904e-005 1.009200e+000 -1.865084e-001
309405000 -1.652318e-005 6.786002e-005 -7.737086e-001 8.910872e-002 -3.872420e-005 -8.923953e-005 1.009999e+000 -1.866742e-001
309690000 -1.879194e-005 3.015778e-005 -7.701339e-001 1.096531e-001 1.558376e-004 -6.094075e-005 1.009397e+000 -1.869582e-001
309975000 -3.107666e-005 7.578141e-005 -7.662627e-001 1.291197e-001 6.690779e-005 8.820105e-006 1.009272e+000 -1.876228e-001
310260000 -1.044977e-005 7.092382e-005 -7.618325e-001 1.489750e-001 3.180842e-005 2.157442e-005 1.010823e+000 -1.868675e-001
310545000 -9.506804e-005 -1.272009e-004 -7.574494e-001 1.689917e-001 -1.193695e-005 6.052644e-005 1.009053e+000 -1.884738e-001
310830000 -8.274499e-005 -4.406806e-005 -7.519323e-001 1.878366e-001 5.307101e-005 -1.959471e-005 1.010611e+000 -1.870047e-001
311115000 -9.218444e-005 1.973175e-005 -7.465185e-001 2.075738e-001 -1.364874e-004 8.954474e-005 1.008690e+000 -1.882845e-001
311400000 -1.699166e-004 -7.507754e-005 -7.405448e-001 2.268423e-001 -7.413841e-006 -1.869431e-005 1.007388e+000 -1.897933e-001
311685000 1.654304e-006 2.393148e-005 -7.344223e-001 2.461222e-001 -6.107455e-005 8.301221e-006 1.009186e+000 -1.875228e-001
311970000 -1.044145e-004 -8.333337e-005 -7.272402e-001 2.655016e-001 -8.415751e-005 -7.899212e-005 1.007567e+000 -1.871238e-001
312255000 4.191792e-005 -6.004251e-006 -7.209061e-001 2.843328e-001 -1.051115e-004 2.012562e-005 1.009525e+000 -1.894045e-001
312540000 1.594799e-005 -8.429099e-005 -7.133680e-001 3.033249e-001 5.998153e-006 -1.062686e-004 1.008973e+000 -1.898060e-001
312825000 -2.809558e-005 -9.930539e-005 -7.063933e-001 3.222076e-001 1.629516e-005 -4.284999e-006 1.008014e+000 -1.888175e-001
313110000 4.432312e-005 -1.417563e-005 -6.982531e-001 3.408454e-001 -2.746375e-005 4.797734e-005 1.007541e+000 -1.912684e-001
313395000 -2.476268e-005 -5.405146e-005 -6.893011e-001 3.594969e-001 -4.058141e-005 5.220234e-005 1.010248e+000 -1.886910e-001
313680000 6.590509e-005 -4.919495e-005 -6.805593e-001 3.783423e-001 -4.786743e-005 -1.486300e-005 1.008563e+000 -1.890835e-001
313965000 5.024338e-005 4.077544e-006 -6.718040e-001 3.964465e-001 -5.209254e-005 8.640372e-006 1.009216e+000 -1.889446e-001
314250000 9.888964e-005 -6.502956e-005 -6.621650e-001 4.150597e-001 -2.667563e-005 -4.740643e-005 1.008383e+000 -1.906117e-001
314535000 -5.767961e-005 -1.168845e-005 -6.525413e-001 4.332789e-001 6.116929e-005 -2.914560e-005 1.007212e+000 -1.894983e-001
314820000 3.864416e-005 1.037345e-006 -6.420745e-001 4.518846e-001 -1.276227e-004 -1.680039e-005 1.008497e+000 -1.905934e-001
315105000 8.812481e-005 8.768611e-006 -6.307527e-001 4.698860e-001 2.178867e-005 3.399974e-006 1.005894e+000 -1.913846e-001
315390000 3.206703e-005 -1.879166e-005 -6.196679e-001 4.878142e-001 -3.042203e-005 3.834429e-005 1.007689e+000 -1.899789e-001
315675000 1.707653e-004 6.901834e-005 -6.075451e-001 5.055722e-001 -9.174152e-005 5.873197e-005 1.006348e+000 -1.908127e-001
315960000 -8.398254e-005 -4.946254e-006 -5.956933e-001 5.237962e-001 -2.593372e-005 -4.068741e-005 1.006952e+000 -1.903278e-001
316245000 1.313490e-004 -1.627381e-005 -5.831602e-001 5.411087e-001 -7.328567e-006 -5.888354e-005 1.006880e+000 -1.904725e-001
316530000 -1.221925e-004 5.190659e-005 -5.701106e-001 5.589625e-001 -2.467702e-005 4.289455e-005 1.008198e+000 -1.936793e-001
316815000 6.365080e-005 -1.154342e-004 -5.562814e-001 5.768512e-001 5.802085e-005 -7.358426e-005 1.007736e+000 -1.898654e-001
317100000 6.352846e-005 -1.219593e-004 -5.422934e-001 5.937146e-001 3.460774e-005 3.113641e-005 1.007387e+000 -1.908586e-001
317385000 -1.667176e-005 -6.376128e-005 -5.272782e-001 6.109226e-001 7.414028e-005 -6.683916e-006 1.009332e+000 -1.899485e-001
317670000 -1.592734e-004 -1.144746e-005 -5.126007e-001 6.279387e-001 1.194127e-004 1.058045e-004 1.007484e+000 -1.914666e-001
317955000 5.076067e-005 -9.031566e-005 -4.964050e-001 6.450588e-001 -4.695708e-006 2.326719e-005 1.008357e+000 -1.921993e-001
318240000 1.164992e-005 -5.656082e-005 -4.804825e-001 6.622162e-001 7.499057e-005 3.369444e-006 1.006535e+000 -1.911602e-001
318525000 6.866382e-005 4.474160e-005 -4.631054e-001 6.784919e-001 -3.224276e-005 -4.315268e-005 1.008117e+000 -1.914748e-001
318810000 -1.855128e-005 -1.227081e-004 -4.459645e-001 6.945680e-001 1.992761e-005 -6.483374e-006 1.007246e+000 -1.919946e-001
319095000 -7.730947e-005 -1.704560e-004 -4.276108e-001 7.107346e-001 -6.505332e-005 6.500506e-005 1.007262e+000 -1.924022e-001
319380000 -3.552107e-005 2.656413e-005 -4.086386e-001 7.268413e-001 -6.411815e-005 5.219884e-005 1.008656e+000 -1.940242e-001
319665000 5.819607e-005 -1.776277e-004 -3.894173e-001 7.422155e-001 -6.718387e-005 -6.274505e-005 1.008007e+000 -1.921553e-001
319950000 -1.051120e-005 -3.228205e-005 -3.694759e-001 7.577538e-001 -1.138145e-004 4.548674e-005 1.008390e+000 -1.954389e-001
320235000 -1.845699e-005 6.631535e-005 -3.480720e-001 7.719541e-001 1.526086e-005 -9.751684e-005 1.008989e+000 -1.952217e-001
320520000 1.286971e-004 1.101017e-005 -3.266589e-001 7.868162e-001 -4.887072e-005 -9.261248e-005 1.007885e+000 -1.934422e-001
320805000 -3.255011e-005 2.463649e-005 -3.049059e-001 8.008738e-001 8.912617e-005 -6.609363e-005 1.007073e+000 -1.930337e-001
321090000 8.269823e-006 1.002085e-004 -2.814344e-001 8.145712e-001 -4.033992e-005 -1.132775e-004 1.007116e+000 -1.945486e-001
321375000 1.014652e-004 7.590085e-005 -2.579210e-001 8.278739e-001 8.832632e-005 -5.679451e-005 1.007663e+000 -1.934557e-001
321660000 -3.629223e-005 7.884631e-005 -2.338250e-001 8.408518e-001 1.911837e-005 -5.150060e-005 1.008110e+000 -1.942594e-001
321945000 9.973837e-005 -2.685790e-005 -2.085780e-001 8.526965e-001 -9.586677e-005 -7.950587e-005 1.008138e+000 -1.956974e-001
322230000 -1.642678e-004 1.168249e-004 -1.824290e-001 8.645247e-001 -3.618686e-005 -8.555928e-005 1.008317e+000 -1.955348e-001
322515000 -4.145348e-005 5.555993e-005 -1.559264e-001 8.751032e-001 -1.087175e-005 -1.005563e-004 1.006787e+000 -1.947124e-001
322800000 -9.439824e-005 5.672360e-005 -1.286513e-001 8.853417e-001 1.525914e-004 -1.352512e-005 1.009349e+000 -1.944788e-001
323085000 -1.198354e-004 2.736086e-005 -1.007772e-001 8.948649e-001 -2.105209e-005 -3.354736e-005 1.007573e+000 -1.951088e-001
323370000 -4.965173e-005 1.296047e-004 -7.174651e-002 9.029778e-001 5.502957e-005 -4.100789e-005 1.008059e+000 -1.954676e-001
323655000 -1.534098e-005 4.582896e-005 -4.270152e-002 9.110271e-001 5.094982e-005 7.081121e-005 1.007398e+000 -1.967338e-001
323940000 3.683353e-005 2.573164e-005 -1.168056e-002 9.174841e-001 -8.873684e-005 2.999124e-005 1.007338e+000 -1.974635e-001
324225000 2.135079e-005 5.120921e-005 1.968299e-002 9.241292e-001 1.268831e-004 -1.481817e-005 1.005838e+000 -1.957086e-001
324510000 -6.140822e-005 -2.578133e-005 5.085563e-002 9.283742e-001 -5.815327e-005 -2.196396e-005 1.007700e+000 -1.982639e-001
324795000 2.548839e-005 -2.963899e-006 8.344734e-002 9.320515e-001 -5.840403e-006 2.108776e-005 1.007169e+000 -1.961744e-001
325080000 -5.295934e-005 -5.930209e-005 1.163173e-001 9.346637e-001 2.284562e-005 -8.496315e-005 1.007378e+000 -1.944457e-001
325365000 7.651609e-005 -5.006972e-005 1.496604e-001 9.357039e-001 -4.960966e-005 7.626307e-005 1.008991e+000 -1.964550e-001
325650000 2.176249e-005 -1.195448e-005 1.834436e-001 9.356701e-001 -6.130942e-005 8.515899e-005 1.008427e+000 -1.964705e-001
325935000 -5.111555e-005 -1.044838e-005 2.178212e-001 9.338737e-001 4.173750e-005 7.566142e-005 1.007487e+000 -1.974669e-001
326220000 3.503986e-005 -4.548717e-005 2.528144e-001 9.315701e-001 -2.514723e-005 1.179520e-004 1.008143e+000 -1.982945e-001
326505000 9.348367e-005 -3.151832e-005 2.878411e-001 9.275808e-001 -5.816355e-005 5.617348e-005 1.006730e+000 -1.981899e-001
326790000 6.247570e-005 -1.748744e-005 3.235986e-001 9.211940e-001 -1.175250e-004 2.624213e-005 1.005589e+000 -1.973568e-001
327075000 3.412190e-005 -1.215964e-004 3.592536e-001 9.133523e-001 -6.260019e-005 -2.570080e-005 1.007993e+000 -1.993328e-001
327360000 2.789782e-006 -6.130716e-005 3.948908e-001 9.041736e-001 7.897522e-005 -2.877946e-005 1.008800e+000 -1.981499e-001
327645000 3.711797e-005 5.847705e-005 4.301854e-001 8.934271e-001 -1.649094e-004 -1.039248e-005 1.008003e+000 -1.987374e-001
327930000 -3.473755e-005 -9.731589e-006 4.662824e-001 8.805630e-001 6.167960e-005 2.246392e-005 1.006857e+000 -1.975815e-001
328215000 -5.567220e-005 1.579388e-005 5.012810e-001 8.665476e-001 6.141279e-005 -5.538444e-005 1.007706e+000 -1.985349e-001
328500000 -1.168486e-005 -5.381245e-005 5.360447e-001 8.504612e-001 1.176469e-005 -2.405634e-005 1.007258e+000 -1.992634e-001
328785000 -2.346879e-005 -3.531839e-005 5.708252e-001 8.330294e-001 3.907978e-005 -1.840373e-005 1.006838e+000 -1.977461e-001
329070000 -1.006946e-004 -1.422281e-005 6.042376e-001 8.135052e-001 6.251023e-005 6.480424e-005 1.006984e+000 -1.995125e-001
329355000 5.246387e-005 -6.841719e-005 6.377691e-001 7.920482e-001 -4.911789e-005 -7.653391e-005 1.007175e+000 -1.994382e-001
329640000 3.431005e-006 -7.432012e-006 6.707707e-001 7.688506e-001 5.142088e-005 1.936264e-005 1.007149e+000 -1.998764e-001
329925000 8.964784e-005 -7.990673e-006 7.019107e-001 7.440411e-001 -6.566106e-005 5.040558e-005 1.006306e+000 -1.998396e-001
330210000 -7.120007e-005 6.202848e-005 7.323911e-001 7.178494e-001 -2.994409e-005 1.846515e-005 1.006103e+000 -2.004755e-001
330495000 4.532662e-005 2.356565e-005 7.611879e-001 6.897970e-001 -1.009977e-004 -9.205158e-005 1.006270e+000 -1.997536e-001
330780000 -1.416552e-005 7.726209e-005 7.897727e-001 6.605085e-001 -1.092727e-005 1.025365e-004 1.007778e+000 -2.003500e-001
331065000 -9.251950e-005 -5.100345e-005 8.165185e-001 6.295440e-001 1.823186e-005 4.292178e-006 1.005390e+000 -1.993946e-001
331350000 -7.987990e-005 6.992929e-005 8.421382e-001 5.974340e-001 -5.688764e-007 7.362293e-005 1.005916e+000 -2.003214e-001
331635000 -9.063361e-005 -5.616996e-005 8.652996e-001 5.641093e-001 5.985239e-006 -8.722462e-005 1.008022e+000 -2.003406e-001
331920000 -1.024274e-005 -9.085696e-005 8.868092e-001 5.290915e-001 -7.768131e-006 -2.996960e-005 1.006814e+000 -2.003565e-001
332205000 4.950289e-005 -1.012269e-004 9.076801e-001 4.939350e-001 -5.877249e-005 4.866136e-005 1.006202e+000 -2.014661e-001
332490000 3.884129e-005 2.232193e-005 9.260033e-001 4.567137e-001 7.106324e-005 4.304433e-005 1.006829e+000 -2.007751e-001
332775000 -1.128285e-004 2.753807e-006 9.424145e-001 4.202361e-001 -2.488842e-005 -2.216203e-005 1.006328e+000 -2.023902e-001
333060000 -1.179890e-004 4.090313e-005 9.564600e-001 3.817980e-001 -1.627093e-005 1.500392e-005 1.007545e+000 -2.017794e-001
333345000 -1.653106e-004 -3.223000e-005 9.696363e-001 3.430775e-001 5.899152e-005 3.987951e-005 1.008015e+000 -2.016705e-001
333630000 7.635376e-005 4.729960e-006 9.802037e-001 3.045134e-001 -6.615290e-006 -1.372875e-005 1.008215e+000 -2.031763e-001
333915000 9.086300e-006 -4.831957e-005 9.894800e-001 2.645675e-001 -5.723804e-005 -7.039968e-005 1.006233e+000 -2.027016e-001
334200000 4.661635e-005 -1.281904e-004 9.961207e-001 2.254955e-001 6.590340e-005 1.065230e-005 1.006932e+000 -2.028779e-001
334485000 -4.297696e-005 -7.183537e-006 1.001603e+000 1.865256e-001 7.220797e-006 -9.030302e-005 1.005433e+000 -2.026095e-001
334770000 -7.557232e-005 -2.743249e-005 1.004648e+000 1.465486e-001 4.286119e-005 -5.521634e-005 1.007604e+000 -2.029266e-001
335055000 -1.319492e-004 -1.220370e-004 1.005671e+000 1.083057e-001 -1.677596e-005 -9.653604e-005 1.007846e+000 -2.020568e-001
335340000 -1.815660e-005 -7.722236e-005 1.004905e+000 6.973802e-002 -3.114439e-005 -1.463731e-004 1.007619e+000 -2.047257e-001
335625000 3.325501e-006 -2.101137e-005 1.003285e+000 3.152920e-002 -5.079038e-006 1.063362e-004 1.006495e+000 -2.029735e-001
335910000 -6.327468e-005 1.202079e-004 9.989690e-001 -6.112425e-003 -1.632775e-005 2.097361e-005 1.006885e+000 -2.037476e-001
336195000 4.382549e-005 1.411903e-006 9.930414e-001 -4.323442e-002 9.324502e-005 2.969488e-005 1.005643e+000 -2.035263e-001
336480000 1.201037e-004 3.868149e-005 9.860429e-001 -7.961187e-002 9.934937e-005 -9.858771e-006 1.007159e+000 -2.036253e-001
336765000 7.384046e-005 1.051913e-004 9.778886e-001 -1.153112e-001 1.476657e-004 2.697864e-007 1.006217e+000 -2.049329e-001
337050000 -2.594559e-006 2.602797e-005 9.679043e-001 -1.500689e-001 -5.648543e-005 -1.268188e-005 1.007662e+000 -2.038523e-001
337335000 7.204129e-005 1.226947e-004 9.562489e-001 -1.835614e-001 4.829755e-005 1.045768e-005 1.005906e+000 -2.063951e-001
337620000 -7.255374e-006 7.644340e-006 9.436821e-001 -2.170098e-001 6.624981e-005 4.000827e-005 1.007020e+000 -2.055323e-001
337905000 1.112944e-004 2.148018e-005 9.299291e-001 -2.479411e-001 1.178210e-004 1.223290e-004 1.004969e+000 -2.049659e-001
338190000 8.128549e-005 -4.402974e-005 9.154615e-001 -2.792994e-001 1.192285e-004 -8.832114e-005 1.006254e+000 -2.057893e-001
338475000 7.731190e-005 -3.674839e-005 8.996695e-001 -3.093122e-001 -7.152632e-006 -3.909580e-005 1.007631e+000 -2.051717e-001
338760000 1.627689e-006 2.227004e-005 8.831475e-001 -3.382475e-001 1.535299e-005 5.190547e-005 1.006402e+000 -2.049762e-001
339045000 7.169013e-005 2.211796e-005 8.655176e-001 -3.658685e-001 5.843828e-005 9.646757e-005 1.006027e+000 -2.058450e-001
339330000 -1.265285e-004 2.519323e-005 8.473682e-001 -3.920275e-001 9.417656e-005 5.069619e-005 1.007060e+000 -2.050909e-001
339615000 -8.474255e-005 -6.522841e-006 8.283564e-001 -4.184359e-001 -9.042605e-005 4.678832e-005 1.006583e+000 -2.067120e-001
339900000 9.962472e-006 -3.525344e-005 8.088456e-001 -4.425276e-001 -3.952529e-005 8.992275e-006 1.007483e+000 -2.067722e-001
340185000 -5.062755e-005 3.311202e-005 7.887136e-001 -4.660021e-001 -1.965381e-005 4.873016e-005 1.005597e+000 -2.072721e-001
340470000 -4.541972e-005 -2.959278e-005 7.684579e-001 -4.883212e-001 -3.975790e-005 4.196701e-005 1.006519e+000 -2.058038e-001
340755000 -1.318116e-004 -8.401249e-006 7.473652e-001 -5.093312e-001 -4.565673e-005 1.006061e-004 1.006436e+000 -2.073752e-001
341040000 -4.204526e-005 -1.294548e-004 7.264084e-001 -5.300483e-001 -1.234816e-004 -6.679964e-005 1.005339e+000 -2.082407e-001
341325000 -4.145158e-006 2.813140e-005 7.045119e-001 -5.493192e-001 -3.950782e-005 -6.391989e-005 1.006699e+000 -2.061847e-001
341610000 -3.282907e-005 6.183358e-006 6.828693e-001 -5.678381e-001 2.245076e-005 -2.181651e-005 1.008651e+000 -2.068356e-001
341895000 -4.673926e-005 1.799589e-005 6.606901e-001 -5.851822e-001 5.184824e-005 3.968955e-005 1.005925e+000 -2.081350e-001
342180000 2.631235e-005 -1.045890e-005 6.381400e-001 -6.014668e-001 -1.306231e-004 7.105212e-006 1.006608e+000 -2.086679e-001
342465000 1.016317e-005 -3.970037e-005 6.166221e-001 -6.166416e-001 -1.581842e-005 -7.797869e-005 1.006894e+000 -2.079568e-001
342750000 3.701391e-005 3.085062e-005 5.937905e-001 -6.318949e-001 -9.851834e-006 8.523503e-005 1.007175e+000 -2.067398e-001
343035000 4.258624e-005 -2.461313e-005 5.712861e-001 -6.461465e-001 2.757658e-005 7.760518e-005 1.007297e+000 -2.100455e-001
343320000 4.093134e-006 -5.428422e-005 5.480784e-001 -6.587834e-001 1.025456e-004 6.215461e-006 1.005600e+000 -2.077345e-001
343605000 -5.318334e-005 -4.815263e-005 5.258611e-001 -6.711451e-001 4.451075e-005 -2.670014e-005 1.005847e+000 -2.088756e-001
343890000 -1.969956e-005 1.121885e-004 5.027416e-001 -6.826618e-001 6.963737e-005 3.117961e-005 1.007117e+000 -2.103404e-001
