!Agilent Technologies,N5230C,SG49000117,A.08.50.07
!Agilent N5230C: A.08.50.07
!Date: Sunday, March 17, 2024 09:28:52
!Correction: S11(Off) 
!S21(Off) 
!S12(Off) 
!S22(Full 1 Port(2)) 
!S2P File: Measurements: S11, S21, S12, S22:
# Hz S  RI   R 50
300000000 7.896576e-005 8.770495e-005 -6.348271e-001 -6.331286e-001 2.681241e-005 4.781729e-005 1.002322e+000 -2.142635e-001
300285000 -2.245567e-005 9.687310e-006 -6.498113e-001 -6.097572e-001 -4.770870e-005 7.438030e-005 1.002943e+000 -2.136695e-001
300570000 3.974756e-005 4.610703e-005 -6.636322e-001 -5.863556e-001 -9.111394e-005 -9.091954e-005 1.002923e+000 -2.143832e-001
300855000 7.530751e-005 -1.603047e-005 -6.766843e-001 -5.631540e-001 -8.091151e-005 3.882771e-005 1.002058e+000 -2.145865e-001
301140000 1.235767e-004 -1.779839e-006 -6.888775e-001 -5.390173e-001 3.242386e-005 2.046110e-005 1.002560e+000 -2.158867e-001
301425000 -2.536886e-005 6.899295e-005 -7.002570e-001 -5.156264e-001 7.870277e-005 -5.215975e-005 1.004028e+000 -2.144059e-001
301710000 3.923428e-005 1.302006e-006 -7.106344e-001 -4.918422e-001 -4.840895e-005 5.252543e-005 1.003852e+000 -2.164037e-001
301995000 -7.532829e-005 -2.550138e-005 -7.204053e-001 -4.679171e-001 -4.127340e-005 -1.689329e-005 1.002754e+000 -2.139944e-001
302280000 1.538190e-005 -5.050357e-005 -7.297419e-001 -4.443461e-001 5.103465e-005 6.745636e-005 1.003494e+000 -2.161864e-001
302565000 -8.922077e-005 4.665628e-005 -7.380039e-001 -4.207385e-001 4.210383e-005 3.362524e-006 1.002567e+000 -2.169865e-001
302850000 -2.572239e-005 9.306189e-006 -7.456394e-001 -3.978334e-001 6.280853e-005 5.277855e-005 1.002323e+000 -2.151839e-001
303135000 -1.772099e-005 6.533274e-005 -7.522663e-001 -3.748128e-001 8.749862e-006 2.547399e-005 1.002697e+000 -2.170603e-001
303420000 -8.480673e-005 -1.077517e-004 -7.592919e-001 -3.514182e-001 -9.216178e-006 5.073519e-005 1.002060e+000 -2.179815e-001
303705000 -8.545358e-005 -5.146903e-005 -7.642767e-001 -3.284979e-001 -5.290278e-005 5.129306e-005 1.003940e+000 -2.184099e-001
303990000 -5.851532e-005 -1.793502e-005 -7.694249e-001 -3.053152e-001 3.244297e-005 -6.719789e-005 1.003019e+000 -2.173450e-001
304275000 1.303933e-005 -2.264482e-004 -7.735692e-001 -2.829126e-001 -7.687690e-005 1.468588e-004 1.003158e+000 -2.181727e-001
304560000 -1.792169e-005 1.831986e-005 -7.777175e-001 -2.603257e-001 -4.012362e-005 2.970594e-005 1.004308e+000 -2.169511e-001
304845000 6.484045e-005 -5.622650e-005 -7.816067e-001 -2.378448e-001 -6.750975e-005 5.578129e-005 1.001928e+000 -2.178726e-001
305130000 2.720407e-005 7.432541e-006 -7.841085e-001 -2.156158e-001 5.126286e-005 -6.017882e-005 1.001322e+000 -2.170704e-001
305415000 1.945122e-004 3.776532e-005 -7.863799e-001 -1.934706e-001 -8.019280e-005 -1.092068e-004 1.001937e+000 -2.164292e-001
305700000 7.382838e-005 -9.827378e-005 -7.882403e-001 -1.713798e-001 1.133303e-004 -3.542169e-005 1.002164e+000 -2.171132e-001
305985000 3.789994e-006 -7.069359e-005 -7.894458e-001 -1.496643e-001 -5.749338e-006 -7.056058e-005 1.003073e+000 -2.195896e-001
306270000 -5.157792e-005 7.018487e-005 -7.907947e-001 -1.278740e-001 -2.018975e-005 -2.949663e-006 1.003452e+000 -2.183632e-001
306555000 4.845206e-005 1.141247e-004 -7.907629e-001 -1.062098e-001 8.045189e-005 1.145828e-004 1.003084e+000 -2.209244e-001
306840000 3.836391e-005 -5.361462e-005 -7.909179e-001 -8.509951e-002 -4.754755e-005 4.883963e-005 1.001229e+000 -2.192964e-001
307125000 2.516437e-005 5.989851e-005 -7.911639e-001 -6.345914e-002 3.060504e-005 -4.452814e-005 1.001916e+000 -2.198172e-001
307410000 1.130007e-004 4.436683e-005 -7.896674e-001 -4.278342e-002 -8.285081e-005 1.590267e-004 1.003939e+000 -2.204164e-001
307695000 4.141311e-005 -3.949296e-005 -7.881055e-001 -2.162083e-002 1.149180e-005 2.942498e-005 1.003232e+000 -2.202757e-001
307980000 -3.229572e-005 -6.762457e-005 -7.866480e-001 -4.899443e-004 -2.831060e-005 -4.860370e-006 1.002053e+000 -2.203154e-001
308265000 1.071302e-004 2.530969e-005 -7.844621e-001 1.957921e-002 6.504070e-005 -1.044769e-004 1.001548e+000 -2.206452e-001
308550000 3.181223e-005 -4.020413e-005 -7.817619e-001 4.038661e-002 9.005769e-005 5.087134e-005 1.000672e+000 -2.193644e-001
308835000 1.369026e-005 4.221666e-005 -7.791340e-001 6.032669e-002 2.020604e-005 6.753174e-005 1.001973e+000 -2.208994e-001
309120000 -7.785019e-005 -7.146993e-005 -7.760929e-001 8.080345e-002 -6.780865e-005 8.567702e-005 1.002087e+000 -2.222649e-001
309405000 -1.060909e-004 8.258070e-005 -7.723680e-001 1.003198e-001 -2.875274e-005 4.966198e-005 1.003940e+000 -2.215000e-001
309690000 -8.036803e-005 -9.047427e-006 -7.682066e-001 1.207075e-001 -2.046676e-005 8.691353e-005 1.003927e+000 -2.217146e-001
309975000 1.137278e-005 -8.384977e-005 -7.640378e-001 1.401182e-001 -1.420797e-005 2.982536e-007 1.001875e+000 -2.217046e-001
310260000 4.770668e-006 -4.455489e-005 -7.597660e-001 1.603404e-001 -1.095555e-004 -2.188681e-005 1.003600e+000 -2.207119e-001
310545000 6.705293e-005 -8.098267e-005 -7.544414e-001 1.796523e-001 -7.414643e-005 3.508967e-005 1.002357e+000 -2.213772e-001
310830000 -9.071556e-005 4.801948e-005 -7.492288e-001 1.991446e-001 -1.212229e-004 3.100331e-005 1.003179e+000 -2.230728e-001
311115000 -7.934048e-005 3.702485e-005 -7.431874e-001 2.186273e-001 -5.364431e-005 -6.680988e-005 1.000551e+000 -2.231713e-001
311400000 -1.271502e-004 -1.224464e-004 -7.374060e-001 2.378082e-001 1.351772e-005 -8.721292e-005 1.000798e+000 -2.213960e-001
311685000 -6.339345e-005 -3.549276e-005 -7.306436e-001 2.571831e-001 -5.160352e-006 -8.595405e-005 1.001429e+000 -2.236138e-001
311970000 -5.293688e-005 2.831826e-005 -7.240045e-001 2.760066e-001 3.053241e-005 -1.296790e-004 1.001855e+000 -2.223469e-001
312255000 -9.082858e-006 2.264864e-005 -7.170495e-001 2.949234e-001 -5.965231e-005 -7.726227e-006 1.001068e+000 -2.236644e-001
312540000 -8.209425e-005 -6.629842e-005 -7.097336e-001 3.140025e-001 -4.136117e-005 3.989045e-005 1.001069e+000 -2.226318e-001
312825000 -3.879112e-005 -1.768059e-005 -7.017811e-001 3.327274e-001 4.601785e-005 -1.867229e-005 1.000604e+000 -2.245611e-001
313110000 7.735269e-005 -2.213274e-006 -6.934333e-001 3.514227e-001 9.446316e-005 -2.660349e-005 1.002783e+000 -2.249435e-001
313395000 3.003024e-005 -1.949824e-005 -6.847357e-001 3.702131e-001 7.179462e-005 -6.048050e-005 1.001526e+000 -2.225945e-001
313680000 1.055057e-004 -1.261572e-004 -6.758342e-001 3.882555e-001 1.622551e-005 4.995966e-005 1.003709e+000 -2.237222e-001
313965000 5.941981e-005 2.255573e-006 -6.667666e-001 4.069107e-001 8.221264e-005 2.699655e-005 1.001622e+000 -2.247726e-001
314250000 1.644140e-005 -8.069419e-005 -6.565530e-001 4.252655e-001 4.687471e-005 -3.903362e-005 1.000162e+000 -2.249818e-001
314535000 2.120289e-005 1.044837e-005 -6.466824e-001 4.434051e-001 8.160291e-005 -1.626578e-005 1.001159e+000 -2.240268e-001
314820000 7.750789e-005 1.107712e-005 -6.356335e-001 4.619289e-001 1.469009e-005 -1.680709e-004 1.001081e+000 -2.260637e-001
315105000 7.397861e-005 -2.408737e-005 -6.244434e-001 4.799757e-001 5.417705e-005 1.711215e-004 9.986661e-001 -2.254726e-001
315390000 -4.026527e-005 -3.095641e-005 -6.129266e-001 4.981174e-001 5.597140e-005 -8.035271e-005 1.002014e+000 -2.273865e-001
315675000 -1.139659e-005 7.700788e-005 -6.013260e-001 5.156394e-001 -2.340268e-005 -6.355792e-005 1.000956e+000 -2.247889e-001
315960000 7.126120e-005 1.051030e-004 -5.887940e-001 5.334155e-001 1.683514e-005 8.916869e-007 1.001024e+000 -2.264878e-001
316245000 5.245401e-005 -4.371493e-005 -5.758835e-001 5.514940e-001 5.300207e-005 1.024772e-004 1.000670e+000 -2.265199e-001
316530000 6.148288e-005 -4.163829e-005 -5.619427e-001 5.686414e-001 1.588883e-005 -5.996014e-006 9.995527e-001 -2.276184e-001
316815000 8.845675e-005 -1.268344e-005 -5.482689e-001 5.862258e-001 -6.646539e-005 8.897279e-005 1.002723e+000 -2.265225e-001
317100000 3.045473e-006 8.979533e-007 -5.337085e-001 6.033956e-001 -7.520473e-005 -9.206040e-005 1.000628e+000 -2.248951e-001
317385000 -3.019766e-006 7.416208e-005 -5.188426e-001 6.200302e-001 -4.935198e-005 -1.270498e-005 1.002006e+000 -2.246048e-001
317670000 -1.393990e-005 1.827897e-005 -5.037332e-001 6.373509e-001 -3.014679e-005 8.414109e-005 1.002289e+000 -2.274139e-001
317955000 -1.908592e-005 -1.007900e-004 -4.871276e-001 6.544618e-001 -4.150475e-006 -1.555500e-004 1.002354e+000 -2.260038e-001
318240000 1.644570e-006 -4.788594e-005 -4.708727e-001 6.711349e-001 -2.656566e-005 7.666168e-005 1.000321e+000 -2.278840e-001
318525000 -5.681338e-005 5.629747e-005 -4.532256e-001 6.873841e-001 -5.862040e-005 -1.076260e-004 1.002220e+000 -2.272086e-001
318810000 -5.782479e-005 5.592420e-005 -4.355001e-001 7.035609e-001 7.180671e-005 2.237512e-005 1.001343e+000 -2.274378e-001
319095000 3.875034e-005 -4.516174e-005 -4.172238e-001 7.195582e-001 -9.704788e-005 -1.232539e-004 9.997991e-001 -2.262675e-001
319380000 1.197222e-004 -1.590450e-005 -3.977228e-001 7.355774e-001 -2.175793e-005 -3.286705e-005 1.001287e+000 -2.284583e-001
319665000 -5.854418e-006 -1.122621e-004 -3.781084e-001 7.504559e-001 2.787926e-005 -3.513140e-005 1.001852e+000 -2.291573e-001
319950000 -6.320582e-005 2.138108e-005 -3.573239e-001 7.658794e-001 -3.897879e-005 -8.753745e-005 1.000559e+000 -2.290977e-001
320235000 5.503389e-005 4.604213e-005 -3.361387e-001 7.802098e-001 -5.065156e-007 3.644007e-005 1.000597e+000 -2.305074e-001
320520000 4.963096e-005 3.818195e-005 -3.142667e-001 7.946671e-001 -8.280902e-006 -4.863512e-005 1.001550e+000 -2.290145e-001
320805000 3.733878e-005 6.816209e-005 -2.922027e-001 8.084231e-001 -3.848647e-005 4.808301e-005 1.000109e+000 -2.296333e-001
321090000 -1.208702e-004 1.271807e-005 -2.688557e-001 8.217124e-001 6.084595e-005 2.173044e-005 9.995126e-001 -2.294933e-001
321375000 -1.916294e-005 -1.160921e-004 -2.442992e-001 8.347974e-001 -4.939519e-005 -1.260898e-004 1.001268e+000 -2.301654e-001
321660000 -7.402023e-005 1.358640e-005 -2.197038e-001 8.469276e-001 -3.569450e-005 4.630888e-005 1.002299e+000 -2.291672e-001
321945000 -3.707931e-005 2.858503e-005 -1.938823e-001 8.590487e-001 -1.590264e-005 4.069449e-005 9.996069e-001 -2.309585e-001
322230000 3.526251e-006 -5.327000e-005 -1.680056e-001 8.694732e-001 -4.715503e-005 7.916714e-005 9.993913e-001 -2.311439e-001
322515000 -3.080754e-006 2.534098e-006 -1.404053e-001 8.807964e-001 8.271734e-005 1.180775e-005 9.986010e-001 -2.312969e-001
322800000 1.729305e-005 5.246028e-005 -1.132000e-001 8.904184e-001 -1.328841e-004 -9.109311e-006 1.002546e+000 -2.314623e-001
323085000 2.333143e-005 4.226151e-005 -8.530031e-002 8.990400e-001 -5.966186e-005 -5.778052e-006 1.000438e+000 -2.297941e-001
323370000 -4.953568e-005 -5.380461e-005 -5.550320e-002 9.072627e-001 2.084462e-005 4.612702e-005 1.001100e+000 -2.318442e-001
323655000 -7.542244e-006 1.621063e-005 -2.564134e-002 9.148138e-001 -3.784525e-005 -1.349303e-004 1.000302e+000 -2.320269e-001
323940000 -1.776318e-005 -1.761907e-005 4.947190e-003 9.203714e-001 -6.526364e-005 -3.957509e-005 9.997667e-001 -2.332890e-001
324225000 -5.259244e-005 6.381707e-005 3.651801e-002 9.258264e-001 6.858457e-005 -1.332520e-004 9.991003e-001 -2.318901e-001
324510000 6.034302e-005 7.778783e-005 6.833883e-002 9.306005e-001 4.139873e-006 -6.685255e-005 1.001362e+000 -2.340072e-001
324795000 -3.615269e-006 3.068308e-005 1.011318e-001 9.334824e-001 -2.406305e-005 -1.173474e-006 9.998339e-001 -2.320126e-001
325080000 1.435340e-005 3.289613e-005 1.343857e-001 9.354557e-001 2.476919e-006 3.584778e-005 1.000225e+000 -2.331354e-001
325365000 7.604549e-006 6.256274e-005 1.678614e-001 9.356594e-001 1.187265e-004 -4.087102e-005 1.000246e+000 -2.337348e-001
325650000 -5.743410e-006 2.148295e-005 2.025802e-001 9.347168e-001 -1.153212e-005 -4.011144e-005 1.001861e+000 -2.329060e-001
325935000 -9.880605e-006 4.328774e-005 2.370491e-001 9.319880e-001 1.304158e-005 4.058512e-005 1.000066e+000 -2.339678e-001
326220000 -1.318105e-005 -3.585154e-005 2.718824e-001 9.285377e-001 -2.508849e-005 -6.593926e-006 1.000384e+000 -2.346346e-001
326505000 1.891159e-005 9.796133e-005 3.071175e-001 9.232358e-001 -1.488116e-006 -4.349146e-005 1.000333e+000 -2.345718e-001
326790000 2.749588e-006 -1.037930e-004 3.432629e-001 9.168772e-001 -5.008464e-005 1.145094e-004 9.993471e-001 -2.337756e-001
327075000 -3.983168e-005 7.897895e-005 3.786021e-001 9.086101e-001 -1.232443e-005 -7.910355e-007 9.994875e-001 -2.346864e-001
327360000 3.225578e-005 -1.208436e-004 4.138828e-001 8.983912e-001 -8.280019e-005 1.314274e-005 1.001108e+000 -2.346195e-001
327645000 -3.710055e-005 -9.038211e-005 4.493816e-001 8.867348e-001 6.069921e-009 3.002895e-006 1.000405e+000 -2.347849e-001
327930000 1.154436e-005 -5.372149e-005 4.854831e-001 8.732525e-001 -6.803766e-006 4.478420e-005 9.992871e-001 -2.349423e-001
328215000 -4.842227e-005 -2.505043e-005 5.200578e-001 8.577141e-001 5.679521e-005 3.958725e-005 1.001047e+000 -2.359139e-001
328500000 -3.996660e-005 -4.923778e-005 5.550148e-001 8.404705e-001 -8.045185e-006 -1.071643e-004 9.996452e-001 -2.365636e-001
328785000 -4.241807e-005 8.743470e-005 5.893561e-001 8.221844e-001 1.033884e-004 -5.615498e-005 9.992691e-001 -2.354084e-001
329070000 5.115981e-005 -8.577409e-005 6.225019e-001 8.014267e-001 3.519758e-005 1.073242e-004 1.000167e+000 -2.355297e-001
329355000 -3.152665e-005 6.578792e-005 6.560778e-001 7.795292e-001 -9.151164e-005 -7.406894e-005 9.993130e-001 -2.371384e-001
329640000 -4.131154e-005 2.391835e-005 6.873891e-001 7.558941e-001 -4.072655e-005 2.044864e-005 1.000234e+000 -2.366227e-001
329925000 -4.017948e-005 -1.687104e-005 7.184727e-001 7.302927e-001 -5.789652e-005 -8.263851e-005 9.993236e-001 -2.365877e-001
330210000 -4.065630e-006 4.490607e-005 7.488134e-001 7.029594e-001 3.747902e-005 -9.398297e-005 9.992276e-001 -2.366081e-001
330495000 6.600843e-005 -4.942391e-006 7.771822e-001 6.733043e-001 4.332711e-005 -1.062777e-004 9.989486e-001 -2.368093e-001
330780000 -5.409557e-006 -4.961034e-005 8.040758e-001 6.438261e-001 9.914762e-005 -1.128978e-005 9.992415e-001 -2.380062e-001
331065000 6.333565e-005 3.149143e-005 8.297893e-001 6.126172e-001 -2.872166e-005 -1.774616e-005 9.985284e-001 -2.367188e-001
331350000 1.005271e-005 -4.320760e-006 8.548648e-001 5.792815e-001 4.586274e-005 7.251382e-005 9.983949e-001 -2.376277e-001
331635000 8.129992e-005 -2.403841e-005 8.775033e-001 5.457465e-001 -3.629706e-005 -5.095069e-005 1.000168e+000 -2.380362e-001
331920000 6.512900e-005 -7.444576e-005 8.983809e-001 5.101651e-001 -7.495804e-005 -1.490974e-006 1.000274e+000 -2.380080e-001
332205000 2.890391e-005 2.129944e-005 9.178399e-001 4.740348e-001 4.236322e-005 -6.328910e-005 9.988484e-001 -2.380909e-001
332490000 -7.148233e-005 1.558884e-005 9.359105e-001 4.373332e-001 -4.308061e-005 -3.813692e-005 9.999106e-001 -2.378185e-001
332775000 8.398864e-005 -2.515833e-005 9.506618e-001 3.992317e-001 -1.018138e-005 -2.547967e-005 9.998040e-001 -2.400057e-001
333060000 2.854334e-005 4.087915e-007 9.645785e-001 3.609087e-001 -3.140715e-005 -7.818327e-005 9.995805e-001 -2.380754e-001
333345000 5.308611e-005 3.299850e-005 9.759567e-001 3.219690e-001 -5.215293e-005 -1.031503e-005 1.000726e+000 -2.380110e-001
333630000 -2.478685e-005 -5.751170e-006 9.859335e-001 2.831083e-001 -1.202320e-005 1.335359e-005 9.997038e-001 -2.409779e-001
333915000 8.383179e-005 -5.867457e-005 9.937407e-001 2.438669e-001 -9.821833e-005 6.764993e-005 9.983289e-001 -2.395001e-001
334200000 -1.640749e-005 2.029580e-005 1.000009e+000 2.034587e-001 5.407492e-006 5.859877e-005 9.996095e-001 -2.405136e-001
334485000 9.216468e-005 -1.479010e-004 1.004113e+000 1.651657e-001 -4.284386e-005 -5.825322e-005 9.994122e-001 -2.397362e-001
334770000 1.009353e-005 -3.607699e-005 1.006880e+000 1.256289e-001 1.367318e-006 -2.102041e-005 9.995250e-001 -2.399826e-001
335055000 2.100170e-005 5.732693e-005 1.006105e+000 8.659521e-002 1.122922e-004 -4.042926e-005 1.000071e+000 -2.402130e-001
335340000 -5.571892e-005 -2.336134e-005 1.004608e+000 4.792264e-002 2.722759e-005 -2.340133e-005 1.000183e+000 -2.412547e-001
335625000 -1.883897e-005 -3.167821e-005 1.001798e+000 9.857773e-003 6.562946e-005 -1.087413e-004 9.995994e-001 -2.413029e-001
335910000 5.939944e-005 -2.480611e-005 9.966703e-001 -2.721699e-002 -5.952474e-005 -5.653191e-005 9.987918e-001 -2.415945e-001
336195000 1.354077e-004 -7.289500e-005 9.901105e-001 -6.374273e-002 -6.712570e-005 -1.789737e-005 9.979894e-001 -2.413959e-001
336480000 2.158003e-005 -6.338519e-005 9.824529e-001 -9.967656e-002 -1.287440e-005 -2.127242e-005 9.989603e-001 -2.410487e-001
336765000 6.086459e-005 8.307688e-006 9.730778e-001 -1.343940e-001 3.151486e-005 2.921949e-005 9.984750e-001 -2.412012e-001
337050000 -1.956729e-005 -5.518871e-005 9.617968e-001 -1.694840e-001 6.234433e-005 2.327669e-005 9.995642e-001 -2.417982e-001
337335000 1.090888e-004 -3.358914e-006 9.505287e-001 -2.031161e-001 4.450251e-005 8.929646e-005 9.986876e-001 -2.433710e-001
337620000 -9.575114e-005 1.462486e-005 9.365930e-001 -2.352838e-001 1.277113e-004 6.996821e-005 9.987136e-001 -2.428761e-001
337905000 -4.212838e-005 -6.447481e-005 9.221619e-001 -2.661201e-001 5.305250e-005 -3.353194e-005 9.985219e-001 -2.419251e-001
338190000 -1.625800e-006 4.540836e-005 9.068254e-001 -2.969384e-001 8.303756e-005 1.068485e-004 9.981249e-001 -2.430918e-001
338475000 4.618751e-005 -7.380881e-008 8.911971e-001 -3.262148e-001 1.230544e-005 -4.524339e-005 9.987841e-001 -2.419333e-001
338760000 6.203084e-005 -1.484848e-005 8.736804e-001 -3.544882e-001 -3.629717e-005 1.117321e-004 9.986799e-001 -2.435468e-001
339045000 -8.288012e-005 -1.808980e-005 8.560925e-001 -3.816589e-001 2.157777e-005 -1.319200e-005 9.986597e-001 -2.445373e-001
339330000 -5.455998e-006 -7.025099e-006 8.371430e-001 -4.077156e-001 6.204113e-005 -6.962308e-005 9.991733e-001 -2.427479e-001
339615000 6.988897e-006 1.053687e-005 8.182493e-001 -4.324879e-001 -1.023307e-004 1.156605e-005 9.993460e-001 -2.438023e-001
339900000 -9.783110e-006 3.670628e-005 7.981933e-001 -4.566164e-001 -1.659484e-005 1.696007e-005 9.985259e-001 -2.447973e-001
340185000 -1.579959e-005 8.800521e-005 7.779140e-001 -4.792905e-001 -9.201555e-006 -4.881292e-005 9.982245e-001 -2.449003e-001
340470000 7.443681e-005 1.082697e-004 7.571030e-001 -5.013804e-001 -1.761585e-005 -1.012672e-004 9.987884e-001 -2.438917e-001
340755000 -1.978675e-005 -4.609502e-005 7.361359e-001 -5.225636e-001 1.782264e-005 -7.283963e-005 9.985079e-001 -2.461064e-001
341040000 -6.516080e-005 9.949473e-005 7.145560e-001 -5.420750e-001 5.266431e-005 2.546956e-005 9.988616e-001 -2.450303e-001
341325000 -1.216745e-004 -1.688556e-004 6.927117e-001 -5.612077e-001 -4.629606e-005 8.575314e-006 9.990429e-001 -2.432125e-001
341610000 4.808614e-005 -2.845902e-005 6.706833e-001 -5.790344e-001 6.739282e-005 -4.458758e-005 9.995211e-001 -2.441213e-001
341895000 -2.982485e-005 -3.664605e-005 6.482705e-001 -5.956767e-001 6.231627e-006 -6.265687e-005 9.981198e-001 -2.463523e-001
342180000 3.009282e-005 -5.245962e-005 6.258017e-001 -6.113380e-001 5.885595e-006 1.343609e-005 9.988596e-001 -2.458858e-001
342465000 1.007485e-005 -3.761350e-005 6.032616e-001 -6.266521e-001 5.677302e-005 3.223810e-005 9.988596e-001 -2.474248e-001
342750000 -1.644130e-005 3.700529e-005 5.805300e-001 -6.412267e-001 8.322448e-005 5.747255e-005 9.997694e-001 -2.447665e-001
343035000 3.149477e-005 9.780368e-005 5.579719e-001 -6.538714e-001 3.738384e-005 9.613823e-005 9.982813e-001 -2.467016e-001
343320000 3.531317e-005 6.864883e-005 5.351753e-001 -6.666452e-001 3.221162e-005 6.152970e-005 9.977309e-001 -2.462303e-001
343605000 -4.975538e-005 9.230923e-005 5.122880e-001 -6.784775e-001 -1.292464e-004 3.512813e-005 9.971011e-001 -2.464720e-001
343890000 -1.165157e-005 -1.510106e-005 4.896236e-001 -6.891627e-001 -5.963146e-005 -3.565174e-005 9.978557e-001 -2.473939e-001
