!Agilent Technologies,N5230C,SG49000117,A.08.50.07
!Agilent N5230C: A.08.50.07
!Date: Sunday, March 17, 2024 09:29:46
!Correction: S11(Off) 
!S21(Off) 
!S12(Off) 
!S22(Full 1 Port(2)) 
!S2P File: Measurements: S11, S21, S12, S22:
# Hz S  RI   R 50
300000000 -1.626601e-005 -1.574036e-004 -6.439803e-001 -6.204711e-001 -1.129302e-004 -1.751911e-005 9.920824e-001 -2.511274e-001
300285000 5.476655e-005 -4.404013e-006 -6.580978e-001 -5.970376e-001 4.114934e-005 5.163638e-005 9.930075e-001 -2.505228e-001
300570000 3.906727e-005 -2.712985e-005 -6.719204e-001 -5.728989e-001 5.185943e-005 6.603625e-005 9.933193e-001 -2.512388e-001
300855000 7.278995e-006 -2.409953e-005 -6.841869e-001 -5.499122e-001 -1.803174e-004 -8.249262e-006 9.936084e-001 -2.493860e-001
301140000 7.241969e-005 5.817360e-005 -6.955643e-001 -5.258433e-001 -7.461340e-005 5.384569e-005 9.924805e-001 -2.514432e-001
301425000 -1.727747e-004 -6.536586e-005 -7.066654e-001 -5.022631e-001 -4.475499e-005 7.575383e-005 9.942316e-001 -2.509435e-001
301710000 -1.557399e-004 1.254018e-004 -7.171197e-001 -4.780954e-001 -7.751257e-005 -1.967840e-006 9.946660e-001 -2.548272e-001
301995000 5.430076e-005 1.899722e-005 -7.263159e-001 -4.546173e-001 7.832094e-005 9.645073e-005 9.918717e-001 -2.517241e-001
302280000 1.254412e-005 3.525085e-005 -7.353246e-001 -4.311926e-001 -5.221201e-005 5.160237e-005 9.953035e-001 -2.514213e-001
302565000 -1.116569e-005 8.072417e-005 -7.429558e-001 -4.075947e-001 -5.284975e-005 5.960412e-005 9.949829e-001 -2.539247e-001
302850000 -2.911791e-005 7.941417e-005 -7.500787e-001 -3.840996e-001 -9.925629e-005 2.821119e-005 9.922369e-001 -2.522830e-001
303135000 -1.048533e-005 -1.579620e-005 -7.564733e-001 -3.614172e-001 -1.336286e-004 5.698290e-005 9.922772e-001 -2.533082e-001
303420000 -5.271211e-005 -1.158994e-005 -7.622471e-001 -3.384553e-001 5.622991e-006 -6.494237e-005 9.928773e-001 -2.543757e-001
303705000 -7.824405e-005 1.927907e-005 -7.677991e-001 -3.149926e-001 -1.404489e-004 -4.464872e-005 9.947073e-001 -2.544459e-001
303990000 -2.817376e-005 -1.531528e-004 -7.725010e-001 -2.921140e-001 -1.451676e-004 -5.065068e-006 9.921472e-001 -2.536332e-001
304275000 -5.831529e-006 -1.658780e-004 -7.767416e-001 -2.695969e-001 6.593531e-006 -7.498500e-005 9.933155e-001 -2.555962e-001
304560000 3.819030e-005 -5.188114e-005 -7.800945e-001 -2.467796e-001 -8.376053e-005 -4.432496e-005 9.923192e-001 -2.551453e-001
304845000 4.917856e-005 -1.718469e-005 -7.835627e-001 -2.248136e-001 -3.988587e-005 -1.235452e-004 9.911466e-001 -2.532835e-001
305130000 -3.360157e-006 -1.012785e-004 -7.857467e-001 -2.024610e-001 -5.517962e-005 -2.140821e-005 9.923370e-001 -2.547830e-001
305415000 1.637755e-005 -7.608617e-005 -7.877929e-001 -1.801715e-001 1.310101e-004 -3.459634e-005 9.931331e-001 -2.541224e-001
305700000 6.412254e-005 -2.194684e-005 -7.892914e-001 -1.582213e-001 4.399567e-005 -7.376052e-005 9.938971e-001 -2.550007e-001
305985000 1.003278e-004 4.734563e-005 -7.905152e-001 -1.362507e-001 1.671768e-005 7.843335e-005 9.917243e-001 -2.558752e-001
306270000 1.603875e-005 5.916975e-005 -7.909149e-001 -1.146197e-001 2.470632e-004 -4.178514e-005 9.948239e-001 -2.561441e-001
306555000 -2.354263e-005 6.741677e-005 -7.911060e-001 -9.344577e-002 -6.336506e-006 -1.958298e-005 9.929469e-001 -2.567199e-001
306840000 1.529615e-004 -2.865511e-005 -7.905727e-001 -7.235833e-002 -4.355900e-005 1.150974e-004 9.924235e-001 -2.566346e-001
307125000 6.419476e-005 2.524257e-005 -7.904841e-001 -5.105093e-002 3.460547e-005 5.389642e-005 9.936302e-001 -2.570235e-001
307410000 4.234419e-006 2.407842e-005 -7.885241e-001 -3.013294e-002 4.373827e-005 1.441851e-006 9.925889e-001 -2.567471e-001
307695000 4.942860e-005 7.264096e-005 -7.869012e-001 -9.358597e-003 3.318513e-005 -4.344050e-005 9.920666e-001 -2.576253e-001
307980000 -2.730029e-005 -8.256960e-005 -7.854999e-001 1.137184e-002 -3.154817e-005 -3.547315e-005 9.914458e-001 -2.575145e-001
308265000 -7.270854e-005 2.341935e-005 -7.832604e-001 3.185583e-002 1.355483e-005 3.153464e-005 9.921635e-001 -2.576420e-001
308550000 -6.231199e-005 1.203366e-004 -7.803803e-001 5.233684e-002 -3.073767e-006 2.846153e-005 9.900677e-001 -2.558007e-001
308835000 -9.048408e-006 -3.511700e-005 -7.771926e-001 7.244456e-002 7.105229e-005 5.320100e-005 9.919965e-001 -2.584921e-001
309120000 -3.225411e-005 1.921108e-005 -7.736421e-001 9.353450e-002 -5.760395e-005 -3.783376e-005 9.933572e-001 -2.590750e-001
309405000 -5.972276e-005 7.590446e-005 -7.701952e-001 1.128342e-001 2.438191e-005 -6.697657e-005 9.956283e-001 -2.592765e-001
309690000 -5.413159e-005 7.220962e-005 -7.656732e-001 1.328041e-001 -1.164946e-006 -4.059088e-005 9.934425e-001 -2.602813e-001
309975000 1.113000e-005 4.930959e-005 -7.613550e-001 1.526687e-001 -5.679499e-005 -7.894655e-005 9.933810e-001 -2.580871e-001
310260000 -4.528823e-005 -4.244769e-005 -7.561547e-001 1.720304e-001 -8.910954e-005 -3.236829e-005 9.928399e-001 -2.599916e-001
310545000 -9.287457e-005 -4.885441e-005 -7.513536e-001 1.915876e-001 -1.565933e-005 3.947458e-005 9.926360e-001 -2.598259e-001
310830000 -2.908962e-005 -6.233467e-005 -7.456776e-001 2.106076e-001 4.016911e-006 8.878487e-005 9.946367e-001 -2.602948e-001
311115000 -1.124446e-005 -1.614526e-005 -7.395202e-001 2.304148e-001 6.827621e-005 -9.838059e-005 9.925279e-001 -2.601837e-001
311400000 -2.527815e-005 -3.656344e-005 -7.333438e-001 2.494605e-001 -1.050725e-005 -3.923837e-005 9.918566e-001 -2.606555e-001
311685000 -5.412638e-005 -1.134992e-004 -7.263296e-001 2.683283e-001 1.822290e-005 -3.884925e-005 9.921799e-001 -2.592404e-001
311970000 2.367856e-005 -2.214541e-005 -7.191266e-001 2.874431e-001 1.558310e-004 -6.178164e-006 9.910172e-001 -2.611635e-001
312255000 5.195540e-006 -2.935501e-005 -7.121608e-001 3.064619e-001 6.890374e-005 6.952756e-005 9.905061e-001 -2.607212e-001
312540000 8.914967e-005 -3.396274e-005 -7.046445e-001 3.252577e-001 -4.950401e-005 -8.189100e-006 9.919131e-001 -2.602387e-001
312825000 -9.070635e-006 1.340549e-005 -6.958238e-001 3.438033e-001 1.059753e-005 1.257071e-004 9.922418e-001 -2.612266e-001
313110000 9.413524e-005 -3.446933e-005 -6.881794e-001 3.625415e-001 -7.772753e-005 4.475004e-005 9.919947e-001 -2.622829e-001
313395000 6.315726e-005 4.917790e-005 -6.788461e-001 3.813802e-001 -9.958095e-006 4.910942e-005 9.910100e-001 -2.618494e-001
313680000 5.609065e-005 5.772901e-007 -6.696560e-001 3.996892e-001 -2.956821e-005 -7.512542e-006 9.934533e-001 -2.617397e-001
313965000 8.659288e-005 1.109159e-004 -6.602469e-001 4.178960e-001 -2.327196e-005 6.380606e-005 9.912994e-001 -2.629517e-001
314250000 7.845025e-005 6.786214e-005 -6.497703e-001 4.364587e-001 -6.452834e-005 -5.355430e-005 9.899887e-001 -2.632650e-001
314535000 -2.539213e-005 1.106492e-004 -6.389765e-001 4.544578e-001 -1.527624e-005 -2.360234e-006 9.901236e-001 -2.637447e-001
314820000 6.245873e-005 2.797317e-007 -6.288939e-001 4.729834e-001 -2.097252e-005 4.803888e-005 9.910746e-001 -2.627425e-001
315105000 7.934270e-005 -4.973066e-005 -6.171650e-001 4.908022e-001 1.677668e-005 6.556978e-005 9.894524e-001 -2.630737e-001
315390000 8.097774e-005 2.342998e-005 -6.052458e-001 5.087259e-001 9.847447e-006 -7.615893e-006 9.919788e-001 -2.629968e-001
315675000 6.891914e-005 8.502576e-005 -5.929933e-001 5.259497e-001 -3.045951e-005 -5.494885e-005 9.907091e-001 -2.634797e-001
315960000 1.983543e-005 8.239855e-005 -5.799770e-001 5.441083e-001 2.309072e-005 -2.316654e-006 9.913058e-001 -2.633273e-001
316245000 -1.844913e-005 5.577362e-005 -5.667140e-001 5.618966e-001 5.662938e-005 -5.787827e-005 9.900571e-001 -2.646164e-001
316530000 1.894937e-005 -1.152584e-005 -5.534315e-001 5.793988e-001 5.774482e-005 -8.947806e-006 9.897329e-001 -2.641012e-001
316815000 2.145087e-005 6.616261e-006 -5.387661e-001 5.965031e-001 4.393767e-005 -8.081841e-005 9.918919e-001 -2.650987e-001
317100000 -1.430721e-005 -5.774849e-005 -5.245346e-001 6.135902e-001 7.008888e-005 2.427405e-005 9.906407e-001 -2.646691e-001
317385000 -1.553817e-004 9.931042e-005 -5.089229e-001 6.306570e-001 -4.433571e-005 8.770894e-005 9.921225e-001 -2.644544e-001
317670000 -7.425615e-005 4.010276e-005 -4.933120e-001 6.474569e-001 2.958925e-005 -3.832021e-005 9.915134e-001 -2.653720e-001
317955000 -6.694426e-005 1.604601e-005 -4.763066e-001 6.643252e-001 -8.761144e-005 -9.727140e-006 9.923405e-001 -2.656088e-001
318240000 -9.925862e-005 -4.143212e-005 -4.595050e-001 6.805862e-001 -8.368218e-005 4.802862e-005 9.900162e-001 -2.650654e-001
318525000 -7.488154e-005 -9.563504e-005 -4.419854e-001 6.967850e-001 -1.435125e-005 -2.153289e-005 9.911212e-001 -2.657922e-001
318810000 -1.695897e-004 -3.665411e-005 -4.236091e-001 7.128316e-001 3.178683e-005 9.822001e-006 9.902704e-001 -2.655705e-001
319095000 -4.431466e-005 -1.007381e-004 -4.048719e-001 7.284508e-001 -4.216614e-006 -1.142306e-005 9.909164e-001 -2.650268e-001
319380000 -9.106230e-006 -1.506281e-006 -3.852224e-001 7.438756e-001 -3.083587e-005 -9.095865e-006 9.915137e-001 -2.670207e-001
319665000 4.771293e-006 -2.902770e-005 -3.651972e-001 7.588449e-001 -1.094987e-004 -7.658955e-005 9.913239e-001 -2.657269e-001
319950000 2.852100e-005 1.495252e-005 -3.437651e-001 7.740589e-001 6.105730e-006 1.386375e-004 9.900854e-001 -2.684485e-001
320235000 -5.143087e-005 -1.578479e-004 -3.224555e-001 7.886823e-001 -6.740336e-005 6.493316e-005 9.916550e-001 -2.683274e-001
320520000 2.028856e-005 5.695985e-005 -3.004109e-001 8.022009e-001 5.867160e-005 -5.272416e-005 9.905102e-001 -2.682610e-001
320805000 -2.644321e-005 -7.477772e-005 -2.771965e-001 8.156172e-001 -4.749401e-005 -7.679677e-005 9.897535e-001 -2.674822e-001
321090000 6.689109e-005 -3.684034e-005 -2.536307e-001 8.287644e-001 4.165492e-005 -8.007632e-006 9.893419e-001 -2.680176e-001
321375000 -2.962861e-005 1.110454e-004 -2.282976e-001 8.413909e-001 -1.196342e-004 -1.073111e-004 9.911513e-001 -2.688647e-001
321660000 -7.076078e-005 -6.811188e-005 -2.036955e-001 8.531343e-001 -7.140082e-005 -2.979731e-006 9.917510e-001 -2.683499e-001
321945000 1.278145e-005 1.998998e-005 -1.778971e-001 8.642687e-001 3.782245e-005 -6.616681e-005 9.901752e-001 -2.700495e-001
322230000 8.245723e-005 -2.480144e-005 -1.511700e-001 8.750212e-001 6.275711e-005 1.096849e-004 9.888695e-001 -2.713761e-001
322515000 9.000654e-005 -3.067459e-006 -1.239175e-001 8.851470e-001 3.828825e-005 6.379367e-006 9.888921e-001 -2.700350e-001
322800000 -2.329410e-005 7.623553e-005 -9.628977e-002 8.948526e-001 6.583420e-005 3.978362e-005 9.918506e-001 -2.692895e-001
323085000 1.041395e-004 -2.033137e-006 -6.651008e-002 9.029855e-001 6.472792e-005 6.640198e-005 9.907323e-001 -2.695207e-001
323370000 -2.548772e-006 -5.775500e-005 -3.677018e-002 9.108667e-001 1.484089e-004 -9.253302e-005 9.899638e-001 -2.705050e-001
323655000 2.292256e-005 -1.027073e-004 -6.654624e-003 9.171799e-001 3.667737e-005 2.155836e-005 9.893894e-001 -2.718127e-001
323940000 -2.044556e-005 -3.968682e-006 2.456740e-002 9.229135e-001 -1.114776e-004 1.310066e-004 9.887521e-001 -2.722436e-001
324225000 -4.548143e-006 -6.805609e-005 5.614886e-002 9.275149e-001 1.888722e-005 1.349832e-005 9.880004e-001 -2.717648e-001
324510000 -5.582222e-005 -1.897077e-005 8.801573e-002 9.309950e-001 1.094370e-004 1.827903e-005 9.902596e-001 -2.724541e-001
324795000 -1.091598e-004 4.834267e-005 1.213486e-001 9.332892e-001 -1.478377e-005 -5.460231e-006 9.892133e-001 -2.710208e-001
325080000 -2.567943e-005 5.245681e-005 1.551703e-001 9.345199e-001 5.612495e-005 -6.716368e-006 9.893817e-001 -2.726141e-001
325365000 -2.886179e-005 3.178547e-006 1.890176e-001 9.339068e-001 -1.799221e-005 7.971079e-005 9.904428e-001 -2.721323e-001
325650000 -8.973527e-005 -6.865372e-005 2.225962e-001 9.321628e-001 -1.125391e-005 3.592359e-005 9.906656e-001 -2.728756e-001
325935000 3.185935e-005 -5.919371e-005 2.574683e-001 9.291559e-001 -1.192074e-004 1.196760e-005 9.891114e-001 -2.735258e-001
326220000 -1.666652e-005 -1.230134e-004 2.926096e-001 9.250050e-001 -3.356870e-005 1.736000e-004 9.905847e-001 -2.737271e-001
326505000 3.253552e-005 -1.019785e-004 3.278997e-001 9.184986e-001 -2.937864e-005 -5.445885e-005 9.895771e-001 -2.741027e-001
326790000 -8.066734e-006 7.239184e-005 3.637940e-001 9.106572e-001 -6.044161e-005 -6.268637e-006 9.875525e-001 -2.720157e-001
327075000 8.239087e-005 -4.206066e-005 3.994514e-001 9.013383e-001 -5.183476e-005 -3.355644e-005 9.888071e-001 -2.743469e-001
327360000 4.428167e-005 2.858090e-005 4.349570e-001 8.902243e-001 -2.902846e-006 -2.251905e-005 9.895557e-001 -2.736107e-001
327645000 -9.900635e-005 1.413634e-006 4.703281e-001 8.774364e-001 5.160297e-005 5.393567e-006 9.901387e-001 -2.734216e-001
327930000 -1.649414e-005 -8.590965e-005 5.055482e-001 8.630277e-001 7.580256e-005 -4.935320e-006 9.889005e-001 -2.740147e-001
328215000 2.953644e-005 3.592279e-005 5.400680e-001 8.468711e-001 7.023196e-005 1.912641e-005 9.884684e-001 -2.759187e-001
328500000 -2.706315e-005 -7.623856e-006 5.750805e-001 8.294491e-001 3.417558e-005 1.143651e-004 9.886767e-001 -2.757034e-001
328785000 -1.270665e-004 -6.669908e-005 6.085959e-001 8.096840e-001 -2.851968e-006 5.441632e-005 9.885175e-001 -2.744641e-001
329070000 -1.085789e-004 2.414248e-005 6.415362e-001 7.876241e-001 9.125544e-006 2.540377e-005 9.892324e-001 -2.751924e-001
329355000 2.142964e-005 -3.772053e-006 6.743655e-001 7.649031e-001 -1.984295e-005 -9.290622e-005 9.891546e-001 -2.762796e-001
329640000 -1.318671e-004 3.304462e-005 7.055261e-001 7.394983e-001 -6.356844e-006 6.280977e-005 9.893917e-001 -2.761818e-001
329925000 -1.518469e-005 4.980707e-005 7.361964e-001 7.131405e-001 -7.847399e-005 1.400400e-005 9.881095e-001 -2.761922e-001
330210000 -9.381995e-005 -9.305057e-006 7.651818e-001 6.847991e-001 -1.261526e-004 -2.884684e-006 9.881572e-001 -2.764724e-001
330495000 8.118184e-005 -9.104252e-005 7.931153e-001 6.556690e-001 3.642212e-006 -8.477120e-005 9.880903e-001 -2.764764e-001
330780000 8.593563e-006 4.518569e-006 8.196203e-001 6.246493e-001 1.046215e-005 -8.241104e-005 9.884091e-001 -2.781778e-001
331065000 -1.285971e-005 3.706962e-005 8.445129e-001 5.922396e-001 2.179298e-005 -4.435013e-005 9.863971e-001 -2.760672e-001
331350000 5.076437e-005 -6.551410e-007 8.677966e-001 5.588332e-001 1.623926e-005 -9.838078e-005 9.874268e-001 -2.778227e-001
331635000 3.622139e-005 6.859431e-005 8.899282e-001 5.239533e-001 1.893091e-005 1.107273e-005 9.886484e-001 -2.777328e-001
331920000 2.782759e-006 9.459897e-006 9.096236e-001 4.884661e-001 3.938934e-005 -3.815982e-006 9.879528e-001 -2.769919e-001
332205000 1.923986e-005 5.220925e-005 9.276457e-001 4.515938e-001 7.716699e-005 1.505228e-006 9.884557e-001 -2.785773e-001
332490000 -6.434744e-006 8.350450e-005 9.443755e-001 4.142613e-001 -5.531288e-005 9.668472e-005 9.882724e-001 -2.776777e-001
332775000 -8.884577e-005 -9.875692e-006 9.582858e-001 3.756057e-001 1.472674e-005 -1.580360e-005 9.880309e-001 -2.787433e-001
333060000 3.565706e-005 1.442300e-004 9.714203e-001 3.376443e-001 -1.502041e-005 1.232331e-004 9.878985e-001 -2.794847e-001
333345000 -1.036829e-004 1.442351e-005 9.820264e-001 2.983139e-001 -5.539081e-006 4.292559e-005 9.885750e-001 -2.783162e-001
333630000 1.260709e-005 -1.926355e-005 9.911501e-001 2.588723e-001 -3.513993e-005 -1.216061e-005 9.878941e-001 -2.805698e-001
333915000 -6.376713e-005 1.286133e-004 9.971936e-001 2.196838e-001 -1.063296e-004 2.746066e-005 9.870244e-001 -2.793911e-001
334200000 -6.465199e-005 -6.707022e-005 1.001986e+000 1.802887e-001 -3.139638e-005 3.869830e-005 9.887126e-001 -2.805596e-001
334485000 1.291082e-005 1.848583e-005 1.005394e+000 1.408549e-001 3.192211e-005 2.267314e-005 9.870445e-001 -2.793588e-001
334770000 6.777845e-005 7.942113e-005 1.006712e+000 1.016303e-001 -7.361039e-005 -1.349449e-005 9.885392e-001 -2.804502e-001
335055000 -2.486032e-005 5.219900e-005 1.005447e+000 6.253245e-002 -7.028447e-005 7.170052e-005 9.890670e-001 -2.799425e-001
335340000 -5.818174e-005 3.274227e-005 1.002711e+000 2.474598e-002 -1.655920e-006 1.475246e-004 9.878853e-001 -2.825138e-001
335625000 -9.298306e-005 8.939799e-005 9.989108e-001 -1.245344e-002 -7.821109e-005 7.823430e-005 9.871024e-001 -2.815849e-001
335910000 2.215795e-006 1.202449e-004 9.926531e-001 -5.000631e-002 4.904961e-005 7.621150e-005 9.884890e-001 -2.810889e-001
336195000 -7.442409e-005 -7.913444e-006 9.857029e-001 -8.618723e-002 -2.118731e-005 -3.577204e-006 9.860305e-001 -2.818218e-001
336480000 -2.921025e-005 3.366570e-005 9.767329e-001 -1.221533e-001 -5.035536e-006 3.339841e-005 9.887095e-001 -2.805393e-001
336765000 -5.146213e-005 -5.640701e-005 9.665087e-001 -1.567040e-001 6.830427e-005 2.653113e-005 9.870153e-001 -2.814867e-001
337050000 -7.058825e-005 -8.253571e-005 9.544363e-001 -1.903075e-001 5.811866e-005 -4.392147e-005 9.876394e-001 -2.830275e-001
337335000 -2.317875e-006 5.669750e-005 9.418302e-001 -2.233895e-001 -1.209405e-004 1.612216e-005 9.873965e-001 -2.840324e-001
337620000 -1.197078e-004 -8.272041e-005 9.284762e-001 -2.551157e-001 -3.376467e-005 5.564325e-005 9.881599e-001 -2.839302e-001
337905000 -4.533281e-005 9.575267e-005 9.132283e-001 -2.851985e-001 -5.544346e-005 -1.252054e-005 9.856538e-001 -2.828284e-001
338190000 -1.236847e-005 -5.289961e-005 8.974747e-001 -3.155398e-001 -8.384347e-005 4.130933e-005 9.870151e-001 -2.843976e-001
338475000 -2.251040e-005 -1.994201e-005 8.798221e-001 -3.448118e-001 5.153816e-006 9.178476e-005 9.872980e-001 -2.831845e-001
338760000 -8.984534e-005 -4.561713e-005 8.626342e-001 -3.721079e-001 -1.587093e-004 -1.303275e-006 9.862756e-001 -2.821802e-001
339045000 3.494556e-005 -6.837094e-006 8.443120e-001 -3.988765e-001 -1.403148e-004 -4.653555e-006 9.876048e-001 -2.831166e-001
339330000 6.984214e-005 -4.583874e-005 8.253854e-001 -4.239295e-001 -1.748672e-005 9.900538e-005 9.874009e-001 -2.832079e-001
339615000 -1.187532e-005 -3.310411e-005 8.055893e-001 -4.481955e-001 -5.625589e-008 -7.652956e-005 9.866954e-001 -2.848404e-001
339900000 1.276313e-005 7.358482e-006 7.853677e-001 -4.713883e-001 -4.602179e-005 5.505144e-005 9.864774e-001 -2.865319e-001
340185000 1.645560e-004 -8.204030e-005 7.645493e-001 -4.941635e-001 9.860475e-005 -1.476686e-004 9.860614e-001 -2.862423e-001
340470000 6.014130e-005 -6.363191e-006 7.439580e-001 -5.154661e-001 1.170217e-005 -3.998975e-005 9.862986e-001 -2.833335e-001
340755000 2.456414e-005 -6.459175e-005 7.218550e-001 -5.355142e-001 8.260629e-005 -1.158798e-004 9.866405e-001 -2.859773e-001
341040000 4.539978e-005 -2.724553e-005 7.005216e-001 -5.549296e-001 1.057666e-004 7.371658e-006 9.856703e-001 -2.878546e-001
341325000 2.017608e-005 5.150243e-005 6.783973e-001 -5.731016e-001 1.736551e-005 6.783628e-005 9.866776e-001 -2.849952e-001
341610000 -4.285272e-005 6.610016e-005 6.556557e-001 -5.897695e-001 2.441137e-005 -2.887584e-006 9.877291e-001 -2.843962e-001
341895000 -1.173932e-004 9.966257e-005 6.333709e-001 -6.064113e-001 3.387092e-005 1.117878e-004 9.857296e-001 -2.873930e-001
342180000 -2.005753e-005 8.036796e-005 6.113799e-001 -6.224513e-001 3.761086e-005 2.007803e-005 9.874949e-001 -2.859624e-001
342465000 -3.308417e-005 2.158737e-005 5.886616e-001 -6.366606e-001 1.668815e-005 1.201291e-004 9.861836e-001 -2.870105e-001
342750000 -5.760686e-005 2.614131e-005 5.656515e-001 -6.501055e-001 -4.151789e-005 4.370736e-005 9.875834e-001 -2.879702e-001
343035000 -2.391205e-005 -5.707181e-005 5.429621e-001 -6.627532e-001 -6.883454e-006 -6.523833e-005 9.855156e-001 -2.884185e-001
343320000 4.387528e-005 -1.580993e-005 5.202597e-001 -6.751383e-001 1.985910e-005 1.007199e-004 9.855367e-001 -2.888141e-001
343605000 -8.146074e-005 -1.572807e-005 4.971241e-001 -6.861721e-001 3.026716e-005 -2.113394e-004 9.844415e-001 -2.887428e-001
343890000 -1.270022e-005 -1.247009e-004 4.743535e-001 -6.966919e-001 5.859498e-005 -3.527342e-005 9.860103e-001 -2.889856e-001
