!Agilent Technologies,N5230C,SG49000117,A.08.50.07
!Agilent N5230C: A.08.50.07
!Date: Sunday, March 17, 2024 09:30:41
!Correction: S11(Off) 
!S21(Off) 
!S12(Off) 
!S22(Full 1 Port(2)) 
!S2P File: Measurements: S11, S21, S12, S22:
# Hz S  RI   R 50
300000000 -6.023962e-005 -2.153261e-005 -6.602897e-001 -5.956894e-001 1.391082e-005 -7.491776e-005 9.719408e-001 -3.188156e-001
300285000 -4.013273e-005 -4.994409e-005 -6.732211e-001 -5.711212e-001 3.145888e-005 -1.540220e-004 9.717790e-001 -3.182933e-001
300570000 1.793741e-005 6.312675e-005 -6.853850e-001 -5.476871e-001 -2.348711e-005 3.974478e-005 9.713100e-001 -3.195870e-001
300855000 -6.401139e-005 -2.266352e-005 -6.978225e-001 -5.238773e-001 7.406580e-005 2.586728e-006 9.725708e-001 -3.185369e-001
301140000 -4.671920e-005 -3.404864e-005 -7.084437e-001 -5.002819e-001 -2.795077e-005 7.862005e-005 9.713694e-001 -3.213055e-001
301425000 -5.851035e-006 -9.607009e-005 -7.189441e-001 -4.764546e-001 3.874221e-005 1.843669e-005 9.727183e-001 -3.210928e-001
301710000 -2.977557e-005 -1.125026e-004 -7.277390e-001 -4.529869e-001 3.163296e-005 1.456093e-005 9.725211e-001 -3.216930e-001
301995000 9.502403e-006 -3.397628e-005 -7.365093e-001 -4.295343e-001 7.453391e-005 1.154154e-004 9.718844e-001 -3.198896e-001
302280000 3.911617e-005 -8.587819e-006 -7.445059e-001 -4.058463e-001 1.019748e-004 1.205038e-005 9.726031e-001 -3.206719e-001
302565000 2.595523e-005 3.222981e-005 -7.512779e-001 -3.817884e-001 4.197117e-005 -8.291009e-007 9.723275e-001 -3.219479e-001
302850000 -4.077092e-005 3.055581e-005 -7.585104e-001 -3.587520e-001 -2.001965e-005 1.066160e-004 9.719999e-001 -3.213144e-001
303135000 6.556126e-006 1.048476e-004 -7.641061e-001 -3.354033e-001 2.753662e-005 5.355496e-005 9.708055e-001 -3.224579e-001
303420000 7.554612e-005 -2.018356e-005 -7.690250e-001 -3.125361e-001 9.129996e-005 1.660868e-005 9.715496e-001 -3.223679e-001
303705000 6.397096e-005 -7.350269e-005 -7.739062e-001 -2.892765e-001 -4.308354e-005 7.944123e-005 9.720947e-001 -3.226802e-001
303990000 2.276145e-005 -1.108572e-005 -7.779365e-001 -2.669236e-001 -7.355251e-005 -2.988108e-005 9.712750e-001 -3.224680e-001
304275000 -8.661179e-005 7.082807e-005 -7.806613e-001 -2.443375e-001 -4.420965e-005 -5.440786e-006 9.709933e-001 -3.237442e-001
304560000 -8.520926e-005 7.759615e-005 -7.843347e-001 -2.218267e-001 -6.112525e-005 3.736101e-006 9.711954e-001 -3.235777e-001
304845000 -5.176154e-005 2.900247e-005 -7.867823e-001 -1.993316e-001 -8.387694e-005 -7.101042e-005 9.714223e-001 -3.219778e-001
305130000 -9.121861e-005 1.641719e-005 -7.885802e-001 -1.775435e-001 -3.934682e-005 -1.098485e-004 9.698375e-001 -3.234175e-001
305415000 -2.295668e-005 -8.431829e-006 -7.901504e-001 -1.555941e-001 -5.723919e-006 4.536799e-006 9.701216e-001 -3.246240e-001
305700000 -4.564533e-005 2.842648e-005 -7.912151e-001 -1.336450e-001 1.524292e-005 -1.463894e-004 9.706521e-001 -3.236766e-001
305985000 -1.071644e-004 -4.178539e-005 -7.916502e-001 -1.121980e-001 -4.510302e-005 -5.751761e-005 9.708663e-001 -3.255173e-001
306270000 5.717406e-005 -1.259144e-006 -7.916446e-001 -9.022167e-002 6.434118e-005 -8.159003e-005 9.731146e-001 -3.256043e-001
306555000 -2.779494e-005 9.728472e-006 -7.911687e-001 -6.893907e-002 1.853687e-006 -2.928060e-005 9.704370e-001 -3.259441e-001
306840000 4.713287e-005 -3.079029e-005 -7.907387e-001 -4.818777e-002 5.196979e-005 -1.318631e-005 9.709492e-001 -3.232999e-001
307125000 -7.141017e-005 2.700796e-005 -7.888723e-001 -2.683422e-002 1.935946e-004 4.986525e-005 9.705283e-001 -3.269954e-001
307410000 2.646572e-006 -2.613634e-005 -7.872639e-001 -6.003981e-003 4.200388e-006 9.709390e-005 9.708964e-001 -3.253880e-001
307695000 -1.339839e-004 -9.716560e-005 -7.854417e-001 1.490889e-002 -4.420844e-005 4.344203e-005 9.701416e-001 -3.267416e-001
307980000 1.715352e-005 -1.449846e-004 -7.824578e-001 3.562605e-002 -6.128623e-005 -4.950525e-006 9.696096e-001 -3.284075e-001
308265000 3.167112e-005 -1.356523e-005 -7.795447e-001 5.544727e-002 -6.286200e-006 -1.981709e-005 9.678521e-001 -3.265752e-001
308550000 3.952920e-005 -1.197937e-005 -7.769607e-001 7.609274e-002 -8.996247e-005 3.947159e-005 9.691102e-001 -3.264214e-001
308835000 3.163408e-005 2.230607e-005 -7.732290e-001 9.641971e-002 -8.369249e-005 9.148482e-005 9.701563e-001 -3.284867e-001
309120000 -6.036030e-005 6.554987e-005 -7.691051e-001 1.159392e-001 -4.038364e-005 4.725290e-006 9.712460e-001 -3.295483e-001
309405000 -4.836927e-005 1.122834e-004 -7.652310e-001 1.360469e-001 4.035152e-006 1.747686e-006 9.715725e-001 -3.284937e-001
309690000 -1.035969e-004 2.973729e-005 -7.603832e-001 1.555165e-001 -3.078757e-005 -4.804957e-005 9.697495e-001 -3.284939e-001
309975000 1.396826e-004 2.681696e-005 -7.551255e-001 1.753741e-001 -1.253058e-005 -2.576245e-005 9.698007e-001 -3.299398e-001
310260000 2.223047e-005 1.137371e-004 -7.496315e-001 1.946003e-001 -4.894409e-005 -1.574067e-004 9.709972e-001 -3.296289e-001
310545000 5.449617e-006 -3.680760e-005 -7.443665e-001 2.143992e-001 -4.855139e-006 -2.743145e-005 9.704829e-001 -3.305860e-001
310830000 1.028477e-004 9.232601e-006 -7.383624e-001 2.336261e-001 -1.837469e-005 -1.058297e-004 9.711046e-001 -3.297392e-001
311115000 3.524430e-005 5.304039e-006 -7.320276e-001 2.527953e-001 1.907783e-005 -3.200589e-005 9.690468e-001 -3.289785e-001
311400000 -8.012924e-005 2.970599e-005 -7.249708e-001 2.717287e-001 8.051415e-006 6.818589e-005 9.693264e-001 -3.305085e-001
311685000 -8.362442e-005 2.314358e-005 -7.178147e-001 2.908460e-001 1.073008e-004 -1.212125e-004 9.693772e-001 -3.310321e-001
311970000 7.161368e-005 -3.697926e-005 -7.103736e-001 3.101835e-001 1.636494e-004 -2.222052e-005 9.677883e-001 -3.303767e-001
312255000 -7.418054e-005 -4.599689e-005 -7.021800e-001 3.286984e-001 6.006716e-005 3.551727e-005 9.696857e-001 -3.307836e-001
312540000 -1.913771e-005 -8.194483e-006 -6.942848e-001 3.472979e-001 8.761584e-006 6.137286e-005 9.687998e-001 -3.303927e-001
312825000 -9.913265e-006 1.981606e-005 -6.856240e-001 3.659126e-001 -1.674263e-005 6.645437e-005 9.689530e-001 -3.329523e-001
313110000 -1.334634e-004 -1.583250e-005 -6.768613e-001 3.843403e-001 -1.876601e-005 3.598145e-005 9.690545e-001 -3.334292e-001
313395000 -3.878191e-006 -5.264087e-006 -6.672023e-001 4.029932e-001 -1.278221e-004 1.737626e-005 9.669738e-001 -3.332052e-001
313680000 -1.237183e-004 -5.245340e-005 -6.575651e-001 4.209792e-001 -7.523187e-005 -4.520170e-005 9.695520e-001 -3.322796e-001
313965000 2.019506e-005 1.087189e-004 -6.472957e-001 4.395737e-001 2.188757e-005 9.821289e-006 9.689096e-001 -3.325046e-001
314250000 2.751790e-005 1.562767e-005 -6.367525e-001 4.576465e-001 -1.374055e-005 5.872577e-005 9.678395e-001 -3.325462e-001
314535000 9.797535e-005 -2.482248e-005 -6.258105e-001 4.754401e-001 8.860592e-006 -1.096073e-004 9.690977e-001 -3.330614e-001
314820000 -1.454213e-004 -3.988892e-005 -6.140488e-001 4.937659e-001 -1.001911e-004 -5.559389e-005 9.674690e-001 -3.357270e-001
315105000 1.399523e-005 9.296490e-005 -6.020476e-001 5.114447e-001 -5.806612e-005 -4.618181e-005 9.659097e-001 -3.347929e-001
315390000 -8.185702e-005 1.607900e-005 -5.896508e-001 5.291791e-001 1.427937e-005 -1.203390e-004 9.684786e-001 -3.347301e-001
315675000 2.372885e-005 6.573183e-005 -5.767757e-001 5.471629e-001 2.688501e-006 2.083584e-005 9.678212e-001 -3.339367e-001
315960000 -1.398873e-004 -2.246647e-005 -5.632289e-001 5.640510e-001 -4.347549e-005 -1.252142e-004 9.674707e-001 -3.341118e-001
316245000 -1.681306e-005 -3.099293e-005 -5.495195e-001 5.817304e-001 -3.155669e-005 -8.607361e-005 9.656542e-001 -3.340431e-001
316530000 -1.211540e-004 -9.321596e-005 -5.351241e-001 5.985745e-001 8.203591e-005 -6.763305e-005 9.679488e-001 -3.367403e-001
316815000 -8.072618e-005 1.349170e-005 -5.200670e-001 6.159567e-001 8.045069e-005 4.118616e-005 9.676847e-001 -3.341471e-001
317100000 -1.009630e-004 -6.665965e-005 -5.051954e-001 6.323892e-001 1.019091e-004 1.011154e-004 9.662268e-001 -3.353564e-001
317385000 -3.758234e-005 -9.105486e-005 -4.888330e-001 6.488301e-001 6.444441e-005 -2.888656e-005 9.686913e-001 -3.353143e-001
317670000 -9.294981e-005 -4.110049e-005 -4.722837e-001 6.658384e-001 -5.660796e-005 -9.299942e-005 9.674397e-001 -3.380304e-001
317955000 1.192933e-005 -3.264516e-005 -4.555380e-001 6.817908e-001 -2.018143e-005 6.803924e-005 9.696535e-001 -3.362481e-001
318240000 8.836175e-005 2.075461e-005 -4.376177e-001 6.977860e-001 9.128040e-005 8.404221e-005 9.682469e-001 -3.380910e-001
318525000 -2.456116e-006 -1.565856e-004 -4.188146e-001 7.143852e-001 5.036568e-005 1.648923e-005 9.676142e-001 -3.365912e-001
318810000 4.264774e-005 6.004388e-005 -4.003115e-001 7.299602e-001 -1.171273e-004 -9.654341e-005 9.671108e-001 -3.380322e-001
319095000 4.287003e-005 2.677324e-005 -3.810803e-001 7.446918e-001 1.619306e-005 -6.551234e-005 9.666700e-001 -3.373286e-001
319380000 -4.194268e-005 6.255882e-006 -3.605689e-001 7.600799e-001 -6.784694e-005 -3.740979e-005 9.665727e-001 -3.399613e-001
319665000 4.281848e-005 -1.071884e-005 -3.390492e-001 7.753466e-001 -1.598854e-005 2.218398e-005 9.671144e-001 -3.385907e-001
319950000 4.246676e-005 1.615278e-005 -3.180498e-001 7.889019e-001 1.020860e-004 4.144757e-006 9.673333e-001 -3.396295e-001
320235000 -4.115471e-005 5.068114e-005 -2.956413e-001 8.026190e-001 -1.756574e-005 -3.427277e-005 9.674221e-001 -3.389285e-001
320520000 -2.400464e-005 6.831794e-005 -2.717846e-001 8.161877e-001 -3.057697e-005 -1.479901e-005 9.663743e-001 -3.403637e-001
320805000 5.816666e-005 -5.728531e-005 -2.488661e-001 8.292025e-001 -1.667300e-005 4.878573e-005 9.660997e-001 -3.388322e-001
321090000 -1.074471e-004 -7.597917e-005 -2.239801e-001 8.416670e-001 6.098745e-005 -3.060794e-005 9.666241e-001 -3.402781e-001
321375000 -6.800524e-005 5.238178e-005 -1.987893e-001 8.531172e-001 2.446960e-005 -6.142826e-005 9.668881e-001 -3.396034e-001
321660000 -7.897834e-005 -3.110863e-005 -1.728544e-001 8.641563e-001 6.784437e-005 2.111149e-005 9.663330e-001 -3.405415e-001
321945000 -2.594250e-005 -1.288960e-005 -1.469819e-001 8.753600e-001 3.566151e-005 1.252259e-005 9.650788e-001 -3.422024e-001
322230000 -2.969876e-005 -6.619369e-005 -1.185518e-001 8.846959e-001 2.688601e-005 4.417398e-005 9.650707e-001 -3.422059e-001
322515000 -3.443947e-005 4.233590e-005 -9.066527e-002 8.944598e-001 7.985341e-005 8.545310e-005 9.648138e-001 -3.431057e-001
322800000 -3.276468e-005 -1.758168e-004 -6.195127e-002 9.021529e-001 1.320839e-004 -1.978881e-005 9.675679e-001 -3.417505e-001
323085000 -6.610205e-005 -8.138017e-005 -3.225083e-002 9.096566e-001 4.156172e-005 4.294151e-005 9.656405e-001 -3.427365e-001
323370000 3.057919e-005 -8.011859e-005 -1.523363e-003 9.160397e-001 -3.067268e-005 5.703176e-005 9.668602e-001 -3.431456e-001
323655000 -1.312777e-004 -1.283206e-004 2.947420e-002 9.214038e-001 -9.061603e-005 8.386293e-006 9.641387e-001 -3.424244e-001
323940000 1.139812e-004 7.685651e-005 6.103245e-002 9.253559e-001 2.893785e-005 1.854446e-005 9.651595e-001 -3.444811e-001
324225000 3.195492e-005 -3.653007e-005 9.330133e-002 9.289771e-001 -4.434265e-005 8.780594e-005 9.633141e-001 -3.440583e-001
324510000 5.995248e-005 -4.364553e-005 1.262137e-001 9.311084e-001 -9.628081e-006 4.979922e-005 9.666219e-001 -3.454586e-001
324795000 -6.895274e-005 -5.018251e-005 1.600181e-001 9.316982e-001 -1.008269e-004 7.673917e-006 9.655247e-001 -3.449810e-001
325080000 -2.086783e-005 3.210142e-005 1.936110e-001 9.318849e-001 -7.774736e-005 -5.411126e-005 9.650564e-001 -3.446738e-001
325365000 1.435624e-004 1.720713e-005 2.279525e-001 9.297295e-001 -5.531398e-005 -1.606365e-004 9.653870e-001 -3.458031e-001
325650000 6.890490e-005 6.265129e-005 2.628208e-001 9.265473e-001 3.064988e-005 3.223901e-005 9.659475e-001 -3.447536e-001
325935000 1.563357e-005 -1.552558e-005 2.977895e-001 9.216976e-001 9.057493e-005 1.078803e-004 9.644025e-001 -3.463038e-001
326220000 -4.508365e-008 6.719265e-005 3.330271e-001 9.154497e-001 -1.100889e-005 -5.274211e-005 9.645904e-001 -3.466712e-001
326505000 3.969237e-005 9.100133e-005 3.687713e-001 9.072602e-001 -2.241784e-005 -7.996935e-006 9.643170e-001 -3.459770e-001
326790000 1.530397e-005 1.118888e-004 4.039738e-001 8.980216e-001 5.969957e-005 -7.862705e-005 9.636253e-001 -3.454028e-001
327075000 -5.373434e-005 4.855215e-005 4.395602e-001 8.864959e-001 -1.171211e-005 -3.348089e-005 9.641432e-001 -3.470587e-001
327360000 -3.559356e-005 1.031145e-004 4.743073e-001 8.738879e-001 6.211678e-006 -4.778580e-005 9.657404e-001 -3.474838e-001
327645000 -2.751902e-005 3.565273e-005 5.103527e-001 8.594676e-001 1.732396e-004 -3.999700e-005 9.646889e-001 -3.477672e-001
327930000 -3.042079e-005 -4.456607e-005 5.447410e-001 8.421827e-001 1.561210e-004 -3.772386e-005 9.636722e-001 -3.475617e-001
328215000 3.485382e-008 -3.669312e-005 5.791872e-001 8.251897e-001 5.348446e-005 1.231295e-004 9.633838e-001 -3.485346e-001
328500000 3.324106e-005 -2.908489e-005 6.128437e-001 8.043604e-001 -6.656025e-005 9.252362e-005 9.626336e-001 -3.494620e-001
328785000 -2.167665e-005 -2.990270e-005 6.458138e-001 7.832198e-001 -1.112272e-005 4.936500e-005 9.629698e-001 -3.476181e-001
329070000 1.158260e-004 3.627569e-005 6.779139e-001 7.599970e-001 -7.535236e-005 3.111019e-005 9.635623e-001 -3.488503e-001
329355000 2.840440e-005 5.359903e-005 7.094010e-001 7.349907e-001 -7.059331e-005 -3.078946e-005 9.640640e-001 -3.497641e-001
329640000 5.953353e-005 4.931218e-005 7.390768e-001 7.082745e-001 -2.032919e-005 1.466698e-005 9.639365e-001 -3.505152e-001
329925000 6.285190e-005 6.811070e-005 7.684604e-001 6.797286e-001 -4.781617e-005 1.823294e-005 9.622747e-001 -3.501697e-001
330210000 -2.550883e-005 5.752059e-005 7.956350e-001 6.500055e-001 5.652842e-005 -9.629183e-005 9.624527e-001 -3.503187e-001
330495000 -6.426456e-005 1.221408e-004 8.223118e-001 6.187599e-001 3.131404e-005 -3.758351e-005 9.623190e-001 -3.505040e-001
330780000 -5.675483e-005 7.433889e-005 8.469642e-001 5.869785e-001 1.048250e-005 -1.583455e-006 9.630554e-001 -3.517924e-001
331065000 -3.110197e-005 5.388441e-005 8.708743e-001 5.530850e-001 -8.143535e-006 -6.695332e-005 9.611432e-001 -3.495975e-001
331350000 -1.443619e-005 6.711733e-005 8.925070e-001 5.178970e-001 1.116113e-006 -1.098484e-004 9.613986e-001 -3.512267e-001
331635000 -4.528863e-005 -2.079113e-005 9.117582e-001 4.824641e-001 -7.598865e-005 7.942522e-006 9.620529e-001 -3.509122e-001
331920000 -5.111372e-005 -6.066383e-005 9.296815e-001 4.452201e-001 -1.688260e-005 -4.999427e-005 9.628315e-001 -3.520306e-001
332205000 3.185747e-005 -5.758319e-005 9.460703e-001 4.076980e-001 -1.733757e-005 2.315167e-005 9.615269e-001 -3.526969e-001
332490000 -5.208414e-005 -1.813726e-004 9.601369e-001 3.697554e-001 1.099697e-004 5.508327e-005 9.629042e-001 -3.523413e-001
332775000 -7.689461e-005 -1.448436e-005 9.725587e-001 3.314146e-001 6.200424e-005 3.125635e-005 9.618357e-001 -3.527938e-001
333060000 -1.777811e-006 -2.890215e-005 9.833441e-001 2.925800e-001 1.039548e-004 -3.335896e-005 9.621419e-001 -3.521650e-001
333345000 8.208013e-005 -6.489651e-005 9.915175e-001 2.525786e-001 5.142956e-006 5.832926e-005 9.628779e-001 -3.520260e-001
333630000 -5.748232e-005 -1.124915e-004 9.975365e-001 2.133578e-001 5.786615e-005 6.215638e-005 9.613858e-001 -3.549194e-001
333915000 7.622226e-006 -6.755009e-005 1.001994e+000 1.733081e-001 -2.640250e-005 8.361859e-006 9.612746e-001 -3.539341e-001
334200000 -4.736710e-005 -2.350366e-005 1.005247e+000 1.343448e-001 4.490775e-005 -7.555357e-005 9.618141e-001 -3.555989e-001
334485000 6.828787e-006 2.147588e-006 1.006036e+000 9.505084e-002 7.304389e-005 -1.198472e-006 9.614246e-001 -3.548284e-001
334770000 7.110368e-005 5.030204e-005 1.004335e+000 5.596539e-002 8.268659e-005 -6.605627e-006 9.620172e-001 -3.549033e-001
335055000 5.326434e-005 8.368329e-005 1.002304e+000 1.809105e-002 3.450796e-005 -1.270357e-005 9.616755e-001 -3.553970e-001
335340000 -3.011986e-005 6.869589e-006 9.980311e-001 -1.925602e-002 6.921241e-005 -9.856805e-005 9.620271e-001 -3.560466e-001
335625000 -9.183245e-005 -3.901688e-006 9.920053e-001 -5.699136e-002 -1.799837e-005 1.045838e-004 9.618784e-001 -3.575485e-001
335910000 -6.664808e-005 -4.453118e-005 9.839197e-001 -9.284019e-002 3.582153e-006 1.006222e-004 9.622231e-001 -3.568861e-001
336195000 -4.260123e-005 -6.403139e-005 9.750633e-001 -1.284958e-001 8.212728e-006 3.639258e-005 9.598451e-001 -3.572323e-001
336480000 -7.589834e-005 -1.649494e-005 9.647649e-001 -1.628161e-001 1.364391e-005 7.238192e-005 9.612731e-001 -3.561524e-001
336765000 9.037922e-005 4.717383e-005 9.527551e-001 -1.967382e-001 3.516932e-005 6.267775e-005 9.607888e-001 -3.571710e-001
337050000 1.876629e-005 6.599790e-005 9.399168e-001 -2.295766e-001 -1.504971e-005 1.200603e-004 9.614059e-001 -3.572361e-001
337335000 1.060164e-004 5.200500e-005 9.255720e-001 -2.617199e-001 -8.029973e-005 -4.893769e-005 9.600266e-001 -3.594799e-001
337620000 3.509054e-005 2.923757e-006 9.105679e-001 -2.924341e-001 3.534271e-005 1.745512e-005 9.607480e-001 -3.587641e-001
337905000 1.685996e-005 -3.407432e-005 8.946476e-001 -3.219381e-001 3.298848e-005 4.388779e-005 9.594359e-001 -3.572015e-001
338190000 -7.102756e-006 -1.839835e-004 8.776132e-001 -3.503071e-001 -4.365880e-005 5.002697e-005 9.597555e-001 -3.589011e-001
338475000 -1.687226e-005 -5.412524e-005 8.592439e-001 -3.778960e-001 -8.969291e-005 8.228592e-005 9.608869e-001 -3.588405e-001
338760000 -3.985945e-005 -3.127180e-005 8.411793e-001 -4.040172e-001 9.261469e-006 -1.088544e-004 9.605032e-001 -3.579278e-001
339045000 2.759715e-005 -8.519053e-005 8.214338e-001 -4.296042e-001 -8.519881e-006 -1.909240e-005 9.601524e-001 -3.604738e-001
339330000 6.068677e-005 -4.556892e-005 8.015939e-001 -4.540059e-001 -1.426376e-004 -2.060489e-005 9.603643e-001 -3.582259e-001
339615000 7.816675e-005 -4.008471e-005 7.811038e-001 -4.773845e-001 -3.357759e-005 8.581956e-005 9.605328e-001 -3.605736e-001
339900000 2.774251e-005 6.849636e-005 7.606281e-001 -4.990950e-001 1.093064e-004 -1.154168e-004 9.584348e-001 -3.613139e-001
340185000 -2.138360e-005 1.410175e-005 7.389886e-001 -5.202679e-001 6.147882e-005 3.859092e-005 9.600825e-001 -3.614399e-001
340470000 7.600518e-005 5.855564e-006 7.173096e-001 -5.403416e-001 1.915448e-005 1.461621e-005 9.594513e-001 -3.606014e-001
340755000 -5.676149e-005 1.243992e-004 6.954144e-001 -5.593650e-001 1.185732e-004 5.363336e-005 9.582286e-001 -3.629253e-001
341040000 -2.298574e-006 6.057703e-005 6.736680e-001 -5.777760e-001 5.206867e-005 6.565013e-005 9.585671e-001 -3.623837e-001
341325000 2.288304e-005 1.045372e-004 6.506239e-001 -5.946986e-001 -5.370580e-006 4.496958e-005 9.597895e-001 -3.617142e-001
341610000 1.055157e-005 -4.314942e-005 6.289246e-001 -6.113552e-001 -9.958634e-005 -7.221480e-005 9.600782e-001 -3.614150e-001
341895000 2.337571e-005 -4.202842e-005 6.059791e-001 -6.261806e-001 -8.463777e-005 2.991405e-005 9.591954e-001 -3.630638e-001
342180000 -3.603151e-005 4.638204e-005 5.831686e-001 -6.407924e-001 3.955905e-005 -4.448265e-005 9.595480e-001 -3.634957e-001
342465000 -8.714005e-005 -1.710791e-005 5.602283e-001 -6.540792e-001 -9.994953e-005 5.817289e-005 9.591927e-001 -3.649147e-001
342750000 -2.863986e-005 -6.699689e-005 5.371924e-001 -6.667191e-001 -5.265623e-005 -7.393203e-005 9.599894e-001 -3.638450e-001
343035000 -1.204029e-004 8.819531e-006 5.139274e-001 -6.783640e-001 9.399513e-005 -9.592443e-005 9.591296e-001 -3.647416e-001
343320000 3.887528e-005 -3.555336e-005 4.913737e-001 -6.898698e-001 -2.118839e-005 -5.446745e-005 9.585072e-001 -3.641135e-001
343605000 -3.559461e-005 -1.322213e-004 4.684703e-001 -6.998269e-001 8.652938e-005 4.701538e-005 9.576620e-001 -3.647043e-001
343890000 -3.259970e-005 3.104445e-005 4.452130e-001 -7.090077e-001 5.233689e-005 7.163531e-006 9.579727e-001 -3.652711e-001
