!Agilent Technologies,N5230C,SG49000117,A.08.50.07
!Agilent N5230C: A.08.50.07
!Date: Sunday, March 17, 2024 06:36:45
!Correction: S11(Off) 
!S21(Off) 
!S12(Off) 
!S22(Off) 
!S2P File: Measurements: S11, S21, S12, S22:
# Hz S  RI   R 50
300000000 8.532551e-006 8.312320e-006 -6.725938e-001 -5.752324e-001 -9.081540e-006 -6.010805e-006 -6.750566e-001 -5.772957e-001
300285000 1.445807e-005 -9.916865e-006 -6.852597e-001 -5.515035e-001 -2.424473e-006 1.799972e-005 -6.877035e-001 -5.535879e-001
300570000 1.609092e-005 -5.236663e-006 -6.970104e-001 -5.276170e-001 -3.337767e-006 6.793294e-006 -6.996281e-001 -5.296056e-001
300855000 -2.975861e-006 4.316020e-006 -7.079878e-001 -5.037903e-001 2.666783e-006 -1.212669e-005 -7.106721e-001 -5.056331e-001
301140000 5.587486e-006 7.425618e-007 -7.182345e-001 -4.797961e-001 -5.707619e-006 -8.813321e-006 -7.208999e-001 -4.816146e-001
301425000 -2.103650e-006 -1.540620e-005 -7.276730e-001 -4.560142e-001 3.084965e-006 -7.969930e-006 -7.304073e-001 -4.577166e-001
301710000 2.970288e-006 3.591245e-006 -7.362861e-001 -4.322517e-001 -1.485448e-005 -2.342790e-006 -7.390855e-001 -4.338710e-001
301995000 -2.318827e-007 1.378584e-005 -7.442968e-001 -4.086007e-001 6.159023e-006 2.638251e-006 -7.470622e-001 -4.101949e-001
302280000 8.719300e-006 2.619775e-006 -7.514991e-001 -3.850648e-001 -1.059339e-005 1.494959e-006 -7.543392e-001 -3.865480e-001
302565000 4.290280e-006 -4.574097e-006 -7.581601e-001 -3.616536e-001 -1.898185e-006 1.719006e-005 -7.609878e-001 -3.630126e-001
302850000 1.008081e-006 9.883496e-006 -7.640046e-001 -3.383195e-001 -9.375363e-007 -6.792748e-006 -7.668610e-001 -3.396088e-001
303135000 -1.394965e-005 7.116741e-006 -7.693291e-001 -3.151411e-001 8.193552e-006 2.223295e-006 -7.722556e-001 -3.162967e-001
303420000 -1.315503e-005 1.244555e-006 -7.740247e-001 -2.921794e-001 8.385822e-008 5.618438e-006 -7.769111e-001 -2.932355e-001
303705000 -7.440015e-006 -4.491478e-006 -7.781010e-001 -2.693411e-001 -2.493993e-006 3.108633e-006 -7.810219e-001 -2.703809e-001
303990000 1.457742e-005 -2.319512e-007 -7.816573e-001 -2.465575e-001 6.708799e-006 6.974259e-006 -7.846068e-001 -2.475583e-001
304275000 -1.868136e-006 7.694949e-006 -7.846312e-001 -2.240435e-001 3.530028e-008 -1.121966e-005 -7.875909e-001 -2.249675e-001
304560000 1.371228e-005 7.938395e-007 -7.870693e-001 -2.016637e-001 1.626790e-006 -1.100156e-005 -7.900962e-001 -2.024794e-001
304845000 1.407667e-005 -1.838146e-005 -7.890589e-001 -1.794960e-001 -4.972389e-006 1.724597e-006 -7.920201e-001 -1.801835e-001
305130000 1.341655e-005 -6.866152e-007 -7.904975e-001 -1.574167e-001 -8.540316e-007 5.031434e-006 -7.935322e-001 -1.580644e-001
305415000 1.383278e-005 -7.574111e-006 -7.914305e-001 -1.355883e-001 -9.222391e-006 -2.553694e-006 -7.944612e-001 -1.360964e-001
305700000 8.947918e-006 -1.225656e-006 -7.919213e-001 -1.137998e-001 4.676504e-007 -1.845524e-006 -7.949755e-001 -1.144173e-001
305985000 5.828576e-006 6.860282e-006 -7.919723e-001 -9.224986e-002 3.007865e-006 -1.070692e-005 -7.949942e-001 -9.259453e-002
306270000 -2.012172e-006 -2.345783e-006 -7.915545e-001 -7.090487e-002 1.090538e-005 -1.855865e-006 -7.945741e-001 -7.110550e-002
306555000 6.826814e-006 7.583424e-006 -7.907735e-001 -4.960278e-002 6.177131e-006 -1.289568e-005 -7.936944e-001 -4.981793e-002
306840000 3.056950e-006 -7.280282e-007 -7.893826e-001 -2.856719e-002 -9.885410e-006 1.051054e-005 -7.924833e-001 -2.863943e-002
307125000 -4.505995e-006 -3.276770e-006 -7.877295e-001 -7.653276e-003 8.326842e-006 7.850000e-006 -7.907928e-001 -7.699995e-003
307410000 -3.553742e-006 -1.711128e-005 -7.856103e-001 1.315065e-002 8.421060e-006 -1.198286e-006 -7.887917e-001 1.325447e-002
307695000 -3.041796e-006 -9.516031e-006 -7.832814e-001 3.377537e-002 -8.870217e-006 -8.247141e-006 -7.862715e-001 3.390605e-002
307980000 -2.704926e-006 3.500222e-006 -7.803366e-001 5.420174e-002 -3.721175e-006 -8.879293e-006 -7.833962e-001 5.446822e-002
308265000 1.094942e-005 -8.889700e-006 -7.771870e-001 7.463257e-002 -5.588810e-006 6.875078e-006 -7.801464e-001 7.487674e-002
308550000 -1.863697e-005 -1.573190e-005 -7.735561e-001 9.478859e-002 -7.903108e-006 5.832338e-006 -7.765624e-001 9.516318e-002
308835000 8.890823e-007 -8.147687e-006 -7.696498e-001 1.147986e-001 -5.462210e-006 -2.539844e-006 -7.726026e-001 1.151785e-001
309120000 -1.504386e-005 -4.006693e-006 -7.653539e-001 1.347542e-001 1.671456e-006 -2.349399e-005 -7.682366e-001 1.352691e-001
309405000 -1.202430e-006 -3.680641e-006 -7.605828e-001 1.545074e-001 2.995599e-006 5.925336e-006 -7.636237e-001 1.551325e-001
309690000 -1.320210e-005 -8.313959e-006 -7.556471e-001 1.741851e-001 2.619955e-006 3.345680e-006 -7.586020e-001 1.748441e-001
309975000 1.682062e-007 -9.730617e-006 -7.502189e-001 1.937555e-001 7.356387e-006 6.994037e-006 -7.532008e-001 1.945307e-001
310260000 1.487860e-008 -5.908162e-006 -7.444664e-001 2.131266e-001 4.886966e-006 2.063054e-005 -7.473840e-001 2.139720e-001
310545000 -1.154024e-005 -1.411131e-005 -7.384060e-001 2.324598e-001 -1.296141e-005 -1.944053e-006 -7.412603e-001 2.333076e-001
310830000 8.267311e-007 2.702187e-006 -7.319219e-001 2.516893e-001 -1.516866e-005 2.060187e-006 -7.348841e-001 2.526472e-001
311115000 3.261594e-006 -1.472644e-005 -7.251500e-001 2.707532e-001 -1.360468e-005 4.729322e-006 -7.280395e-001 2.718540e-001
311400000 -3.985595e-007 4.426877e-006 -7.179897e-001 2.897114e-001 -1.058152e-005 -3.818589e-006 -7.208189e-001 2.908888e-001
311685000 -1.006306e-005 -1.479880e-005 -7.104654e-001 3.086270e-001 -9.181662e-006 -4.358378e-006 -7.132208e-001 3.098576e-001
311970000 7.272711e-006 -1.183489e-005 -7.025654e-001 3.274220e-001 -5.234387e-006 -6.843575e-006 -7.053443e-001 3.286538e-001
312255000 1.000630e-005 -4.219552e-006 -6.943277e-001 3.460735e-001 -3.365166e-006 -1.172906e-005 -6.970572e-001 3.474154e-001
312540000 5.528078e-006 9.382716e-007 -6.856778e-001 3.646876e-001 8.381630e-006 -1.467055e-005 -6.883359e-001 3.661346e-001
312825000 8.035739e-006 3.556793e-006 -6.766577e-001 3.831648e-001 -8.090721e-006 -1.518242e-005 -6.793208e-001 3.846621e-001
313110000 -8.690788e-006 8.603674e-006 -6.672405e-001 4.015589e-001 3.851811e-006 -2.664504e-006 -6.698815e-001 4.031930e-001
313395000 7.856546e-006 6.166838e-006 -6.574153e-001 4.199271e-001 3.980845e-006 5.642777e-006 -6.600730e-001 4.215776e-001
313680000 -7.086160e-006 -1.097934e-005 -6.471355e-001 4.381044e-001 9.648670e-006 -3.019907e-006 -6.497993e-001 4.398093e-001
313965000 -7.650581e-006 -5.155870e-006 -6.365863e-001 4.562194e-001 -4.663672e-006 -7.522503e-008 -6.391812e-001 4.580083e-001
314250000 9.174771e-006 -7.246137e-006 -6.254924e-001 4.742525e-001 -5.141175e-008 -5.945462e-006 -6.280091e-001 4.761023e-001
314535000 -9.980597e-006 -1.988766e-005 -6.140444e-001 4.921007e-001 -1.318683e-005 -1.850842e-006 -6.165165e-001 4.941002e-001
314820000 -9.946221e-006 -8.508639e-006 -6.020602e-001 5.098978e-001 -1.654912e-006 -4.041679e-006 -6.045433e-001 5.119277e-001
315105000 7.099698e-006 -3.477918e-006 -5.896801e-001 5.276082e-001 6.606880e-006 -1.108053e-005 -5.920962e-001 5.297387e-001
315390000 -4.225693e-006 -1.597080e-005 -5.768250e-001 5.451918e-001 2.030580e-005 -6.840652e-006 -5.790925e-001 5.473732e-001
315675000 4.425683e-006 6.581577e-006 -5.634456e-001 5.626069e-001 1.311503e-006 -8.590895e-006 -5.657488e-001 5.648208e-001
315960000 -3.443147e-006 7.842516e-006 -5.496022e-001 5.799068e-001 -1.126582e-005 -6.563319e-006 -5.519127e-001 5.823346e-001
316245000 -6.678487e-006 4.790479e-006 -5.353313e-001 5.970776e-001 -1.159085e-005 -1.212736e-005 -5.374680e-001 5.994810e-001
316530000 -4.286391e-006 2.265594e-006 -5.203763e-001 6.141511e-001 -3.264372e-006 -9.455047e-006 -5.225576e-001 6.166098e-001
316815000 -8.603468e-006 1.454433e-006 -5.050153e-001 6.309822e-001 7.765560e-006 -3.784345e-006 -5.071011e-001 6.335387e-001
317100000 -2.329195e-006 1.557463e-005 -4.889970e-001 6.476538e-001 2.310749e-006 5.823976e-007 -4.911094e-001 6.502483e-001
317385000 -7.359042e-006 -5.658065e-006 -4.725196e-001 6.642100e-001 1.167440e-005 -3.649812e-006 -4.744603e-001 6.668820e-001
317670000 -1.205099e-005 -1.050487e-006 -4.554506e-001 6.803966e-001 -2.072578e-005 -5.843312e-006 -4.573645e-001 6.831265e-001
317955000 -9.574949e-006 -5.151631e-007 -4.377663e-001 6.965219e-001 2.035926e-006 -3.462085e-006 -4.395237e-001 6.993080e-001
318240000 3.046709e-007 2.956752e-006 -4.195050e-001 7.123377e-001 -3.496576e-006 -1.200733e-005 -4.211998e-001 7.151869e-001
318525000 7.365334e-006 -6.618310e-006 -4.005623e-001 7.278219e-001 -7.176904e-007 8.510935e-006 -4.022154e-001 7.307227e-001
318810000 -1.967074e-005 -7.195727e-006 -3.810022e-001 7.430237e-001 -1.419935e-006 8.543410e-007 -3.825245e-001 7.461273e-001
319095000 -5.843995e-006 -1.238872e-005 -3.607401e-001 7.578912e-001 3.784359e-006 -1.071178e-005 -3.622046e-001 7.610646e-001
319380000 -6.380835e-006 -3.364713e-006 -3.398179e-001 7.725734e-001 4.776296e-006 -5.575020e-006 -3.413007e-001 7.757521e-001
319665000 5.183841e-006 4.862450e-007 -3.183286e-001 7.867756e-001 -7.690675e-007 -3.531804e-006 -3.196153e-001 7.900246e-001
319950000 -1.296233e-006 -7.095272e-006 -2.960002e-001 8.006061e-001 3.651892e-006 3.651311e-006 -2.972567e-001 8.039060e-001
320235000 1.760426e-005 -4.263811e-007 -2.731143e-001 8.139603e-001 8.344040e-006 -1.121563e-005 -2.741922e-001 8.172495e-001
320520000 3.064928e-006 -3.055618e-006 -2.494193e-001 8.267819e-001 2.527701e-006 3.888443e-006 -2.504074e-001 8.301589e-001
320805000 7.647735e-006 6.781187e-006 -2.249832e-001 8.391795e-001 1.817188e-006 9.574609e-006 -2.259381e-001 8.425287e-001
321090000 5.220379e-006 -6.397186e-006 -1.998033e-001 8.508995e-001 -6.920130e-006 1.101526e-005 -2.007569e-001 8.544677e-001
321375000 1.007964e-006 3.848405e-007 -1.739859e-001 8.621842e-001 -1.499700e-005 3.502430e-006 -1.747190e-001 8.656500e-001
321660000 9.474317e-006 5.040452e-006 -1.473804e-001 8.725693e-001 -1.002779e-006 3.903941e-006 -1.480189e-001 8.763015e-001
321945000 -1.043045e-005 7.656445e-006 -1.200307e-001 8.825685e-001 -4.229612e-006 -3.481148e-007 -1.205171e-001 8.861142e-001
322230000 -5.653084e-006 5.056814e-007 -9.197527e-002 8.915388e-001 -9.671285e-007 -9.302422e-007 -9.237941e-002 8.952900e-001
322515000 -1.141492e-005 -5.509493e-006 -6.318910e-002 8.998710e-001 -1.413216e-005 -7.091049e-007 -6.350518e-002 9.035711e-001
322800000 -3.919435e-006 1.538052e-005 -3.371553e-002 9.072425e-001 -1.701177e-005 -8.175752e-006 -3.382645e-002 9.110082e-001
323085000 -6.113757e-006 -2.547495e-005 -3.472307e-003 9.137034e-001 2.128451e-006 -1.027065e-005 -3.503032e-003 9.174826e-001
323370000 -4.142965e-006 -1.819814e-007 2.734598e-002 9.192547e-001 -9.786950e-006 -5.809870e-006 2.752469e-002 9.229517e-001
323655000 -6.585670e-006 1.206377e-005 5.893704e-002 9.236685e-001 -9.905878e-006 -8.369640e-006 5.911691e-002 9.274371e-001
323940000 -2.191892e-005 -1.448568e-005 9.115613e-002 9.269711e-001 8.901618e-006 1.464762e-005 9.141946e-002 9.308653e-001
324225000 4.368382e-006 -2.112291e-005 1.238058e-001 9.291116e-001 1.780527e-006 1.053501e-005 1.243412e-001 9.330407e-001
324510000 -4.736485e-006 -1.113886e-005 1.571880e-001 9.300460e-001 5.470722e-006 7.742874e-006 1.577851e-001 9.339709e-001
324795000 7.646972e-007 -6.275848e-008 1.909031e-001 9.296583e-001 9.395621e-006 4.196717e-006 1.917029e-001 9.336368e-001
325080000 7.940575e-006 3.621131e-006 2.251652e-001 9.280167e-001 -2.665739e-006 2.609916e-006 2.260966e-001 9.319099e-001
325365000 -2.921146e-006 -4.074723e-006 2.598594e-001 9.248270e-001 -2.327566e-006 -5.567021e-006 2.609047e-001 9.287615e-001
325650000 -2.785222e-006 -1.849714e-005 2.946904e-001 9.201907e-001 1.086326e-005 -1.181183e-006 2.959213e-001 9.240571e-001
325935000 -2.711524e-008 -1.384888e-005 3.299790e-001 9.140317e-001 1.519371e-005 -4.938216e-006 3.312877e-001 9.179215e-001
326220000 1.112305e-005 9.350875e-006 3.651512e-001 9.063394e-001 3.156826e-006 -1.553470e-005 3.667804e-001 9.101092e-001
326505000 1.176187e-005 6.360721e-006 4.006967e-001 8.969418e-001 -1.013562e-005 -7.957402e-006 4.023066e-001 9.007394e-001
326790000 -7.085448e-006 2.762963e-007 4.361430e-001 8.859192e-001 -1.576905e-005 -2.101546e-006 4.379452e-001 8.896827e-001
327075000 5.726158e-006 1.078161e-005 4.713390e-001 8.732322e-001 7.682544e-006 5.244263e-006 4.733867e-001 8.769203e-001
327360000 -1.134987e-005 -5.095614e-006 5.064619e-001 8.587825e-001 2.299919e-006 1.783358e-006 5.086005e-001 8.624342e-001
327645000 -9.404967e-006 -3.355769e-006 5.411096e-001 8.426217e-001 1.071921e-005 -4.553560e-006 5.435092e-001 8.461601e-001
327930000 -9.887035e-006 -4.410063e-006 5.754665e-001 8.247182e-001 -4.239459e-006 5.466998e-006 5.779253e-001 8.281845e-001
328215000 -1.267164e-005 5.169883e-006 6.092136e-001 8.050370e-001 -1.179889e-005 2.673075e-007 6.116953e-001 8.084876e-001
328500000 -6.751735e-006 -3.924706e-006 6.421922e-001 7.835967e-001 -2.359149e-005 -1.369082e-005 6.449586e-001 7.869745e-001
328785000 -8.331273e-006 1.462802e-006 6.745095e-001 7.604876e-001 -1.242355e-005 -7.340367e-007 6.773002e-001 7.637976e-001
329070000 8.321694e-006 -5.769545e-006 7.056984e-001 7.357218e-001 3.932107e-006 -1.438499e-005 7.087642e-001 7.389475e-001
329355000 -1.238973e-006 1.541511e-005 7.361014e-001 7.092526e-001 -9.923811e-006 1.687109e-005 7.392222e-001 7.123715e-001
329640000 -1.820862e-006 -7.488904e-007 7.652137e-001 6.812889e-001 -9.517903e-006 -6.038333e-006 7.684475e-001 6.842856e-001
329925000 2.921804e-006 5.971487e-006 7.930970e-001 6.517851e-001 7.170001e-007 -3.776091e-006 7.963824e-001 6.545800e-001
330210000 7.758142e-006 -4.990249e-007 8.195525e-001 6.208144e-001 1.109192e-005 -2.657526e-006 8.230060e-001 6.235020e-001
330495000 3.059417e-006 3.578815e-006 8.445398e-001 5.884887e-001 1.332502e-005 -4.364998e-006 8.481367e-001 5.910555e-001
330780000 -1.909279e-006 4.931060e-006 8.679115e-001 5.549182e-001 7.869188e-006 7.744954e-006 8.715507e-001 5.573820e-001
331065000 3.122180e-006 8.638622e-006 8.896477e-001 5.201867e-001 -1.422914e-006 1.169690e-005 8.934701e-001 5.224348e-001
331350000 -5.329480e-006 -5.478264e-006 9.097061e-001 4.844399e-001 -1.221143e-005 1.426548e-005 9.135765e-001 4.865629e-001
331635000 -6.749257e-008 3.453760e-006 9.279144e-001 4.477224e-001 -1.320783e-005 1.017407e-005 9.319231e-001 4.496734e-001
331920000 -1.344305e-005 9.997279e-006 9.442229e-001 4.101654e-001 -2.133119e-005 1.017807e-005 9.483953e-001 4.120793e-001
332205000 5.267617e-006 -4.342356e-006 9.586430e-001 3.722270e-001 -1.049921e-005 5.692516e-006 9.628860e-001 3.737925e-001
332490000 1.855058e-006 -9.845417e-006 9.712460e-001 3.334945e-001 -1.803530e-005 6.309925e-006 9.754942e-001 3.348790e-001
332775000 -2.064253e-006 -5.312907e-006 9.818342e-001 2.943770e-001 -1.010119e-005 4.777324e-006 9.860528e-001 2.957169e-001
333060000 -2.311576e-006 -8.349893e-006 9.904752e-001 2.550677e-001 -1.392170e-005 7.894102e-006 9.948627e-001 2.561234e-001
333345000 1.485885e-006 -8.362289e-006 9.972402e-001 2.154784e-001 -1.634509e-007 -3.890251e-006 1.001625e+000 2.164803e-001
333630000 -2.081783e-006 4.839836e-006 1.001958e+000 1.759299e-001 -1.771076e-005 -3.765865e-006 1.006415e+000 1.768707e-001
333915000 -2.867064e-006 -9.164155e-006 1.004899e+000 1.366192e-001 -1.650822e-006 -2.281679e-005 1.009376e+000 1.371815e-001
334200000 -1.620562e-006 -3.998694e-006 1.005947e+000 9.746263e-002 -2.443451e-006 -9.750025e-006 1.010332e+000 9.789746e-002
334485000 5.623452e-006 -2.769654e-006 1.005040e+000 5.856378e-002 -4.220324e-006 3.861114e-006 1.009483e+000 5.889441e-002
334770000 1.820191e-006 -1.446368e-005 1.002496e+000 2.019320e-002 -1.045675e-005 -1.792298e-005 1.006905e+000 2.037103e-002
335055000 -7.771555e-006 -1.067667e-005 9.982456e-001 -1.762911e-002 4.758635e-007 8.156143e-006 1.002680e+000 -1.764610e-002
335340000 1.109546e-006 -1.251557e-005 9.922070e-001 -5.473579e-002 7.483715e-007 -7.872766e-006 9.967254e-001 -5.498409e-002
335625000 1.594808e-006 -8.306320e-007 9.847460e-001 -9.122402e-002 2.284054e-006 6.806240e-006 9.890812e-001 -9.151543e-002
335910000 -7.011118e-006 1.216097e-005 9.757323e-001 -1.268139e-001 -5.428417e-006 3.555971e-006 9.799837e-001 -1.274007e-001
336195000 9.369380e-006 1.045598e-005 9.653960e-001 -1.615312e-001 5.647256e-006 -7.018988e-007 9.696423e-001 -1.622741e-001
336480000 6.865243e-006 1.055869e-006 9.537360e-001 -1.955538e-001 9.597238e-006 -5.419672e-006 9.578472e-001 -1.964017e-001
336765000 4.852436e-006 3.668279e-006 9.407374e-001 -2.284231e-001 1.216172e-006 7.199134e-006 9.448244e-001 -2.294710e-001
337050000 3.682562e-006 1.335474e-005 9.265717e-001 -2.603514e-001 2.103338e-005 -3.443170e-006 9.307072e-001 -2.614364e-001
337335000 -2.863592e-006 1.776897e-005 9.114486e-001 -2.912598e-001 7.027769e-006 -2.587693e-006 9.154279e-001 -2.925339e-001
337620000 1.046875e-006 3.230683e-006 8.952988e-001 -3.210998e-001 1.171654e-005 -4.115960e-006 8.992409e-001 -3.225670e-001
337905000 2.144247e-005 5.988918e-006 8.783301e-001 -3.498650e-001 -1.392142e-005 5.920549e-006 8.820829e-001 -3.513641e-001
338190000 -8.276678e-007 1.021273e-005 8.603512e-001 -3.775163e-001 7.193003e-006 -5.430289e-006 8.640956e-001 -3.790812e-001
338475000 6.911804e-006 1.612016e-005 8.417251e-001 -4.040464e-001 8.773482e-006 8.123499e-006 8.453927e-001 -4.057792e-001
338760000 -2.398769e-006 -1.069097e-006 8.224026e-001 -4.295905e-001 8.383593e-006 1.472403e-005 8.259403e-001 -4.313690e-001
339045000 7.642324e-006 2.462086e-006 8.026292e-001 -4.539540e-001 -1.023506e-005 4.001070e-006 8.060207e-001 -4.558852e-001
339330000 -5.198694e-006 -1.103028e-005 7.820241e-001 -4.772720e-001 -7.407429e-006 5.253335e-006 7.854136e-001 -4.792484e-001
339615000 -5.845541e-006 6.518727e-006 7.612179e-001 -4.995936e-001 -2.533046e-007 7.087716e-006 7.644431e-001 -5.016247e-001
339900000 1.456275e-006 -7.341993e-006 7.398913e-001 -5.206470e-001 -1.186588e-005 -3.636483e-006 7.429388e-001 -5.229328e-001
340185000 2.316602e-006 3.286947e-006 7.181738e-001 -5.408078e-001 -1.895392e-006 -6.303258e-006 7.211829e-001 -5.430832e-001
340470000 -2.117772e-006 1.091060e-005 6.961855e-001 -5.599585e-001 -7.020741e-006 4.770875e-006 6.990381e-001 -5.623033e-001
340755000 -6.122082e-006 5.019197e-006 6.739341e-001 -5.780295e-001 5.835625e-006 -4.648270e-006 6.767735e-001 -5.804905e-001
341040000 1.985494e-006 7.649097e-006 6.514561e-001 -5.951861e-001 2.552901e-006 -8.718442e-006 6.542249e-001 -5.977291e-001
341325000 -4.798517e-006 1.339263e-005 6.287578e-001 -6.114722e-001 -9.647251e-006 -1.402659e-005 6.314427e-001 -6.140047e-001
341610000 -1.106805e-005 4.326086e-006 6.059784e-001 -6.266435e-001 -2.786509e-006 8.433104e-006 6.085803e-001 -6.293288e-001
341895000 1.128576e-005 -9.587883e-006 5.831035e-001 -6.410387e-001 6.907320e-006 8.308017e-006 5.855798e-001 -6.437662e-001
342180000 -4.438181e-007 1.606223e-005 5.602154e-001 -6.545628e-001 1.449376e-005 8.046395e-006 5.625110e-001 -6.573341e-001
342465000 -7.735936e-006 -1.194472e-005 5.372413e-001 -6.672524e-001 5.779873e-006 7.614660e-006 5.394937e-001 -6.700266e-001
342750000 -8.177773e-006 -5.735925e-006 5.141751e-001 -6.791543e-001 1.081027e-006 1.147502e-005 5.163583e-001 -6.819208e-001
343035000 1.107077e-006 -1.662526e-005 4.911678e-001 -6.902087e-001 -1.577425e-005 1.023266e-005 4.934037e-001 -6.930602e-001
343320000 -7.805014e-006 -1.554904e-006 4.682328e-001 -7.004840e-001 -1.615695e-005 -1.794442e-006 4.702438e-001 -7.034376e-001
343605000 2.453686e-006 5.187128e-006 4.453367e-001 -7.101269e-001 2.334549e-006 5.441276e-006 4.472699e-001 -7.130904e-001
343890000 2.485867e-006 7.537406e-007 4.225586e-001 -7.190228e-001 -6.266506e-006 -3.153216e-007 4.243014e-001 -7.219965e-001
