!Agilent Technologies,N5230C,SG49000117,A.08.50.07
!Agilent N5230C: A.08.50.07
!Date: Sunday, March 17, 2024 06:28:05
!Correction: S11(Off) 
!S21(Off) 
!S12(Off) 
!S22(Off) 
!S2P File: Measurements: S11, S21, S12, S22:
# Hz S  RI   R 50
300000000 -6.623733e-006 -6.912807e-006 -6.872795e-001 -5.482087e-001 -1.662788e-006 1.094735e-006 -6.897568e-001 -5.501072e-001
300285000 -3.742024e-007 -1.612573e-006 -6.989797e-001 -5.242744e-001 -1.215650e-005 3.435044e-006 -7.015281e-001 -5.262303e-001
300570000 -9.121298e-006 4.645654e-006 -7.099773e-001 -5.003824e-001 5.588264e-008 -9.258153e-006 -7.125531e-001 -5.021842e-001
300855000 6.644574e-006 8.552904e-006 -7.199143e-001 -4.764500e-001 1.354467e-006 6.394045e-006 -7.225598e-001 -4.782783e-001
301140000 2.835678e-006 -3.466000e-006 -7.293441e-001 -4.525039e-001 6.194560e-006 -6.586251e-006 -7.320536e-001 -4.541672e-001
301425000 5.235657e-006 2.112159e-005 -7.378890e-001 -4.286699e-001 9.544719e-007 -1.198991e-007 -7.406402e-001 -4.303322e-001
301710000 -2.027306e-005 -9.963286e-006 -7.457741e-001 -4.049349e-001 2.552981e-006 7.345660e-006 -7.484660e-001 -4.065107e-001
301995000 -2.770737e-006 -9.849997e-006 -7.528600e-001 -3.813319e-001 6.157931e-006 3.808062e-006 -7.556788e-001 -3.827434e-001
302280000 2.235860e-005 2.017115e-006 -7.593954e-001 -3.578172e-001 2.794836e-005 -3.098451e-006 -7.622211e-001 -3.592324e-001
302565000 8.666913e-006 3.503233e-006 -7.652349e-001 -3.344291e-001 1.234970e-005 -5.774635e-006 -7.681140e-001 -3.356944e-001
302850000 -8.301117e-006 5.952005e-006 -7.702929e-001 -3.113418e-001 7.367946e-006 2.336372e-006 -7.732834e-001 -3.124367e-001
303135000 7.267197e-006 1.415337e-005 -7.749956e-001 -2.881766e-001 1.385727e-007 -8.083263e-006 -7.778137e-001 -2.892734e-001
303420000 4.998002e-006 -3.303034e-006 -7.788985e-001 -2.652606e-001 -3.163658e-006 1.002882e-005 -7.817790e-001 -2.663248e-001
303705000 -1.396007e-006 2.567114e-006 -7.823610e-001 -2.424450e-001 6.604741e-007 -6.390663e-007 -7.852930e-001 -2.434164e-001
303990000 7.882131e-006 1.088869e-005 -7.852106e-001 -2.199142e-001 -7.213212e-006 -7.375290e-006 -7.881153e-001 -2.207771e-001
304275000 2.418403e-005 6.494817e-006 -7.875255e-001 -1.975151e-001 -2.596076e-006 2.465830e-006 -7.905663e-001 -1.982187e-001
304560000 1.320929e-006 6.695129e-006 -7.893664e-001 -1.753122e-001 -8.075632e-007 1.361426e-005 -7.924121e-001 -1.759359e-001
304845000 1.439425e-005 7.519372e-006 -7.906357e-001 -1.530992e-001 2.819521e-006 -5.329406e-006 -7.936770e-001 -1.538496e-001
305130000 6.063874e-006 -6.794838e-006 -7.915595e-001 -1.312514e-001 -4.512900e-006 1.785881e-005 -7.945533e-001 -1.317676e-001
305415000 -1.662298e-006 4.141092e-006 -7.919574e-001 -1.095392e-001 -5.609067e-006 -1.267578e-005 -7.949285e-001 -1.099651e-001
305700000 8.114558e-006 9.908390e-006 -7.918597e-001 -8.791665e-002 -4.851830e-006 -2.596938e-005 -7.948291e-001 -8.830054e-002
305985000 1.172535e-006 -1.098280e-005 -7.912701e-001 -6.649145e-002 4.166346e-006 -1.316058e-005 -7.943350e-001 -6.674299e-002
306270000 -6.612231e-006 2.170570e-006 -7.901856e-001 -4.528026e-002 9.655610e-006 2.308859e-006 -7.933007e-001 -4.542599e-002
306555000 4.835960e-008 1.036573e-005 -7.888734e-001 -2.420148e-002 1.014339e-005 -5.699984e-006 -7.919672e-001 -2.425584e-002
306840000 -3.394452e-006 -2.243105e-005 -7.870162e-001 -3.229716e-003 3.130491e-006 -2.307074e-005 -7.901633e-001 -3.252749e-003
307125000 -5.066059e-006 -1.571858e-006 -7.848909e-001 1.756826e-002 1.955052e-005 1.829965e-006 -7.878990e-001 1.764622e-002
307410000 -1.672941e-005 -1.868093e-005 -7.822007e-001 3.821317e-002 9.548794e-006 4.640963e-006 -7.853591e-001 3.832832e-002
307695000 -3.330625e-006 -1.669088e-005 -7.792811e-001 5.866963e-002 8.809646e-006 -1.206833e-005 -7.823491e-001 5.893379e-002
307980000 -3.244837e-006 -1.097268e-005 -7.759699e-001 7.904756e-002 -1.363371e-006 6.934416e-006 -7.789905e-001 7.931333e-002
308265000 -3.312448e-006 -1.692867e-006 -7.722434e-001 9.920572e-002 -2.855648e-006 6.054776e-006 -7.753067e-001 9.955584e-002
308550000 1.722977e-005 -5.171963e-006 -7.681424e-001 1.192874e-001 -6.293913e-006 4.882127e-006 -7.711728e-001 1.196972e-001
308835000 4.344440e-006 -1.703274e-006 -7.637407e-001 1.391061e-001 7.192171e-006 3.473924e-006 -7.667110e-001 1.396351e-001
309120000 -6.007260e-006 7.036364e-006 -7.589286e-001 1.589144e-001 3.750562e-006 -1.343110e-005 -7.618394e-001 1.595668e-001
309405000 8.751448e-006 9.838860e-006 -7.537135e-001 1.784884e-001 6.110284e-006 1.100615e-005 -7.567428e-001 1.792071e-001
309690000 -1.582358e-006 1.335440e-005 -7.482149e-001 1.980242e-001 -1.768405e-005 3.482755e-006 -7.511378e-001 1.987985e-001
309975000 -4.767741e-006 6.877250e-006 -7.423081e-001 2.174459e-001 -4.537999e-006 -6.663101e-006 -7.452749e-001 2.182939e-001
310260000 -8.303542e-006 1.185274e-006 -7.360761e-001 2.367068e-001 3.568552e-006 -1.467015e-005 -7.390002e-001 2.376710e-001
310545000 -1.888695e-005 1.714668e-005 -7.295259e-001 2.558579e-001 2.523759e-006 -1.756539e-005 -7.323592e-001 2.569069e-001
310830000 -6.314260e-006 -5.484573e-006 -7.225938e-001 2.748975e-001 1.616377e-005 -1.589781e-005 -7.254457e-001 2.760212e-001
311115000 -8.115427e-006 7.027987e-006 -7.153134e-001 2.939248e-001 6.568584e-006 5.714380e-006 -7.181376e-001 2.950409e-001
311400000 -1.260554e-005 1.975442e-005 -7.076047e-001 3.127269e-001 2.180966e-006 -1.579773e-006 -7.103884e-001 3.140089e-001
311685000 -8.740037e-006 -1.925798e-005 -6.996170e-001 3.314547e-001 1.173621e-005 8.393545e-006 -7.023501e-001 3.327670e-001
311970000 -8.266132e-006 -2.236906e-005 -6.912256e-001 3.500998e-001 7.587122e-006 1.503689e-005 -6.939163e-001 3.515643e-001
312255000 -1.992324e-006 -1.432848e-005 -6.823965e-001 3.686197e-001 3.142616e-006 5.653450e-006 -6.851157e-001 3.700746e-001
312540000 -4.566820e-006 -9.026058e-006 -6.732317e-001 3.870689e-001 3.285440e-006 1.328440e-005 -6.758832e-001 3.885477e-001
312825000 2.496695e-006 -5.577641e-006 -6.636638e-001 4.053391e-001 6.996986e-006 2.627681e-006 -6.663530e-001 4.070562e-001
313110000 1.538596e-005 -3.567988e-006 -6.536806e-001 4.236427e-001 -1.489666e-005 1.058130e-005 -6.563312e-001 4.253154e-001
313395000 4.833672e-006 -4.169416e-006 -6.433702e-001 4.417143e-001 -1.392825e-005 1.309526e-005 -6.459664e-001 4.434974e-001
313680000 2.939734e-006 5.872881e-006 -6.325591e-001 4.598108e-001 1.618129e-006 -1.496446e-005 -6.351506e-001 4.615930e-001
313965000 -7.772988e-006 3.885972e-006 -6.214038e-001 4.776852e-001 -1.820885e-005 -1.918618e-005 -6.238936e-001 4.795794e-001
314250000 -2.066300e-005 -7.841344e-006 -6.097792e-001 4.955276e-001 -4.317312e-006 -1.499142e-005 -6.122231e-001 4.974484e-001
314535000 -4.621444e-006 -6.724887e-006 -5.976982e-001 5.131518e-001 -6.236955e-006 -1.362585e-005 -6.001377e-001 5.152327e-001
314820000 -1.119329e-005 -4.462123e-007 -5.851495e-001 5.308244e-001 5.704165e-006 -1.989530e-006 -5.875398e-001 5.328660e-001
315105000 9.231337e-006 2.935729e-006 -5.721273e-001 5.482538e-001 1.613163e-005 -1.540063e-005 -5.745068e-001 5.504299e-001
315390000 -3.306707e-006 -1.080040e-005 -5.586826e-001 5.655906e-001 1.887333e-005 7.541380e-006 -5.609888e-001 5.677589e-001
315675000 -4.239932e-006 1.017913e-005 -5.447021e-001 5.827702e-001 -8.533491e-006 -3.417161e-006 -5.469342e-001 5.851256e-001
315960000 2.508440e-006 -7.276107e-006 -5.302489e-001 5.997983e-001 6.716510e-006 -9.689292e-006 -5.324320e-001 6.022855e-001
316245000 2.798853e-005 3.593127e-006 -5.153209e-001 6.167287e-001 2.592483e-005 -1.150632e-005 -5.173692e-001 6.191676e-001
316530000 7.465319e-006 -9.693417e-006 -4.996814e-001 6.334251e-001 7.293277e-006 9.369000e-006 -5.017226e-001 6.359545e-001
316815000 1.013606e-005 2.466416e-007 -4.837058e-001 6.499760e-001 8.932757e-006 2.546082e-006 -4.856271e-001 6.526089e-001
317100000 -5.349747e-006 -6.611308e-006 -4.670627e-001 6.663175e-001 8.143836e-006 -3.337620e-007 -4.689133e-001 6.690503e-001
317385000 1.422815e-005 -2.953014e-006 -4.497932e-001 6.824557e-001 6.294986e-006 6.315440e-006 -4.516445e-001 6.851650e-001
317670000 -1.293639e-005 -2.783561e-006 -4.320137e-001 6.983149e-001 -6.733273e-006 -6.681973e-007 -4.337125e-001 7.011618e-001
317955000 6.231179e-006 -8.421760e-006 -4.136266e-001 7.139806e-001 1.083125e-005 -3.295303e-006 -4.152219e-001 7.168393e-001
318240000 -2.769695e-006 -6.890843e-006 -3.945250e-001 7.292996e-001 -3.628888e-006 -6.718601e-007 -3.962101e-001 7.323183e-001
318525000 -9.895473e-007 2.132921e-006 -3.749173e-001 7.444223e-001 4.660243e-006 3.605339e-006 -3.764393e-001 7.474432e-001
318810000 1.930465e-006 -8.472033e-006 -3.545685e-001 7.591527e-001 -8.163245e-006 6.040143e-008 -3.559723e-001 7.622964e-001
319095000 -5.816259e-006 6.621780e-006 -3.336355e-001 7.735707e-001 -1.302997e-005 -9.730427e-006 -3.349513e-001 7.767204e-001
319380000 8.209350e-006 9.973241e-006 -3.118901e-001 7.875093e-001 -2.169715e-006 -1.138498e-005 -3.132952e-001 7.908223e-001
319665000 -1.225125e-005 7.051972e-006 -2.895399e-001 8.011376e-001 -5.354908e-006 3.889302e-006 -2.907839e-001 8.044438e-001
319950000 -1.875809e-005 -7.830065e-006 -2.665212e-001 8.143199e-001 3.246922e-006 -1.240945e-005 -2.676647e-001 8.177233e-001
320235000 -5.735037e-006 -9.887321e-006 -2.427889e-001 8.269389e-001 1.017622e-005 -5.312911e-006 -2.437238e-001 8.304258e-001
320520000 -6.157019e-006 7.904410e-006 -2.183369e-001 8.391107e-001 -8.691854e-006 8.603324e-006 -2.191473e-001 8.426054e-001
320805000 -1.549764e-005 -7.763116e-006 -1.931461e-001 8.506844e-001 1.704686e-005 -3.637101e-006 -1.938677e-001 8.541324e-001
321090000 -2.080014e-006 -1.277388e-005 -1.672148e-001 8.616419e-001 2.822648e-006 7.988281e-006 -1.678926e-001 8.651549e-001
321375000 1.489767e-006 -9.594116e-006 -1.404433e-001 8.718903e-001 1.162609e-006 4.613193e-006 -1.410061e-001 8.756000e-001
321660000 -5.407182e-006 -1.514726e-005 -1.131389e-001 8.815072e-001 -8.794009e-007 6.158482e-006 -1.136814e-001 8.851542e-001
321945000 -5.487977e-006 -8.712787e-006 -8.498016e-002 8.904046e-001 -1.707029e-005 2.057919e-005 -8.530992e-002 8.940693e-001
322230000 1.246627e-005 -2.433964e-006 -5.623684e-002 8.984044e-001 -7.490505e-006 1.522014e-005 -5.648899e-002 9.020876e-001
322515000 -4.214797e-006 5.055630e-006 -2.675128e-002 9.054767e-001 4.947298e-006 3.421576e-007 -2.683522e-002 9.093038e-001
322800000 9.401519e-006 6.375144e-006 3.507461e-003 9.117507e-001 -2.148886e-005 -1.081514e-005 3.460710e-003 9.155522e-001
323085000 -2.175768e-006 5.589241e-007 3.433055e-002 9.169517e-001 -1.780945e-005 -1.397998e-005 3.447944e-002 9.207534e-001
323370000 -8.042720e-006 -1.115467e-006 6.585792e-002 9.211583e-001 -1.188245e-005 -9.803096e-006 6.613323e-002 9.249928e-001
323655000 -3.662624e-006 3.444086e-006 9.801910e-002 9.242407e-001 1.020362e-006 -7.321703e-006 9.842434e-002 9.280494e-001
323940000 -2.197599e-005 2.634968e-006 1.307108e-001 9.261342e-001 -1.628297e-005 -3.787340e-007 1.312228e-001 9.299628e-001
324225000 -1.426416e-005 -1.251459e-005 1.639248e-001 9.267597e-001 -1.472371e-005 -5.146886e-006 1.646068e-001 9.305841e-001
324510000 -2.267972e-005 4.658338e-006 1.977354e-001 9.261394e-001 3.417206e-006 -1.000792e-005 1.984528e-001 9.300264e-001
324795000 -4.398660e-006 3.049700e-006 2.318449e-001 9.240591e-001 1.083212e-005 3.540961e-006 2.328394e-001 9.279959e-001
325080000 2.873443e-006 -5.511869e-006 2.663792e-001 9.206494e-001 -5.067898e-006 -4.737000e-006 2.674129e-001 9.246299e-001
325365000 1.887197e-005 -1.372827e-006 3.012257e-001 9.158286e-001 9.764408e-007 1.232694e-005 3.024763e-001 9.196059e-001
325650000 1.478358e-006 -1.962749e-005 3.362891e-001 9.093323e-001 5.732823e-006 1.868709e-006 3.376367e-001 9.132458e-001
325935000 2.323116e-005 8.294350e-006 3.715153e-001 9.013106e-001 -5.471270e-006 5.927224e-006 3.730605e-001 9.051885e-001
326220000 5.397594e-006 2.229830e-006 4.068131e-001 8.916939e-001 -5.882509e-006 6.675166e-006 4.085602e-001 8.956086e-001
326505000 5.336873e-007 -1.331062e-006 4.419955e-001 8.804767e-001 -5.795573e-006 7.911414e-006 4.439255e-001 8.842795e-001
326790000 -3.471289e-006 1.495092e-005 4.772432e-001 8.675179e-001 3.951337e-006 -9.508061e-006 4.791712e-001 8.712215e-001
327075000 4.385775e-006 6.578788e-006 5.120593e-001 8.528672e-001 -9.458337e-006 1.190439e-005 5.141833e-001 8.564322e-001
327360000 -3.255162e-006 7.696631e-006 5.465346e-001 8.364006e-001 1.106529e-006 -1.451165e-005 5.488456e-001 8.399245e-001
327645000 -4.091829e-006 4.535202e-006 5.806701e-001 8.182520e-001 -9.430425e-006 1.651712e-005 5.831468e-001 8.217633e-001
327930000 -1.264419e-005 -6.041996e-006 6.142218e-001 7.982902e-001 -1.342761e-005 5.558059e-006 6.168039e-001 8.016993e-001
328215000 -2.514385e-006 -2.011190e-005 6.469777e-001 7.766885e-001 -2.184594e-006 -8.918390e-006 6.497542e-001 7.799382e-001
328500000 8.064842e-006 -7.032612e-007 6.789681e-001 7.533616e-001 -1.175622e-006 -1.321015e-005 6.818718e-001 7.565618e-001
328785000 2.580245e-005 -3.409870e-006 7.099989e-001 7.283659e-001 -1.011041e-006 1.285039e-006 7.130810e-001 7.315301e-001
329070000 1.726413e-005 -9.751511e-006 7.400248e-001 7.017643e-001 8.282500e-006 -2.592211e-007 7.430480e-001 7.047424e-001
329355000 6.444868e-006 1.509381e-006 7.689403e-001 6.735160e-001 1.519849e-005 1.262387e-006 7.721908e-001 6.765001e-001
329640000 -4.310335e-008 -1.566554e-006 7.964735e-001 6.438739e-001 -5.833059e-006 2.073655e-006 7.999457e-001 6.466300e-001
329925000 -9.095556e-006 1.823702e-005 8.226655e-001 6.127153e-001 -4.271812e-007 1.662713e-005 8.261544e-001 6.153996e-001
330210000 -6.209200e-006 8.777924e-006 8.472671e-001 5.802848e-001 4.001004e-006 5.117335e-006 8.508775e-001 5.827863e-001
330495000 -1.115943e-006 1.341150e-005 8.704879e-001 5.465759e-001 7.491948e-006 -8.523190e-007 8.741150e-001 5.489437e-001
330780000 1.057270e-006 -5.762328e-006 8.918384e-001 5.117421e-001 -4.137456e-006 1.114823e-005 8.956367e-001 5.140021e-001
331065000 7.938923e-006 7.512851e-006 9.115403e-001 4.758326e-001 5.017621e-006 -5.666115e-006 9.154851e-001 4.780518e-001
331350000 -1.442678e-005 -1.490270e-006 9.294465e-001 4.391358e-001 -1.655962e-006 1.210462e-005 9.335001e-001 4.409754e-001
331635000 3.963170e-006 2.815312e-006 9.455497e-001 4.016342e-001 6.399215e-006 -4.280168e-006 9.495932e-001 4.032591e-001
331920000 9.070096e-006 7.972990e-006 9.595906e-001 3.633583e-001 -1.206586e-005 8.223460e-006 9.638099e-001 3.650396e-001
332205000 -5.637136e-006 -1.294867e-005 9.718027e-001 3.246724e-001 -5.588993e-006 3.479587e-006 9.760367e-001 3.260069e-001
332490000 -2.451780e-006 1.024323e-005 9.821389e-001 2.855793e-001 -3.724457e-006 2.036635e-005 9.863444e-001 2.868015e-001
332775000 -7.398462e-006 -5.812164e-006 9.904721e-001 2.461447e-001 -9.668804e-006 -1.364358e-005 9.948114e-001 2.472821e-001
333060000 2.018040e-006 -2.696320e-005 9.968300e-001 2.067540e-001 -1.810856e-005 -7.879697e-007 1.001196e+000 2.076421e-001
333345000 5.670892e-006 1.308577e-005 1.001275e+000 1.672245e-001 -1.497912e-005 -5.782662e-006 1.005714e+000 1.678963e-001
333630000 9.390031e-006 1.272871e-005 1.003861e+000 1.277683e-001 -7.905438e-006 3.399895e-007 1.008290e+000 1.284474e-001
333915000 -5.022283e-006 -2.565789e-007 1.004496e+000 8.859313e-002 -6.684901e-007 -5.935764e-006 1.008881e+000 8.911145e-002
334200000 -4.217885e-006 1.527074e-006 1.003372e+000 4.993980e-002 -9.164193e-006 5.406806e-007 1.007709e+000 5.013893e-002
334485000 -1.734690e-006 9.519023e-006 1.000539e+000 1.161610e-002 -1.603593e-005 -1.000347e-006 1.004959e+000 1.160778e-002
334770000 8.043517e-006 1.229739e-005 9.959540e-001 -2.616363e-002 -2.958666e-005 1.073851e-005 1.000317e+000 -2.620016e-002
335055000 -1.055382e-005 -3.644914e-006 9.897448e-001 -6.328724e-002 -3.066119e-006 1.108824e-005 9.940611e-001 -6.353834e-002
335340000 -2.826337e-006 4.105582e-006 9.818683e-001 -9.963619e-002 -5.675021e-006 -9.696072e-007 9.862580e-001 -1.000523e-001
335625000 -1.017623e-005 4.882575e-006 9.726005e-001 -1.351194e-001 -1.228446e-005 1.492550e-005 9.768595e-001 -1.356875e-001
335910000 4.662114e-006 7.096343e-006 9.619707e-001 -1.697425e-001 -3.268526e-006 1.197147e-005 9.660854e-001 -1.704790e-001
336195000 2.432339e-006 -8.175210e-006 9.499376e-001 -2.035089e-001 -1.449407e-005 7.673792e-006 9.540929e-001 -2.044439e-001
336480000 -5.741256e-006 -3.301129e-006 9.367071e-001 -2.363701e-001 -1.077880e-005 1.039422e-005 9.408137e-001 -2.373721e-001
336765000 -1.037395e-005 2.006949e-006 9.223051e-001 -2.681291e-001 -6.477405e-006 -1.341807e-006 9.263746e-001 -2.692413e-001
337050000 1.956770e-007 -4.005037e-006 9.069520e-001 -2.988568e-001 -1.453691e-005 4.843540e-006 9.108942e-001 -3.000118e-001
337335000 -1.035574e-005 6.780165e-006 8.905548e-001 -3.285504e-001 1.564012e-005 1.249678e-005 8.944292e-001 -3.299500e-001
337620000 8.337665e-007 -1.036390e-005 8.733128e-001 -3.569888e-001 9.177164e-006 1.506157e-005 8.770866e-001 -3.585877e-001
337905000 -1.053828e-005 -2.275324e-007 8.551320e-001 -3.845165e-001 1.559276e-005 -1.400292e-006 8.588573e-001 -3.862302e-001
338190000 -1.777771e-005 1.180943e-005 8.362951e-001 -4.108976e-001 1.107395e-005 -2.422925e-006 8.399138e-001 -4.126954e-001
338475000 -1.801163e-005 -1.830887e-006 8.167984e-001 -4.361759e-001 4.635875e-006 2.191214e-006 8.202297e-001 -4.380767e-001
338760000 -2.554336e-006 -1.143657e-005 7.966448e-001 -4.603127e-001 1.683935e-005 1.531323e-006 8.000447e-001 -4.623519e-001
339045000 -5.833767e-006 -8.338915e-006 7.760368e-001 -4.834640e-001 -3.262571e-006 1.269599e-005 7.793726e-001 -4.855536e-001
339330000 -1.338578e-005 -1.188746e-006 7.548702e-001 -5.055226e-001 1.236442e-005 -4.382488e-006 7.581787e-001 -5.076225e-001
339615000 -3.491485e-006 1.201454e-006 7.334277e-001 -5.264138e-001 -3.709866e-006 -2.184742e-006 7.365909e-001 -5.287269e-001
339900000 5.617109e-006 6.871497e-006 7.115121e-001 -5.463466e-001 -1.505888e-006 3.298753e-006 7.146330e-001 -5.486979e-001
340185000 5.130574e-006 1.556788e-005 6.894131e-001 -5.653108e-001 -9.937171e-006 -4.295493e-006 6.923815e-001 -5.676692e-001
340470000 2.113457e-006 7.455834e-006 6.670130e-001 -5.832046e-001 4.563967e-006 9.254550e-006 6.698786e-001 -5.856227e-001
340755000 -3.365792e-006 4.193044e-006 6.443347e-001 -6.000577e-001 -4.541618e-008 5.011480e-006 6.471592e-001 -6.026289e-001
341040000 -1.130950e-005 1.222087e-005 6.216875e-001 -6.160420e-001 -1.273561e-007 9.457988e-007 6.242761e-001 -6.186509e-001
341325000 -1.173908e-005 9.223435e-006 5.986736e-001 -6.311024e-001 -8.694914e-006 6.185512e-006 6.012523e-001 -6.337355e-001
341610000 -1.737402e-005 7.833008e-006 5.757205e-001 -6.452574e-001 6.960113e-006 7.120148e-006 5.781760e-001 -6.480489e-001
341895000 -1.751055e-005 2.885009e-006 5.526919e-001 -6.584891e-001 4.086782e-006 1.161769e-005 5.550373e-001 -6.612800e-001
342180000 3.334264e-006 1.107529e-005 5.296032e-001 -6.708619e-001 1.210058e-006 -1.831641e-006 5.318587e-001 -6.738320e-001
342465000 4.987207e-006 7.821066e-006 5.065137e-001 -6.825828e-001 6.732794e-006 9.526330e-006 5.086816e-001 -6.854999e-001
342750000 -1.296695e-005 5.303910e-006 4.834329e-001 -6.934574e-001 5.585199e-006 -1.287976e-005 4.855300e-001 -6.963338e-001
343035000 3.954553e-006 1.195287e-005 4.604341e-001 -7.034975e-001 6.455943e-006 -8.261986e-006 4.624052e-001 -7.065043e-001
343320000 -7.062155e-006 4.354121e-007 4.374274e-001 -7.128944e-001 -1.404643e-005 1.108455e-006 4.393198e-001 -7.158365e-001
343605000 -3.153225e-006 8.049390e-006 4.144995e-001 -7.214603e-001 3.262250e-006 -5.756794e-006 4.163423e-001 -7.245436e-001
343890000 -1.712238e-006 -1.231530e-005 3.917152e-001 -7.294722e-001 -6.768314e-007 6.587708e-006 3.934104e-001 -7.325172e-001
