!Agilent Technologies,N5230C,SG49000117,A.08.50.07
!Agilent N5230C: A.08.50.07
!Date: Sunday, March 17, 2024 06:25:48
!Correction: S11(Off) 
!S21(Off) 
!S12(Off) 
!S22(Off) 
!S2P File: Measurements: S11, S21, S12, S22:
# Hz S  RI   R 50
300000000 1.081350e-005 5.729055e-006 -6.996883e-001 -5.199534e-001 1.134509e-006 -8.660579e-006 -7.022291e-001 -5.218074e-001
300285000 8.651675e-006 2.117473e-007 -7.104408e-001 -4.962192e-001 -1.122711e-005 -4.477618e-006 -7.130200e-001 -4.979764e-001
300570000 1.256530e-005 2.935898e-006 -7.203750e-001 -4.722037e-001 -1.412134e-005 -4.863382e-006 -7.230792e-001 -4.739569e-001
300855000 1.233097e-005 -1.068352e-005 -7.295495e-001 -4.483317e-001 -1.138855e-005 -8.361189e-006 -7.323681e-001 -4.499958e-001
301140000 7.287578e-006 -3.170931e-007 -7.381052e-001 -4.243594e-001 9.987497e-006 -1.279907e-005 -7.407938e-001 -4.259651e-001
301425000 8.306733e-006 2.469594e-006 -7.459014e-001 -4.006412e-001 5.366666e-008 -6.987454e-006 -7.486579e-001 -4.021824e-001
301710000 3.909507e-006 -3.853825e-006 -7.529146e-001 -3.770183e-001 1.111971e-006 -1.238401e-005 -7.557735e-001 -3.784094e-001
301995000 4.229988e-006 7.534082e-007 -7.592575e-001 -3.534446e-001 4.013611e-006 4.768311e-006 -7.621095e-001 -3.548333e-001
302280000 4.913518e-006 -7.367994e-006 -7.649766e-001 -3.301027e-001 9.258205e-006 1.278805e-006 -7.678486e-001 -3.312973e-001
302565000 3.190922e-006 -1.133754e-006 -7.700701e-001 -3.069170e-001 1.643453e-005 -1.594266e-005 -7.730082e-001 -3.080176e-001
302850000 -3.992357e-006 4.197973e-006 -7.745279e-001 -2.837912e-001 -2.608707e-005 6.868176e-006 -7.774041e-001 -2.848024e-001
303135000 2.879018e-007 -4.590884e-006 -7.783985e-001 -2.607939e-001 4.904837e-006 9.692114e-006 -7.813115e-001 -2.618131e-001
303420000 7.025104e-006 5.580699e-006 -7.816506e-001 -2.380169e-001 1.310425e-005 2.867883e-006 -7.846408e-001 -2.390004e-001
303705000 6.671248e-006 1.248493e-005 -7.843960e-001 -2.154679e-001 7.312965e-006 -1.904553e-005 -7.874100e-001 -2.163336e-001
303990000 -5.136209e-006 -6.525941e-006 -7.866470e-001 -1.930239e-001 -2.428030e-006 5.647731e-007 -7.895582e-001 -1.937728e-001
304275000 1.915182e-005 4.419086e-006 -7.883837e-001 -1.708065e-001 -1.165135e-005 6.970885e-006 -7.913409e-001 -1.713811e-001
304560000 5.599828e-006 -3.415966e-006 -7.895436e-001 -1.486856e-001 -1.680081e-005 1.879363e-006 -7.924916e-001 -1.492907e-001
304845000 1.391853e-005 -2.940522e-006 -7.903326e-001 -1.267946e-001 3.224831e-007 3.095257e-006 -7.933584e-001 -1.273395e-001
305130000 -9.667788e-006 -7.029696e-006 -7.905741e-001 -1.050749e-001 2.548132e-006 -6.190262e-006 -7.935967e-001 -1.054598e-001
305415000 -8.033621e-006 -4.286675e-006 -7.903519e-001 -8.349536e-002 -2.598918e-006 -2.140097e-005 -7.934779e-001 -8.383738e-002
305700000 -9.201416e-006 3.827988e-006 -7.896912e-001 -6.209986e-002 -9.430954e-006 -1.185227e-005 -7.927169e-001 -6.228239e-002
305985000 1.106317e-005 -1.620454e-006 -7.885982e-001 -4.084280e-002 8.432951e-007 -8.827715e-006 -7.916503e-001 -4.100274e-002
306270000 -1.133102e-006 -3.020048e-006 -7.871220e-001 -1.977804e-002 -6.650341e-006 -6.134525e-007 -7.900602e-001 -1.986134e-002
306555000 -9.077037e-006 -1.341327e-005 -7.851641e-001 1.236659e-003 2.220458e-006 -8.344658e-006 -7.881705e-001 1.198361e-003
306840000 -8.600849e-006 -1.096427e-006 -7.828696e-001 2.192146e-002 1.836403e-005 -5.972307e-006 -7.858411e-001 2.201499e-002
307125000 2.257456e-007 -3.845124e-006 -7.801113e-001 4.254923e-002 3.083631e-006 -1.879853e-006 -7.831397e-001 4.269777e-002
307410000 1.301833e-006 1.864773e-006 -7.769905e-001 6.296068e-002 1.224392e-005 5.241018e-006 -7.799962e-001 6.322782e-002
307695000 1.247594e-005 -1.175761e-006 -7.735437e-001 8.324080e-002 4.478189e-006 -9.725177e-006 -7.765665e-001 8.362949e-002
307980000 1.663869e-005 5.969070e-006 -7.696959e-001 1.034383e-001 -4.992162e-006 -1.321299e-005 -7.726796e-001 1.038409e-001
308265000 -1.241166e-005 4.288970e-006 -7.654291e-001 1.234325e-001 1.847247e-005 6.642617e-006 -7.684323e-001 1.238690e-001
308550000 -1.468124e-005 1.575671e-005 -7.608562e-001 1.432976e-001 5.370368e-006 -3.642096e-006 -7.638165e-001 1.438111e-001
308835000 7.733660e-006 -6.390842e-006 -7.559754e-001 1.630187e-001 9.509066e-006 2.657898e-006 -7.589096e-001 1.635863e-001
309120000 4.024261e-007 5.785282e-007 -7.505844e-001 1.825754e-001 1.385962e-005 -2.688451e-006 -7.536111e-001 1.833351e-001
309405000 -6.808388e-006 8.029683e-006 -7.450218e-001 2.020437e-001 -1.846837e-006 8.131204e-006 -7.479150e-001 2.028890e-001
309690000 1.719617e-005 9.686796e-007 -7.390249e-001 2.214240e-001 -4.146103e-006 1.149257e-005 -7.418482e-001 2.222649e-001
309975000 -3.847739e-006 -4.356613e-006 -7.325712e-001 2.406203e-001 -1.101351e-005 -2.517182e-006 -7.355030e-001 2.415981e-001
310260000 1.286409e-005 -7.669967e-006 -7.258489e-001 2.597437e-001 -1.665001e-005 5.364484e-006 -7.288193e-001 2.607642e-001
310545000 8.874288e-006 4.384038e-006 -7.188542e-001 2.787681e-001 5.357540e-006 -8.186991e-006 -7.216302e-001 2.797691e-001
310830000 1.032486e-005 -1.122796e-005 -7.113389e-001 2.975552e-001 1.536423e-006 -9.641039e-006 -7.141718e-001 2.987804e-001
311115000 -1.542390e-005 -3.588400e-007 -7.035952e-001 3.163815e-001 -7.665918e-006 -1.913581e-005 -7.063894e-001 3.175929e-001
311400000 -4.498106e-006 6.669044e-006 -6.953958e-001 3.350663e-001 -7.300546e-006 -9.740223e-006 -6.981377e-001 3.362883e-001
311685000 -1.248639e-005 6.781431e-006 -6.868375e-001 3.535448e-001 -6.974275e-006 -2.073274e-005 -6.895232e-001 3.549370e-001
311970000 1.204769e-005 1.051341e-005 -6.779734e-001 3.720376e-001 -4.616280e-006 4.305254e-006 -6.806648e-001 3.735298e-001
312255000 -1.326495e-005 -2.164657e-005 -6.686639e-001 3.903385e-001 -6.194853e-006 1.824840e-006 -6.713032e-001 3.918947e-001
312540000 -4.492848e-006 4.952706e-006 -6.589785e-001 4.086106e-001 8.992592e-006 -7.764726e-006 -6.615756e-001 4.102623e-001
312825000 -2.616336e-006 1.447899e-005 -6.489561e-001 4.266888e-001 -5.604867e-007 -8.906516e-006 -6.514990e-001 4.283934e-001
313110000 8.763334e-007 -4.274319e-006 -6.383539e-001 4.447250e-001 8.534935e-006 1.283679e-005 -6.409686e-001 4.465364e-001
313395000 8.522137e-006 -1.163046e-005 -6.274970e-001 4.626840e-001 8.178290e-006 -4.955713e-007 -6.299602e-001 4.644660e-001
313680000 -4.853529e-006 -7.722087e-006 -6.162107e-001 4.804435e-001 1.887133e-005 -2.416149e-006 -6.186580e-001 4.823303e-001
313965000 -5.832890e-006 -7.842144e-006 -6.043630e-001 4.981207e-001 -2.029575e-006 6.628945e-006 -6.068470e-001 5.001915e-001
314250000 -5.608489e-006 -1.884360e-005 -5.921915e-001 5.157164e-001 1.088671e-007 8.654623e-006 -5.945445e-001 5.177204e-001
314535000 2.867268e-005 -1.021195e-005 -5.795057e-001 5.331769e-001 3.591230e-006 4.559465e-006 -5.818489e-001 5.353136e-001
314820000 -1.783008e-005 -3.040977e-006 -5.664509e-001 5.504825e-001 2.034688e-006 1.665739e-005 -5.687842e-001 5.527166e-001
315105000 1.526533e-005 8.258025e-006 -5.528114e-001 5.677242e-001 3.814626e-006 -9.680729e-006 -5.550457e-001 5.699773e-001
315390000 -4.426116e-006 1.124866e-007 -5.387236e-001 5.846567e-001 -7.779485e-006 -3.337590e-007 -5.409254e-001 5.870787e-001
315675000 -8.550385e-008 2.155153e-006 -5.241576e-001 6.015846e-001 6.026767e-006 6.057566e-006 -5.262702e-001 6.039702e-001
315960000 6.510542e-006 2.075566e-006 -5.090007e-001 6.183554e-001 5.976796e-006 -3.860313e-006 -5.111264e-001 6.208569e-001
316245000 2.297947e-006 5.578982e-006 -4.934468e-001 6.348499e-001 6.069608e-006 -1.992733e-007 -4.954017e-001 6.374953e-001
316530000 1.129075e-005 -6.094662e-006 -4.772045e-001 6.512568e-001 -2.355330e-005 -4.658263e-006 -4.791530e-001 6.538328e-001
316815000 -9.904650e-007 2.959493e-006 -4.604724e-001 6.673129e-001 -1.034172e-005 -2.450845e-006 -4.623551e-001 6.701299e-001
317100000 -8.331386e-006 2.058320e-005 -4.431536e-001 6.834002e-001 -3.239920e-006 -2.127807e-005 -4.449750e-001 6.861410e-001
317385000 -6.929388e-006 9.644057e-006 -4.251638e-001 6.990671e-001 1.271208e-005 -1.208111e-005 -4.269497e-001 7.018650e-001
317670000 -1.582134e-005 2.176056e-006 -4.066912e-001 7.144647e-001 1.575063e-005 -1.567616e-005 -4.084345e-001 7.173063e-001
317955000 -3.344809e-006 -9.080698e-006 -3.875638e-001 7.296418e-001 1.616699e-005 -2.136386e-005 -3.892255e-001 7.326726e-001
318240000 -6.898877e-006 -1.596653e-006 -3.678654e-001 7.445330e-001 -7.766764e-006 -1.011136e-005 -3.693867e-001 7.475194e-001
318525000 -1.635551e-005 -1.649982e-005 -3.474848e-001 7.589770e-001 1.383744e-005 2.082602e-006 -3.488639e-001 7.620788e-001
318810000 -9.120449e-006 -7.187453e-006 -3.264081e-001 7.731605e-001 1.429850e-005 1.815666e-006 -3.277602e-001 7.763478e-001
319095000 1.187112e-005 -5.393510e-006 -3.046854e-001 7.869702e-001 -3.277343e-006 3.770080e-006 -3.059518e-001 7.902132e-001
319380000 6.936781e-007 -1.100440e-005 -2.822269e-001 8.003244e-001 -5.260198e-006 -4.216448e-007 -2.833814e-001 8.035796e-001
319665000 8.155543e-006 -9.274010e-006 -2.591129e-001 8.132059e-001 2.655572e-005 1.031484e-005 -2.602203e-001 8.165790e-001
319950000 -3.321624e-006 -2.645413e-006 -2.353744e-001 8.255813e-001 -7.702734e-006 -1.446160e-005 -2.362693e-001 8.290121e-001
320235000 -9.767995e-006 -5.608459e-006 -2.107893e-001 8.374922e-001 3.237840e-006 -4.051130e-006 -2.117264e-001 8.409502e-001
320520000 -1.030719e-006 7.919641e-006 -1.856879e-001 8.488368e-001 -4.059276e-006 1.026508e-005 -1.863366e-001 8.522633e-001
320805000 7.879742e-006 -9.098362e-006 -1.596097e-001 8.595152e-001 -1.644376e-005 1.219920e-005 -1.603685e-001 8.630023e-001
321090000 7.599997e-006 -8.751907e-006 -1.330199e-001 8.695453e-001 -2.077202e-005 -1.938248e-006 -1.335604e-001 8.731338e-001
321375000 9.597601e-006 5.982872e-006 -1.056051e-001 8.788502e-001 -2.465098e-005 2.908122e-006 -1.060869e-001 8.824589e-001
321660000 -1.296708e-005 4.801960e-006 -7.750366e-002 8.873498e-001 -1.965719e-005 -1.138099e-005 -7.787438e-002 8.910629e-001
321945000 4.036792e-006 3.675922e-006 -4.875037e-002 8.950421e-001 -1.206678e-005 1.165230e-006 -4.894113e-002 8.987265e-001
322230000 -1.718231e-005 2.362013e-006 -1.931540e-002 9.019234e-001 -8.085709e-006 -9.036238e-006 -1.933863e-002 9.056452e-001
322515000 -5.687519e-006 2.243755e-007 1.085060e-002 9.078250e-001 -1.853039e-005 -1.542372e-005 1.096863e-002 9.115692e-001
322800000 -2.195661e-005 3.642883e-006 4.165104e-002 9.127231e-001 -5.722006e-006 -1.578399e-005 4.186460e-002 9.165145e-001
323085000 -1.697037e-005 -1.389888e-005 7.308501e-002 9.166325e-001 1.768475e-006 -3.905935e-006 7.339197e-002 9.204547e-001
323370000 -8.375883e-006 -1.547525e-005 1.051631e-001 9.193838e-001 2.392167e-006 1.233329e-005 1.056295e-001 9.232134e-001
323655000 -1.683850e-005 -1.171989e-005 1.377490e-001 9.208753e-001 -1.939522e-006 1.033260e-006 1.383568e-001 9.248064e-001
323940000 -9.105320e-006 -1.908061e-005 1.709445e-001 9.212692e-001 6.910152e-006 -8.464438e-006 1.715462e-001 9.251853e-001
324225000 2.666326e-006 -8.588931e-006 2.043528e-001 9.203981e-001 3.411178e-006 7.739477e-006 2.053463e-001 9.241600e-001
324510000 -1.427259e-006 8.555316e-008 2.385348e-001 9.179580e-001 4.345280e-006 2.399848e-005 2.394335e-001 9.219298e-001
324795000 -1.098759e-006 -8.380303e-006 2.727889e-001 9.142030e-001 1.704091e-005 6.654127e-006 2.740221e-001 9.180862e-001
325080000 -2.992199e-006 -1.553521e-005 3.073970e-001 9.091387e-001 -1.515239e-005 1.488437e-006 3.087326e-001 9.129618e-001
325365000 -5.348944e-006 -6.023158e-006 3.423172e-001 9.024205e-001 -7.711123e-006 5.530636e-006 3.438190e-001 9.061443e-001
325650000 -6.046211e-007 -1.172263e-005 3.773433e-001 8.940902e-001 -7.042613e-006 1.506773e-005 3.788400e-001 8.977509e-001
325935000 -7.735205e-006 2.244045e-006 4.123502e-001 8.842542e-001 -2.042236e-006 1.749925e-005 4.141831e-001 8.879335e-001
326220000 -8.686011e-006 -9.251991e-006 4.473308e-001 8.726455e-001 -8.554925e-006 9.823207e-006 4.492131e-001 8.763668e-001
326505000 1.268184e-006 6.590597e-009 4.821733e-001 8.594188e-001 9.249906e-007 1.047121e-006 4.841504e-001 8.629960e-001
326790000 -4.924671e-006 8.230844e-006 5.167767e-001 8.444872e-001 7.627373e-006 8.858036e-006 5.189021e-001 8.480459e-001
327075000 -8.060214e-006 -1.129884e-005 5.510732e-001 8.277721e-001 -9.103302e-006 -3.140321e-006 5.533128e-001 8.314509e-001
327360000 1.416458e-006 6.068137e-006 5.847812e-001 8.094705e-001 -6.603172e-008 2.019393e-006 5.872763e-001 8.128852e-001
327645000 -4.513560e-006 9.017182e-006 6.178939e-001 7.892751e-001 -6.323136e-006 8.458742e-006 6.204647e-001 7.926738e-001
327930000 -8.818991e-006 1.034297e-005 6.504061e-001 7.675056e-001 -7.295018e-006 -6.646896e-006 6.530899e-001 7.707800e-001
328215000 -1.636674e-005 -3.497151e-006 6.820701e-001 7.440097e-001 -8.929181e-006 3.147663e-006 6.849933e-001 7.471883e-001
328500000 -6.299351e-006 5.952564e-006 7.127530e-001 7.188530e-001 1.133816e-005 1.537122e-005 7.157558e-001 7.219571e-001
328785000 -7.741076e-006 -1.325674e-005 7.424061e-001 6.921399e-001 -7.456971e-006 1.164757e-006 7.456017e-001 6.950322e-001
329070000 -1.043549e-005 -1.309330e-005 7.708006e-001 6.638219e-001 -4.847523e-006 3.667076e-006 7.741485e-001 6.666334e-001
329355000 -5.574993e-006 -5.514200e-006 7.980220e-001 6.338894e-001 2.991775e-006 1.850064e-005 8.014898e-001 6.366731e-001
329640000 -2.630276e-006 6.105936e-007 8.237804e-001 6.027796e-001 -1.287817e-005 -3.815875e-006 8.273270e-001 6.053891e-001
329925000 1.600619e-005 -9.446618e-006 8.480577e-001 5.702828e-001 -8.192870e-006 1.626124e-005 8.517569e-001 5.727124e-001
330210000 -6.140381e-006 1.108412e-005 8.707956e-001 5.365705e-001 -9.618532e-006 -3.013046e-007 8.745394e-001 5.388933e-001
330495000 3.211214e-006 4.766066e-006 8.918715e-001 5.016969e-001 -5.926155e-006 1.124076e-005 8.956201e-001 5.038058e-001
330780000 -4.317653e-006 -3.983509e-006 9.111665e-001 4.658535e-001 -2.019164e-005 -4.512497e-006 9.150180e-001 4.678431e-001
331065000 -7.128186e-006 1.418938e-006 9.286436e-001 4.291383e-001 -4.535224e-006 -7.233203e-006 9.325942e-001 4.310544e-001
331350000 -1.922361e-006 1.273841e-006 9.443043e-001 3.915451e-001 3.908543e-006 -3.609179e-006 9.484382e-001 3.933250e-001
331635000 7.186122e-006 4.784810e-006 9.581149e-001 3.534251e-001 1.334707e-005 -2.159436e-005 9.621939e-001 3.549606e-001
331920000 -1.943515e-005 -3.122533e-006 9.699963e-001 3.147989e-001 -1.359247e-005 -1.551064e-006 9.740857e-001 3.161843e-001
332205000 -8.896207e-006 -6.433405e-007 9.798588e-001 2.757912e-001 -6.524046e-006 1.096281e-005 9.840332e-001 2.769954e-001
332490000 -1.772405e-005 1.147849e-005 9.877383e-001 2.365481e-001 -1.466030e-006 4.505161e-006 9.920464e-001 2.376429e-001
332775000 -1.577037e-005 -1.127535e-005 9.938376e-001 1.972617e-001 2.089236e-006 5.211572e-006 9.981450e-001 1.981183e-001
333060000 -4.325033e-006 5.229450e-007 9.979852e-001 1.579271e-001 5.182668e-006 3.415559e-006 1.002283e+000 1.585933e-001
333345000 -6.224408e-006 -6.964173e-006 1.000176e+000 1.186517e-001 4.450500e-006 1.347414e-005 1.004578e+000 1.191526e-001
333630000 -8.703251e-006 -5.509637e-006 1.000564e+000 7.959409e-002 7.883065e-006 1.357882e-006 1.004906e+000 8.001667e-002
333915000 -2.249265e-005 -2.183486e-005 9.990959e-001 4.108558e-002 1.841911e-005 1.162029e-005 1.003483e+000 4.126895e-002
334200000 -8.694949e-007 -5.892464e-006 9.959540e-001 2.973854e-003 1.164880e-005 5.206566e-006 1.000185e+000 3.031889e-003
334485000 -1.240264e-005 -5.650481e-006 9.911477e-001 -3.459989e-002 9.914591e-006 1.422166e-005 9.954159e-001 -3.470287e-002
334770000 -6.495660e-006 1.666598e-005 9.845853e-001 -7.150811e-002 1.154204e-005 4.104122e-006 9.889052e-001 -7.182062e-002
335055000 1.567994e-006 3.016744e-007 9.765314e-001 -1.076945e-001 6.403934e-006 -1.504278e-006 9.808345e-001 -1.081715e-001
335340000 -4.023470e-006 5.246053e-006 9.670187e-001 -1.429397e-001 -1.255017e-006 3.067355e-006 9.712692e-001 -1.436970e-001
335625000 -4.742873e-006 8.780898e-006 9.561849e-001 -1.774874e-001 -3.331937e-006 2.769827e-006 9.602632e-001 -1.782236e-001
335910000 -1.321709e-005 1.354313e-005 9.439143e-001 -2.109310e-001 -1.783438e-006 1.232175e-007 9.480473e-001 -2.118138e-001
336195000 -8.193619e-007 -8.799100e-006 9.305078e-001 -2.435599e-001 -4.073153e-006 1.516795e-005 9.345373e-001 -2.444834e-001
336480000 1.206011e-005 -1.829886e-005 9.158843e-001 -2.750434e-001 -7.123245e-006 6.420004e-006 9.198462e-001 -2.761849e-001
336765000 1.128017e-006 -1.370456e-005 9.002135e-001 -3.054846e-001 -1.492380e-005 1.743488e-005 9.041424e-001 -3.067844e-001
337050000 8.787546e-006 -1.575588e-006 8.837594e-001 -3.349593e-001 4.155553e-007 4.524155e-006 8.876232e-001 -3.363629e-001
337335000 -4.833601e-006 3.084630e-006 8.662096e-001 -3.632053e-001 -8.158579e-006 1.288292e-005 8.699911e-001 -3.648452e-001
337620000 5.857804e-006 -2.647813e-006 8.479666e-001 -3.905057e-001 4.695460e-006 1.149117e-005 8.517351e-001 -3.921976e-001
337905000 7.892342e-006 8.527838e-007 8.290196e-001 -4.166631e-001 -3.722956e-006 1.870748e-005 8.325652e-001 -4.184245e-001
338190000 7.129473e-006 3.772327e-006 8.093334e-001 -4.415567e-001 -7.131257e-006 7.550153e-006 8.129002e-001 -4.435083e-001
338475000 8.003610e-006 -7.124546e-006 7.890940e-001 -4.655431e-001 -8.144319e-006 1.032453e-005 7.925538e-001 -4.675837e-001
338760000 1.958880e-005 -1.782750e-006 7.683086e-001 -4.884048e-001 -4.776407e-006 7.054233e-006 7.716497e-001 -4.905025e-001
339045000 6.562698e-006 1.101337e-005 7.471508e-001 -5.101832e-001 1.161212e-006 1.583560e-005 7.503380e-001 -5.122929e-001
339330000 1.429253e-006 -7.741340e-006 7.255375e-001 -5.308437e-001 -4.739425e-006 1.105602e-005 7.286057e-001 -5.332177e-001
339615000 -5.681055e-006 5.868609e-006 7.035151e-001 -5.505756e-001 -7.844906e-006 5.181344e-006 7.066265e-001 -5.528935e-001
339900000 1.274751e-005 9.096436e-006 6.813051e-001 -5.691497e-001 -1.552272e-005 7.434615e-006 6.842451e-001 -5.716168e-001
340185000 -7.496635e-006 -5.878160e-006 6.588510e-001 -5.868459e-001 2.611476e-006 -5.434374e-006 6.616555e-001 -5.893501e-001
340470000 -1.683109e-005 2.165249e-006 6.361417e-001 -6.035351e-001 7.852815e-006 -1.034766e-005 6.388795e-001 -6.060165e-001
340755000 -4.708357e-006 -9.380837e-006 6.133040e-001 -6.192343e-001 3.861194e-006 6.481895e-006 6.159759e-001 -6.218281e-001
341040000 -7.545565e-006 8.808471e-006 5.904132e-001 -6.340659e-001 2.912535e-006 1.595859e-005 5.929055e-001 -6.367670e-001
341325000 -9.565228e-006 -1.560042e-005 5.672379e-001 -6.479089e-001 -3.005334e-006 -1.937603e-005 5.697418e-001 -6.507053e-001
341610000 -2.756258e-006 -1.912543e-006 5.442203e-001 -6.609756e-001 6.077448e-006 2.400506e-006 5.465822e-001 -6.637594e-001
341895000 -2.464917e-006 6.772887e-006 5.210852e-001 -6.731332e-001 5.771676e-006 7.000756e-006 5.232880e-001 -6.759142e-001
342180000 -5.285762e-007 1.097763e-005 4.980074e-001 -6.846122e-001 -4.381684e-006 -2.100680e-006 5.001574e-001 -6.874311e-001
342465000 7.131272e-006 8.982732e-006 4.749234e-001 -6.951854e-001 1.518547e-005 -1.094398e-006 4.769696e-001 -6.980931e-001
342750000 4.455267e-007 3.712016e-006 4.518876e-001 -7.049609e-001 -5.431300e-006 4.493453e-006 4.537750e-001 -7.079487e-001
343035000 -5.024212e-006 -1.173581e-005 4.288929e-001 -7.141225e-001 5.125883e-006 -5.027279e-006 4.307130e-001 -7.170889e-001
343320000 -3.242743e-006 1.703943e-005 4.059384e-001 -7.225144e-001 -3.193906e-006 -1.103696e-005 4.076918e-001 -7.255979e-001
343605000 9.470368e-006 8.374142e-006 3.831504e-001 -7.302073e-001 -1.502044e-005 -1.474377e-005 3.847902e-001 -7.333348e-001
343890000 -3.444567e-006 8.841120e-006 3.604312e-001 -7.372511e-001 4.452299e-006 -1.570069e-006 3.619881e-001 -7.404239e-001
