!Agilent Technologies,N5230C,SG49000117,A.08.50.07
!Agilent N5230C: A.08.50.07
!Date: Sunday, March 17, 2024 06:22:12
!Correction: S11(Off) 
!S21(Off) 
!S12(Off) 
!S22(Off) 
!S2P File: Measurements: S11, S21, S12, S22:
# Hz S  RI   R 50
300000000 -3.317334e-006 1.108228e-005 -7.126638e-001 -4.961263e-001 -1.181015e-006 1.774262e-006 -7.153050e-001 -4.979021e-001
300285000 -6.312441e-006 1.679876e-006 -7.226195e-001 -4.721605e-001 -4.897260e-006 3.737672e-006 -7.253073e-001 -4.738774e-001
300570000 -6.908549e-006 1.272618e-006 -7.318007e-001 -4.481564e-001 1.953889e-006 -1.002890e-005 -7.345888e-001 -4.498592e-001
300855000 -1.627154e-005 -5.336092e-006 -7.402515e-001 -4.242664e-001 5.485330e-006 -5.387354e-006 -7.429059e-001 -4.258113e-001
301140000 4.357177e-006 8.078265e-007 -7.480634e-001 -4.002839e-001 1.478949e-006 -3.287432e-006 -7.508374e-001 -4.016846e-001
301425000 -8.180583e-006 -8.529534e-006 -7.550521e-001 -3.765967e-001 1.411805e-005 3.071096e-006 -7.578754e-001 -3.779162e-001
301710000 -4.002470e-006 -1.706640e-006 -7.613714e-001 -3.529426e-001 5.141792e-006 6.676502e-006 -7.641707e-001 -3.542185e-001
301995000 -6.232815e-006 -1.546265e-005 -7.671409e-001 -3.294086e-001 6.289372e-006 2.260095e-006 -7.699704e-001 -3.306271e-001
302280000 -2.454331e-006 -1.586728e-005 -7.720351e-001 -3.060173e-001 1.988561e-006 1.368351e-005 -7.749299e-001 -3.071268e-001
302565000 7.741324e-006 -7.468981e-006 -7.765008e-001 -2.827691e-001 -1.591912e-005 -1.213560e-006 -7.794134e-001 -2.839045e-001
302850000 4.792139e-006 -5.037746e-006 -7.803328e-001 -2.597433e-001 -7.532020e-006 -1.989994e-005 -7.832772e-001 -2.608045e-001
303135000 -3.010096e-006 -6.888533e-006 -7.835275e-001 -2.368778e-001 -1.046843e-005 4.192608e-006 -7.865227e-001 -2.377418e-001
303420000 4.418924e-007 1.141602e-006 -7.862055e-001 -2.141889e-001 -1.282735e-005 7.393208e-006 -7.891755e-001 -2.150333e-001
303705000 1.472557e-005 -6.050731e-006 -7.883750e-001 -1.916559e-001 -8.620051e-006 1.302609e-006 -7.913589e-001 -1.924318e-001
303990000 7.834746e-006 2.057406e-005 -7.900481e-001 -1.693113e-001 -7.137273e-006 -7.162779e-006 -7.930271e-001 -1.699762e-001
304275000 5.193608e-006 -1.026419e-005 -7.911426e-001 -1.471967e-001 6.912796e-006 -1.111536e-005 -7.942402e-001 -1.477261e-001
304560000 -9.069296e-006 5.557090e-006 -7.918127e-001 -1.252085e-001 -7.599298e-006 -1.064108e-005 -7.948064e-001 -1.257155e-001
304845000 -1.409421e-005 1.171172e-005 -7.920220e-001 -1.033752e-001 2.172821e-006 -1.862643e-005 -7.949831e-001 -1.038083e-001
305130000 -1.078820e-005 -1.489357e-005 -7.917238e-001 -8.171402e-002 -4.359962e-006 -5.584460e-006 -7.947582e-001 -8.202619e-002
305415000 -7.431358e-006 -1.229169e-005 -7.910080e-001 -6.025568e-002 4.160975e-006 -9.265544e-006 -7.940854e-001 -6.052700e-002
305700000 -1.147647e-005 -5.917597e-006 -7.898635e-001 -3.891322e-002 -2.393698e-006 -9.362113e-006 -7.928986e-001 -3.912128e-002
305985000 4.274828e-007 1.964832e-006 -7.882742e-001 -1.781990e-002 3.918175e-006 -3.858640e-006 -7.912624e-001 -1.790728e-002
306270000 3.171576e-006 -6.783388e-006 -7.862644e-001 3.170991e-003 1.361409e-005 6.744446e-006 -7.892204e-001 3.175107e-003
306555000 4.616272e-006 9.082593e-007 -7.837700e-001 2.403093e-002 6.318665e-006 -4.969633e-007 -7.867948e-001 2.406255e-002
306840000 -1.879209e-006 -2.083700e-005 -7.809625e-001 4.461870e-002 1.122824e-005 -2.523425e-006 -7.839988e-001 4.475845e-002
307125000 -1.979555e-006 -1.444981e-005 -7.778366e-001 6.512956e-002 -1.480809e-006 -4.017328e-006 -7.808560e-001 6.539656e-002
307410000 1.701401e-005 2.718102e-007 -7.742164e-001 8.543450e-002 1.386793e-006 1.238098e-005 -7.772104e-001 8.580298e-002
307695000 8.540516e-006 -1.647216e-005 -7.702189e-001 1.057227e-001 -3.205983e-006 1.050502e-005 -7.732102e-001 1.060525e-001
307980000 -8.148468e-006 2.107190e-006 -7.659348e-001 1.257157e-001 -7.374188e-006 3.689293e-006 -7.689149e-001 1.262029e-001
308265000 2.222664e-005 -1.598936e-005 -7.613003e-001 1.456174e-001 5.965673e-006 -3.983657e-006 -7.642496e-001 1.461048e-001
308550000 8.618817e-006 3.159148e-006 -7.562596e-001 1.653599e-001 -5.983434e-006 1.198123e-005 -7.591563e-001 1.659335e-001
308835000 1.583994e-006 -2.187635e-006 -7.508239e-001 1.848889e-001 -4.507500e-006 -1.552381e-005 -7.538081e-001 1.856865e-001
309120000 4.621450e-006 1.485539e-006 -7.450727e-001 2.044826e-001 -1.338450e-006 -3.197759e-006 -7.480053e-001 2.052384e-001
309405000 1.259355e-005 -1.068450e-005 -7.389690e-001 2.237741e-001 -5.975251e-006 -2.893490e-006 -7.418541e-001 2.247233e-001
309690000 1.027272e-005 8.361091e-006 -7.325167e-001 2.430084e-001 9.931480e-006 -1.437956e-005 -7.354178e-001 2.439936e-001
309975000 3.963130e-007 -4.116739e-006 -7.257056e-001 2.621633e-001 3.343653e-007 -7.660879e-006 -7.286072e-001 2.631605e-001
310260000 1.247799e-006 1.141170e-005 -7.185552e-001 2.811258e-001 -1.773770e-005 -4.537461e-006 -7.214537e-001 2.822383e-001
310545000 -6.488302e-006 5.256195e-006 -7.109796e-001 2.999980e-001 -5.123794e-006 -1.161660e-005 -7.138149e-001 3.011836e-001
310830000 1.682852e-005 7.595279e-006 -7.031130e-001 3.186707e-001 9.330884e-006 -1.189017e-005 -7.058815e-001 3.199809e-001
311115000 1.860705e-006 3.116549e-006 -6.948341e-001 3.373874e-001 -1.738632e-006 -5.801808e-006 -6.975900e-001 3.387176e-001
311400000 1.571307e-005 4.679981e-006 -6.861910e-001 3.559366e-001 8.288886e-006 7.071228e-006 -6.889022e-001 3.573025e-001
311685000 9.480340e-006 2.173496e-006 -6.771791e-001 3.743837e-001 1.673548e-006 -4.112950e-006 -6.798440e-001 3.758294e-001
311970000 -1.440551e-005 -5.158997e-006 -6.677531e-001 3.926610e-001 1.184203e-005 2.036508e-006 -6.704903e-001 3.942443e-001
312255000 -1.008294e-005 -1.183923e-005 -6.579810e-001 4.109432e-001 2.702584e-005 3.117801e-006 -6.605852e-001 4.125690e-001
312540000 -2.413719e-006 3.674537e-006 -6.478622e-001 4.289668e-001 -7.860055e-007 1.773850e-007 -6.503959e-001 4.307084e-001
312825000 -1.570261e-006 1.314881e-006 -6.372344e-001 4.469580e-001 -5.328169e-006 -1.220661e-006 -6.398298e-001 4.487326e-001
313110000 -1.284236e-005 1.853826e-006 -6.263043e-001 4.649014e-001 -1.193283e-005 1.448782e-006 -6.287207e-001 4.667096e-001
313395000 -8.171724e-006 2.000567e-006 -6.148173e-001 4.826246e-001 2.033691e-005 8.851841e-006 -6.172832e-001 4.845295e-001
313680000 -7.782362e-006 -6.145600e-007 -6.029273e-001 5.001999e-001 -9.484986e-006 1.043410e-005 -6.053995e-001 5.022828e-001
313965000 -1.158142e-005 -5.747795e-006 -5.906664e-001 5.178040e-001 4.286802e-007 -8.625134e-006 -5.930777e-001 5.199447e-001
314250000 1.746924e-006 1.193460e-005 -5.779563e-001 5.352156e-001 -3.316878e-006 4.108453e-006 -5.802581e-001 5.373729e-001
314535000 1.180474e-005 -1.339127e-005 -5.647365e-001 5.524323e-001 5.048090e-007 -1.551510e-005 -5.670292e-001 5.547167e-001
314820000 -7.991374e-007 -4.729297e-006 -5.510808e-001 5.695783e-001 -9.859015e-006 -8.866077e-006 -5.532684e-001 5.718513e-001
315105000 -9.035513e-006 -8.181474e-006 -5.368716e-001 5.866537e-001 8.933644e-006 -2.015725e-005 -5.390876e-001 5.889416e-001
315390000 -1.284113e-005 5.221111e-006 -5.222058e-001 6.034559e-001 1.250333e-005 -9.886291e-006 -5.243118e-001 6.058949e-001
315675000 -1.380192e-005 -7.147164e-006 -5.070803e-001 6.201127e-001 7.710346e-006 -7.158765e-006 -5.091440e-001 6.225586e-001
315960000 -8.867862e-006 -4.862145e-006 -4.913608e-001 6.365772e-001 1.542381e-005 -4.972620e-006 -4.933647e-001 6.391779e-001
316245000 -1.325998e-006 -6.149995e-007 -4.751025e-001 6.528791e-001 -1.776889e-005 -1.061292e-006 -4.769880e-001 6.555118e-001
316530000 -5.327623e-006 6.235563e-006 -4.582573e-001 6.689981e-001 6.273004e-006 -5.192825e-006 -4.601166e-001 6.717697e-001
316815000 -3.316930e-006 -1.214807e-005 -4.408402e-001 6.848264e-001 -7.928475e-006 -3.120995e-006 -4.426977e-001 6.875871e-001
317100000 -7.903035e-006 1.784662e-006 -4.228530e-001 7.004257e-001 -7.590235e-006 -6.317222e-007 -4.246466e-001 7.032522e-001
317385000 -1.378796e-006 2.902194e-006 -4.043009e-001 7.158193e-001 -1.056718e-005 2.998650e-007 -4.059827e-001 7.187511e-001
317670000 -1.261646e-006 -8.560742e-006 -3.851859e-001 7.308817e-001 -2.622148e-006 5.730329e-006 -3.867555e-001 7.338945e-001
317955000 7.153772e-008 -1.163057e-005 -3.653547e-001 7.456863e-001 -4.367495e-006 -7.336372e-006 -3.668190e-001 7.487682e-001
318240000 -8.115910e-006 -7.970137e-006 -3.449347e-001 7.601494e-001 -4.346928e-006 1.101863e-006 -3.462857e-001 7.632220e-001
318525000 -7.415884e-006 -4.493503e-006 -3.237594e-001 7.742127e-001 -9.761583e-006 -2.593770e-006 -3.251041e-001 7.773002e-001
318810000 -2.374295e-006 -1.786191e-005 -3.020341e-001 7.878350e-001 -1.348776e-005 -8.431914e-006 -3.032431e-001 7.911469e-001
319095000 -2.787008e-006 -1.419863e-005 -2.795479e-001 8.011293e-001 -1.396912e-005 -5.776449e-006 -2.806802e-001 8.043640e-001
319380000 -1.042196e-005 1.140108e-006 -2.564302e-001 8.140091e-001 -1.260461e-005 -5.282593e-006 -2.573925e-001 8.173019e-001
319665000 3.373930e-007 -8.286169e-006 -2.325572e-001 8.263296e-001 2.225015e-006 -1.026143e-005 -2.335252e-001 8.296954e-001
319950000 -2.075602e-005 -1.206097e-005 -2.079502e-001 8.381233e-001 -1.554659e-006 -1.813484e-005 -2.089028e-001 8.415155e-001
320235000 4.838138e-006 -7.540882e-006 -1.827908e-001 8.493119e-001 -1.912896e-006 -1.657367e-005 -1.835745e-001 8.528122e-001
320520000 4.849091e-006 -4.036127e-006 -1.567318e-001 8.598241e-001 5.556062e-006 -1.312748e-005 -1.574262e-001 8.633814e-001
320805000 9.388724e-006 5.788301e-006 -1.301694e-001 8.698041e-001 -1.345193e-005 -6.217784e-006 -1.307190e-001 8.734306e-001
321090000 1.325024e-005 -8.453185e-006 -1.028067e-001 8.790342e-001 -3.248293e-006 -1.195246e-005 -1.031892e-001 8.827042e-001
321375000 -1.212817e-006 -1.454033e-006 -7.464068e-002 8.874276e-001 7.252872e-006 1.336956e-006 -7.501929e-002 8.911576e-001
321660000 -7.635907e-006 -1.834249e-006 -4.588779e-002 8.951124e-001 8.361183e-006 -3.147966e-006 -4.599405e-002 8.987826e-001
321945000 -1.962995e-006 -7.593187e-006 -1.633267e-002 9.018430e-001 6.835625e-007 4.982129e-006 -1.645176e-002 9.055417e-001
322230000 1.764840e-006 4.564369e-006 1.374579e-002 9.076606e-001 5.442555e-006 9.037358e-006 1.383832e-002 9.114127e-001
322515000 5.075012e-006 -3.252660e-006 4.461069e-002 9.124274e-001 -2.191730e-005 5.303915e-006 4.475529e-002 9.162838e-001
322800000 -1.326671e-006 1.234250e-005 7.599923e-002 9.162177e-001 -1.471639e-005 4.327550e-006 7.633244e-002 9.200059e-001
323085000 5.469639e-006 1.890680e-006 1.080195e-001 9.189314e-001 -3.785736e-006 -1.162084e-006 1.085073e-001 9.228506e-001
323370000 -2.923991e-006 1.678389e-006 1.405772e-001 9.204703e-001 -5.360836e-006 2.624185e-006 1.412566e-001 9.242904e-001
323655000 -6.505546e-006 -3.960881e-007 1.737725e-001 9.206960e-001 -1.020547e-005 -1.271106e-005 1.745113e-001 9.245081e-001
323940000 1.162803e-006 -6.869841e-006 2.073431e-001 9.196219e-001 -1.285502e-005 3.685605e-006 2.081265e-001 9.234886e-001
324225000 -1.320672e-005 6.454240e-006 2.413497e-001 9.172024e-001 -5.028635e-006 -1.423905e-005 2.423130e-001 9.211324e-001
324510000 -7.801854e-006 7.331479e-006 2.757208e-001 9.134521e-001 -4.348162e-006 -8.454068e-006 2.768035e-001 9.172434e-001
324795000 -1.309278e-005 1.740454e-005 3.103388e-001 9.082090e-001 8.295328e-007 -7.615869e-006 3.115829e-001 9.119958e-001
325080000 -1.391345e-005 -5.939853e-006 3.450642e-001 9.014019e-001 -1.250349e-005 5.546696e-006 3.465427e-001 9.052402e-001
325365000 -9.974711e-006 1.608422e-005 3.801088e-001 8.929532e-001 -1.056186e-005 -1.018330e-005 3.817611e-001 8.968010e-001
325650000 -1.869515e-006 -2.128623e-006 4.151057e-001 8.830486e-001 -6.997929e-006 -5.706302e-007 4.168770e-001 8.867254e-001
325935000 -6.594633e-006 -7.229550e-006 4.501267e-001 8.714135e-001 2.152165e-006 -2.567077e-006 4.519481e-001 8.751673e-001
326220000 -6.230873e-007 -5.458517e-007 4.849263e-001 8.581230e-001 -1.356230e-005 2.152710e-006 4.870134e-001 8.617249e-001
326505000 -1.285105e-006 -6.257829e-006 5.195247e-001 8.431603e-001 3.346000e-006 -7.283042e-006 5.217181e-001 8.467522e-001
326790000 -6.310075e-007 -1.143299e-005 5.538244e-001 8.263617e-001 -2.454841e-007 1.018066e-005 5.560567e-001 8.298474e-001
327075000 2.873678e-006 -1.593323e-005 5.875459e-001 8.079686e-001 -1.429548e-005 1.065304e-005 5.899929e-001 8.112743e-001
327360000 5.581411e-006 -7.707588e-007 6.206790e-001 7.876310e-001 3.065193e-006 8.096229e-007 6.232700e-001 7.910347e-001
327645000 -9.484073e-006 1.033820e-005 6.531869e-001 7.658089e-001 -1.145093e-005 1.391015e-005 6.559125e-001 7.690451e-001
327930000 1.464712e-005 6.990028e-006 6.847417e-001 7.421836e-001 8.960727e-007 2.105390e-005 6.876642e-001 7.454099e-001
328215000 -9.885231e-006 4.085913e-006 7.154530e-001 7.169639e-001 -7.217174e-006 1.791931e-006 7.184405e-001 7.200595e-001
328500000 -8.990048e-006 -2.688228e-006 7.450455e-001 6.900598e-001 -5.535636e-006 1.067206e-005 7.482207e-001 6.930895e-001
328785000 -4.633499e-006 1.780985e-006 7.734444e-001 6.617743e-001 -7.402112e-006 -2.658821e-006 7.767917e-001 6.645021e-001
329070000 -1.361195e-005 -2.407910e-006 8.006054e-001 6.318500e-001 -1.728740e-006 2.431596e-007 8.040705e-001 6.345854e-001
329355000 -5.090710e-006 -1.527795e-006 8.264965e-001 6.004466e-001 1.560723e-005 -7.613502e-006 8.300087e-001 6.031223e-001
329640000 -1.006088e-005 -1.941896e-005 8.506435e-001 5.679126e-001 -6.491653e-006 8.702915e-006 8.543484e-001 5.703516e-001
329925000 3.332420e-006 -5.317053e-006 8.733550e-001 5.340798e-001 8.722703e-006 -6.596540e-006 8.771162e-001 5.363061e-001
330210000 -8.575944e-006 -4.628572e-006 8.943890e-001 4.990897e-001 1.300155e-005 -1.376863e-006 8.982278e-001 5.012981e-001
330495000 -5.858077e-006 4.557520e-006 9.136366e-001 4.631274e-001 1.764833e-005 6.647262e-006 9.175103e-001 4.651937e-001
330780000 -7.666818e-006 -3.597321e-006 9.310967e-001 4.262226e-001 3.574202e-006 9.214164e-006 9.351506e-001 4.281041e-001
331065000 6.176326e-006 5.741257e-006 9.466888e-001 3.886798e-001 -1.029006e-006 1.140432e-005 9.507793e-001 3.903364e-001
331350000 6.279995e-006 2.752770e-006 9.603891e-001 3.503153e-001 -7.352549e-006 7.376599e-006 9.645813e-001 3.518816e-001
331635000 3.424976e-006 1.290620e-005 9.721426e-001 3.115980e-001 7.925058e-007 -5.329995e-006 9.764467e-001 3.129394e-001
331920000 -6.578934e-006 1.766450e-005 9.819347e-001 2.724886e-001 -7.980863e-006 -2.707264e-006 9.862304e-001 2.735941e-001
332205000 -5.101120e-007 2.566849e-006 9.898204e-001 2.330660e-001 2.986010e-007 -5.710817e-006 9.941351e-001 2.341555e-001
332490000 -1.678218e-005 1.232459e-005 9.957874e-001 1.934884e-001 1.719259e-006 -2.267935e-005 1.000028e+000 1.943832e-001
332775000 5.985269e-007 -6.356129e-006 9.997429e-001 1.540980e-001 -1.775889e-006 -1.959728e-006 1.004216e+000 1.547853e-001
333060000 -9.709976e-006 -5.352978e-006 1.001884e+000 1.148088e-001 -7.005292e-006 3.820623e-006 1.006301e+000 1.152811e-001
333345000 -1.249758e-006 -2.568599e-006 1.002217e+000 7.560870e-002 -1.176955e-006 8.683063e-006 1.006542e+000 7.596853e-002
333630000 -5.656723e-006 -4.985385e-006 1.000508e+000 3.694215e-002 1.691116e-006 5.019461e-007 1.005067e+000 3.705368e-002
333915000 6.652454e-006 6.698385e-006 9.972296e-001 -1.281144e-003 -5.880420e-006 6.844497e-006 1.001578e+000 -1.214058e-003
334200000 -9.455707e-006 5.233177e-006 9.922335e-001 -3.895392e-002 -7.856886e-006 -4.604921e-006 9.965518e-001 -3.914494e-002
334485000 -2.453669e-006 9.307046e-006 9.855059e-001 -7.602659e-002 -1.894925e-005 -8.734847e-006 9.899095e-001 -7.631629e-002
334770000 -3.818337e-006 1.659952e-005 9.774163e-001 -1.122877e-001 -2.507386e-006 6.569525e-006 9.816632e-001 -1.127510e-001
335055000 -2.557681e-006 8.397583e-006 9.676805e-001 -1.476470e-001 -9.075068e-007 1.680389e-005 9.719689e-001 -1.482731e-001
335340000 -4.925051e-006 6.211490e-006 9.565816e-001 -1.822128e-001 -2.304655e-006 1.306684e-005 9.608285e-001 -1.830715e-001
335625000 9.228325e-006 2.376718e-005 9.441534e-001 -2.158283e-001 -1.420188e-005 -3.288536e-009 9.483699e-001 -2.167382e-001
335910000 -2.292097e-006 6.995140e-006 9.304919e-001 -2.484139e-001 -1.260872e-006 -6.079877e-006 9.346156e-001 -2.494662e-001
336195000 -1.862041e-005 5.866949e-006 9.157761e-001 -2.798481e-001 9.473601e-006 -1.070419e-006 9.197418e-001 -2.811505e-001
336480000 -9.655411e-006 1.649109e-005 8.999500e-001 -3.104693e-001 -1.187970e-005 -3.322843e-006 9.038601e-001 -3.117409e-001
336765000 -3.401302e-006 1.030870e-005 8.831122e-001 -3.398463e-001 1.280893e-006 1.253717e-006 8.869805e-001 -3.413974e-001
337050000 -1.263644e-005 9.405307e-006 8.655772e-001 -3.681757e-001 1.605036e-005 -1.419868e-005 8.693686e-001 -3.697111e-001
337335000 2.707381e-006 -6.640885e-006 8.471060e-001 -3.954549e-001 3.542264e-006 -1.544866e-007 8.507371e-001 -3.972158e-001
337620000 -1.142723e-005 -5.829552e-006 8.277941e-001 -4.215512e-001 -6.430770e-006 -3.308164e-006 8.314675e-001 -4.234112e-001
337905000 -2.327886e-006 7.175773e-006 8.079741e-001 -4.465231e-001 2.568773e-006 -4.224968e-006 8.114587e-001 -4.485335e-001
338190000 -3.625278e-006 -7.525178e-006 7.874901e-001 -4.704763e-001 -2.549019e-007 1.634274e-006 7.909166e-001 -4.724301e-001
338475000 -8.852775e-007 -1.308945e-006 7.665545e-001 -4.932547e-001 1.769518e-006 -7.652346e-006 7.698994e-001 -4.954007e-001
338760000 3.833814e-006 -4.997296e-006 7.451885e-001 -5.150334e-001 -1.079129e-006 -1.224333e-005 7.484204e-001 -5.172331e-001
339045000 8.468171e-006 -7.004620e-006 7.233148e-001 -5.356513e-001 6.596630e-006 -9.831253e-006 7.264318e-001 -5.378919e-001
339330000 -1.063168e-005 7.457898e-006 7.011868e-001 -5.552067e-001 -2.654586e-006 1.402787e-006 7.042027e-001 -5.575994e-001
339615000 1.948580e-006 3.231356e-006 6.787947e-001 -5.737651e-001 4.282195e-006 2.204934e-006 6.816489e-001 -5.762440e-001
339900000 -4.316597e-006 -4.957484e-007 6.560707e-001 -5.913786e-001 1.417843e-005 6.103380e-006 6.589479e-001 -5.938473e-001
340185000 -5.330532e-006 1.248650e-006 6.332776e-001 -6.078973e-001 1.172518e-005 -2.347000e-006 6.360063e-001 -6.104813e-001
340470000 6.735850e-006 -7.490658e-008 6.101726e-001 -6.235017e-001 -6.713383e-006 4.548605e-006 6.128384e-001 -6.261665e-001
340755000 1.075258e-005 1.211197e-005 5.871330e-001 -6.382151e-001 3.659257e-006 1.077232e-007 5.896484e-001 -6.409682e-001
341040000 6.879391e-007 1.386954e-005 5.639625e-001 -6.520361e-001 -9.087717e-006 -4.565716e-006 5.663385e-001 -6.547927e-001
341325000 5.266033e-006 -5.486552e-006 5.406861e-001 -6.649473e-001 -4.489474e-006 6.495684e-006 5.429786e-001 -6.677589e-001
341610000 1.053152e-006 8.394326e-006 5.173738e-001 -6.769650e-001 3.778660e-006 1.332599e-005 5.195408e-001 -6.799408e-001
341895000 2.703181e-006 -1.095640e-006 4.942091e-001 -6.882396e-001 -7.489526e-006 1.114904e-006 4.962600e-001 -6.911233e-001
342180000 -1.116845e-005 3.566971e-006 4.709466e-001 -6.986888e-001 -4.854162e-006 5.657658e-006 4.728989e-001 -7.015721e-001
342465000 -7.595436e-006 9.464812e-006 4.477379e-001 -7.083937e-001 -9.476700e-008 -5.501225e-007 4.496106e-001 -7.114429e-001
342750000 -3.731010e-007 3.958112e-006 4.246201e-001 -7.173901e-001 -1.111437e-005 7.358729e-006 4.264084e-001 -7.203712e-001
343035000 -1.642655e-005 -4.305455e-006 4.016479e-001 -7.255734e-001 -1.347238e-005 -1.255182e-005 4.032964e-001 -7.287164e-001
343320000 -1.307048e-005 1.318488e-005 3.786102e-001 -7.331934e-001 -1.725215e-005 -6.972802e-006 3.802298e-001 -7.363017e-001
343605000 -8.307122e-006 -1.136047e-005 3.557988e-001 -7.401751e-001 1.229148e-005 -1.754633e-005 3.573649e-001 -7.432278e-001
343890000 3.159225e-006 -8.197420e-006 3.331437e-001 -7.464371e-001 1.247663e-005 -5.431507e-006 3.345071e-001 -7.495674e-001
