!Agilent Technologies,N5230C,SG49000117,A.08.50.07
!Agilent N5230C: A.08.50.07
!Date: Sunday, March 17, 2024 05:52:56
!Correction: S11(Off) 
!S21(Off) 
!S12(Off) 
!S22(Full 1 Port(2)) 
!S2P File: Measurements: S11, S21, S12, S22:
# Hz S  RI   R 50
300000000 1.862696e-007 1.254648e-005 -6.892790e-001 -5.424305e-001 -7.791740e-006 -1.518909e-005 9.112452e-001 -4.492936e-001
300285000 -1.209157e-005 -1.751521e-006 -7.007057e-001 -5.185588e-001 -4.348230e-006 1.942748e-005 9.113633e-001 -4.497828e-001
300570000 4.093566e-006 -7.650304e-006 -7.115244e-001 -4.947274e-001 -1.741260e-005 -2.299410e-005 9.115641e-001 -4.505238e-001
300855000 -5.188921e-006 -2.539300e-006 -7.213852e-001 -4.707773e-001 -2.670298e-005 -1.505917e-005 9.120925e-001 -4.503785e-001
301140000 3.917243e-007 -9.535614e-006 -7.306064e-001 -4.468674e-001 1.040059e-005 -2.560215e-006 9.109669e-001 -4.513711e-001
301425000 -5.311074e-006 3.080603e-006 -7.390746e-001 -4.230568e-001 -1.025326e-005 -4.922548e-006 9.118809e-001 -4.519970e-001
301710000 1.419998e-005 -3.567349e-006 -7.467279e-001 -3.993027e-001 8.191107e-006 9.008108e-006 9.114448e-001 -4.538960e-001
301995000 2.507354e-006 5.906209e-006 -7.537330e-001 -3.757245e-001 -5.357489e-007 -3.247239e-006 9.107244e-001 -4.518452e-001
302280000 8.762590e-006 -1.217057e-005 -7.599598e-001 -3.522500e-001 -5.438222e-006 1.196781e-005 9.111660e-001 -4.527819e-001
302565000 -2.164802e-007 -8.158027e-006 -7.656856e-001 -3.289664e-001 9.900700e-007 3.425200e-006 9.115392e-001 -4.539145e-001
302850000 -7.864165e-006 -1.166028e-005 -7.707095e-001 -3.057313e-001 2.082422e-005 -5.521240e-006 9.106337e-001 -4.525708e-001
303135000 -2.520192e-007 -4.790773e-006 -7.752417e-001 -2.826757e-001 1.978886e-005 -1.402035e-006 9.099721e-001 -4.537919e-001
303420000 1.350701e-005 -4.815247e-006 -7.790522e-001 -2.598474e-001 -1.562428e-005 7.587254e-006 9.087154e-001 -4.553696e-001
303705000 1.313898e-005 -9.031224e-006 -7.822434e-001 -2.371457e-001 -5.447696e-006 1.849146e-006 9.107882e-001 -4.556168e-001
303990000 6.319824e-007 6.509881e-006 -7.849674e-001 -2.145553e-001 -1.335818e-005 1.212307e-005 9.092698e-001 -4.543426e-001
304275000 -2.386039e-006 1.240414e-006 -7.873005e-001 -1.921584e-001 9.483922e-006 -2.842198e-006 9.093845e-001 -4.555754e-001
304560000 -2.913287e-006 4.752343e-007 -7.889501e-001 -1.700357e-001 -1.042049e-006 -6.017984e-006 9.095587e-001 -4.560654e-001
304845000 6.498467e-006 -1.696482e-005 -7.901796e-001 -1.479966e-001 1.002780e-005 -1.463269e-005 9.085957e-001 -4.553463e-001
305130000 -1.232057e-005 -4.344385e-006 -7.908961e-001 -1.261886e-001 -1.062645e-005 -9.694359e-006 9.081625e-001 -4.557441e-001
305415000 4.030759e-006 1.333759e-005 -7.911615e-001 -1.044461e-001 -5.040626e-006 -1.089865e-005 9.081667e-001 -4.571188e-001
305700000 8.768812e-006 2.854068e-006 -7.909534e-001 -8.294713e-002 -3.481145e-006 -9.048194e-007 9.089337e-001 -4.569846e-001
305985000 4.206298e-006 1.346532e-006 -7.903831e-001 -6.146261e-002 -9.020538e-006 -3.213596e-006 9.086617e-001 -4.582203e-001
306270000 1.566347e-005 -1.230597e-005 -7.892503e-001 -4.028356e-002 3.879866e-005 -1.012962e-005 9.097982e-001 -4.579843e-001
306555000 -2.010291e-006 -9.598096e-006 -7.877578e-001 -1.923707e-002 -2.563650e-005 7.438254e-006 9.086160e-001 -4.598995e-001
306840000 6.389707e-006 -8.394683e-006 -7.858874e-001 1.636290e-003 7.077197e-006 1.219024e-006 9.079061e-001 -4.578236e-001
307125000 -4.918688e-006 1.325616e-007 -7.835317e-001 2.250420e-002 -6.923383e-006 -2.234629e-005 9.074317e-001 -4.593451e-001
307410000 9.097685e-006 1.221249e-005 -7.808557e-001 4.305944e-002 1.460205e-005 -5.077685e-006 9.077764e-001 -4.601481e-001
307695000 5.944181e-006 7.670194e-006 -7.778035e-001 6.348822e-002 2.344080e-006 1.194114e-005 9.074801e-001 -4.608429e-001
307980000 -1.161145e-005 -1.029415e-005 -7.743358e-001 8.374475e-002 7.454650e-006 -7.295030e-007 9.062969e-001 -4.603885e-001
308265000 -1.559354e-006 9.933691e-006 -7.704541e-001 1.038808e-001 3.096413e-007 2.035044e-005 9.063759e-001 -4.607093e-001
308550000 6.598656e-006 2.283170e-005 -7.663499e-001 1.238722e-001 4.660631e-006 3.364103e-007 9.059349e-001 -4.601903e-001
308835000 -4.238307e-006 7.862825e-006 -7.617201e-001 1.436744e-001 2.719275e-009 6.252959e-006 9.056726e-001 -4.615637e-001
309120000 2.041368e-005 6.519588e-007 -7.569250e-001 1.634389e-001 9.933110e-007 1.663629e-005 9.061725e-001 -4.633698e-001
309405000 4.755942e-006 2.148015e-005 -7.515755e-001 1.830038e-001 7.394208e-006 8.151115e-006 9.075433e-001 -4.634076e-001
309690000 1.142579e-005 -1.027830e-006 -7.460362e-001 2.025662e-001 -2.733989e-006 6.966457e-006 9.064651e-001 -4.632370e-001
309975000 7.557199e-006 -2.295747e-006 -7.399988e-001 2.218844e-001 1.207988e-005 -8.724397e-006 9.056295e-001 -4.632416e-001
310260000 4.727930e-006 -7.117420e-006 -7.337612e-001 2.410399e-001 1.929038e-006 -1.318157e-005 9.068867e-001 -4.640031e-001
310545000 -1.051049e-005 -7.366536e-006 -7.270901e-001 2.602021e-001 1.360186e-005 -1.244898e-006 9.051440e-001 -4.646492e-001
310830000 -3.247253e-006 -2.536204e-006 -7.200310e-001 2.792833e-001 -4.376592e-006 7.472023e-006 9.062107e-001 -4.656095e-001
311115000 -2.083106e-005 4.791903e-006 -7.125842e-001 2.981191e-001 -1.122521e-005 3.901404e-006 9.044392e-001 -4.646961e-001
311400000 -8.652789e-006 -8.303445e-006 -7.048337e-001 3.169292e-001 1.354771e-005 1.431289e-005 9.044965e-001 -4.654315e-001
311685000 -4.449611e-007 1.230323e-006 -6.967344e-001 3.355486e-001 -1.196960e-005 -8.223506e-006 9.052244e-001 -4.656774e-001
311970000 8.962788e-007 8.635339e-006 -6.881812e-001 3.541155e-001 1.569664e-005 -6.468340e-006 9.037877e-001 -4.655868e-001
312255000 -1.118266e-005 1.688656e-006 -6.793330e-001 3.726567e-001 -1.594864e-007 2.479890e-006 9.041873e-001 -4.662428e-001
312540000 2.666714e-006 2.750629e-007 -6.700005e-001 3.910435e-001 3.523088e-006 9.045985e-006 9.036394e-001 -4.667462e-001
312825000 -7.939399e-006 1.098775e-005 -6.604474e-001 4.092739e-001 -6.155767e-006 -9.305506e-006 9.035193e-001 -4.672145e-001
313110000 -2.471682e-006 2.172118e-006 -6.503266e-001 4.275069e-001 1.577496e-005 7.589452e-007 9.030147e-001 -4.684761e-001
313395000 -5.060360e-006 9.967767e-007 -6.399139e-001 4.455359e-001 -1.289642e-005 -1.792823e-005 9.036777e-001 -4.675756e-001
313680000 -1.671150e-006 1.310055e-005 -6.289996e-001 4.635531e-001 -4.320529e-007 -2.839484e-006 9.042289e-001 -4.682086e-001
313965000 -7.924005e-006 -8.449269e-006 -6.176746e-001 4.813865e-001 1.146516e-005 -7.844829e-006 9.033427e-001 -4.686389e-001
314250000 8.439484e-006 9.940399e-006 -6.060416e-001 4.991426e-001 -1.476400e-006 7.332852e-006 9.021583e-001 -4.687568e-001
314535000 -2.026212e-005 9.511676e-006 -5.937673e-001 5.167365e-001 1.770267e-005 1.446414e-005 9.020509e-001 -4.691548e-001
314820000 -8.538896e-006 -8.157585e-006 -5.811014e-001 5.343504e-001 5.184108e-006 1.471680e-005 9.018431e-001 -4.703048e-001
315105000 -4.525953e-006 -1.296454e-005 -5.680300e-001 5.517299e-001 1.484856e-005 2.160788e-005 8.994855e-001 -4.693433e-001
315390000 5.531780e-006 -5.051967e-006 -5.545382e-001 5.689911e-001 8.832233e-006 -4.883897e-006 9.018565e-001 -4.711656e-001
315675000 -1.040592e-005 -1.191669e-005 -5.403931e-001 5.861729e-001 -6.861956e-006 -2.682319e-005 9.012367e-001 -4.699428e-001
315960000 3.033284e-005 -2.386776e-005 -5.257555e-001 6.030657e-001 -1.333141e-005 -2.015461e-006 9.005730e-001 -4.709215e-001
316245000 5.812211e-006 -4.612454e-006 -5.106863e-001 6.198631e-001 2.889308e-006 -1.497301e-006 9.003213e-001 -4.707137e-001
316530000 1.328137e-005 -6.344776e-006 -4.950285e-001 6.365612e-001 -4.899114e-006 -5.603827e-007 9.009414e-001 -4.721825e-001
316815000 2.611217e-006 -8.836002e-006 -4.787856e-001 6.530175e-001 -5.596885e-006 8.126079e-007 9.016329e-001 -4.718981e-001
317100000 -1.016824e-005 8.374603e-006 -4.620593e-001 6.692091e-001 -2.405033e-005 -1.403183e-005 9.002053e-001 -4.717441e-001
317385000 4.672372e-007 3.065094e-005 -4.447147e-001 6.852899e-001 -4.638351e-006 -8.592303e-006 9.016924e-001 -4.724846e-001
317670000 -2.296698e-005 1.911968e-005 -4.268179e-001 7.009537e-001 -4.383947e-006 -1.206113e-005 9.007297e-001 -4.738720e-001
317955000 -2.083361e-005 1.147538e-005 -4.082696e-001 7.166691e-001 -2.505454e-006 -7.506538e-007 9.010812e-001 -4.740420e-001
318240000 -8.125444e-006 1.297492e-005 -3.890642e-001 7.318112e-001 -2.207377e-005 -9.423652e-006 9.000329e-001 -4.741372e-001
318525000 -1.048267e-005 1.238689e-005 -3.692177e-001 7.467965e-001 -5.263185e-006 7.898357e-006 8.999229e-001 -4.740470e-001
318810000 -3.678768e-006 -1.809374e-005 -3.488236e-001 7.614233e-001 -7.780084e-006 -1.313227e-005 8.992118e-001 -4.748533e-001
319095000 -1.012296e-006 -9.717855e-006 -3.277347e-001 7.756631e-001 9.747796e-006 -9.128389e-006 8.989364e-001 -4.741524e-001
319380000 1.373323e-006 -1.315630e-005 -3.059725e-001 7.895745e-001 -4.722964e-006 9.473009e-006 8.990694e-001 -4.766083e-001
319665000 -6.718827e-006 -6.518126e-007 -2.834624e-001 8.029660e-001 4.142786e-006 1.229161e-005 8.996996e-001 -4.758777e-001
319950000 1.636324e-005 -2.774850e-006 -2.602671e-001 8.159558e-001 6.389440e-006 1.392926e-005 8.982762e-001 -4.774673e-001
320235000 1.409790e-005 7.514293e-006 -2.363523e-001 8.284957e-001 -2.458409e-006 2.176813e-005 8.985136e-001 -4.778592e-001
320520000 -2.651126e-006 -2.129884e-008 -2.117721e-001 8.404561e-001 9.088806e-006 -1.076528e-005 8.980715e-001 -4.776902e-001
320805000 7.665219e-006 5.731438e-006 -1.864418e-001 8.518538e-001 9.210652e-006 8.497407e-007 8.974931e-001 -4.768622e-001
321090000 2.850061e-007 2.216461e-006 -1.604330e-001 8.627203e-001 -5.999241e-006 2.973023e-006 8.973078e-001 -4.776346e-001
321375000 1.096420e-005 1.905545e-005 -1.336965e-001 8.727177e-001 8.398116e-007 -8.026117e-006 8.979004e-001 -4.780052e-001
321660000 -9.430960e-006 7.825082e-006 -1.061842e-001 8.820724e-001 -1.305857e-005 -4.642066e-006 8.978561e-001 -4.789124e-001
321945000 -1.254580e-005 9.467351e-006 -7.788923e-002 8.907766e-001 1.493050e-006 -3.582642e-006 8.965964e-001 -4.798005e-001
322230000 -8.442797e-006 -8.255323e-006 -4.899921e-002 8.984429e-001 -1.950984e-005 -2.210722e-005 8.960316e-001 -4.800729e-001
322515000 -1.055668e-005 -4.865919e-006 -1.938387e-002 9.053549e-001 -7.748470e-006 3.751015e-006 8.953261e-001 -4.800395e-001
322800000 -1.249767e-005 7.460279e-006 1.088056e-002 9.113396e-001 -2.160074e-005 1.702399e-006 8.976390e-001 -4.810055e-001
323085000 -1.255706e-005 -1.050510e-005 4.184856e-002 9.163378e-001 5.975288e-006 -2.598523e-006 8.965876e-001 -4.809221e-001
323370000 6.394517e-006 -1.521366e-006 7.342704e-002 9.201757e-001 3.719139e-006 1.589092e-005 8.963597e-001 -4.817201e-001
323655000 -6.417357e-006 -1.871308e-005 1.055965e-001 9.230130e-001 -2.410297e-005 -1.473732e-005 8.954549e-001 -4.820959e-001
323940000 1.461468e-005 5.554124e-006 1.383806e-001 9.245552e-001 1.585577e-006 -1.311341e-005 8.946643e-001 -4.827252e-001
324225000 1.245414e-005 4.001012e-007 1.716515e-001 9.249253e-001 1.125618e-005 -2.051275e-005 8.935076e-001 -4.819136e-001
324510000 4.999499e-006 -1.572849e-005 2.054006e-001 9.238842e-001 -5.645088e-006 2.973683e-006 8.952438e-001 -4.845334e-001
324795000 1.125203e-005 4.668761e-006 2.396746e-001 9.215803e-001 -1.489097e-005 9.633653e-006 8.948555e-001 -4.834513e-001
325080000 4.001861e-006 2.408675e-006 2.741015e-001 9.177800e-001 -3.792152e-006 -7.480739e-007 8.943685e-001 -4.835850e-001
325365000 -1.141669e-006 -1.285138e-006 3.089767e-001 9.127349e-001 5.469668e-006 6.895277e-006 8.950836e-001 -4.844168e-001
325650000 -1.685543e-005 -7.581373e-006 3.439242e-001 9.058686e-001 1.222154e-005 -6.286699e-007 8.947574e-001 -4.840240e-001
325935000 -3.112625e-006 -1.759403e-006 3.792199e-001 8.974103e-001 -1.582745e-005 2.722063e-006 8.939475e-001 -4.853287e-001
326220000 -3.445137e-006 9.231671e-006 4.143347e-001 8.874242e-001 3.117056e-006 4.637036e-007 8.941049e-001 -4.859381e-001
326505000 -5.426694e-006 -3.185037e-006 4.494836e-001 8.757672e-001 1.211217e-005 8.808517e-006 8.931473e-001 -4.863078e-001
326790000 -1.252378e-005 -1.370957e-005 4.845444e-001 8.623847e-001 -2.202882e-005 3.690157e-006 8.924271e-001 -4.849043e-001
327075000 -1.290149e-005 5.671517e-007 5.191934e-001 8.474298e-001 -2.155848e-005 1.310182e-005 8.924623e-001 -4.873020e-001
327360000 1.550439e-005 -4.234536e-006 5.535772e-001 8.306185e-001 -2.226977e-005 -1.659889e-005 8.936515e-001 -4.876035e-001
327645000 6.854528e-006 -3.309184e-006 5.875839e-001 8.121955e-001 -3.054749e-006 3.575816e-007 8.929630e-001 -4.873497e-001
327930000 -5.853941e-006 -2.177139e-005 6.207196e-001 7.918783e-001 1.698157e-005 -2.517000e-006 8.925956e-001 -4.870803e-001
328215000 1.423601e-005 -8.440145e-007 6.533349e-001 7.697969e-001 -5.515199e-006 -7.102106e-006 8.921004e-001 -4.882762e-001
328500000 -7.615230e-006 8.236811e-006 6.850225e-001 7.461395e-001 6.207621e-006 -6.196401e-006 8.911724e-001 -4.887812e-001
328785000 -1.496928e-005 1.177713e-005 7.158223e-001 7.209201e-001 7.552624e-007 -2.523568e-006 8.917892e-001 -4.883645e-001
329070000 -1.907917e-005 -7.482708e-006 7.453901e-001 6.940098e-001 2.198618e-006 9.620561e-006 8.916330e-001 -4.888883e-001
329355000 -2.287071e-005 4.911364e-006 7.739471e-001 6.654561e-001 -3.240636e-006 1.377197e-005 8.908052e-001 -4.899936e-001
329640000 5.609676e-006 -3.247456e-006 8.011947e-001 6.355354e-001 -3.100521e-006 9.647053e-006 8.911241e-001 -4.901789e-001
329925000 -2.195335e-005 -1.251759e-005 8.269662e-001 6.041594e-001 1.338865e-005 1.453479e-005 8.907543e-001 -4.903550e-001
330210000 -1.833966e-006 -1.243538e-005 8.512086e-001 5.714306e-001 -1.442738e-005 -7.181219e-006 8.895701e-001 -4.906009e-001
330495000 1.174064e-005 -1.698585e-005 8.739210e-001 5.375754e-001 -1.432412e-005 3.744903e-006 8.901126e-001 -4.909860e-001
330780000 -7.268746e-006 5.541723e-006 8.949775e-001 5.026253e-001 -1.134336e-005 -6.783860e-007 8.901578e-001 -4.926605e-001
331065000 -1.989137e-006 -4.360016e-006 9.141567e-001 4.666393e-001 3.772564e-006 1.714163e-006 8.893110e-001 -4.905072e-001
331350000 -4.670594e-006 -9.903569e-006 9.317055e-001 4.296121e-001 -1.575157e-005 2.896622e-006 8.892145e-001 -4.918950e-001
331635000 -4.892916e-006 -7.957746e-006 9.472876e-001 3.919917e-001 -1.006566e-006 -1.609848e-005 8.900071e-001 -4.926391e-001
331920000 -9.180406e-006 1.266224e-005 9.609756e-001 3.537370e-001 -9.938723e-006 -6.352401e-006 8.895849e-001 -4.930202e-001
332205000 -2.974152e-006 6.672614e-006 9.726369e-001 3.150306e-001 5.956492e-006 2.157132e-005 8.884938e-001 -4.938513e-001
332490000 -8.813641e-006 1.366788e-005 9.825393e-001 2.759354e-001 3.668798e-006 -3.747724e-007 8.893473e-001 -4.936862e-001
332775000 3.216791e-006 1.026466e-005 9.905128e-001 2.366482e-001 -8.199308e-006 -1.439264e-005 8.886123e-001 -4.944817e-001
333060000 -9.246391e-006 1.518516e-005 9.964129e-001 1.972643e-001 1.372470e-006 1.116938e-005 8.887071e-001 -4.949032e-001
333345000 -6.686448e-006 9.555322e-007 1.000459e+000 1.577483e-001 7.464026e-006 -8.426019e-006 8.892275e-001 -4.948268e-001
333630000 7.275408e-007 -1.964557e-006 1.002422e+000 1.184848e-001 1.844842e-005 3.063556e-006 8.877411e-001 -4.964124e-001
333915000 -2.858476e-006 -1.947343e-005 1.002875e+000 7.953639e-002 1.332504e-005 1.725592e-006 8.877257e-001 -4.957824e-001
334200000 5.382407e-006 -9.478368e-006 1.001269e+000 4.087429e-002 1.836741e-005 -4.552011e-006 8.877098e-001 -4.971210e-001
334485000 1.403231e-005 -1.865829e-005 9.980764e-001 2.777443e-003 -1.273985e-005 2.176324e-006 8.875279e-001 -4.961579e-001
334770000 -8.482863e-006 1.741095e-007 9.930795e-001 -3.490711e-002 -1.868467e-005 -3.740232e-006 8.873953e-001 -4.973959e-001
335055000 -2.776379e-006 -1.233925e-005 9.865851e-001 -7.178266e-002 2.411588e-006 -1.694825e-005 8.878571e-001 -4.975299e-001
335340000 6.653619e-006 -9.027468e-006 9.783579e-001 -1.079093e-001 -4.887830e-006 -3.951892e-006 8.869822e-001 -4.989515e-001
335625000 -8.426008e-006 7.256429e-006 9.688184e-001 -1.431688e-001 1.004296e-005 8.279596e-006 8.866988e-001 -4.987368e-001
335910000 -1.343201e-005 -5.924026e-006 9.577624e-001 -1.775498e-001 -3.598711e-006 -2.942079e-006 8.865460e-001 -4.985847e-001
336195000 3.785469e-006 1.130936e-005 9.455530e-001 -2.109542e-001 -1.132103e-005 1.176067e-006 8.857018e-001 -4.984069e-001
336480000 2.109150e-005 1.998392e-005 9.320700e-001 -2.435679e-001 -9.816488e-006 6.130220e-006 8.866884e-001 -4.992532e-001
336765000 4.972057e-006 5.946004e-006 9.174165e-001 -2.749717e-001 -3.100893e-006 1.214107e-005 8.858800e-001 -5.000579e-001
337050000 -1.455634e-006 3.420687e-008 9.018713e-001 -3.054846e-001 1.000836e-005 1.911225e-005 8.863086e-001 -5.003328e-001
337335000 -1.871904e-005 -3.752942e-006 8.852859e-001 -3.349335e-001 5.181569e-008 -2.816221e-006 8.846519e-001 -5.017721e-001
337620000 -4.643120e-006 5.669003e-007 8.677987e-001 -3.632230e-001 6.037993e-006 -7.905414e-006 8.848450e-001 -5.016232e-001
337905000 -1.051688e-005 -9.119913e-006 8.494900e-001 -3.903858e-001 8.436763e-006 1.930791e-006 8.844876e-001 -5.000724e-001
338190000 -1.790572e-005 7.765874e-006 8.305382e-001 -4.163918e-001 1.505236e-005 6.735198e-006 8.843538e-001 -5.020944e-001
338475000 -1.006276e-005 6.520030e-006 8.109071e-001 -4.414653e-001 8.070566e-006 8.473603e-006 8.855560e-001 -5.013351e-001
338760000 -1.404119e-006 -4.354550e-006 7.906793e-001 -4.653961e-001 -1.044689e-005 7.501342e-006 8.845677e-001 -5.021724e-001
339045000 -2.261829e-006 -9.502959e-006 7.699178e-001 -4.882050e-001 -1.266121e-005 8.736892e-007 8.845134e-001 -5.025662e-001
339330000 -2.036921e-005 1.929017e-005 7.487231e-001 -5.099581e-001 -1.313691e-005 6.440166e-006 8.855940e-001 -5.024225e-001
339615000 -1.064776e-006 3.304430e-006 7.272429e-001 -5.307065e-001 -1.402396e-005 1.132370e-005 8.841037e-001 -5.037042e-001
339900000 1.809290e-006 -8.793193e-006 7.052324e-001 -5.504101e-001 -9.542579e-006 1.600896e-005 8.831688e-001 -5.045470e-001
340185000 -4.123832e-006 -1.449121e-005 6.830608e-001 -5.689332e-001 2.394771e-006 4.358992e-006 8.833645e-001 -5.047896e-001
340470000 1.589519e-005 -5.288064e-006 6.606194e-001 -5.866135e-001 -2.364396e-006 7.075276e-006 8.834995e-001 -5.039858e-001
340755000 3.040177e-007 6.678554e-006 6.380324e-001 -6.032799e-001 -4.134591e-006 4.442162e-006 8.827318e-001 -5.057922e-001
341040000 9.579088e-006 4.991893e-006 6.152621e-001 -6.190501e-001 -2.029718e-005 -2.947854e-007 8.821980e-001 -5.058719e-001
341325000 2.329023e-005 -7.076961e-007 5.922692e-001 -6.338869e-001 5.947233e-006 -1.944125e-005 8.838606e-001 -5.047565e-001
341610000 -7.044975e-006 -2.677066e-006 5.694041e-001 -6.477714e-001 3.689880e-006 1.360161e-006 8.836710e-001 -5.061660e-001
341895000 2.096288e-005 1.143729e-005 5.462784e-001 -6.608381e-001 1.024737e-005 -1.389439e-005 8.814573e-001 -5.070014e-001
342180000 -7.878807e-006 6.504073e-007 5.231837e-001 -6.730710e-001 -6.521967e-006 -4.257187e-006 8.823960e-001 -5.077854e-001
342465000 -2.017380e-006 1.557195e-005 5.000815e-001 -6.844806e-001 -3.994527e-006 -5.614093e-006 8.815558e-001 -5.079327e-001
342750000 8.685788e-007 -1.868583e-005 4.771208e-001 -6.951054e-001 -1.293312e-005 1.991611e-005 8.831786e-001 -5.079402e-001
343035000 -1.516759e-005 7.713501e-006 4.540562e-001 -7.050670e-001 1.229279e-005 1.502649e-005 8.806207e-001 -5.088365e-001
343320000 -3.449339e-007 -8.155504e-006 4.310542e-001 -7.142184e-001 -7.828860e-006 8.452332e-006 8.806169e-001 -5.082208e-001
343605000 -3.480937e-007 -6.350190e-006 4.083313e-001 -7.226302e-001 3.594294e-006 4.985240e-006 8.807367e-001 -5.086544e-001
343890000 3.687501e-006 -1.020041e-005 3.854609e-001 -7.304258e-001 -1.418124e-005 -7.071685e-006 8.809654e-001 -5.096912e-001
