!Agilent Technologies,N5230C,SG49000117,A.08.50.07
!Agilent N5230C: A.08.50.07
!Date: Sunday, March 17, 2024 05:48:03
!Correction: S11(Off) 
!S21(Off) 
!S12(Off) 
!S22(Full 1 Port(2)) 
!S2P File: Measurements: S11, S21, S12, S22:
# Hz S  RI   R 50
300000000 1.276476e-005 1.710032e-005 -6.688395e-001 -5.803874e-001 1.383649e-005 6.942505e-006 9.560452e-001 -3.570513e-001
300285000 2.322731e-006 1.900653e-006 -6.817476e-001 -5.566519e-001 -1.674958e-005 1.994954e-005 9.562300e-001 -3.573647e-001
300570000 -2.907198e-006 8.133285e-006 -6.937180e-001 -5.328467e-001 1.179038e-005 -3.228632e-006 9.566386e-001 -3.582572e-001
300855000 -5.031436e-006 4.799961e-006 -7.048889e-001 -5.090303e-001 -6.553872e-006 7.253165e-006 9.570873e-001 -3.577603e-001
301140000 -2.113576e-005 1.131240e-005 -7.152979e-001 -4.850973e-001 -1.572508e-005 9.377192e-006 9.561974e-001 -3.588914e-001
301425000 -4.938683e-007 9.140458e-006 -7.248860e-001 -4.613394e-001 8.989792e-006 -4.650659e-006 9.572805e-001 -3.591446e-001
301710000 5.923199e-006 1.883958e-006 -7.337881e-001 -4.377075e-001 1.918428e-006 2.984945e-006 9.568584e-001 -3.608148e-001
301995000 1.204875e-005 -1.452707e-006 -7.418863e-001 -4.138926e-001 2.927410e-006 -1.286704e-005 9.560868e-001 -3.590892e-001
302280000 7.924842e-006 -6.095719e-006 -7.492533e-001 -3.903786e-001 2.879396e-006 2.801580e-006 9.565680e-001 -3.601354e-001
302565000 -3.773551e-006 -2.483841e-005 -7.560080e-001 -3.669421e-001 -9.095598e-007 -8.654967e-006 9.570149e-001 -3.608888e-001
302850000 1.836825e-005 2.032074e-006 -7.620195e-001 -3.436982e-001 5.210652e-006 3.873850e-006 9.560684e-001 -3.595133e-001
303135000 1.937138e-006 -3.986703e-006 -7.675200e-001 -3.204537e-001 1.492036e-005 1.476664e-006 9.554414e-001 -3.608878e-001
303420000 1.786610e-005 -4.364679e-006 -7.722850e-001 -2.974703e-001 7.535429e-006 -1.449032e-005 9.549047e-001 -3.623739e-001
303705000 1.522610e-006 -1.411356e-006 -7.765786e-001 -2.745970e-001 -2.499134e-005 2.064147e-005 9.568681e-001 -3.624053e-001
303990000 1.321613e-005 2.145908e-006 -7.802240e-001 -2.518696e-001 -6.516285e-006 4.164562e-006 9.549747e-001 -3.613969e-001
304275000 1.315835e-005 7.464196e-006 -7.833580e-001 -2.293674e-001 1.476722e-006 1.637094e-006 9.555454e-001 -3.623166e-001
304560000 -6.921397e-006 1.044261e-006 -7.858850e-001 -2.069024e-001 -9.281831e-006 -5.360363e-006 9.556771e-001 -3.626125e-001
304845000 5.660138e-006 -2.176165e-007 -7.879987e-001 -1.848081e-001 3.522216e-006 -2.035774e-006 9.547507e-001 -3.623989e-001
305130000 9.656313e-006 1.089962e-005 -7.896898e-001 -1.626285e-001 2.900200e-006 -1.416189e-005 9.542986e-001 -3.624381e-001
305415000 -6.303182e-006 9.712697e-006 -7.906614e-001 -1.408134e-001 -4.501900e-006 -1.207712e-005 9.546241e-001 -3.634382e-001
305700000 -1.971928e-006 2.896202e-006 -7.913755e-001 -1.190381e-001 -2.018107e-005 -6.606612e-006 9.553330e-001 -3.633469e-001
305985000 -3.181250e-006 -3.969652e-006 -7.913867e-001 -9.747458e-002 -4.376153e-006 -6.419729e-006 9.549799e-001 -3.648039e-001
306270000 -6.957996e-006 5.392736e-006 -7.911327e-001 -7.601147e-002 3.595471e-006 -8.143973e-006 9.563507e-001 -3.637525e-001
306555000 -3.121236e-006 8.458464e-006 -7.903783e-001 -5.472174e-002 7.204598e-006 1.116669e-005 9.551904e-001 -3.659894e-001
306840000 -5.525681e-006 4.203273e-006 -7.892088e-001 -3.363353e-002 -6.691332e-006 -2.797021e-006 9.545364e-001 -3.638955e-001
307125000 -2.313361e-006 -1.821201e-005 -7.876853e-001 -1.267649e-002 -1.002380e-005 -8.760222e-007 9.542568e-001 -3.653537e-001
307410000 1.905047e-005 -1.520381e-005 -7.857494e-001 8.085533e-003 1.386588e-005 -5.638768e-006 9.546167e-001 -3.657758e-001
307695000 1.477057e-005 -4.236411e-006 -7.833107e-001 2.870702e-002 3.784295e-006 -1.275907e-005 9.545717e-001 -3.669950e-001
307980000 6.917535e-006 -5.172347e-006 -7.805651e-001 4.914556e-002 -1.209950e-005 -1.814347e-006 9.531070e-001 -3.664205e-001
308265000 3.441495e-006 -1.979560e-006 -7.775097e-001 6.953892e-002 8.891674e-006 6.034215e-006 9.532860e-001 -3.666505e-001
308550000 -1.054309e-005 -7.782917e-006 -7.740586e-001 8.971585e-002 5.691661e-006 -4.882982e-006 9.529766e-001 -3.660175e-001
308835000 1.782596e-006 1.389102e-005 -7.701310e-001 1.097828e-001 -9.087171e-006 8.398632e-006 9.526657e-001 -3.675663e-001
309120000 -1.761344e-006 1.832723e-005 -7.659739e-001 1.297848e-001 -6.385497e-006 -2.386393e-006 9.537500e-001 -3.687907e-001
309405000 4.848966e-007 -7.885004e-006 -7.613903e-001 1.495405e-001 -2.763803e-006 -5.716223e-006 9.552892e-001 -3.688516e-001
309690000 -1.975499e-005 9.206073e-006 -7.564796e-001 1.692363e-001 1.826399e-005 -1.622219e-005 9.541716e-001 -3.686475e-001
309975000 1.309663e-005 -2.042558e-006 -7.512209e-001 1.887686e-001 1.170454e-005 -1.063669e-005 9.530141e-001 -3.686025e-001
310260000 1.424496e-005 -4.416119e-006 -7.455893e-001 2.082397e-001 -1.120545e-005 8.656882e-006 9.548584e-001 -3.693289e-001
310545000 -1.434921e-005 -1.153172e-005 -7.396289e-001 2.275362e-001 -5.448032e-006 -3.855589e-006 9.531510e-001 -3.702379e-001
310830000 -8.732688e-006 -2.069751e-006 -7.332320e-001 2.467785e-001 -1.181849e-005 -5.400007e-006 9.544756e-001 -3.706514e-001
311115000 -6.559554e-006 -2.293714e-005 -7.265117e-001 2.658785e-001 -6.351544e-006 -8.984744e-006 9.526403e-001 -3.699233e-001
311400000 -1.652516e-005 -1.825628e-005 -7.194760e-001 2.848682e-001 2.038357e-006 -6.062944e-006 9.527102e-001 -3.706024e-001
311685000 -1.212556e-005 -1.342190e-005 -7.120963e-001 3.037904e-001 7.586159e-006 2.592780e-007 9.531751e-001 -3.707373e-001
311970000 9.626754e-006 -5.354377e-008 -7.042432e-001 3.225521e-001 2.039277e-007 7.575018e-006 9.517365e-001 -3.704874e-001
312255000 4.002422e-006 -1.986852e-005 -6.961541e-001 3.412329e-001 -7.285497e-006 -6.465727e-006 9.523667e-001 -3.712650e-001
312540000 -1.039561e-006 -2.249730e-006 -6.875373e-001 3.599085e-001 1.235089e-006 -1.003808e-005 9.519435e-001 -3.717371e-001
312825000 -1.196115e-005 -1.067878e-005 -6.786294e-001 3.782899e-001 -8.833629e-007 1.035387e-005 9.521006e-001 -3.721012e-001
313110000 -8.639277e-006 8.978392e-006 -6.693290e-001 3.968509e-001 -1.288231e-005 -1.156607e-006 9.514801e-001 -3.733317e-001
313395000 2.749427e-007 -5.626475e-006 -6.597056e-001 4.150847e-001 9.068384e-006 1.124482e-005 9.520006e-001 -3.723090e-001
313680000 -1.041425e-005 -5.449828e-006 -6.495702e-001 4.333989e-001 -2.093592e-006 -4.427879e-006 9.527087e-001 -3.728825e-001
313965000 -3.586167e-006 -1.374467e-005 -6.390583e-001 4.514816e-001 1.749192e-005 -3.263272e-006 9.522055e-001 -3.733887e-001
314250000 -8.362534e-006 1.190593e-005 -6.280751e-001 4.695680e-001 1.015747e-005 -8.891829e-006 9.507657e-001 -3.733245e-001
314535000 7.167489e-006 -8.521441e-006 -6.167857e-001 4.875201e-001 1.058783e-006 1.604788e-005 9.512082e-001 -3.735970e-001
314820000 6.605853e-006 -7.495129e-006 -6.049012e-001 5.052815e-001 -1.127952e-005 -2.894522e-006 9.510636e-001 -3.750716e-001
315105000 1.876468e-005 -2.022965e-005 -5.926483e-001 5.230005e-001 -5.674979e-006 1.688827e-006 9.484367e-001 -3.743112e-001
315390000 -1.058834e-006 7.107993e-006 -5.798941e-001 5.406445e-001 -1.141523e-005 1.803693e-006 9.511819e-001 -3.755355e-001
315675000 1.338020e-005 -1.949362e-006 -5.667791e-001 5.581160e-001 4.895564e-006 -1.938225e-005 9.502551e-001 -3.741403e-001
315960000 1.426036e-007 -2.424359e-006 -5.529854e-001 5.754471e-001 -3.704984e-006 -2.035793e-005 9.498131e-001 -3.754323e-001
316245000 -9.987491e-006 1.263686e-006 -5.388235e-001 5.926393e-001 -1.388531e-006 -2.235747e-005 9.493810e-001 -3.750708e-001
316530000 3.589666e-006 4.301061e-006 -5.240765e-001 6.096486e-001 -9.045881e-006 1.888607e-006 9.503684e-001 -3.762721e-001
316815000 -1.120528e-005 4.493180e-007 -5.087901e-001 6.266074e-001 -3.977115e-007 -1.185225e-005 9.511348e-001 -3.758013e-001
317100000 -7.114359e-006 -1.643767e-005 -4.930496e-001 6.433347e-001 -5.795919e-006 -4.046674e-006 9.495687e-001 -3.757659e-001
317385000 2.999880e-006 -2.128862e-005 -4.766748e-001 6.598526e-001 1.306881e-005 8.556206e-006 9.515594e-001 -3.762814e-001
317670000 2.882058e-006 2.297870e-006 -4.596542e-001 6.761810e-001 -7.544799e-006 6.922633e-006 9.505634e-001 -3.775403e-001
317955000 2.472068e-006 -2.803335e-005 -4.421460e-001 6.923114e-001 -7.697580e-006 1.273526e-006 9.510155e-001 -3.776961e-001
318240000 8.010395e-006 6.602609e-006 -4.240684e-001 7.081688e-001 1.887705e-006 -1.111593e-005 9.499285e-001 -3.778004e-001
318525000 4.729363e-006 -3.626630e-006 -4.052590e-001 7.237988e-001 2.994217e-006 8.136009e-007 9.499785e-001 -3.779772e-001
318810000 2.547050e-006 8.608587e-006 -3.859055e-001 7.390549e-001 1.696175e-006 -4.818479e-006 9.491983e-001 -3.784549e-001
319095000 4.367164e-006 3.936763e-006 -3.658161e-001 7.540539e-001 5.047972e-006 7.763516e-006 9.490947e-001 -3.778047e-001
319380000 -6.267632e-006 1.129833e-005 -3.451178e-001 7.688507e-001 -1.180945e-005 2.509083e-006 9.495939e-001 -3.800920e-001
319665000 2.842090e-006 -1.254864e-005 -3.237717e-001 7.831317e-001 -1.679696e-005 -4.539506e-006 9.502519e-001 -3.789214e-001
319950000 -7.829862e-006 -1.323269e-005 -3.016258e-001 7.970424e-001 3.726565e-006 -2.626967e-006 9.488836e-001 -3.809212e-001
320235000 -8.242250e-006 -2.124583e-007 -2.788495e-001 8.104738e-001 -1.979937e-006 -8.872790e-006 9.492736e-001 -3.813933e-001
320520000 -1.778115e-005 4.092431e-006 -2.553403e-001 8.235330e-001 -1.665906e-005 -2.346730e-005 9.487084e-001 -3.812026e-001
320805000 -4.335286e-007 -3.132990e-006 -2.310795e-001 8.360175e-001 -2.476443e-005 -1.508261e-005 9.480168e-001 -3.802669e-001
321090000 -9.646404e-006 -1.194051e-005 -2.060898e-001 8.478972e-001 -3.982935e-006 -2.534654e-005 9.476712e-001 -3.807340e-001
321375000 1.477850e-006 -5.093736e-006 -1.803793e-001 8.591909e-001 6.661603e-006 -8.775702e-006 9.483749e-001 -3.811966e-001
321660000 2.817164e-006 -6.843546e-006 -1.539960e-001 8.699086e-001 2.818510e-006 1.674813e-006 9.486502e-001 -3.819655e-001
321945000 6.482761e-007 4.754973e-007 -1.268497e-001 8.799484e-001 -4.252646e-006 -2.210297e-005 9.478478e-001 -3.829824e-001
322230000 1.713639e-005 -8.191641e-006 -9.901101e-002 8.892434e-001 7.512527e-006 -2.807259e-006 9.473438e-001 -3.831714e-001
322515000 1.647070e-005 5.845216e-006 -7.048991e-002 8.977329e-001 6.332642e-006 -2.873393e-006 9.464706e-001 -3.831540e-001
322800000 8.910203e-006 -6.497999e-006 -4.105886e-002 9.053310e-001 6.171346e-006 -7.789064e-006 9.490915e-001 -3.833768e-001
323085000 -7.983151e-006 9.954434e-007 -1.102736e-002 9.121556e-001 6.688207e-006 1.652330e-005 9.478392e-001 -3.835635e-001
323370000 -5.254784e-006 1.338128e-005 1.965855e-002 9.178852e-001 1.211135e-006 1.091224e-005 9.480133e-001 -3.843255e-001
323655000 -3.546393e-006 -1.579818e-006 5.103619e-002 9.224372e-001 -1.335865e-006 1.065612e-005 9.469222e-001 -3.847412e-001
323940000 -1.879438e-005 1.387985e-005 8.299430e-002 9.261019e-001 7.091624e-006 1.188825e-005 9.466460e-001 -3.855358e-001
324225000 6.485596e-007 5.651229e-006 1.156513e-001 9.285545e-001 4.986814e-006 1.477862e-005 9.454440e-001 -3.847599e-001
324510000 -1.715991e-005 -1.026123e-005 1.488557e-001 9.298423e-001 1.360009e-006 7.908596e-006 9.473472e-001 -3.869616e-001
324795000 -5.950508e-006 -1.225440e-006 1.824758e-001 9.297251e-001 -2.074620e-005 1.433139e-005 9.468552e-001 -3.861037e-001
325080000 9.808261e-007 -5.854994e-006 2.165643e-001 9.283164e-001 1.029340e-006 4.280819e-006 9.465629e-001 -3.860385e-001
325365000 -2.178023e-005 -4.307753e-006 2.511772e-001 9.256120e-001 -2.370325e-005 4.854931e-007 9.471566e-001 -3.866746e-001
325650000 1.213378e-005 6.922904e-006 2.860127e-001 9.213023e-001 -2.495431e-005 1.723847e-005 9.469043e-001 -3.864487e-001
325935000 -3.268085e-006 -3.984190e-006 3.210843e-001 9.155574e-001 -1.683372e-005 -9.147680e-006 9.461880e-001 -3.875185e-001
326220000 5.049578e-007 -4.012673e-006 3.563898e-001 9.081237e-001 -1.329233e-005 -3.539709e-006 9.465395e-001 -3.881024e-001
326505000 2.310096e-006 -5.300564e-007 3.918784e-001 8.992531e-001 -1.302250e-005 -1.617226e-005 9.458547e-001 -3.882979e-001
326790000 -1.751804e-006 6.170520e-006 4.271913e-001 8.886083e-001 -9.173760e-006 -1.803502e-005 9.450188e-001 -3.871891e-001
327075000 4.856826e-007 2.575256e-007 4.625241e-001 8.763204e-001 1.002446e-005 6.842428e-006 9.453237e-001 -3.890968e-001
327360000 9.907293e-006 2.073165e-006 4.977250e-001 8.622767e-001 -5.560386e-006 -1.009322e-005 9.465739e-001 -3.893560e-001
327645000 -6.060738e-006 1.598805e-005 5.324802e-001 8.465421e-001 7.022922e-006 4.370956e-006 9.458710e-001 -3.892650e-001
327930000 -1.062336e-005 7.712289e-006 5.669427e-001 8.290958e-001 1.110730e-005 -1.162059e-005 9.452195e-001 -3.890155e-001
328215000 8.341056e-007 -4.636274e-006 6.007131e-001 8.098613e-001 -6.136897e-006 5.186684e-006 9.452111e-001 -3.900519e-001
328500000 -6.886858e-006 1.313669e-005 6.338852e-001 7.888737e-001 -1.345811e-005 1.520698e-005 9.442980e-001 -3.903654e-001
328785000 -6.579083e-008 -2.992375e-006 6.662734e-001 7.661935e-001 -2.705198e-005 1.768975e-006 9.447257e-001 -3.899968e-001
329070000 6.035195e-006 -5.467348e-007 6.977765e-001 7.418234e-001 -4.775532e-006 -1.467622e-005 9.448146e-001 -3.907130e-001
329355000 1.090601e-005 -1.000664e-006 7.283781e-001 7.157418e-001 -1.724191e-008 7.362737e-006 9.443589e-001 -3.915553e-001
329640000 2.459903e-006 -8.423542e-006 7.577980e-001 6.881521e-001 -1.626458e-005 8.233194e-006 9.447637e-001 -3.917589e-001
329925000 -2.219660e-006 8.537739e-006 7.858782e-001 6.589272e-001 -1.942733e-005 1.269534e-005 9.441791e-001 -3.917510e-001
330210000 9.845968e-006 1.399377e-005 8.126949e-001 6.283618e-001 -1.561092e-005 -5.457934e-006 9.430943e-001 -3.922427e-001
330495000 -1.111148e-005 9.760383e-006 8.380334e-001 5.963812e-001 -1.599245e-005 1.391353e-006 9.436226e-001 -3.923267e-001
330780000 -1.196256e-005 1.888663e-006 8.617755e-001 5.632280e-001 -6.658019e-006 -3.564109e-006 9.440639e-001 -3.937431e-001
331065000 -5.969386e-006 -1.174559e-005 8.838813e-001 5.285907e-001 -1.158192e-005 1.095196e-005 9.429085e-001 -3.918284e-001
331350000 -5.533409e-006 2.366965e-005 9.042836e-001 4.931625e-001 6.037000e-006 1.597859e-006 9.431094e-001 -3.931111e-001
331635000 -8.862566e-006 -8.630162e-006 9.230199e-001 4.567381e-001 3.612089e-006 -1.036723e-005 9.439476e-001 -3.936566e-001
331920000 -4.441370e-006 -7.163841e-006 9.397112e-001 4.195073e-001 1.978748e-006 -1.872667e-005 9.435961e-001 -3.940702e-001
332205000 -7.758270e-006 3.572112e-006 9.546818e-001 3.815572e-001 2.079577e-006 -1.026443e-005 9.427800e-001 -3.946878e-001
332490000 5.699252e-007 -3.012967e-006 9.676827e-001 3.430301e-001 9.435868e-006 5.622786e-006 9.436269e-001 -3.945503e-001
332775000 -8.170223e-006 4.820311e-006 9.787492e-001 3.040302e-001 1.101318e-005 2.372117e-005 9.429497e-001 -3.953507e-001
333060000 -8.667635e-006 -3.841238e-006 9.879488e-001 2.648263e-001 -6.198363e-006 1.372568e-005 9.430758e-001 -3.955028e-001
333345000 4.298807e-006 -4.536617e-006 9.950894e-001 2.254158e-001 -8.848248e-006 3.774700e-007 9.439180e-001 -3.954195e-001
333630000 1.373219e-005 -3.927273e-006 1.000353e+000 1.859574e-001 -8.437673e-006 2.337405e-005 9.424127e-001 -3.970807e-001
333915000 -2.596302e-006 -8.141939e-006 1.003580e+000 1.465859e-001 -2.316709e-005 1.482384e-005 9.423271e-001 -3.964334e-001
334200000 3.643440e-006 9.838023e-006 1.005055e+000 1.073471e-001 -1.375243e-007 1.628736e-005 9.427738e-001 -3.978430e-001
334485000 -1.325733e-005 -1.705917e-005 1.004782e+000 6.844246e-002 5.306507e-006 5.385084e-006 9.423193e-001 -3.965836e-001
334770000 -2.649981e-005 -7.914988e-006 1.002646e+000 3.000898e-002 2.584238e-006 9.764386e-006 9.422634e-001 -3.976985e-001
335055000 -1.039988e-005 -1.796540e-005 9.987882e-001 -7.873555e-003 2.371001e-006 4.730853e-006 9.428279e-001 -3.978278e-001
335340000 4.469560e-006 -6.223063e-006 9.931965e-001 -4.522319e-002 -4.238017e-006 1.147542e-005 9.421009e-001 -3.994259e-001
335625000 -5.358617e-006 -4.642161e-006 9.861335e-001 -8.184534e-002 -1.904292e-005 -1.018127e-006 9.420841e-001 -3.989828e-001
335910000 1.308166e-005 -9.447136e-006 9.774339e-001 -1.176522e-001 -5.187047e-006 -1.332485e-007 9.418795e-001 -3.986693e-001
336195000 7.632475e-006 -1.756122e-005 9.673614e-001 -1.525563e-001 -7.941429e-007 1.114289e-005 9.408292e-001 -3.987528e-001
336480000 -1.208797e-005 -3.442866e-006 9.560713e-001 -1.865782e-001 -6.243262e-006 1.095853e-005 9.421125e-001 -3.991680e-001
336765000 7.601867e-006 6.055947e-007 9.433982e-001 -2.198311e-001 -4.887596e-006 2.126225e-006 9.413106e-001 -3.999347e-001
337050000 1.439945e-005 -3.971046e-006 9.296695e-001 -2.518510e-001 6.159060e-006 4.140410e-006 9.418319e-001 -4.003204e-001
337335000 -2.616607e-006 8.674702e-006 9.147806e-001 -2.830183e-001 -1.449231e-005 1.500495e-005 9.404773e-001 -4.017230e-001
337620000 1.403469e-006 1.855039e-005 8.988840e-001 -3.130766e-001 -2.112350e-005 -5.827655e-006 9.406288e-001 -4.016938e-001
337905000 -7.049549e-006 -3.543889e-006 8.820836e-001 -3.420875e-001 -6.073742e-006 1.831446e-006 9.399701e-001 -3.999153e-001
338190000 1.151400e-005 -1.278194e-005 8.644804e-001 -3.699513e-001 -1.128005e-005 -4.741468e-006 9.402046e-001 -4.018087e-001
338475000 1.856167e-005 -1.287946e-005 8.460614e-001 -3.967721e-001 -7.852324e-006 -9.272719e-006 9.413874e-001 -4.009910e-001
338760000 -5.046606e-006 -2.061556e-006 8.268521e-001 -4.224951e-001 8.376413e-007 6.246608e-006 9.405922e-001 -4.019360e-001
339045000 1.557113e-005 -1.521253e-006 8.072168e-001 -4.471974e-001 1.291544e-005 1.359592e-005 9.406181e-001 -4.022905e-001
339330000 2.164707e-006 8.296480e-006 7.869260e-001 -4.706679e-001 -1.011593e-005 -2.577836e-006 9.416056e-001 -4.015404e-001
339615000 9.987324e-006 1.126024e-005 7.661092e-001 -4.932434e-001 3.421757e-006 -4.626131e-006 9.403362e-001 -4.032776e-001
339900000 7.449668e-006 4.302813e-006 7.449731e-001 -5.146174e-001 -2.547300e-006 9.005919e-006 9.394404e-001 -4.040564e-001
340185000 -5.663405e-006 2.815828e-007 7.234228e-001 -5.349158e-001 1.465119e-006 -9.453712e-006 9.398900e-001 -4.040552e-001
340470000 2.178711e-005 -1.585190e-005 7.014545e-001 -5.543119e-001 4.310483e-006 1.894933e-006 9.398717e-001 -4.031604e-001
340755000 -3.787394e-006 -4.457200e-006 6.793608e-001 -5.727528e-001 9.962318e-006 2.408110e-006 9.393523e-001 -4.051777e-001
341040000 1.323970e-005 8.813199e-006 6.570178e-001 -5.901081e-001 -5.443979e-006 2.590146e-006 9.387742e-001 -4.053189e-001
341325000 1.994252e-006 -1.249593e-005 6.343901e-001 -6.065444e-001 9.731365e-006 -4.163556e-006 9.403270e-001 -4.037501e-001
341610000 -5.702973e-006 3.744943e-006 6.117310e-001 -6.219984e-001 -9.711325e-006 -4.296408e-006 9.407259e-001 -4.048460e-001
341895000 1.419132e-006 2.862198e-006 5.889552e-001 -6.366499e-001 -6.453540e-007 -6.338138e-006 9.384362e-001 -4.061244e-001
342180000 -8.092235e-006 1.918824e-007 5.660381e-001 -6.503227e-001 -2.222526e-005 1.288664e-005 9.394770e-001 -4.067392e-001
342465000 9.888362e-006 -2.515348e-006 5.431173e-001 -6.632669e-001 -1.244945e-005 -2.129500e-006 9.386732e-001 -4.067867e-001
342750000 1.275152e-005 7.787752e-006 5.201423e-001 -6.753296e-001 -2.005105e-005 -6.034122e-006 9.405800e-001 -4.065257e-001
343035000 6.912221e-006 3.298016e-006 4.971874e-001 -6.865851e-001 3.913453e-006 7.642929e-006 9.380322e-001 -4.079814e-001
343320000 1.402599e-005 8.863352e-006 4.743135e-001 -6.971236e-001 -1.778419e-005 -1.885555e-005 9.378788e-001 -4.070851e-001
343605000 9.127984e-006 -1.397817e-005 4.514208e-001 -7.069060e-001 -8.552477e-006 -8.027725e-007 9.380178e-001 -4.072681e-001
343890000 2.661453e-006 -9.397745e-006 4.285384e-001 -7.160472e-001 8.762199e-006 -1.195172e-005 9.385180e-001 -4.082450e-001
