!Agilent Technologies,N5230C,SG49000117,A.08.50.07
!Agilent N5230C: A.08.50.07
!Date: Sunday, March 17, 2024 05:50:36
!Correction: S11(Off) 
!S21(Off) 
!S12(Off) 
!S22(Full 1 Port(2)) 
!S2P File: Measurements: S11, S21, S12, S22:
# Hz S  RI   R 50
300000000 -5.367072e-006 -1.545329e-005 -6.794086e-001 -5.617947e-001 -1.024542e-005 4.371067e-006 9.354115e-001 -4.035910e-001
300285000 -2.475840e-007 -6.256653e-006 -6.915627e-001 -5.379546e-001 -9.675168e-006 -2.196378e-006 9.358402e-001 -4.040933e-001
300570000 5.434534e-007 -2.396891e-006 -7.029719e-001 -5.141233e-001 7.946680e-006 1.696061e-005 9.360846e-001 -4.048922e-001
300855000 6.597176e-006 1.393808e-006 -7.135507e-001 -4.902858e-001 -9.535516e-006 -4.247007e-006 9.365204e-001 -4.045871e-001
301140000 1.723335e-005 1.353656e-006 -7.233848e-001 -4.663499e-001 2.026457e-007 3.842572e-006 9.355345e-001 -4.055901e-001
301425000 -3.280421e-006 -9.816527e-006 -7.323718e-001 -4.424852e-001 3.269377e-006 1.006963e-005 9.362422e-001 -4.057304e-001
301710000 1.418635e-005 -1.067206e-006 -7.406091e-001 -4.187442e-001 8.372009e-006 5.404993e-007 9.360300e-001 -4.076413e-001
301995000 -4.030011e-006 1.256195e-005 -7.481666e-001 -3.951697e-001 7.879673e-006 1.111570e-005 9.354254e-001 -4.060408e-001
302280000 -6.104123e-007 -1.017831e-005 -7.549940e-001 -3.716565e-001 -1.146953e-005 4.271225e-006 9.358275e-001 -4.071027e-001
302565000 -1.053658e-005 -5.815373e-006 -7.612278e-001 -3.482431e-001 -1.287929e-005 -7.926773e-006 9.360859e-001 -4.081141e-001
302850000 -5.366444e-006 3.902588e-006 -7.667896e-001 -3.250404e-001 -1.454969e-005 1.121129e-005 9.351480e-001 -4.065906e-001
303135000 -4.027840e-006 -5.255945e-006 -7.717783e-001 -3.018121e-001 -6.385231e-006 6.182036e-006 9.345814e-001 -4.076985e-001
303420000 -8.347144e-006 1.584247e-006 -7.761087e-001 -2.788479e-001 1.296880e-005 1.840971e-006 9.340357e-001 -4.095635e-001
303705000 8.761052e-006 9.082407e-006 -7.797821e-001 -2.560909e-001 6.805521e-006 -8.490254e-006 9.354188e-001 -4.096915e-001
303990000 7.747403e-007 -9.444501e-006 -7.831120e-001 -2.335292e-001 -3.675367e-006 1.512629e-006 9.338668e-001 -4.085340e-001
304275000 1.489963e-005 1.204052e-006 -7.857243e-001 -2.109957e-001 1.085865e-005 -2.783093e-006 9.343989e-001 -4.094222e-001
304560000 -4.494381e-006 -3.249868e-006 -7.878046e-001 -1.886929e-001 5.491032e-006 5.483667e-006 9.345385e-001 -4.096527e-001
304845000 -1.696876e-005 2.955233e-006 -7.894933e-001 -1.665876e-001 7.543407e-006 -6.423587e-007 9.337021e-001 -4.094738e-001
305130000 -5.332950e-006 1.112871e-005 -7.906194e-001 -1.445773e-001 -9.969769e-006 -1.750619e-005 9.332775e-001 -4.094668e-001
305415000 -9.678057e-006 -6.337168e-006 -7.913263e-001 -1.228156e-001 -1.158042e-006 -1.172331e-005 9.334857e-001 -4.109344e-001
305700000 -1.406437e-007 -1.514304e-005 -7.916149e-001 -1.011428e-001 3.377259e-006 -1.674006e-006 9.340572e-001 -4.104628e-001
305985000 -4.300731e-006 -1.116485e-005 -7.912790e-001 -7.969897e-002 -1.206622e-005 8.211345e-006 9.336458e-001 -4.119884e-001
306270000 2.136757e-006 5.625739e-006 -7.905682e-001 -5.830798e-002 -1.236271e-005 1.138034e-005 9.349117e-001 -4.114043e-001
306555000 -5.171207e-006 4.932612e-006 -7.894213e-001 -3.720126e-002 2.265556e-006 7.499910e-006 9.334138e-001 -4.134879e-001
306840000 2.118267e-005 -6.473141e-006 -7.879358e-001 -1.619990e-002 -6.335390e-006 -4.008779e-006 9.332224e-001 -4.115370e-001
307125000 1.401733e-005 1.143566e-005 -7.859777e-001 4.681837e-003 -4.582970e-006 -6.096875e-006 9.323217e-001 -4.129392e-001
307410000 -9.069751e-006 -7.179465e-006 -7.836635e-001 2.536834e-002 -3.751247e-006 -3.297620e-006 9.332392e-001 -4.134780e-001
307695000 3.650126e-006 -2.643401e-006 -7.809704e-001 4.592799e-002 -1.427041e-007 -3.079803e-007 9.330267e-001 -4.143060e-001
307980000 1.355674e-005 -9.306733e-006 -7.778566e-001 6.631364e-002 -2.035735e-005 1.474158e-006 9.316143e-001 -4.138521e-001
308265000 1.175244e-005 -5.210361e-006 -7.743669e-001 8.653767e-002 -8.481128e-006 -1.938614e-005 9.318171e-001 -4.142741e-001
308550000 -9.892728e-006 1.717137e-006 -7.706214e-001 1.066932e-001 -1.856671e-006 -4.976914e-006 9.313229e-001 -4.136700e-001
308835000 2.872285e-006 -5.579637e-006 -7.663907e-001 1.266075e-001 -7.854389e-007 -6.302676e-007 9.311436e-001 -4.151594e-001
309120000 -1.670614e-005 -5.165671e-006 -7.618774e-001 1.465003e-001 -6.044702e-006 -1.645995e-005 9.318471e-001 -4.166492e-001
309405000 -1.184872e-005 -4.432831e-006 -7.569548e-001 1.662631e-001 -3.753213e-006 -1.590328e-005 9.334482e-001 -4.167346e-001
309690000 6.282279e-006 6.583743e-007 -7.516288e-001 1.857478e-001 1.038152e-005 -2.536325e-005 9.322905e-001 -4.165879e-001
309975000 -4.272209e-006 1.297626e-005 -7.460669e-001 2.051870e-001 9.887077e-006 -5.635319e-006 9.311842e-001 -4.164374e-001
310260000 -7.148172e-007 -1.030856e-005 -7.400954e-001 2.245435e-001 -9.914392e-006 6.768052e-006 9.328268e-001 -4.173596e-001
310545000 -1.027641e-005 -1.536794e-005 -7.337574e-001 2.437340e-001 -4.699403e-006 -5.679928e-006 9.310078e-001 -4.179507e-001
310830000 -2.084446e-006 -1.921000e-005 -7.270790e-001 2.629174e-001 4.223200e-006 -6.189706e-006 9.325387e-001 -4.188510e-001
311115000 1.257360e-005 -1.491413e-005 -7.200283e-001 2.819225e-001 5.353858e-006 1.501405e-006 9.307629e-001 -4.179850e-001
311400000 -3.457347e-006 -1.372198e-005 -7.125424e-001 3.007603e-001 -8.091014e-006 8.020292e-006 9.307680e-001 -4.188520e-001
311685000 1.143743e-005 -8.486018e-006 -7.048313e-001 3.196204e-001 1.081513e-005 -6.092137e-006 9.311749e-001 -4.186260e-001
311970000 5.105855e-006 1.281764e-007 -6.966553e-001 3.383356e-001 1.072840e-005 -9.921504e-006 9.297175e-001 -4.186432e-001
312255000 -1.701291e-006 1.811789e-005 -6.882061e-001 3.569147e-001 -9.219834e-007 5.581780e-006 9.300912e-001 -4.192546e-001
312540000 3.317582e-006 6.820324e-006 -6.792641e-001 3.755328e-001 -1.251685e-005 -1.319617e-007 9.298193e-001 -4.199122e-001
312825000 -6.939574e-006 -2.789376e-006 -6.700634e-001 3.938533e-001 6.427023e-007 -1.586813e-005 9.297292e-001 -4.201568e-001
313110000 6.575538e-006 1.348254e-005 -6.603109e-001 4.121992e-001 1.003374e-005 5.165990e-007 9.293292e-001 -4.213347e-001
313395000 -3.080928e-006 1.176245e-005 -6.501932e-001 4.303724e-001 3.825752e-007 -2.674336e-006 9.297931e-001 -4.204948e-001
313680000 -3.833109e-006 -3.056958e-006 -6.397404e-001 4.484616e-001 -1.658195e-005 4.080708e-006 9.303993e-001 -4.213398e-001
313965000 -2.398875e-006 -9.283401e-007 -6.287639e-001 4.664445e-001 1.693395e-005 -1.056971e-005 9.295506e-001 -4.215643e-001
314250000 -2.394900e-005 -8.419704e-006 -6.175580e-001 4.843535e-001 4.601219e-006 1.778177e-005 9.283866e-001 -4.218380e-001
314535000 -1.573207e-005 -2.238931e-007 -6.057891e-001 5.022069e-001 1.262054e-007 1.553323e-005 9.287145e-001 -4.219329e-001
314820000 -1.085054e-005 -1.569105e-005 -5.935710e-001 5.199419e-001 -7.738107e-006 8.541778e-006 9.284009e-001 -4.232880e-001
315105000 -9.849251e-006 3.976480e-007 -5.808246e-001 5.374218e-001 8.147425e-006 4.364730e-007 9.261075e-001 -4.224986e-001
315390000 6.272712e-006 -1.708363e-005 -5.676890e-001 5.548777e-001 -1.459341e-005 8.004794e-006 9.286661e-001 -4.240538e-001
315675000 1.098946e-005 -9.419418e-006 -5.539975e-001 5.721846e-001 3.414453e-007 -1.470276e-005 9.275993e-001 -4.229261e-001
315960000 5.935608e-006 -4.286281e-006 -5.398980e-001 5.894213e-001 -5.725395e-006 -1.717493e-005 9.271857e-001 -4.236501e-001
316245000 -1.705926e-007 1.174252e-006 -5.253183e-001 6.063743e-001 -2.679860e-006 -1.718433e-005 9.268585e-001 -4.234955e-001
316530000 -4.825497e-006 9.573243e-006 -5.101298e-001 6.232187e-001 -8.153053e-006 7.543356e-007 9.276707e-001 -4.250165e-001
316815000 2.906840e-006 2.145683e-007 -4.943796e-001 6.399549e-001 -1.555409e-005 -1.249463e-005 9.284868e-001 -4.244758e-001
317100000 1.067664e-005 3.187868e-006 -4.780816e-001 6.563417e-001 -1.108869e-005 -7.003440e-006 9.268222e-001 -4.243211e-001
317385000 -5.228452e-006 -5.542070e-006 -4.612744e-001 6.727883e-001 -3.116951e-006 -1.475976e-005 9.288370e-001 -4.248544e-001
317670000 1.307047e-005 -1.265468e-006 -4.438396e-001 6.888258e-001 2.508265e-006 7.734538e-006 9.277157e-001 -4.263465e-001
317955000 1.461485e-008 6.506123e-006 -4.258281e-001 7.046959e-001 2.127773e-006 -1.040461e-006 9.281980e-001 -4.264960e-001
318240000 2.887709e-006 3.944935e-006 -4.071588e-001 7.202365e-001 1.937953e-006 5.864192e-006 9.271591e-001 -4.265437e-001
318525000 1.313591e-006 -1.377970e-005 -3.878058e-001 7.356474e-001 7.964923e-006 8.929918e-006 9.270191e-001 -4.266829e-001
318810000 -2.508273e-006 5.833280e-006 -3.679712e-001 7.505364e-001 2.414904e-006 -8.768601e-006 9.260945e-001 -4.271766e-001
319095000 -1.702033e-005 -1.873629e-005 -3.473796e-001 7.651722e-001 6.233312e-006 -8.993386e-006 9.259931e-001 -4.265128e-001
319380000 -6.178830e-006 -2.249204e-005 -3.260654e-001 7.795082e-001 -7.868733e-006 2.238323e-005 9.264987e-001 -4.289234e-001
319665000 1.976805e-006 -7.807535e-006 -3.041858e-001 7.934019e-001 -1.078421e-005 5.474446e-006 9.269112e-001 -4.279728e-001
319950000 2.235341e-005 -9.337875e-006 -2.814612e-001 8.068194e-001 -1.815256e-005 -3.027919e-006 9.254121e-001 -4.298658e-001
320235000 -9.680343e-006 -2.998261e-006 -2.582070e-001 8.198556e-001 -1.837211e-005 5.570291e-006 9.260930e-001 -4.302342e-001
320520000 1.388502e-005 8.659314e-006 -2.341045e-001 8.324121e-001 -1.757552e-005 4.914946e-006 9.255108e-001 -4.299080e-001
320805000 2.098667e-006 4.362203e-008 -2.093640e-001 8.444293e-001 8.704460e-007 -1.534960e-005 9.249132e-001 -4.292798e-001
321090000 2.805263e-006 8.487900e-006 -1.838356e-001 8.556920e-001 1.285140e-005 -2.867422e-006 9.244402e-001 -4.297350e-001
321375000 -1.097786e-005 7.979686e-007 -1.575923e-001 8.665585e-001 -4.839192e-006 -6.436136e-007 9.251348e-001 -4.301285e-001
321660000 1.540751e-005 -4.181666e-006 -1.306166e-001 8.765551e-001 -7.176116e-006 6.391783e-006 9.252882e-001 -4.312419e-001
321945000 -1.638543e-005 -3.780996e-006 -1.029342e-001 8.858824e-001 6.741182e-006 6.323620e-007 9.242733e-001 -4.322209e-001
322230000 -2.945111e-006 -1.778123e-006 -7.459593e-002 8.944433e-001 2.824309e-006 -3.286512e-006 9.235211e-001 -4.322331e-001
322515000 -5.677568e-006 1.728689e-006 -4.533667e-002 9.021884e-001 7.814241e-006 4.892887e-006 9.230464e-001 -4.323981e-001
322800000 -7.687714e-006 -2.004926e-005 -1.553161e-002 9.089168e-001 -1.688456e-006 1.266629e-005 9.252637e-001 -4.328293e-001
323085000 -6.666925e-006 -1.044275e-007 1.500238e-002 9.148990e-001 -8.191100e-006 -1.397069e-005 9.239573e-001 -4.328732e-001
323370000 1.260751e-005 -1.668285e-005 4.614207e-002 9.197371e-001 -1.100536e-005 -6.406062e-006 9.242035e-001 -4.339479e-001
323655000 -1.632938e-005 1.671871e-006 7.785162e-002 9.234911e-001 -1.089630e-006 3.495079e-006 9.233321e-001 -4.342965e-001
323940000 3.944694e-006 -4.693040e-006 1.103133e-001 9.260582e-001 -3.082124e-006 -2.790572e-006 9.229187e-001 -4.347967e-001
324225000 7.327878e-006 2.701244e-006 1.433182e-001 9.275451e-001 3.475026e-006 -1.005729e-005 9.215370e-001 -4.338723e-001
324510000 -9.094552e-006 4.562810e-006 1.767448e-001 9.276173e-001 -1.150392e-006 7.116701e-006 9.234340e-001 -4.362724e-001
324795000 -2.568947e-006 5.434441e-006 2.107077e-001 9.265049e-001 -1.032846e-005 3.285049e-006 9.228984e-001 -4.355600e-001
325080000 5.980197e-006 6.425149e-007 2.451151e-001 9.239584e-001 -1.050304e-005 1.988640e-005 9.225482e-001 -4.353456e-001
325365000 -5.587940e-006 -4.603300e-006 2.798481e-001 9.199516e-001 -2.028736e-005 8.966134e-006 9.230299e-001 -4.361626e-001
325650000 -1.073999e-005 6.744257e-006 3.147617e-001 9.145100e-001 1.443566e-005 -7.982797e-006 9.228194e-001 -4.358330e-001
325935000 -1.355495e-005 5.297493e-006 3.499412e-001 9.074676e-001 -1.938469e-005 2.998312e-006 9.220285e-001 -4.372654e-001
326220000 -5.408793e-006 5.170195e-007 3.852262e-001 8.988397e-001 -1.888339e-005 1.068564e-005 9.223554e-001 -4.377370e-001
326505000 -1.077057e-005 3.790667e-006 4.205410e-001 8.885542e-001 -1.511759e-005 6.898600e-006 9.215182e-001 -4.378984e-001
326790000 -1.928099e-005 2.711185e-006 4.558558e-001 8.765739e-001 -6.509756e-006 -9.152714e-007 9.208612e-001 -4.369100e-001
327075000 -9.951784e-007 7.873572e-006 4.909114e-001 8.629720e-001 -1.434863e-005 -1.247740e-005 9.208828e-001 -4.389909e-001
327360000 -9.739619e-006 4.974732e-006 5.256940e-001 8.475708e-001 2.108357e-006 -1.814020e-006 9.221478e-001 -4.392630e-001
327645000 -1.447409e-005 -1.124254e-005 5.600674e-001 8.303887e-001 1.057000e-005 -3.062657e-006 9.214170e-001 -4.390095e-001
327930000 1.628120e-006 -9.899635e-006 5.940421e-001 8.115196e-001 -3.389737e-006 7.173387e-006 9.208469e-001 -4.388158e-001
328215000 -1.225902e-005 -1.045770e-005 6.272391e-001 7.909603e-001 -7.674432e-006 4.831361e-006 9.207242e-001 -4.400943e-001
328500000 -8.251720e-006 -2.072031e-007 6.597320e-001 7.686202e-001 5.497816e-006 -3.505480e-006 9.199103e-001 -4.404981e-001
328785000 6.099102e-006 5.354121e-006 6.914728e-001 7.446067e-001 8.475316e-006 -2.005991e-006 9.204621e-001 -4.398594e-001
329070000 -2.624710e-005 -7.598002e-006 7.220464e-001 7.189686e-001 -6.819044e-006 5.206045e-006 9.201099e-001 -4.405030e-001
329355000 -1.295641e-005 1.453101e-005 7.516976e-001 6.916433e-001 -1.146611e-006 8.344149e-007 9.197294e-001 -4.416548e-001
329640000 -8.471474e-006 -9.138932e-006 7.799267e-001 6.627635e-001 9.543886e-006 -9.433042e-006 9.199610e-001 -4.416403e-001
329925000 6.424233e-007 -2.610811e-008 8.070270e-001 6.324941e-001 8.987446e-006 1.016955e-006 9.196094e-001 -4.418102e-001
330210000 8.229185e-006 3.791420e-006 8.326231e-001 6.009154e-001 -4.461362e-008 7.096539e-006 9.184245e-001 -4.422192e-001
330495000 -7.302738e-006 7.724464e-006 8.567532e-001 5.678977e-001 1.126557e-005 -7.604125e-006 9.188257e-001 -4.422784e-001
330780000 -2.640960e-006 -5.404862e-006 8.791213e-001 5.336635e-001 -6.429583e-006 6.067427e-006 9.191008e-001 -4.437745e-001
331065000 3.731240e-006 2.775700e-006 8.998483e-001 4.984529e-001 1.362670e-005 -1.062043e-006 9.179188e-001 -4.419753e-001
331350000 8.293832e-006 5.940549e-006 9.187959e-001 4.621531e-001 -1.162122e-005 1.493936e-005 9.181687e-001 -4.432285e-001
331635000 -5.285932e-007 1.647262e-005 9.359897e-001 4.251161e-001 -8.625320e-006 -4.497768e-006 9.190322e-001 -4.438864e-001
331920000 -7.897783e-006 1.573331e-005 9.512866e-001 3.873420e-001 -9.000968e-006 5.660536e-006 9.186664e-001 -4.442988e-001
332205000 -7.447885e-006 9.614876e-006 9.645897e-001 3.489136e-001 -3.554699e-006 1.640808e-005 9.176351e-001 -4.451155e-001
332490000 -1.300641e-005 4.602458e-006 9.760962e-001 3.100652e-001 -6.997000e-006 -2.276380e-006 9.185926e-001 -4.450471e-001
332775000 1.603316e-006 5.188209e-006 9.855675e-001 2.709837e-001 -1.786714e-005 8.088577e-006 9.177249e-001 -4.456400e-001
333060000 -1.485740e-005 -8.031347e-006 9.931353e-001 2.314398e-001 -8.396663e-006 -2.590838e-006 9.179627e-001 -4.461555e-001
333345000 4.573176e-006 9.003024e-006 9.987303e-001 1.919393e-001 -3.585448e-006 -1.693496e-005 9.186890e-001 -4.460168e-001
333630000 -1.331202e-005 -4.013460e-006 1.002416e+000 1.525506e-001 -1.952246e-005 -1.904202e-005 9.173501e-001 -4.475276e-001
333915000 2.983502e-006 -4.146680e-006 1.004245e+000 1.132908e-001 4.719403e-006 -1.100883e-005 9.171766e-001 -4.468797e-001
334200000 7.028212e-006 1.294832e-005 1.004194e+000 7.435340e-002 -2.073927e-006 -5.772727e-006 9.173970e-001 -4.479816e-001
334485000 1.038987e-005 3.407215e-006 1.002364e+000 3.574768e-002 -8.185797e-006 1.068850e-005 9.170671e-001 -4.471918e-001
334770000 -9.890761e-006 3.241911e-006 9.988143e-001 -2.321074e-003 6.746446e-006 -1.563109e-007 9.171689e-001 -4.483298e-001
335055000 -4.945384e-006 6.348988e-007 9.935975e-001 -3.971662e-002 3.604814e-006 -1.614884e-005 9.174671e-001 -4.485137e-001
335340000 -1.062491e-005 -2.476846e-006 9.867656e-001 -7.648318e-002 3.810710e-006 3.583308e-006 9.166404e-001 -4.499295e-001
335625000 2.104658e-005 3.473860e-006 9.784036e-001 -1.124533e-001 7.826120e-006 -2.109931e-006 9.165459e-001 -4.497573e-001
335910000 2.436058e-006 -2.005906e-006 9.685963e-001 -1.476208e-001 -1.574678e-005 5.921900e-006 9.163377e-001 -4.493703e-001
336195000 4.329017e-006 4.005074e-006 9.573622e-001 -1.819093e-001 -1.638407e-006 9.346499e-006 9.153971e-001 -4.494862e-001
336480000 6.867789e-006 4.930640e-006 9.449573e-001 -2.151801e-001 4.729513e-006 9.027613e-006 9.165574e-001 -4.498715e-001
336765000 -3.278230e-006 -5.389517e-007 9.312748e-001 -2.475467e-001 -1.593079e-005 8.779462e-007 9.157835e-001 -4.506503e-001
337050000 -1.255913e-005 -7.031649e-006 9.165772e-001 -2.789293e-001 -6.700447e-006 -5.656222e-007 9.162932e-001 -4.510371e-001
337335000 7.512465e-006 -1.244625e-005 9.008031e-001 -3.091716e-001 5.841307e-006 4.900047e-006 9.148610e-001 -4.526138e-001
337620000 -3.075535e-006 -2.943558e-006 8.840666e-001 -3.384094e-001 2.664305e-006 5.122330e-006 9.148729e-001 -4.524214e-001
337905000 -6.187699e-006 2.877497e-006 8.665848e-001 -3.665497e-001 5.500641e-006 -1.129678e-005 9.143730e-001 -4.508234e-001
338190000 1.351607e-007 -2.994449e-006 8.482283e-001 -3.935436e-001 -2.241359e-006 -5.895455e-006 9.143707e-001 -4.527164e-001
338475000 -6.030435e-006 2.790127e-007 8.292074e-001 -4.195339e-001 8.421176e-006 -4.328877e-006 9.157124e-001 -4.521757e-001
338760000 7.701552e-006 1.051221e-005 8.095493e-001 -4.442651e-001 4.859309e-006 -3.050144e-006 9.148974e-001 -4.528409e-001
339045000 -3.856350e-007 9.251109e-006 7.892382e-001 -4.679847e-001 3.867317e-006 5.548384e-006 9.144968e-001 -4.531779e-001
339330000 2.191990e-006 4.765113e-006 7.685940e-001 -4.907642e-001 6.177042e-006 1.065796e-006 9.156429e-001 -4.526105e-001
339615000 -6.005517e-006 1.142692e-005 7.472978e-001 -5.123862e-001 -2.966877e-006 -6.190851e-006 9.141830e-001 -4.542844e-001
339900000 4.835222e-007 3.979838e-006 7.256472e-001 -5.328556e-001 -9.450633e-006 1.573428e-005 9.135302e-001 -4.547728e-001
340185000 -4.771997e-006 4.925047e-006 7.037736e-001 -5.524062e-001 -5.019655e-006 7.643582e-006 9.137682e-001 -4.552171e-001
340470000 -6.232172e-008 -6.775507e-006 6.816172e-001 -5.709653e-001 1.107446e-006 1.932532e-006 9.139062e-001 -4.544469e-001
340755000 1.508331e-006 1.721872e-005 6.591957e-001 -5.884102e-001 -2.566463e-006 4.286593e-006 9.131492e-001 -4.564116e-001
341040000 -1.925421e-005 1.127869e-005 6.366433e-001 -6.050205e-001 -7.532591e-006 -2.730024e-006 9.125524e-001 -4.564431e-001
341325000 1.572046e-005 7.716962e-006 6.138443e-001 -6.206516e-001 1.497745e-005 -1.776276e-005 9.143645e-001 -4.550934e-001
341610000 5.981258e-006 5.655002e-007 5.909988e-001 -6.353613e-001 -3.289246e-006 1.594115e-005 9.143820e-001 -4.566920e-001
341895000 3.718640e-006 2.413977e-006 5.680301e-001 -6.491964e-001 -3.048291e-007 -5.065406e-006 9.121782e-001 -4.571436e-001
342180000 1.029246e-005 -3.947331e-006 5.450396e-001 -6.621441e-001 -1.489314e-005 -9.725187e-006 9.132530e-001 -4.581698e-001
342465000 -1.024501e-005 2.933641e-006 5.219893e-001 -6.743185e-001 -2.130829e-006 3.440608e-006 9.124059e-001 -4.582457e-001
342750000 1.129816e-005 -1.401133e-005 4.990277e-001 -6.856860e-001 5.625644e-006 5.345551e-006 9.140381e-001 -4.582292e-001
343035000 -4.646951e-007 -2.892094e-006 4.760034e-001 -6.963047e-001 -1.094960e-007 6.490057e-006 9.115562e-001 -4.593020e-001
343320000 8.808749e-006 -1.398308e-005 4.530377e-001 -7.061268e-001 -5.197392e-006 7.481271e-006 9.115079e-001 -4.587491e-001
343605000 2.660756e-006 -5.125876e-006 4.301679e-001 -7.152356e-001 9.399507e-006 -5.180776e-006 9.114245e-001 -4.589638e-001
343890000 -5.263646e-006 7.720374e-006 4.073865e-001 -7.237093e-001 1.044146e-005 1.205542e-005 9.118775e-001 -4.598555e-001
