!Agilent Technologies,N5230C,SG49000117,A.08.50.07
!Agilent N5230C: A.08.50.07
!Date: Monday, March 18, 2024 19:10:25
!Correction: S11(Off) 
!S21(Off) 
!S12(Off) 
!S22(Off) 
!S2P File: Measurements: S11, S21, S12, S22:
# Hz S  RI   R 50
300000000 4.587882e-005 -1.847011e-005 -6.107247e-001 -6.616671e-001 2.680499e-005 -1.649467e-005 -6.127645e-001 -6.640188e-001
300285000 -9.848153e-005 2.943560e-005 -6.268019e-001 -6.382286e-001 1.265704e-004 -3.095072e-005 -6.288661e-001 -6.412404e-001
300570000 1.044440e-004 -2.753830e-005 -6.415260e-001 -6.151635e-001 8.734582e-006 9.922550e-005 -6.445225e-001 -6.171624e-001
300855000 -3.176864e-005 -3.487153e-005 -6.559755e-001 -5.912189e-001 -1.283033e-004 6.446910e-005 -6.584861e-001 -5.938926e-001
301140000 -6.347863e-005 -1.999254e-005 -6.689963e-001 -5.683922e-001 -2.141672e-005 3.645618e-005 -6.717958e-001 -5.704076e-001
301425000 4.167600e-005 5.318368e-005 -6.815889e-001 -5.448042e-001 -5.778093e-005 8.413265e-006 -6.838289e-001 -5.469615e-001
301710000 -8.245144e-005 2.054161e-005 -6.931660e-001 -5.209971e-001 2.333861e-005 -3.729937e-005 -6.958132e-001 -5.236189e-001
301995000 -2.606018e-005 -2.310956e-005 -7.040970e-001 -4.980620e-001 1.204077e-004 -3.712958e-005 -7.065164e-001 -5.002897e-001
302280000 -6.575260e-006 -1.090218e-004 -7.143485e-001 -4.747870e-001 3.122677e-005 -3.281789e-005 -7.164480e-001 -4.759881e-001
302565000 6.409371e-005 7.790218e-005 -7.236261e-001 -4.510362e-001 2.661602e-005 1.006413e-004 -7.260046e-001 -4.523875e-001
302850000 4.176395e-005 1.241792e-004 -7.317696e-001 -4.275160e-001 7.823265e-005 -5.061524e-005 -7.344272e-001 -4.296470e-001
303135000 -1.130568e-004 -3.271403e-005 -7.396840e-001 -4.048613e-001 1.148544e-004 -1.569517e-006 -7.423783e-001 -4.062327e-001
303420000 -2.284291e-005 3.588733e-006 -7.466932e-001 -3.815477e-001 3.678121e-005 3.340243e-005 -7.497598e-001 -3.830323e-001
303705000 -5.895041e-005 3.284220e-006 -7.535824e-001 -3.584168e-001 8.652675e-005 4.900068e-005 -7.556881e-001 -3.597521e-001
303990000 2.019085e-005 4.223634e-005 -7.594633e-001 -3.349544e-001 5.537903e-005 -2.619853e-005 -7.623299e-001 -3.368041e-001
304275000 7.049170e-005 7.559873e-005 -7.643614e-001 -3.130817e-001 -3.832157e-006 1.429766e-005 -7.673826e-001 -3.134771e-001
304560000 -7.755876e-005 1.259890e-005 -7.692611e-001 -2.902523e-001 -2.002426e-005 -3.014919e-005 -7.723488e-001 -2.910889e-001
304845000 2.109560e-006 2.259180e-005 -7.732297e-001 -2.676938e-001 6.049518e-005 -7.532404e-006 -7.766582e-001 -2.686021e-001
305130000 5.434362e-005 -2.189446e-005 -7.769965e-001 -2.452849e-001 2.178469e-005 4.170748e-005 -7.798238e-001 -2.463585e-001
305415000 1.113588e-004 2.851781e-006 -7.799377e-001 -2.231278e-001 6.353670e-005 -7.369391e-005 -7.833565e-001 -2.239559e-001
305700000 6.384420e-005 -8.669964e-005 -7.824278e-001 -2.004906e-001 -4.099820e-005 2.496635e-005 -7.853749e-001 -2.017983e-001
305985000 -2.565990e-005 -2.189008e-005 -7.848086e-001 -1.795241e-001 -9.147567e-005 -5.189253e-005 -7.876934e-001 -1.802692e-001
306270000 2.348554e-005 5.706709e-005 -7.860012e-001 -1.575722e-001 1.326073e-005 -2.714496e-005 -7.888041e-001 -1.582291e-001
306555000 -5.670520e-005 -1.010887e-005 -7.874533e-001 -1.358925e-001 1.442075e-005 1.719489e-004 -7.902046e-001 -1.364092e-001
306840000 1.130869e-005 3.412294e-005 -7.877107e-001 -1.145658e-001 2.460338e-005 3.778256e-005 -7.902609e-001 -1.153718e-001
307125000 -6.956116e-006 -4.368828e-005 -7.881376e-001 -9.298037e-002 -2.500139e-005 -5.651844e-005 -7.907711e-001 -9.356626e-002
307410000 -6.276394e-006 4.469868e-005 -7.874690e-001 -7.183313e-002 3.923974e-006 2.378168e-005 -7.907563e-001 -7.237960e-002
307695000 2.956243e-005 -2.063199e-005 -7.872852e-001 -5.080590e-002 -2.552152e-005 -8.515590e-005 -7.899033e-001 -5.122755e-002
307980000 1.954316e-005 -3.139289e-005 -7.858917e-001 -3.039835e-002 -1.905608e-005 3.446012e-005 -7.891373e-001 -3.026802e-002
308265000 1.048072e-005 5.766974e-005 -7.849194e-001 -9.678132e-003 4.634361e-005 -8.724767e-005 -7.878028e-001 -9.810427e-003
308550000 4.700934e-005 -4.874794e-006 -7.826484e-001 1.110740e-002 -2.098516e-005 6.326734e-005 -7.856556e-001 1.083601e-002
308835000 -3.407094e-005 1.348467e-004 -7.805108e-001 3.169451e-002 -6.626480e-005 7.638988e-005 -7.834715e-001 3.170007e-002
309120000 4.389007e-006 1.276174e-005 -7.779684e-001 5.198698e-002 3.603176e-005 2.174352e-005 -7.809498e-001 5.142693e-002
309405000 4.954680e-005 1.527912e-004 -7.747877e-001 7.150842e-002 -9.421397e-005 -4.435305e-005 -7.782625e-001 7.211656e-002
309690000 4.744620e-005 4.104718e-005 -7.715821e-001 9.175058e-002 2.401020e-005 -6.898842e-005 -7.743037e-001 9.236034e-002
309975000 -7.516852e-005 6.859442e-005 -7.678021e-001 1.114104e-001 -5.802215e-005 -1.366661e-004 -7.709358e-001 1.119719e-001
310260000 -6.259657e-005 3.776067e-006 -7.635647e-001 1.315349e-001 -9.632609e-005 -4.043526e-005 -7.671185e-001 1.313383e-001
310545000 2.474076e-006 9.678691e-005 -7.591042e-001 1.510753e-001 3.401125e-005 -1.205019e-005 -7.622815e-001 1.520177e-001
310830000 -9.095568e-005 5.120774e-005 -7.545539e-001 1.712068e-001 6.647166e-005 -4.931368e-006 -7.572452e-001 1.714049e-001
311115000 -1.142138e-005 -1.118168e-004 -7.492248e-001 1.905347e-001 4.372949e-005 2.658314e-005 -7.526297e-001 1.908079e-001
311400000 -9.987150e-005 -6.781240e-006 -7.441826e-001 2.098551e-001 3.096691e-005 3.841971e-005 -7.473575e-001 2.108655e-001
311685000 -1.578310e-004 2.135674e-005 -7.383695e-001 2.290263e-001 -4.183075e-005 1.425385e-004 -7.412379e-001 2.297252e-001
311970000 8.645248e-006 -7.749102e-005 -7.323534e-001 2.484694e-001 -2.729555e-005 4.157169e-005 -7.350680e-001 2.491022e-001
312255000 -1.001236e-005 -1.120640e-004 -7.253276e-001 2.673651e-001 6.300208e-005 9.111784e-006 -7.283368e-001 2.683408e-001
312540000 1.196932e-004 -7.207396e-005 -7.185596e-001 2.861301e-001 -8.527891e-006 8.441423e-005 -7.214831e-001 2.871491e-001
312825000 -5.511174e-005 -1.924013e-005 -7.116680e-001 3.050950e-001 4.205930e-005 6.034376e-005 -7.144006e-001 3.060110e-001
313110000 2.956936e-005 2.966520e-005 -7.039184e-001 3.238691e-001 4.486783e-005 -6.519174e-006 -7.066594e-001 3.248177e-001
313395000 6.261351e-005 9.746088e-005 -6.955652e-001 3.425431e-001 -4.680025e-005 9.249541e-005 -6.984757e-001 3.439988e-001
313680000 4.184079e-005 -4.863612e-005 -6.876144e-001 3.615559e-001 5.640234e-005 1.123880e-004 -6.899447e-001 3.627714e-001
313965000 -2.723110e-005 9.169100e-005 -6.788794e-001 3.798171e-001 1.302858e-004 2.242674e-005 -6.819222e-001 3.811771e-001
314250000 2.425280e-005 7.974407e-005 -6.690606e-001 3.983158e-001 9.786597e-005 8.974118e-005 -6.721268e-001 3.996239e-001
314535000 -1.794651e-005 2.298327e-005 -6.595426e-001 4.168166e-001 -1.650045e-005 -3.976081e-005 -6.627191e-001 4.183678e-001
314820000 8.776354e-006 7.723234e-006 -6.495017e-001 4.347382e-001 1.025092e-005 4.688896e-005 -6.523978e-001 4.366231e-001
315105000 -2.374957e-006 -1.677556e-005 -6.393670e-001 4.533056e-001 6.329711e-005 9.704899e-006 -6.420969e-001 4.548161e-001
315390000 2.185424e-005 2.998903e-006 -6.286027e-001 4.716019e-001 9.458800e-005 -3.472122e-005 -6.311957e-001 4.730965e-001
315675000 -1.265601e-005 5.195329e-005 -6.170130e-001 4.898587e-001 -3.069590e-005 6.972875e-005 -6.200479e-001 4.915068e-001
315960000 -9.172773e-005 5.203352e-005 -6.059724e-001 5.073275e-001 -5.453684e-005 6.587487e-006 -6.078119e-001 5.097792e-001
316245000 -5.569639e-006 8.157427e-005 -5.932990e-001 5.252246e-001 -9.562337e-005 -9.231788e-005 -5.958755e-001 5.275081e-001
316530000 2.091018e-005 2.423137e-005 -5.804037e-001 5.430560e-001 -5.486751e-005 -1.682846e-005 -5.829637e-001 5.452262e-001
316815000 -3.605550e-005 2.009187e-005 -5.673193e-001 5.611551e-001 -7.161430e-005 -1.029568e-005 -5.702571e-001 5.631876e-001
317100000 5.154904e-005 5.584177e-005 -5.545491e-001 5.775294e-001 5.930848e-006 -1.106920e-005 -5.563139e-001 5.806572e-001
317385000 8.407022e-006 -4.231980e-005 -5.400394e-001 5.954123e-001 -7.160237e-007 -1.842000e-005 -5.416896e-001 5.986758e-001
317670000 3.570549e-005 -1.672630e-005 -5.245491e-001 6.128696e-001 5.367924e-006 -9.921303e-005 -5.271959e-001 6.154064e-001
317955000 -3.780837e-005 -2.992411e-005 -5.096124e-001 6.300029e-001 4.647782e-005 -6.931840e-005 -5.119428e-001 6.321638e-001
318240000 4.900522e-005 1.531511e-005 -4.941611e-001 6.463163e-001 1.305510e-005 -5.969062e-005 -4.951294e-001 6.491700e-001
318525000 -9.253544e-005 1.146418e-004 -4.772529e-001 6.635454e-001 1.069296e-004 -2.182198e-005 -4.792283e-001 6.662929e-001
318810000 -1.433261e-005 -5.053844e-005 -4.605882e-001 6.797155e-001 1.048550e-005 -1.366608e-004 -4.621115e-001 6.826320e-001
319095000 -6.227945e-005 -1.355219e-004 -4.428110e-001 6.967171e-001 1.145310e-005 -1.763197e-004 -4.448985e-001 6.988602e-001
319380000 -1.122785e-005 -6.492172e-005 -4.245371e-001 7.126651e-001 -1.734884e-005 -3.611610e-005 -4.263019e-001 7.152938e-001
319665000 3.927920e-005 -2.151278e-005 -4.060171e-001 7.279579e-001 2.001105e-005 -1.766919e-005 -4.075834e-001 7.311723e-001
319950000 7.290001e-005 7.586484e-005 -3.859238e-001 7.436442e-001 -6.611244e-005 -9.244576e-005 -3.875175e-001 7.465571e-001
320235000 9.657790e-005 4.725156e-005 -3.663169e-001 7.585242e-001 8.277070e-005 1.365318e-005 -3.673676e-001 7.619547e-001
320520000 -7.251552e-006 -8.531175e-005 -3.454016e-001 7.741482e-001 4.975688e-005 8.733658e-006 -3.464001e-001 7.769061e-001
320805000 1.434095e-004 3.403316e-005 -3.234527e-001 7.882034e-001 2.806628e-005 8.617403e-005 -3.247660e-001 7.914827e-001
321090000 -8.285100e-005 -2.999428e-006 -3.011782e-001 8.024075e-001 4.835254e-006 1.842474e-006 -3.024327e-001 8.059067e-001
321375000 -1.454023e-005 1.380929e-004 -2.783497e-001 8.160183e-001 -1.613071e-005 1.064216e-004 -2.791128e-001 8.195744e-001
321660000 -1.202119e-005 5.775480e-005 -2.540154e-001 8.287656e-001 8.574792e-006 1.208269e-004 -2.553614e-001 8.324962e-001
321945000 -6.720842e-006 7.221088e-005 -2.299453e-001 8.416405e-001 3.631258e-005 1.142572e-004 -2.308751e-001 8.450331e-001
322230000 -1.011900e-004 1.341333e-005 -2.047577e-001 8.537061e-001 5.135449e-005 1.166117e-004 -2.053563e-001 8.574458e-001
322515000 -8.991885e-005 -5.196788e-005 -1.782780e-001 8.649261e-001 1.111981e-004 -1.754877e-005 -1.797341e-001 8.687658e-001
322800000 1.887023e-005 5.292907e-008 -1.515840e-001 8.756611e-001 -8.433258e-005 1.920295e-005 -1.525542e-001 8.793345e-001
323085000 8.243685e-006 -1.253647e-004 -1.245952e-001 8.856980e-001 -1.341015e-004 -1.582502e-004 -1.245544e-001 8.895373e-001
323370000 2.778858e-005 9.008234e-006 -9.576302e-002 8.950067e-001 -3.666728e-005 2.633134e-005 -9.625895e-002 8.991577e-001
323655000 -5.956320e-005 -3.885595e-006 -6.701796e-002 9.036448e-001 -6.066221e-005 -4.309949e-005 -6.773540e-002 9.078316e-001
323940000 -4.348418e-005 4.598891e-006 -3.748620e-002 9.113670e-001 1.701512e-005 1.882781e-005 -3.760028e-002 9.147175e-001
324225000 -1.316397e-004 6.405695e-005 -7.079205e-003 9.181619e-001 3.916560e-005 -6.040662e-005 -7.145456e-003 9.216997e-001
324510000 -8.778344e-006 -8.246164e-005 2.426583e-002 9.236194e-001 -7.407165e-005 5.455335e-005 2.415655e-002 9.271210e-001
324795000 5.371588e-005 -6.314966e-005 5.550562e-002 9.281374e-001 7.910354e-006 2.798536e-005 5.618753e-002 9.316540e-001
325080000 2.677798e-005 -5.864919e-005 8.832375e-002 9.310661e-001 -5.865176e-005 5.391550e-005 8.890326e-002 9.355336e-001
325365000 -7.878132e-006 2.079044e-005 1.211571e-001 9.337862e-001 -1.015802e-004 -4.158623e-005 1.218355e-001 9.380736e-001
325650000 1.318314e-005 -1.431549e-005 1.550899e-001 9.348100e-001 -1.357232e-004 4.800846e-005 1.550019e-001 9.387514e-001
325935000 -2.560177e-005 3.262383e-005 1.887536e-001 9.344790e-001 3.432392e-005 -1.751584e-005 1.894030e-001 9.382449e-001
326220000 2.585079e-005 -7.177953e-005 2.233662e-001 9.325440e-001 9.598510e-005 4.995554e-005 2.241750e-001 9.365529e-001
326505000 1.212584e-005 -1.002287e-004 2.585739e-001 9.291699e-001 1.524216e-005 -3.443973e-005 2.592000e-001 9.335772e-001
326790000 9.219933e-005 -8.690483e-005 2.933196e-001 9.242731e-001 -5.349787e-006 -6.464979e-005 2.946040e-001 9.285530e-001
327075000 1.888229e-005 -7.241804e-005 3.289484e-001 9.184026e-001 4.513403e-005 -9.740861e-005 3.300684e-001 9.217995e-001
327360000 9.455714e-005 -2.919449e-005 3.644359e-001 9.107842e-001 9.292505e-005 8.669743e-006 3.660953e-001 9.146307e-001
327645000 7.994091e-005 4.127348e-005 3.993770e-001 9.013903e-001 -4.877881e-007 1.310639e-005 4.011340e-001 9.055921e-001
327930000 1.445602e-005 4.345745e-005 4.353864e-001 8.901605e-001 4.357971e-006 4.326622e-005 4.369154e-001 8.936601e-001
328215000 6.262559e-006 1.932979e-005 4.703839e-001 8.767992e-001 -8.284068e-005 1.444245e-004 4.727497e-001 8.810355e-001
328500000 7.658245e-005 -8.878558e-005 5.058752e-001 8.620117e-001 -5.471839e-005 -6.655509e-006 5.081360e-001 8.664615e-001
328785000 -1.570935e-005 -2.400892e-005 5.406975e-001 8.459769e-001 -4.016297e-005 -7.038376e-005 5.429418e-001 8.497826e-001
329070000 -1.789909e-004 2.033879e-005 5.744882e-001 8.275318e-001 -5.777035e-005 -6.677855e-005 5.773488e-001 8.316454e-001
329355000 6.321913e-006 -2.091403e-005 6.086265e-001 8.081792e-001 -2.868891e-005 -1.015754e-005 6.111907e-001 8.115429e-001
329640000 5.834996e-005 -7.697684e-005 6.417294e-001 7.870893e-001 -2.344575e-005 -3.791821e-006 6.442698e-001 7.897016e-001
329925000 -7.280029e-005 -5.054314e-005 6.737274e-001 7.635099e-001 -2.061507e-005 -8.008730e-005 6.770476e-001 7.663409e-001
330210000 -5.581743e-005 -9.211231e-005 7.053542e-001 7.384846e-001 7.169440e-006 5.785388e-006 7.081239e-001 7.416018e-001
330495000 6.059597e-005 -4.203396e-005 7.352186e-001 7.122877e-001 -1.792534e-005 -1.155031e-004 7.382759e-001 7.148513e-001
330780000 7.197185e-005 8.385094e-005 7.641872e-001 6.838336e-001 -1.089916e-005 -1.929199e-005 7.672362e-001 6.863731e-001
331065000 4.247587e-005 1.180783e-004 7.915606e-001 6.541081e-001 1.586515e-005 -1.924704e-005 7.952926e-001 6.567669e-001
331350000 -4.653708e-005 2.923818e-005 8.181592e-001 6.228746e-001 3.553196e-005 1.018863e-006 8.223047e-001 6.258273e-001
331635000 -3.658727e-005 4.213958e-005 8.431757e-001 5.909594e-001 -3.667270e-005 -3.294735e-006 8.465580e-001 5.937550e-001
331920000 7.554697e-005 2.942075e-005 8.662745e-001 5.571468e-001 8.827531e-005 1.020599e-005 8.698887e-001 5.598574e-001
332205000 9.367035e-005 5.639999e-005 8.876018e-001 5.226157e-001 -5.894063e-005 -6.603436e-005 8.908132e-001 5.248049e-001
332490000 6.470174e-006 4.387159e-005 9.074849e-001 4.867571e-001 4.591916e-005 2.276790e-006 9.115368e-001 4.891607e-001
332775000 -1.021270e-004 6.307931e-005 9.259670e-001 4.506239e-001 4.395139e-005 5.221194e-005 9.297711e-001 4.526109e-001
333060000 6.132457e-006 -3.492891e-007 9.418110e-001 4.134415e-001 -3.837676e-005 -2.035144e-005 9.458650e-001 4.150466e-001
333345000 -1.033660e-004 3.129668e-006 9.555414e-001 3.753369e-001 -1.659899e-005 -7.874592e-005 9.604177e-001 3.772260e-001
333630000 -2.715551e-005 7.831397e-005 9.685737e-001 3.368482e-001 -6.601425e-005 1.665116e-005 9.728121e-001 3.386245e-001
333915000 -2.932086e-005 2.310549e-005 9.784808e-001 2.978745e-001 -5.863316e-005 -7.885783e-005 9.832082e-001 2.990291e-001
334200000 2.292304e-005 1.468242e-004 9.874885e-001 2.588192e-001 -9.067994e-005 2.962549e-005 9.918581e-001 2.603989e-001
334485000 7.396408e-005 -3.146689e-005 9.939331e-001 2.200263e-001 8.801552e-005 1.004513e-004 9.984735e-001 2.209161e-001
334770000 -2.301698e-005 2.343417e-005 9.982544e-001 1.803037e-001 5.935096e-005 1.579127e-004 1.002369e+000 1.812947e-001
335055000 -7.611088e-007 -4.365155e-005 1.001863e+000 1.418268e-001 3.228279e-005 9.225447e-007 1.006410e+000 1.421715e-001
335340000 3.754323e-005 1.111067e-004 1.002285e+000 1.025458e-001 1.398753e-004 3.141467e-005 1.006538e+000 1.033857e-001
335625000 6.533994e-005 3.199227e-005 1.001288e+000 6.457528e-002 7.761140e-005 -5.633012e-005 1.005809e+000 6.469823e-002
335910000 -9.030817e-005 7.255706e-005 9.988728e-001 2.647823e-002 6.555662e-005 -2.197331e-005 1.003331e+000 2.682078e-002
336195000 -4.577928e-005 6.786098e-005 9.947531e-001 -1.081289e-002 9.910122e-006 -6.524567e-005 9.990029e-001 -1.064758e-002
336480000 -1.440623e-004 -5.071318e-005 9.890571e-001 -4.753911e-002 7.815153e-005 4.037130e-005 9.929854e-001 -4.745502e-002
336765000 -8.482765e-005 1.039556e-005 9.818137e-001 -8.315630e-002 -5.511245e-005 -3.294801e-005 9.861659e-001 -8.385910e-002
337050000 -8.758530e-005 8.055145e-005 9.729428e-001 -1.188267e-001 5.998450e-006 -3.212504e-005 9.771870e-001 -1.192067e-001
337335000 2.184760e-005 1.018601e-004 9.630637e-001 -1.528069e-001 -9.617895e-006 1.705200e-005 9.670540e-001 -1.534217e-001
337620000 2.779827e-005 -2.458124e-005 9.520484e-001 -1.869806e-001 -1.571141e-005 -6.727034e-005 9.554209e-001 -1.870375e-001
337905000 4.988419e-005 -4.885459e-005 9.390298e-001 -2.193425e-001 1.280157e-005 -8.293954e-006 9.429088e-001 -2.203412e-001
338190000 1.148899e-004 7.906439e-005 9.251055e-001 -2.510482e-001 -4.552594e-005 -1.967317e-005 9.286603e-001 -2.520070e-001
338475000 5.599279e-005 -2.686861e-005 9.099750e-001 -2.817676e-001 -1.109672e-004 5.201124e-005 9.140703e-001 -2.828195e-001
338760000 -1.896099e-005 -5.967778e-005 8.945772e-001 -3.111503e-001 -2.977610e-005 -5.764257e-005 8.984422e-001 -3.118632e-001
339045000 -7.683664e-005 1.610176e-005 8.782802e-001 -3.398053e-001 3.157337e-005 -8.869668e-005 8.817220e-001 -3.410568e-001
339330000 -3.587052e-005 9.651628e-006 8.607321e-001 -3.674802e-001 -2.354330e-005 1.898594e-005 8.642323e-001 -3.687844e-001
339615000 -3.803926e-005 3.548169e-005 8.426945e-001 -3.930479e-001 6.077003e-005 -1.985281e-005 8.458222e-001 -3.948109e-001
339900000 3.178779e-005 -1.331844e-005 8.234381e-001 -4.187716e-001 4.118401e-005 2.834436e-005 8.271382e-001 -4.201874e-001
340185000 2.322788e-005 8.225047e-006 8.036913e-001 -4.430425e-001 9.991154e-007 5.827418e-005 8.081431e-001 -4.447135e-001
340470000 -3.065231e-005 9.063599e-005 7.842755e-001 -4.663188e-001 -2.089971e-005 2.293028e-005 7.876967e-001 -4.684266e-001
340755000 6.059932e-005 -1.182507e-004 7.641945e-001 -4.883326e-001 -1.898973e-005 1.421969e-005 7.674941e-001 -4.900542e-001
341040000 3.604908e-005 -1.386077e-005 7.434675e-001 -5.094538e-001 2.501964e-005 -7.598101e-005 7.465064e-001 -5.114981e-001
341325000 -5.623328e-006 -3.610532e-005 7.221713e-001 -5.292841e-001 2.635401e-005 -9.375844e-006 7.248148e-001 -5.317076e-001
341610000 -5.798988e-005 1.753138e-005 7.007629e-001 -5.489930e-001 5.807199e-006 8.538222e-005 7.043730e-001 -5.510276e-001
341895000 -6.695057e-006 -8.943903e-007 6.787057e-001 -5.670616e-001 -1.436245e-004 3.087140e-006 6.817095e-001 -5.690274e-001
342180000 -1.338176e-006 -6.909690e-005 6.569735e-001 -5.842155e-001 -2.353629e-005 -1.285092e-004 6.598109e-001 -5.867602e-001
342465000 5.498831e-006 1.347708e-004 6.345465e-001 -6.003734e-001 -1.093029e-005 -1.828152e-004 6.373296e-001 -6.035875e-001
342750000 2.040035e-005 -5.754388e-005 6.129310e-001 -6.159462e-001 -7.009688e-006 -2.406783e-006 6.155055e-001 -6.189236e-001
343035000 -8.460660e-005 -7.526854e-005 5.901114e-001 -6.301558e-001 2.223130e-005 3.515454e-006 5.928337e-001 -6.331653e-001
343320000 -4.943065e-005 -1.527847e-006 5.679412e-001 -6.441234e-001 -8.126187e-005 -5.165240e-005 5.701635e-001 -6.466845e-001
343605000 1.269362e-006 -2.346049e-005 5.452729e-001 -6.574631e-001 1.447354e-005 -7.664190e-005 5.479144e-001 -6.600678e-001
343890000 7.001384e-006 1.330449e-004 5.231291e-001 -6.693754e-001 -1.505499e-006 -2.576121e-005 5.251625e-001 -6.718736e-001
