!Agilent Technologies,N5230C,SG49000117,A.08.50.07
!Agilent N5230C: A.08.50.07
!Date: Monday, March 18, 2024 19:11:19
!Correction: S11(Off) 
!S21(Off) 
!S12(Off) 
!S22(Off) 
!S2P File: Measurements: S11, S21, S12, S22:
# Hz S  RI   R 50
300000000 5.091561e-005 -3.959000e-005 -6.218736e-001 -6.492394e-001 8.070635e-005 -4.305108e-005 -6.244939e-001 -6.512610e-001
300285000 -9.063442e-006 7.252196e-006 -6.372740e-001 -6.256248e-001 -9.065564e-005 1.155472e-005 -6.395524e-001 -6.279732e-001
300570000 -1.357329e-005 6.464500e-005 -6.523174e-001 -6.028143e-001 9.814528e-005 7.113227e-005 -6.543154e-001 -6.044445e-001
300855000 -9.333792e-005 -6.393464e-006 -6.657231e-001 -5.789742e-001 -8.435283e-005 3.192948e-005 -6.686713e-001 -5.810363e-001
301140000 1.971841e-005 -5.955806e-005 -6.783022e-001 -5.556524e-001 -4.653547e-006 -3.566759e-005 -6.807212e-001 -5.572669e-001
301425000 5.767959e-005 -8.576083e-005 -6.903535e-001 -5.319472e-001 -4.337410e-005 -4.239254e-005 -6.934556e-001 -5.341735e-001
301710000 -3.106480e-005 -2.526105e-006 -7.016367e-001 -5.081708e-001 8.450164e-006 2.865309e-005 -7.039644e-001 -5.100875e-001
301995000 2.532230e-005 2.387629e-005 -7.118473e-001 -4.849735e-001 6.323493e-005 -1.944461e-007 -7.145652e-001 -4.861904e-001
302280000 -6.680194e-005 -6.785624e-005 -7.216005e-001 -4.615524e-001 -1.008486e-004 4.078013e-005 -7.238011e-001 -4.630550e-001
302565000 -1.289514e-005 2.071489e-005 -7.302910e-001 -4.378831e-001 5.024300e-005 -6.083835e-005 -7.328118e-001 -4.392639e-001
302850000 -6.721905e-005 -2.177066e-005 -7.380828e-001 -4.145813e-001 1.769503e-005 -6.482138e-005 -7.411240e-001 -4.160419e-001
303135000 -1.246282e-004 -1.562381e-005 -7.460316e-001 -3.914144e-001 -7.149778e-005 9.786840e-005 -7.488262e-001 -3.930258e-001
303420000 -8.440343e-005 7.472720e-005 -7.523322e-001 -3.684156e-001 -5.437500e-005 -3.319194e-005 -7.553073e-001 -3.699086e-001
303705000 -4.481303e-005 9.169821e-006 -7.586865e-001 -3.449007e-001 -4.148220e-005 1.313203e-005 -7.616387e-001 -3.463749e-001
303990000 5.286334e-005 1.122216e-005 -7.645097e-001 -3.223205e-001 3.103341e-005 -1.001086e-004 -7.672507e-001 -3.235486e-001
304275000 2.878580e-005 -8.045255e-005 -7.690504e-001 -2.992488e-001 -1.714641e-005 -1.298258e-004 -7.723141e-001 -3.001288e-001
304560000 -1.422153e-005 8.216222e-005 -7.734351e-001 -2.769677e-001 4.979695e-006 -1.426187e-005 -7.763494e-001 -2.777094e-001
304845000 5.448679e-005 2.451137e-005 -7.774749e-001 -2.541998e-001 -3.708691e-005 -4.950949e-005 -7.807096e-001 -2.549650e-001
305130000 -3.062059e-006 4.659213e-005 -7.808884e-001 -2.324524e-001 -2.316895e-005 -1.370667e-004 -7.836328e-001 -2.330552e-001
305415000 1.394585e-004 1.044310e-004 -7.831504e-001 -2.101909e-001 4.513441e-005 -1.058035e-004 -7.858552e-001 -2.108200e-001
305700000 6.520961e-005 5.732523e-005 -7.857159e-001 -1.878590e-001 2.914784e-005 -9.889118e-005 -7.886418e-001 -1.885995e-001
305985000 -6.671526e-005 -1.192045e-005 -7.868245e-001 -1.660932e-001 1.927652e-005 -3.734595e-005 -7.903855e-001 -1.672231e-001
306270000 -6.684746e-005 -2.643298e-005 -7.883320e-001 -1.440703e-001 -1.489533e-005 -1.240149e-004 -7.909898e-001 -1.447080e-001
306555000 -3.832021e-005 -2.094058e-005 -7.890009e-001 -1.226273e-001 3.414837e-005 7.842789e-005 -7.928887e-001 -1.229355e-001
306840000 -6.659036e-005 -1.996048e-005 -7.891861e-001 -1.012434e-001 1.084318e-005 -3.611748e-005 -7.921223e-001 -1.020393e-001
307125000 -1.059106e-005 -1.339546e-005 -7.894757e-001 -7.997663e-002 5.382234e-006 9.180791e-005 -7.925941e-001 -8.040785e-002
307410000 -8.709850e-005 -6.294983e-005 -7.890468e-001 -5.905860e-002 3.621498e-006 -3.925029e-006 -7.920176e-001 -5.932008e-002
307695000 -9.752547e-005 7.561651e-005 -7.877705e-001 -3.808706e-002 -8.311820e-005 4.966081e-006 -7.911231e-001 -3.841504e-002
307980000 1.061963e-005 -4.916913e-005 -7.862990e-001 -1.718493e-002 -7.548831e-005 6.663876e-005 -7.895638e-001 -1.768501e-002
308265000 -8.987906e-005 1.496163e-004 -7.849295e-001 3.008688e-003 2.943822e-005 -4.791166e-005 -7.881237e-001 2.893980e-003
308550000 -3.107053e-005 -9.849363e-005 -7.829306e-001 2.419891e-002 -7.559849e-005 -9.285630e-006 -7.858379e-001 2.395247e-002
308835000 -8.134334e-005 7.833995e-005 -7.801338e-001 4.436035e-002 4.113372e-005 -2.096276e-005 -7.831115e-001 4.436162e-002
309120000 3.280073e-005 -1.282476e-004 -7.773997e-001 6.480964e-002 1.339509e-004 -8.501993e-005 -7.799875e-001 6.450547e-002
309405000 3.846546e-005 7.576507e-005 -7.740582e-001 8.497814e-002 8.574761e-006 -6.042622e-005 -7.771736e-001 8.509364e-002
309690000 5.889841e-005 -4.607057e-005 -7.703945e-001 1.043145e-001 1.663758e-005 5.948938e-005 -7.732095e-001 1.050732e-001
309975000 -3.175610e-005 -7.472469e-005 -7.668725e-001 1.245025e-001 -5.556531e-005 -1.063479e-004 -7.698387e-001 1.247149e-001
310260000 -1.350034e-004 -1.311359e-005 -7.621830e-001 1.442027e-001 -3.599195e-005 -5.817512e-005 -7.649485e-001 1.452663e-001
310545000 8.664155e-005 -9.278884e-005 -7.577127e-001 1.635506e-001 1.465777e-004 7.198150e-006 -7.605219e-001 1.646439e-001
310830000 -6.406731e-005 6.897011e-006 -7.526114e-001 1.833392e-001 8.674777e-005 6.158144e-005 -7.552925e-001 1.842019e-001
311115000 9.154627e-005 -2.521700e-005 -7.473553e-001 2.027466e-001 1.225555e-005 2.621266e-005 -7.501169e-001 2.037194e-001
311400000 -1.054061e-004 -4.041100e-005 -7.412902e-001 2.221617e-001 1.172939e-004 3.171488e-005 -7.444341e-001 2.226082e-001
311685000 -1.429354e-005 8.040075e-008 -7.352771e-001 2.416522e-001 5.955527e-005 1.024545e-004 -7.379839e-001 2.424087e-001
311970000 7.220092e-005 1.347243e-005 -7.289829e-001 2.605182e-001 8.947041e-005 7.115812e-006 -7.318841e-001 2.616714e-001
312255000 7.177021e-005 -4.624771e-005 -7.224163e-001 2.797996e-001 2.816889e-005 -4.370106e-005 -7.253303e-001 2.810304e-001
312540000 -1.717561e-005 -1.537486e-005 -7.153826e-001 2.982156e-001 -1.866709e-005 3.741993e-005 -7.178506e-001 2.996240e-001
312825000 -7.619635e-005 4.957379e-005 -7.071929e-001 3.178034e-001 2.358031e-005 -2.063150e-006 -7.099988e-001 3.186814e-001
313110000 -6.331482e-005 -2.565353e-005 -6.993456e-001 3.361831e-001 -4.979999e-005 1.107682e-004 -7.027625e-001 3.374261e-001
313395000 2.253738e-005 -4.131194e-006 -6.912744e-001 3.548385e-001 1.337462e-005 5.061238e-006 -6.937155e-001 3.562497e-001
313680000 -8.698947e-005 2.373665e-005 -6.826391e-001 3.736748e-001 -8.424755e-006 6.310490e-005 -6.851606e-001 3.750970e-001
313965000 -2.594273e-005 4.714169e-005 -6.735721e-001 3.923158e-001 3.918309e-005 8.851353e-005 -6.763507e-001 3.935388e-001
314250000 -7.018497e-005 6.062197e-006 -6.639601e-001 4.107618e-001 1.223613e-004 1.227949e-005 -6.669300e-001 4.125407e-001
314535000 -3.450341e-005 2.980093e-005 -6.545636e-001 4.290433e-001 -4.037736e-005 2.785606e-005 -6.569441e-001 4.307033e-001
314820000 -5.805483e-005 -5.556944e-005 -6.442516e-001 4.473269e-001 -3.783053e-005 -2.416909e-005 -6.465052e-001 4.488811e-001
315105000 -1.686134e-005 -3.817947e-005 -6.331146e-001 4.652473e-001 3.440260e-006 -3.232065e-005 -6.357988e-001 4.669092e-001
315390000 8.239102e-006 -3.431434e-005 -6.218274e-001 4.835754e-001 -8.373361e-006 1.300015e-005 -6.247266e-001 4.855189e-001
315675000 -3.527731e-006 -8.248950e-005 -6.106166e-001 5.012920e-001 -1.090968e-005 1.825586e-005 -6.130096e-001 5.033257e-001
315960000 -1.646715e-005 -7.334666e-005 -5.985776e-001 5.192255e-001 -1.845143e-005 -1.018173e-004 -6.011096e-001 5.214553e-001
316245000 -8.875021e-005 -7.183070e-005 -5.859720e-001 5.370022e-001 -3.129381e-005 -5.882758e-005 -5.881473e-001 5.390683e-001
316530000 3.315074e-005 -5.255699e-005 -5.729440e-001 5.545334e-001 2.103618e-005 -2.654205e-005 -5.755321e-001 5.567313e-001
316815000 2.375268e-006 -6.819276e-005 -5.589757e-001 5.720976e-001 -5.670138e-005 -6.988105e-005 -5.617597e-001 5.745125e-001
317100000 -3.125517e-005 1.355643e-007 -5.451404e-001 5.899475e-001 7.477060e-005 -7.986354e-005 -5.479325e-001 5.922170e-001
317385000 2.919615e-005 6.837900e-005 -5.309198e-001 6.066588e-001 -6.219367e-005 -1.253500e-004 -5.326869e-001 6.096287e-001
317670000 -1.992165e-005 -3.683582e-005 -5.159733e-001 6.242088e-001 9.533245e-006 1.017835e-005 -5.180120e-001 6.266655e-001
317955000 -5.156795e-005 4.839063e-005 -4.999806e-001 6.411521e-001 -1.874142e-005 -5.847307e-005 -5.019370e-001 6.440714e-001
318240000 3.230250e-005 1.065542e-004 -4.839144e-001 6.581624e-001 -7.877864e-005 -3.075341e-005 -4.862187e-001 6.605707e-001
318525000 7.911209e-006 -6.861360e-006 -4.665265e-001 6.747801e-001 4.344386e-005 -1.796956e-005 -4.691281e-001 6.771624e-001
318810000 5.378812e-005 2.773302e-005 -4.498726e-001 6.911472e-001 -7.918222e-006 2.271404e-005 -4.516100e-001 6.937823e-001
319095000 1.124181e-004 7.869122e-005 -4.314739e-001 7.068918e-001 -4.591766e-005 -4.968319e-005 -4.329612e-001 7.101787e-001
319380000 4.488675e-005 1.248240e-005 -4.132385e-001 7.227334e-001 -4.275271e-005 8.937517e-005 -4.152841e-001 7.259685e-001
319665000 8.002616e-005 1.808496e-005 -3.939198e-001 7.381583e-001 6.208528e-006 2.572423e-005 -3.953836e-001 7.416928e-001
319950000 -4.089096e-005 6.632139e-007 -3.736829e-001 7.540388e-001 4.455783e-005 -1.362661e-004 -3.755433e-001 7.566102e-001
320235000 -6.041768e-005 8.419303e-005 -3.530134e-001 7.692018e-001 9.431275e-005 8.135529e-006 -3.544625e-001 7.718633e-001
320520000 3.968633e-005 8.147496e-005 -3.315936e-001 7.834299e-001 1.509966e-004 -4.380454e-006 -3.331349e-001 7.863365e-001
320805000 -6.520512e-005 -5.165008e-005 -3.101650e-001 7.979044e-001 2.928174e-005 -6.619129e-005 -3.113452e-001 8.009525e-001
321090000 2.219896e-006 -3.600455e-005 -2.871791e-001 8.119067e-001 -1.465460e-005 4.985291e-005 -2.879966e-001 8.144341e-001
321375000 -4.605938e-005 -1.516156e-004 -2.633016e-001 8.252254e-001 3.031370e-005 -8.706771e-005 -2.643529e-001 8.281069e-001
321660000 5.646181e-005 -1.087717e-004 -2.390792e-001 8.375835e-001 -4.965182e-005 -2.258358e-005 -2.400650e-001 8.412551e-001
321945000 4.275528e-005 1.292882e-005 -2.143201e-001 8.499522e-001 -3.579228e-005 4.475653e-005 -2.149131e-001 8.534104e-001
322230000 6.242410e-005 -2.164804e-005 -1.887258e-001 8.615117e-001 -4.222486e-005 9.684913e-006 -1.896624e-001 8.651608e-001
322515000 1.275341e-005 -6.396158e-005 -1.620926e-001 8.726171e-001 9.682532e-006 -2.516819e-005 -1.631176e-001 8.758835e-001
322800000 2.275173e-005 -5.814375e-005 -1.344631e-001 8.827136e-001 -3.093131e-005 6.265769e-005 -1.358855e-001 8.865356e-001
323085000 6.544079e-005 -1.306807e-004 -1.065776e-001 8.927994e-001 6.795834e-006 -4.355003e-005 -1.067705e-001 8.957129e-001
323370000 1.037857e-004 -6.084246e-005 -7.838283e-002 9.012744e-001 -1.976051e-005 1.598834e-005 -7.810176e-002 9.047819e-001
323655000 -1.333148e-005 -3.153946e-005 -4.872539e-002 9.084723e-001 -2.531468e-005 1.802201e-006 -4.851685e-002 9.133431e-001
323940000 -2.563575e-006 -2.299226e-005 -1.891150e-002 9.160211e-001 -1.780559e-005 2.769172e-005 -1.862073e-002 9.192886e-001
324225000 4.222116e-006 1.555201e-005 1.219470e-002 9.219623e-001 -1.067282e-004 -7.156927e-006 1.249595e-002 9.256902e-001
324510000 3.087952e-005 5.363591e-005 4.397266e-002 9.273183e-001 -1.105581e-004 2.558199e-005 4.386867e-002 9.305714e-001
324795000 -4.907200e-005 1.113989e-005 7.613508e-002 9.310125e-001 -1.015873e-004 4.687686e-005 7.662676e-002 9.345328e-001
325080000 -3.284436e-005 -1.485295e-005 1.087924e-001 9.337971e-001 -9.074117e-005 -3.013691e-005 1.092400e-001 9.376887e-001
325365000 5.493925e-006 -2.431220e-005 1.419612e-001 9.355842e-001 -5.864084e-005 4.130544e-007 1.424581e-001 9.389744e-001
325650000 -7.933577e-005 1.827375e-005 1.767894e-001 9.356539e-001 -6.358125e-005 1.402893e-004 1.771038e-001 9.393787e-001
325935000 -3.321511e-007 3.408239e-005 2.094269e-001 9.340306e-001 3.412374e-005 -4.912342e-005 2.106704e-001 9.381086e-001
326220000 3.107207e-005 5.093813e-005 2.443938e-001 9.317218e-001 2.690200e-006 -3.873868e-005 2.459511e-001 9.357110e-001
326505000 -4.728122e-005 -3.544659e-005 2.799208e-001 9.266539e-001 -2.235885e-005 2.103853e-005 2.811456e-001 9.309626e-001
326790000 1.006093e-005 6.863987e-005 3.158357e-001 9.217325e-001 -1.424789e-005 -1.997307e-005 3.171556e-001 9.254246e-001
327075000 -7.881443e-005 -6.400965e-007 3.509013e-001 9.145537e-001 -1.588395e-005 3.005734e-006 3.525926e-001 9.189516e-001
327360000 -1.113401e-004 7.058810e-005 3.870967e-001 9.059390e-001 1.576010e-005 1.786733e-005 3.883981e-001 9.096783e-001
327645000 4.126964e-005 -5.228817e-005 4.220308e-001 8.954533e-001 1.126412e-006 6.987411e-005 4.241022e-001 8.993711e-001
327930000 1.284752e-006 -1.136802e-004 4.577339e-001 8.831378e-001 -4.294406e-005 1.787189e-005 4.595178e-001 8.864134e-001
328215000 -3.622412e-005 -4.743717e-005 4.926789e-001 8.692203e-001 3.807449e-005 -2.625741e-006 4.950074e-001 8.727410e-001
328500000 -3.902382e-005 -6.503192e-006 5.280241e-001 8.539789e-001 -8.542702e-006 -4.226148e-006 5.302824e-001 8.567843e-001
328785000 8.760737e-007 4.546500e-005 5.626774e-001 8.357709e-001 -1.159156e-004 1.210986e-005 5.647328e-001 8.398947e-001
329070000 -1.036509e-005 -5.432199e-006 5.963111e-001 8.170651e-001 -7.345869e-005 8.663494e-007 5.994599e-001 8.206655e-001
329355000 -4.524357e-005 1.405634e-005 6.302727e-001 7.958277e-001 3.450522e-006 9.341523e-005 6.331259e-001 7.995992e-001
329640000 -7.972636e-005 6.583052e-005 6.621619e-001 7.734698e-001 -6.523191e-005 -3.276787e-005 6.651160e-001 7.762938e-001
329925000 -8.056023e-005 6.207018e-005 6.943657e-001 7.492316e-001 -3.731905e-005 -7.791173e-005 6.970932e-001 7.522280e-001
330210000 -1.563336e-005 -2.368280e-005 7.249156e-001 7.232665e-001 -1.027536e-004 -1.396061e-005 7.280853e-001 7.265943e-001
330495000 -1.043400e-005 -2.557648e-005 7.544829e-001 6.960343e-001 6.505842e-005 5.253474e-005 7.576076e-001 6.989270e-001
330780000 -1.244948e-006 -5.651071e-005 7.828821e-001 6.664252e-001 -5.378647e-005 -5.093366e-005 7.860989e-001 6.698552e-001
331065000 -1.728384e-005 -3.333997e-005 8.095928e-001 6.362172e-001 9.910024e-005 2.364919e-005 8.131563e-001 6.386499e-001
331350000 2.295121e-005 -9.861845e-005 8.352968e-001 6.039988e-001 -8.689658e-005 4.043789e-006 8.385602e-001 6.072740e-001
331635000 -6.527351e-005 -5.929700e-005 8.590525e-001 5.714377e-001 3.159210e-005 2.220385e-005 8.627992e-001 5.734200e-001
331920000 -1.035931e-004 1.759612e-005 8.817912e-001 5.373110e-001 -7.032483e-005 8.992059e-005 8.852660e-001 5.388472e-001
332205000 1.629145e-005 4.567378e-005 9.016440e-001 5.009702e-001 -5.715293e-005 -1.460347e-005 9.054464e-001 5.034024e-001
332490000 -8.205041e-005 4.820017e-005 9.206667e-001 4.648804e-001 -4.038961e-005 7.289947e-005 9.245915e-001 4.672242e-001
332775000 1.984759e-005 1.115433e-006 9.377503e-001 4.277235e-001 -4.107715e-005 1.508360e-005 9.422578e-001 4.304813e-001
333060000 4.792586e-005 8.352346e-005 9.525313e-001 3.900534e-001 -8.191627e-005 6.328870e-006 9.565943e-001 3.922304e-001
333345000 -5.916729e-007 -4.936694e-005 9.656742e-001 3.518291e-001 -6.335053e-005 -2.014506e-005 9.705274e-001 3.530723e-001
333630000 -8.719046e-005 1.940674e-004 9.771957e-001 3.127565e-001 -7.762493e-005 -5.172528e-005 9.809091e-001 3.142436e-001
333915000 4.485283e-005 7.515438e-005 9.864306e-001 2.735236e-001 -4.083061e-005 -3.901128e-005 9.906236e-001 2.752664e-001
334200000 2.703380e-005 -1.108756e-005 9.938064e-001 2.342072e-001 -8.278727e-005 2.828508e-005 9.979193e-001 2.358189e-001
334485000 -4.333421e-005 6.321916e-005 9.995975e-001 1.950331e-001 -8.737324e-005 -8.605275e-005 1.004071e+000 1.959031e-001
334770000 4.975290e-005 1.542632e-004 1.003078e+000 1.560970e-001 1.173933e-006 -1.916861e-005 1.007551e+000 1.558705e-001
335055000 -3.196816e-005 5.689748e-005 1.004553e+000 1.168224e-001 -3.152812e-005 5.503657e-006 1.008832e+000 1.173539e-001
335340000 -2.708126e-005 -1.109926e-005 1.004043e+000 7.841722e-002 -4.751977e-006 -6.244344e-005 1.008790e+000 7.862125e-002
335625000 -3.246416e-005 -3.783180e-005 1.002082e+000 4.039496e-002 6.267629e-006 -7.867708e-006 1.006777e+000 4.006818e-002
335910000 -4.562265e-005 -2.796113e-005 9.983705e-001 2.645446e-003 -9.706951e-006 -3.736458e-005 1.003050e+000 2.609964e-003
336195000 -3.423621e-005 -5.515097e-005 9.935189e-001 -3.471747e-002 -1.965060e-005 -3.450422e-005 9.978701e-001 -3.470255e-002
336480000 4.807755e-005 -6.177048e-005 9.867778e-001 -7.120125e-002 7.303013e-005 5.640700e-005 9.908236e-001 -7.114939e-002
336765000 4.420937e-005 7.954775e-005 9.788407e-001 -1.069511e-001 -1.813693e-006 -1.238599e-004 9.829613e-001 -1.068919e-001
337050000 -1.760448e-005 -5.466189e-005 9.688423e-001 -1.413849e-001 8.578053e-006 -6.476620e-005 9.729682e-001 -1.420206e-001
337335000 -1.851232e-005 -2.396743e-005 9.579579e-001 -1.750902e-001 4.621115e-005 -5.926282e-005 9.621227e-001 -1.761858e-001
337620000 -5.603136e-005 -3.063581e-005 9.452602e-001 -2.085759e-001 5.967154e-005 -3.654834e-005 9.495230e-001 -2.099284e-001
337905000 5.735612e-005 -1.377122e-004 9.321547e-001 -2.406843e-001 -1.271202e-006 4.480153e-005 9.360014e-001 -2.415561e-001
338190000 -8.503855e-005 -8.767925e-005 9.180254e-001 -2.718491e-001 -3.775510e-005 1.165905e-005 9.214570e-001 -2.728982e-001
338475000 -4.710162e-005 -2.140555e-007 9.026777e-001 -3.020194e-001 -3.631558e-005 3.440971e-005 9.062502e-001 -3.026779e-001
338760000 -3.896258e-005 -6.442956e-005 8.861815e-001 -3.306115e-001 4.030386e-005 8.775948e-005 8.897107e-001 -3.320381e-001
339045000 1.855886e-006 -8.828042e-005 8.685239e-001 -3.590339e-001 -2.029346e-005 1.455127e-005 8.723276e-001 -3.601227e-001
339330000 2.884746e-007 1.299425e-005 8.507419e-001 -3.856119e-001 3.942990e-005 1.474031e-005 8.544050e-001 -3.873130e-001
339615000 -6.008679e-005 -4.123087e-005 8.319806e-001 -4.118959e-001 -6.874716e-005 -3.334018e-005 8.360277e-001 -4.128734e-001
339900000 8.044091e-005 -4.979459e-005 8.125460e-001 -4.362214e-001 -2.852962e-005 8.010770e-005 8.162689e-001 -4.377050e-001
340185000 2.329866e-006 2.872861e-005 7.932158e-001 -4.599714e-001 1.411025e-005 -8.076246e-005 7.964715e-001 -4.620327e-001
340470000 6.122708e-005 4.137975e-005 7.731893e-001 -4.820563e-001 -3.052444e-005 -4.413764e-006 7.760754e-001 -4.844164e-001
340755000 1.267357e-005 1.049513e-004 7.518691e-001 -5.040118e-001 7.340676e-005 1.397683e-005 7.553536e-001 -5.057983e-001
341040000 -6.753180e-005 6.770438e-005 7.303997e-001 -5.244544e-001 -2.670628e-005 6.396208e-005 7.345037e-001 -5.270157e-001
341325000 -5.910295e-006 -9.510079e-006 7.089264e-001 -5.441569e-001 -4.066294e-006 9.115248e-005 7.124826e-001 -5.466335e-001
341610000 -5.070233e-005 -9.499690e-005 6.879340e-001 -5.625492e-001 -2.535626e-005 -4.296650e-005 6.907462e-001 -5.646010e-001
341895000 -6.836338e-005 -1.694016e-005 6.655317e-001 -5.798150e-001 1.840757e-005 -3.859335e-005 6.684646e-001 -5.828211e-001
342180000 -1.454146e-005 2.428815e-005 6.435942e-001 -5.964465e-001 4.145702e-005 -1.394267e-005 6.459650e-001 -5.991022e-001
342465000 -1.781631e-006 1.318347e-005 6.212813e-001 -6.122295e-001 3.563652e-005 -4.428221e-005 6.234334e-001 -6.157872e-001
342750000 -1.549210e-006 -1.176741e-004 5.985925e-001 -6.272120e-001 8.239529e-005 -1.106953e-004 6.017449e-001 -6.301906e-001
343035000 2.730212e-005 6.290475e-005 5.758286e-001 -6.419978e-001 2.588319e-005 -1.009101e-006 5.788236e-001 -6.441337e-001
343320000 3.979312e-005 -1.341781e-005 5.535141e-001 -6.546833e-001 2.723228e-005 6.942025e-005 5.556662e-001 -6.576614e-001
343605000 1.348178e-004 1.854748e-007 5.311460e-001 -6.667466e-001 -1.613665e-005 -6.548630e-005 5.334084e-001 -6.702625e-001
343890000 2.717531e-005 9.273713e-006 5.079077e-001 -6.791288e-001 -4.998788e-006 -1.724977e-005 5.103195e-001 -6.813248e-001
