!Agilent Technologies,N5230C,SG49000117,A.08.50.07
!Agilent N5230C: A.08.50.07
!Date: Monday, March 18, 2024 19:12:17
!Correction: S11(Off) 
!S21(Off) 
!S12(Off) 
!S22(Off) 
!S2P File: Measurements: S11, S21, S12, S22:
# Hz S  RI   R 50
300000000 -1.467712e-005 1.195138e-004 -6.319121e-001 -6.358497e-001 4.455641e-005 -3.721223e-005 -6.347057e-001 -6.385908e-001
300285000 -1.785575e-005 -2.703577e-005 -6.471097e-001 -6.129081e-001 9.822065e-007 -1.477254e-004 -6.490492e-001 -6.152409e-001
300570000 -5.714859e-006 4.980501e-005 -6.605623e-001 -5.892975e-001 5.977986e-005 -3.486754e-005 -6.630298e-001 -5.918128e-001
300855000 -3.308901e-005 5.635288e-005 -6.746281e-001 -5.657014e-001 1.064806e-004 -3.708375e-005 -6.769086e-001 -5.676283e-001
301140000 2.304817e-005 -3.684259e-007 -6.868076e-001 -5.422918e-001 1.082664e-004 -7.871816e-005 -6.892572e-001 -5.439670e-001
301425000 2.127187e-005 5.099566e-005 -6.979586e-001 -5.181805e-001 4.748378e-005 -1.793135e-005 -7.002030e-001 -5.202338e-001
301710000 -9.550191e-006 -4.075219e-005 -7.089361e-001 -4.951998e-001 -1.121513e-005 4.112989e-005 -7.113038e-001 -4.973933e-001
301995000 -5.350384e-005 -3.213889e-005 -7.181210e-001 -4.711927e-001 -6.448107e-005 1.537961e-004 -7.217150e-001 -4.732649e-001
302280000 6.747492e-005 -1.292330e-004 -7.281141e-001 -4.478248e-001 -7.858289e-005 -5.648403e-006 -7.303395e-001 -4.493520e-001
302565000 6.303381e-005 -9.656617e-005 -7.361258e-001 -4.240079e-001 8.370920e-005 -6.522977e-005 -7.388118e-001 -4.255778e-001
302850000 1.255111e-004 -4.514486e-005 -7.439860e-001 -4.014728e-001 -5.394343e-005 -5.378517e-005 -7.466022e-001 -4.025247e-001
303135000 -6.055128e-005 -1.197148e-005 -7.511543e-001 -3.774567e-001 -7.248622e-005 4.298909e-005 -7.537782e-001 -3.792807e-001
303420000 -2.935420e-006 1.240641e-005 -7.572568e-001 -3.545154e-001 -1.037779e-004 -1.057563e-004 -7.603701e-001 -3.552748e-001
303705000 1.666035e-004 1.048675e-005 -7.628757e-001 -3.311070e-001 -2.957643e-005 4.616832e-006 -7.656081e-001 -3.326896e-001
303990000 6.689708e-005 1.136647e-005 -7.679617e-001 -3.088053e-001 -7.802407e-005 -7.435181e-006 -7.709540e-001 -3.098413e-001
304275000 1.299385e-005 -4.579654e-005 -7.723227e-001 -2.863122e-001 -6.419986e-005 4.404673e-005 -7.760764e-001 -2.871247e-001
304560000 8.405705e-005 2.402191e-005 -7.763480e-001 -2.634222e-001 3.894665e-005 2.386892e-005 -7.796580e-001 -2.643313e-001
304845000 2.731688e-005 3.266348e-005 -7.805971e-001 -2.409018e-001 -1.106165e-004 3.059001e-005 -7.829853e-001 -2.420812e-001
305130000 -2.885963e-007 7.627644e-005 -7.829612e-001 -2.184339e-001 7.589220e-005 5.411070e-005 -7.860615e-001 -2.197029e-001
305415000 -1.568037e-004 1.071811e-004 -7.848487e-001 -1.965660e-001 -5.856309e-005 1.095582e-004 -7.881902e-001 -1.975293e-001
305700000 9.112197e-006 6.349260e-005 -7.871531e-001 -1.744453e-001 2.496714e-005 2.982628e-005 -7.907128e-001 -1.753800e-001
305985000 -5.246567e-005 2.623631e-005 -7.886456e-001 -1.530509e-001 -1.818124e-006 9.630366e-006 -7.917855e-001 -1.534274e-001
306270000 6.403394e-005 -1.325023e-004 -7.899094e-001 -1.309345e-001 -1.675894e-005 6.504885e-005 -7.930744e-001 -1.315186e-001
306555000 -1.191447e-006 3.127710e-005 -7.899916e-001 -1.098033e-001 2.368852e-005 1.152697e-005 -7.929577e-001 -1.101394e-001
306840000 2.956416e-005 8.514205e-005 -7.904207e-001 -8.809078e-002 2.161484e-005 1.392825e-005 -7.932391e-001 -8.896048e-002
307125000 -1.171077e-005 -1.096676e-004 -7.898322e-001 -6.691226e-002 1.075964e-004 -8.458754e-005 -7.931721e-001 -6.747985e-002
307410000 6.273181e-005 1.574237e-005 -7.890281e-001 -4.566804e-002 -3.841482e-005 6.257815e-005 -7.919886e-001 -4.598172e-002
307695000 -6.714023e-005 3.377620e-005 -7.876034e-001 -2.518510e-002 -9.342410e-005 -1.345233e-005 -7.908106e-001 -2.527260e-002
307980000 -6.082889e-005 5.152662e-005 -7.865089e-001 -3.921137e-003 -3.607795e-006 -5.057899e-005 -7.891741e-001 -4.448445e-003
308265000 4.734016e-005 -5.134512e-005 -7.842121e-001 1.639193e-002 2.854538e-005 1.222777e-004 -7.875234e-001 1.656081e-002
308550000 -7.285982e-005 -3.817191e-005 -7.817001e-001 3.683516e-002 -5.815583e-005 -9.868853e-006 -7.847285e-001 3.682616e-002
308835000 -2.362388e-007 -9.520313e-005 -7.793382e-001 5.711184e-002 -6.868818e-005 3.092362e-005 -7.825046e-001 5.750838e-002
309120000 8.149110e-006 7.343172e-006 -7.758058e-001 7.730179e-002 -2.618368e-005 -8.271892e-005 -7.791831e-001 7.787792e-002
309405000 7.452970e-006 -1.021366e-004 -7.723100e-001 9.726044e-002 -9.402970e-005 -8.770122e-006 -7.753173e-001 9.755298e-002
309690000 1.495514e-004 3.266276e-005 -7.681902e-001 1.171146e-001 -1.032774e-005 -6.280416e-005 -7.717434e-001 1.176881e-001
309975000 5.535119e-006 4.142130e-005 -7.639409e-001 1.376161e-001 -3.116921e-005 -6.505725e-005 -7.670967e-001 1.377345e-001
310260000 3.169791e-005 -2.047887e-005 -7.590010e-001 1.566964e-001 -1.240943e-005 2.125431e-005 -7.624985e-001 1.571417e-001
310545000 -4.145372e-005 4.905311e-005 -7.546529e-001 1.763724e-001 -6.073080e-006 -1.449632e-004 -7.576845e-001 1.769979e-001
310830000 1.319891e-004 -2.378610e-005 -7.493746e-001 1.960420e-001 3.858123e-005 -1.125013e-005 -7.523701e-001 1.963676e-001
311115000 6.784847e-005 -2.899009e-005 -7.436328e-001 2.156468e-001 3.099385e-005 4.819670e-005 -7.466431e-001 2.165735e-001
311400000 8.986195e-005 -7.753757e-005 -7.381419e-001 2.347415e-001 4.405400e-005 1.048566e-004 -7.407942e-001 2.353705e-001
311685000 -3.624796e-006 5.617155e-005 -7.316011e-001 2.542391e-001 -5.771180e-005 1.549290e-004 -7.343941e-001 2.548517e-001
311970000 -1.091196e-005 -3.032480e-005 -7.245976e-001 2.728440e-001 3.745606e-005 1.233017e-004 -7.277625e-001 2.741917e-001
312255000 9.453531e-005 1.473903e-004 -7.175036e-001 2.920318e-001 -3.522781e-005 3.123730e-005 -7.207137e-001 2.927490e-001
312540000 -8.997586e-005 2.977794e-005 -7.101746e-001 3.106296e-001 1.048029e-004 5.654878e-005 -7.137619e-001 3.118484e-001
312825000 -6.388014e-005 4.571443e-005 -7.025622e-001 3.296504e-001 -4.983438e-005 -6.392877e-005 -7.054081e-001 3.309539e-001
313110000 1.384272e-005 2.873109e-005 -6.944866e-001 3.482666e-001 -5.108681e-006 7.188094e-005 -6.971871e-001 3.498975e-001
313395000 -5.251381e-005 3.815427e-005 -6.861283e-001 3.671091e-001 -8.402960e-005 3.441178e-005 -6.886823e-001 3.684916e-001
313680000 -5.660910e-005 3.249249e-005 -6.772798e-001 3.859088e-001 2.799075e-005 -2.359441e-005 -6.792368e-001 3.874479e-001
313965000 3.603160e-005 -7.725287e-005 -6.676236e-001 4.042925e-001 -5.556687e-005 1.890193e-005 -6.705860e-001 4.056370e-001
314250000 5.117721e-005 6.994671e-005 -6.577508e-001 4.219132e-001 8.746825e-005 5.307327e-006 -6.604856e-001 4.236921e-001
314535000 4.593197e-005 4.460161e-005 -6.475030e-001 4.399604e-001 -6.186876e-005 1.595565e-004 -6.501452e-001 4.424315e-001
314820000 9.557968e-006 -4.056027e-005 -6.369388e-001 4.591146e-001 -4.789962e-006 1.089509e-004 -6.395867e-001 4.607983e-001
315105000 3.031067e-005 -2.770420e-005 -6.259912e-001 4.770873e-001 6.811800e-005 1.181907e-004 -6.286758e-001 4.785416e-001
315390000 -1.578096e-005 3.163868e-005 -6.144701e-001 4.945480e-001 -6.375337e-005 -7.099316e-005 -6.168410e-001 4.966424e-001
315675000 -5.683915e-006 -1.310440e-005 -6.026727e-001 5.130904e-001 -6.808446e-006 1.022468e-004 -6.050175e-001 5.149459e-001
315960000 1.043496e-004 3.270176e-005 -5.903457e-001 5.304374e-001 4.001765e-006 -5.718671e-005 -5.926324e-001 5.330464e-001
316245000 -4.364742e-005 -9.552013e-005 -5.776485e-001 5.484635e-001 -4.306985e-005 7.117994e-005 -5.801669e-001 5.505438e-001
316530000 4.178057e-005 6.574966e-005 -5.640202e-001 5.652510e-001 -1.314215e-004 -1.173524e-005 -5.667380e-001 5.682829e-001
316815000 1.149614e-004 -2.266849e-005 -5.502549e-001 5.835657e-001 -3.390552e-005 -1.172092e-004 -5.524620e-001 5.856300e-001
317100000 3.256216e-006 3.140369e-005 -5.363552e-001 6.009201e-001 -1.355505e-005 3.143377e-005 -5.383357e-001 6.029995e-001
317385000 3.918834e-005 -7.085583e-005 -5.211179e-001 6.181006e-001 5.956803e-006 -1.781206e-005 -5.229592e-001 6.202381e-001
317670000 -3.915820e-006 -2.155283e-005 -5.055141e-001 6.347593e-001 1.335303e-004 -3.281801e-005 -5.079057e-001 6.377912e-001
317955000 -1.537448e-004 5.780346e-005 -4.898365e-001 6.520230e-001 1.366843e-004 -3.310775e-006 -4.920844e-001 6.545772e-001
318240000 -1.029437e-004 2.407454e-005 -4.727531e-001 6.682648e-001 1.573784e-005 7.390018e-005 -4.747936e-001 6.710177e-001
318525000 -2.970419e-005 2.768499e-005 -4.555345e-001 6.853091e-001 -1.822164e-005 4.572573e-005 -4.576473e-001 6.876101e-001
318810000 1.545445e-004 -7.506913e-005 -4.381879e-001 7.012097e-001 3.075891e-005 9.013274e-005 -4.397684e-001 7.036250e-001
319095000 -6.187100e-005 2.986792e-006 -4.197306e-001 7.171418e-001 -3.579361e-005 6.534109e-005 -4.216952e-001 7.199551e-001
319380000 7.255461e-005 -5.484383e-005 -4.002289e-001 7.329658e-001 -1.028827e-004 -3.340995e-005 -4.022560e-001 7.357959e-001
319665000 7.706005e-005 -1.414582e-005 -3.805564e-001 7.484218e-001 -2.626842e-005 6.738744e-006 -3.823497e-001 7.512437e-001
319950000 7.329788e-005 -2.297437e-005 -3.598586e-001 7.630953e-001 5.087040e-005 -8.026684e-005 -3.614856e-001 7.659011e-001
320235000 -3.060834e-005 -2.714184e-006 -3.390218e-001 7.776464e-001 -8.439213e-005 1.676872e-005 -3.406401e-001 7.809930e-001
320520000 3.129137e-005 8.835740e-005 -3.177352e-001 7.922112e-001 7.267756e-006 -5.824554e-005 -3.187684e-001 7.954572e-001
320805000 3.521998e-005 1.136686e-005 -2.953281e-001 8.061079e-001 -1.947679e-004 -7.217851e-005 -2.963656e-001 8.099254e-001
321090000 -6.201514e-005 3.524521e-005 -2.722827e-001 8.192927e-001 -2.568907e-005 -5.045210e-005 -2.732429e-001 8.226103e-001
321375000 -4.981349e-005 5.366732e-005 -2.481658e-001 8.323843e-001 -6.526843e-005 -9.895786e-005 -2.491250e-001 8.357806e-001
321660000 8.341858e-005 1.929946e-005 -2.232000e-001 8.446104e-001 -5.648056e-005 -8.437043e-005 -2.244948e-001 8.483880e-001
321945000 -1.132074e-005 -1.512382e-005 -1.979234e-001 8.565672e-001 -6.080010e-005 -8.899518e-005 -1.989005e-001 8.601781e-001
322230000 -1.728794e-005 8.182021e-006 -1.720419e-001 8.680294e-001 2.377645e-005 -6.063694e-005 -1.721311e-001 8.713972e-001
322515000 -2.072882e-005 9.458564e-005 -1.450019e-001 8.786218e-001 2.266485e-005 -9.149448e-005 -1.452766e-001 8.822862e-001
322800000 3.751992e-005 -5.778750e-005 -1.169601e-001 8.888541e-001 -5.480283e-005 1.267504e-005 -1.175351e-001 8.920868e-001
323085000 -9.034042e-005 -1.058323e-005 -8.864503e-002 8.976569e-001 -8.017935e-005 1.149689e-004 -8.897558e-002 9.015076e-001
323370000 3.901025e-005 -2.287266e-005 -5.964670e-002 9.057254e-001 -3.834451e-005 -8.529649e-005 -5.990394e-002 9.095621e-001
323655000 -9.509721e-006 -6.330290e-005 -2.960671e-002 9.128377e-001 6.493170e-005 -9.282972e-005 -3.014448e-002 9.170158e-001
323940000 1.615770e-005 -7.835422e-005 5.502520e-004 9.196296e-001 2.432934e-005 5.649128e-005 1.012998e-003 9.237436e-001
324225000 1.302699e-005 -6.903279e-005 3.197810e-002 9.247559e-001 6.960351e-006 -1.642269e-006 3.212798e-002 9.287189e-001
324510000 4.139652e-005 4.123664e-005 6.426806e-002 9.293565e-001 -2.395078e-005 -2.627332e-006 6.403519e-002 9.329979e-001
324795000 3.325430e-005 -1.221512e-005 9.570033e-002 9.322086e-001 4.234944e-005 4.601780e-005 9.674246e-002 9.365660e-001
325080000 7.528300e-005 -4.525268e-005 1.299241e-001 9.344273e-001 3.302415e-005 5.526609e-005 1.301553e-001 9.384870e-001
325365000 -2.265173e-005 4.070931e-007 1.632129e-001 9.348474e-001 -3.851814e-005 8.074370e-005 1.634772e-001 9.390358e-001
325650000 8.765964e-005 -2.763485e-005 1.971171e-001 9.343425e-001 -4.078195e-005 1.209568e-005 1.980843e-001 9.382307e-001
325935000 1.172192e-004 8.879295e-005 2.317125e-001 9.323282e-001 -1.028223e-005 6.225542e-005 2.329499e-001 9.358418e-001
326220000 9.899326e-007 -2.148608e-005 2.672194e-001 9.291900e-001 3.539346e-005 5.005020e-005 2.680213e-001 9.328302e-001
326505000 5.589792e-005 1.545553e-005 3.020772e-001 9.241769e-001 7.507169e-006 1.683921e-004 3.034872e-001 9.280980e-001
326790000 1.932654e-006 1.025827e-004 3.371435e-001 9.169261e-001 -6.330385e-005 -1.400097e-005 3.389585e-001 9.213059e-001
327075000 -3.620706e-005 -2.809106e-005 3.728665e-001 9.091821e-001 -5.609210e-006 2.503960e-005 3.743108e-001 9.126064e-001
327360000 -1.021476e-004 2.587986e-005 4.085099e-001 8.993622e-001 1.484179e-005 1.682349e-005 4.106991e-001 9.028430e-001
327645000 -1.376026e-005 5.197650e-006 4.441559e-001 8.875391e-001 -2.507214e-005 -3.204247e-005 4.456519e-001 8.916114e-001
327930000 -8.179970e-005 1.636901e-005 4.794502e-001 8.742641e-001 7.469543e-006 -9.736488e-005 4.821058e-001 8.791323e-001
328215000 -4.292099e-005 -2.604164e-005 5.146030e-001 8.600954e-001 9.513950e-005 -8.595397e-006 5.166502e-001 8.632132e-001
328500000 3.246403e-005 -2.952512e-005 5.492712e-001 8.425283e-001 5.353026e-005 1.071546e-005 5.518430e-001 8.463184e-001
328785000 -1.436312e-005 1.293295e-004 5.836133e-001 8.247535e-001 9.951191e-005 1.291567e-004 5.860447e-001 8.283592e-001
329070000 7.816683e-005 8.193324e-006 6.176025e-001 8.044009e-001 5.482114e-005 9.301450e-005 6.200192e-001 8.076126e-001
329355000 6.835056e-005 4.645368e-005 6.499689e-001 7.818829e-001 8.708508e-005 -2.134012e-005 6.524951e-001 7.855443e-001
329640000 -5.469018e-005 1.745472e-005 6.826747e-001 7.587169e-001 4.369063e-005 -3.185841e-006 6.858240e-001 7.613040e-001
329925000 -1.861981e-005 4.367841e-005 7.138193e-001 7.333512e-001 6.135000e-005 -6.641012e-005 7.162681e-001 7.362492e-001
330210000 -4.658617e-005 3.982613e-005 7.436285e-001 7.062476e-001 6.041261e-005 -9.253104e-006 7.473035e-001 7.093682e-001
330495000 -1.267462e-004 -2.157210e-005 7.728711e-001 6.782187e-001 5.266277e-005 -2.932183e-005 7.758099e-001 6.805318e-001
330780000 2.042720e-005 -9.619756e-006 8.001085e-001 6.482397e-001 -3.248741e-005 -1.011249e-004 8.032486e-001 6.505513e-001
331065000 -1.878044e-005 6.019529e-005 8.260217e-001 6.164793e-001 6.103919e-005 2.290088e-005 8.293753e-001 6.190531e-001
331350000 5.817269e-005 5.532938e-005 8.507839e-001 5.835986e-001 -1.335042e-005 2.803292e-005 8.542760e-001 5.862170e-001
331635000 1.235351e-005 2.658138e-005 8.736478e-001 5.501519e-001 -5.765166e-005 1.843274e-005 8.777125e-001 5.520153e-001
331920000 -3.886115e-005 -7.848623e-005 8.947067e-001 5.151902e-001 -1.302773e-004 5.663129e-005 8.988556e-001 5.167642e-001
332205000 -7.132016e-005 -4.337297e-005 9.147084e-001 4.788801e-001 -4.753497e-005 9.729644e-005 9.182485e-001 4.809075e-001
332490000 1.157327e-004 -1.653980e-004 9.320087e-001 4.423102e-001 7.339440e-005 -1.876589e-005 9.360799e-001 4.441307e-001
332775000 2.988192e-005 -6.292893e-005 9.477173e-001 4.046302e-001 -2.052610e-005 -1.196302e-005 9.518723e-001 4.064261e-001
333060000 -2.813925e-005 3.633434e-005 9.617629e-001 3.660827e-001 1.809508e-005 -4.962603e-005 9.658042e-001 3.679460e-001
333345000 1.033239e-004 -4.069725e-006 9.740853e-001 3.279385e-001 -1.865636e-005 4.382403e-005 9.781782e-001 3.286689e-001
333630000 -2.046592e-005 2.619734e-005 9.840103e-001 2.885952e-001 4.741687e-005 -7.016187e-005 9.884663e-001 2.893363e-001
333915000 -4.202199e-005 2.196535e-006 9.923285e-001 2.492431e-001 -1.518454e-004 -3.022271e-005 9.965984e-001 2.503894e-001
334200000 -1.168961e-004 2.802557e-005 9.979465e-001 2.098216e-001 6.418321e-005 5.418696e-005 1.002535e+000 2.109321e-001
334485000 -5.354568e-005 5.904061e-005 1.002160e+000 1.711923e-001 -1.831563e-005 6.000264e-005 1.007292e+000 1.711478e-001
334770000 9.398457e-005 1.121020e-004 1.005169e+000 1.312490e-001 -3.876211e-005 -1.877832e-005 1.009088e+000 1.324865e-001
335055000 5.538608e-005 9.088207e-005 1.005573e+000 9.271859e-002 -3.401839e-006 -1.180973e-004 1.010525e+000 9.240834e-002
335340000 1.531176e-006 7.076347e-005 1.004236e+000 5.371961e-002 -8.429364e-005 -4.814918e-005 1.008694e+000 5.461957e-002
335625000 9.687214e-005 -1.365602e-005 1.001028e+000 1.588823e-002 -9.457975e-005 -3.325640e-006 1.005535e+000 1.655481e-002
335910000 -1.112430e-004 -2.612552e-005 9.970109e-001 -2.161285e-002 -1.161689e-004 -1.132458e-004 1.000975e+000 -2.084843e-002
336195000 -1.285153e-004 -3.890140e-005 9.899870e-001 -5.790183e-002 3.752769e-006 -5.178166e-005 9.944136e-001 -5.872108e-002
336480000 -1.418234e-004 -7.962077e-005 9.833158e-001 -9.453590e-002 2.926039e-005 4.596166e-005 9.866458e-001 -9.499046e-002
336765000 -4.358689e-005 -1.640165e-005 9.736654e-001 -1.292675e-001 3.408595e-005 -1.018076e-004 9.773348e-001 -1.300373e-001
337050000 -1.432195e-006 -6.831202e-005 9.628980e-001 -1.637313e-001 -3.955425e-005 -2.517020e-005 9.670077e-001 -1.643645e-001
337335000 -1.506247e-006 -2.822219e-005 9.510531e-001 -1.974365e-001 2.211835e-005 2.318646e-006 9.550812e-001 -1.978596e-001
337620000 -8.776891e-005 -8.670823e-005 9.381216e-001 -2.300977e-001 1.367429e-004 6.525380e-005 9.425195e-001 -2.312718e-001
337905000 -4.473654e-005 -5.743129e-005 9.238753e-001 -2.615954e-001 1.426174e-006 7.980183e-005 9.279552e-001 -2.623973e-001
338190000 -6.465847e-005 -5.961264e-005 9.085000e-001 -2.921514e-001 7.068911e-005 1.141143e-004 9.129429e-001 -2.929933e-001
338475000 -1.145525e-004 1.010654e-004 8.928660e-001 -3.213137e-001 -6.838088e-005 5.410061e-006 8.963217e-001 -3.227824e-001
338760000 5.751314e-005 6.942193e-005 8.757118e-001 -3.497678e-001 1.400195e-005 2.277508e-005 8.798639e-001 -3.515558e-001
339045000 3.146341e-005 6.159845e-005 8.578821e-001 -3.774011e-001 1.286122e-005 5.883913e-005 8.616632e-001 -3.786460e-001
339330000 -1.526751e-005 1.157545e-004 8.397957e-001 -4.032505e-001 4.460059e-006 4.098288e-005 8.431868e-001 -4.053529e-001
339615000 -2.918187e-005 2.895494e-005 8.204739e-001 -4.284387e-001 1.350124e-005 1.272255e-004 8.232324e-001 -4.304228e-001
339900000 5.884702e-005 -5.920985e-005 8.005460e-001 -4.522124e-001 -2.921052e-005 5.685298e-005 8.044904e-001 -4.541506e-001
340185000 3.453302e-005 4.281127e-005 7.806123e-001 -4.758829e-001 -6.294528e-005 4.303550e-005 7.839344e-001 -4.775420e-001
340470000 3.968116e-005 1.943104e-005 7.598215e-001 -4.977324e-001 -4.018517e-005 -2.698585e-005 7.622232e-001 -5.000384e-001
340755000 -3.815890e-005 -3.129094e-005 7.388208e-001 -5.185424e-001 -1.862630e-005 -9.460499e-005 7.415742e-001 -5.210333e-001
341040000 -1.261094e-005 9.490852e-005 7.172604e-001 -5.389355e-001 -1.140980e-006 8.599140e-006 7.199794e-001 -5.405273e-001
341325000 -1.830166e-005 -3.248872e-005 6.951209e-001 -5.575427e-001 -4.150753e-005 -1.148010e-004 6.983641e-001 -5.599576e-001
341610000 -4.693699e-005 1.846841e-005 6.736959e-001 -5.757472e-001 1.102774e-004 -1.870327e-005 6.762598e-001 -5.778979e-001
341895000 -4.039163e-005 -1.243892e-005 6.510945e-001 -5.926762e-001 7.052115e-005 -4.114729e-006 6.541921e-001 -5.948081e-001
342180000 -4.466045e-005 1.268470e-004 6.285785e-001 -6.086468e-001 -4.921539e-005 2.673929e-005 6.318459e-001 -6.113311e-001
342465000 -6.258411e-005 -6.508593e-005 6.069267e-001 -6.233047e-001 3.221541e-006 4.392693e-006 6.090583e-001 -6.265638e-001
342750000 -4.700113e-005 5.609009e-005 5.834133e-001 -6.380325e-001 4.368888e-005 5.272024e-005 5.864358e-001 -6.404130e-001
343035000 7.087460e-006 -5.091270e-005 5.611088e-001 -6.516437e-001 3.470510e-005 2.347058e-005 5.640250e-001 -6.538377e-001
343320000 -3.032113e-005 9.474132e-006 5.390145e-001 -6.641500e-001 3.651977e-005 8.981006e-005 5.407776e-001 -6.672227e-001
343605000 -6.204591e-005 6.037435e-005 5.155995e-001 -6.766006e-001 1.905468e-004 4.159585e-006 5.182006e-001 -6.791950e-001
343890000 -2.226742e-005 -6.298213e-005 4.932451e-001 -6.874980e-001 -4.566521e-005 2.504609e-005 4.949392e-001 -6.904060e-001
