!Agilent Technologies,N5230C,SG49000117,A.08.50.07
!Agilent N5230C: A.08.50.07
!Date: Monday, March 18, 2024 19:12:56
!Correction: S11(Off) 
!S21(Off) 
!S12(Off) 
!S22(Off) 
!S2P File: Measurements: S11, S21, S12, S22:
# Hz S  RI   R 50
300000000 -8.621145e-005 1.100440e-004 -6.420338e-001 -6.226364e-001 6.453146e-005 1.300968e-004 -6.439521e-001 -6.251735e-001
300285000 -7.037856e-005 -7.164746e-005 -6.565517e-001 -5.996950e-001 2.222051e-005 4.260117e-005 -6.587198e-001 -6.012228e-001
300570000 5.251154e-005 -8.158806e-005 -6.697005e-001 -5.759073e-001 -1.478787e-005 4.306182e-005 -6.719667e-001 -5.777777e-001
300855000 -4.675840e-005 -2.147335e-005 -6.823407e-001 -5.518729e-001 -1.405627e-004 1.943221e-005 -6.849730e-001 -5.542173e-001
301140000 -4.563792e-005 -4.276866e-005 -6.942024e-001 -5.283082e-001 -7.373665e-005 1.022787e-004 -6.967674e-001 -5.302288e-001
301425000 -1.046769e-004 -1.715089e-005 -7.050123e-001 -5.047848e-001 -9.498548e-005 -4.092736e-005 -7.075226e-001 -5.065872e-001
301710000 -1.258108e-005 7.820341e-007 -7.152407e-001 -4.811087e-001 -1.302213e-005 4.852211e-005 -7.182710e-001 -4.824214e-001
301995000 2.270112e-005 1.828006e-005 -7.250537e-001 -4.577167e-001 4.063275e-005 -2.469786e-005 -7.273368e-001 -4.590161e-001
302280000 6.152673e-005 -1.579234e-005 -7.337627e-001 -4.341462e-001 -1.035714e-004 3.400693e-006 -7.365763e-001 -4.354832e-001
302565000 -4.461802e-005 -1.434938e-005 -7.411414e-001 -4.104672e-001 2.811145e-005 -4.678455e-005 -7.440165e-001 -4.120108e-001
302850000 1.208597e-005 -2.984824e-005 -7.486048e-001 -3.869224e-001 -6.202450e-005 3.663497e-005 -7.517009e-001 -3.885756e-001
303135000 6.197203e-005 -1.083944e-004 -7.553658e-001 -3.638089e-001 -5.939330e-005 -1.025576e-004 -7.579005e-001 -3.650610e-001
303420000 1.015949e-005 -7.436767e-005 -7.614496e-001 -3.407281e-001 -4.690534e-005 -7.949064e-005 -7.647541e-001 -3.416885e-001
303705000 -2.371545e-005 -6.060709e-005 -7.670254e-001 -3.177906e-001 -1.430698e-005 -9.044800e-005 -7.695379e-001 -3.190627e-001
303990000 9.804369e-005 2.963121e-005 -7.716843e-001 -2.944545e-001 4.750388e-005 -1.088341e-004 -7.748401e-001 -2.958616e-001
304275000 3.947477e-005 -8.396505e-005 -7.753889e-001 -2.722924e-001 4.502327e-005 8.220431e-005 -7.788677e-001 -2.735047e-001
304560000 3.846891e-006 1.145559e-004 -7.799196e-001 -2.496179e-001 6.002190e-005 -7.227426e-005 -7.819640e-001 -2.504445e-001
304845000 1.275093e-004 5.751593e-005 -7.831937e-001 -2.272082e-001 -2.696681e-005 6.598352e-005 -7.856334e-001 -2.282396e-001
305130000 -5.037433e-005 -3.066415e-005 -7.850447e-001 -2.045415e-001 3.225736e-005 -2.824694e-005 -7.877065e-001 -2.054887e-001
305415000 1.708172e-005 4.310750e-005 -7.871800e-001 -1.827944e-001 6.174686e-005 5.469992e-005 -7.901725e-001 -1.836724e-001
305700000 -1.871602e-005 -1.232945e-004 -7.889054e-001 -1.613475e-001 -1.047232e-004 5.963846e-005 -7.918690e-001 -1.615041e-001
305985000 2.731565e-005 -6.856544e-005 -7.899469e-001 -1.390959e-001 -5.129133e-007 8.309118e-005 -7.930593e-001 -1.398753e-001
306270000 -1.079150e-004 -2.636344e-005 -7.902769e-001 -1.175838e-001 -5.073809e-005 -5.404550e-005 -7.938345e-001 -1.183257e-001
306555000 -6.457599e-005 -9.398716e-006 -7.907408e-001 -9.575916e-002 5.460649e-006 -2.952686e-005 -7.938740e-001 -9.640921e-002
306840000 -4.954933e-005 -1.953260e-005 -7.904644e-001 -7.504743e-002 -1.035862e-004 2.506154e-005 -7.932926e-001 -7.501516e-002
307125000 -1.304627e-004 -9.141608e-005 -7.896367e-001 -5.412206e-002 -6.956393e-005 -4.608234e-005 -7.930388e-001 -5.397072e-002
307410000 1.635785e-005 -3.469110e-005 -7.883195e-001 -3.296040e-002 6.558068e-005 1.498065e-004 -7.916739e-001 -3.252941e-002
307695000 -1.098831e-004 -1.236349e-004 -7.872064e-001 -1.173321e-002 -4.397905e-005 2.629302e-005 -7.900217e-001 -1.193738e-002
307980000 1.736200e-005 -4.166558e-005 -7.852377e-001 8.642405e-003 -1.809044e-005 -1.182419e-004 -7.879988e-001 9.002184e-003
308265000 5.469628e-005 5.706417e-005 -7.829678e-001 2.921517e-002 5.815952e-005 -1.560500e-005 -7.862126e-001 2.949697e-002
308550000 -3.263668e-005 -2.014529e-005 -7.802485e-001 5.012280e-002 1.416577e-005 -2.461984e-005 -7.829855e-001 4.999676e-002
308835000 6.342091e-005 2.809106e-005 -7.776349e-001 6.982762e-002 3.583986e-005 -1.135493e-004 -7.802498e-001 7.019320e-002
309120000 -6.769386e-005 -8.577358e-006 -7.734764e-001 9.015112e-002 -5.503358e-005 2.298306e-005 -7.767503e-001 9.041587e-002
309405000 6.548138e-005 -1.660465e-005 -7.700166e-001 1.102730e-001 4.565695e-005 6.596756e-006 -7.732878e-001 1.108502e-001
309690000 4.720415e-005 -4.811808e-005 -7.660612e-001 1.302047e-001 2.304886e-005 -1.038541e-004 -7.687368e-001 1.308358e-001
309975000 6.828018e-005 6.041311e-005 -7.613501e-001 1.500632e-001 2.387017e-005 -3.072939e-005 -7.645301e-001 1.505268e-001
310260000 8.816445e-005 4.693427e-005 -7.563478e-001 1.697890e-001 8.331433e-005 -6.187786e-005 -7.596089e-001 1.703032e-001
310545000 1.020206e-004 1.250304e-004 -7.511719e-001 1.893420e-001 -1.788770e-005 5.324850e-005 -7.544687e-001 1.897777e-001
310830000 2.848023e-005 1.206411e-004 -7.459680e-001 2.085481e-001 -2.916633e-005 -5.069129e-005 -7.489594e-001 2.094745e-001
311115000 4.189709e-005 1.054135e-005 -7.402209e-001 2.279930e-001 1.062910e-004 7.712136e-005 -7.431639e-001 2.286122e-001
311400000 2.072452e-005 2.073505e-006 -7.337351e-001 2.468502e-001 3.838390e-005 6.377389e-005 -7.366213e-001 2.479472e-001
311685000 -7.599922e-006 6.391787e-005 -7.269150e-001 2.660397e-001 4.510318e-005 -6.818287e-005 -7.301384e-001 2.673980e-001
311970000 2.230945e-005 -5.388115e-005 -7.204201e-001 2.850919e-001 3.300036e-005 -6.119940e-005 -7.230842e-001 2.862723e-001
312255000 7.420478e-005 1.801875e-005 -7.129174e-001 3.040960e-001 -3.164173e-005 -3.603789e-005 -7.159409e-001 3.055986e-001
312540000 -1.832653e-005 -9.531979e-005 -7.054637e-001 3.227976e-001 8.347152e-005 4.640908e-006 -7.081171e-001 3.241403e-001
312825000 6.818867e-005 -6.427040e-005 -6.972061e-001 3.415600e-001 -4.311599e-005 6.331047e-005 -7.003483e-001 3.431650e-001
313110000 1.032364e-004 -6.755519e-005 -6.884413e-001 3.604703e-001 -2.329172e-005 -1.913899e-005 -6.910503e-001 3.620424e-001
313395000 2.083324e-006 2.816990e-005 -6.798090e-001 3.790149e-001 4.990023e-005 5.454122e-005 -6.824272e-001 3.806710e-001
313680000 1.287794e-004 -1.782619e-005 -6.711704e-001 3.972977e-001 -7.946770e-005 5.884590e-005 -6.735448e-001 3.988855e-001
313965000 -5.387663e-005 -7.635684e-005 -6.611164e-001 4.157532e-001 -4.471415e-005 1.998857e-005 -6.637986e-001 4.175186e-001
314250000 -5.139079e-005 -9.730814e-005 -6.508928e-001 4.338078e-001 -1.206289e-004 -4.874018e-005 -6.540246e-001 4.359959e-001
314535000 -2.627013e-005 6.300602e-005 -6.405407e-001 4.521305e-001 -4.905161e-005 -7.587888e-007 -6.429175e-001 4.542723e-001
314820000 1.918136e-005 5.985134e-005 -6.295754e-001 4.702164e-001 -1.418818e-005 6.213156e-005 -6.324837e-001 4.720648e-001
315105000 6.494871e-006 -2.114340e-005 -6.181894e-001 4.884929e-001 -1.366386e-004 -4.050198e-005 -6.211404e-001 4.903297e-001
315390000 9.453333e-005 2.342469e-006 -6.065904e-001 5.062866e-001 -7.923334e-005 3.572314e-005 -6.092519e-001 5.080943e-001
315675000 7.758119e-005 7.708356e-005 -5.943674e-001 5.241975e-001 1.360114e-004 1.284959e-005 -5.964581e-001 5.261816e-001
315960000 -1.066798e-005 7.970303e-006 -5.820632e-001 5.421041e-001 -5.226902e-005 6.672653e-005 -5.835758e-001 5.445069e-001
316245000 1.091617e-005 2.344962e-005 -5.688648e-001 5.591303e-001 -4.550233e-005 9.547194e-005 -5.706533e-001 5.614758e-001
316530000 6.841466e-005 1.093602e-004 -5.548817e-001 5.770244e-001 3.769621e-005 -7.652498e-006 -5.569260e-001 5.791357e-001
316815000 -1.178605e-005 4.097075e-005 -5.402455e-001 5.940664e-001 -3.951367e-006 -9.064084e-006 -5.430583e-001 5.967705e-001
317100000 -2.181062e-005 -5.031640e-005 -5.260778e-001 6.110965e-001 -6.809615e-005 5.043890e-006 -5.281425e-001 6.138809e-001
317385000 -2.198104e-005 9.094278e-006 -5.109493e-001 6.281596e-001 1.483718e-004 -5.401682e-005 -5.132587e-001 6.310540e-001
317670000 -7.769051e-005 -4.070238e-005 -4.946258e-001 6.455416e-001 1.535558e-007 8.169941e-005 -4.969344e-001 6.482080e-001
317955000 -4.839875e-005 4.521212e-005 -4.782897e-001 6.618690e-001 2.791669e-005 1.339543e-005 -4.805346e-001 6.644677e-001
318240000 -9.680635e-005 2.994553e-006 -4.609646e-001 6.783423e-001 3.320718e-005 4.386582e-005 -4.633996e-001 6.809248e-001
318525000 -1.598520e-004 -1.705324e-004 -4.438181e-001 6.949775e-001 -8.440617e-006 -2.083325e-005 -4.459340e-001 6.974725e-001
318810000 -2.360333e-005 -1.114784e-005 -4.256435e-001 7.105783e-001 -2.242324e-005 6.302428e-005 -4.275672e-001 7.136387e-001
319095000 -5.445761e-005 -1.254251e-004 -4.070561e-001 7.259758e-001 1.584479e-005 -1.965343e-005 -4.084708e-001 7.294176e-001
319380000 7.568365e-005 9.786325e-006 -3.871317e-001 7.418767e-001 -2.443090e-005 2.626335e-005 -3.887585e-001 7.445869e-001
319665000 1.517268e-005 -5.197641e-005 -3.672051e-001 7.574354e-001 -5.752609e-005 1.056230e-004 -3.685380e-001 7.600856e-001
319950000 1.337422e-005 -2.514881e-005 -3.462567e-001 7.724276e-001 -5.970942e-006 5.926378e-005 -3.480623e-001 7.751487e-001
320235000 -3.362240e-005 -2.724932e-005 -3.252200e-001 7.863153e-001 -1.086573e-004 3.742183e-005 -3.266205e-001 7.896953e-001
320520000 2.636936e-005 -1.488099e-005 -3.030350e-001 8.009415e-001 -5.919401e-005 -9.508650e-005 -3.042153e-001 8.035732e-001
320805000 2.400894e-005 5.676404e-005 -2.799715e-001 8.133796e-001 6.524237e-006 -5.814929e-005 -2.810297e-001 8.171276e-001
321090000 -1.050615e-005 -9.223836e-006 -2.562754e-001 8.270575e-001 -5.800258e-005 -2.171294e-005 -2.571810e-001 8.303767e-001
321375000 -5.646315e-006 1.607424e-005 -2.320821e-001 8.396471e-001 7.591203e-005 5.241103e-005 -2.329296e-001 8.429068e-001
321660000 -1.140455e-004 8.481798e-005 -2.066692e-001 8.513615e-001 2.681007e-005 -1.145620e-005 -2.078110e-001 8.551083e-001
321945000 -4.370746e-006 -1.095799e-005 -1.812390e-001 8.632187e-001 6.173255e-005 2.001234e-005 -1.819247e-001 8.668779e-001
322230000 -4.163319e-005 -4.739120e-006 -1.546956e-001 8.739579e-001 -9.678766e-005 7.088157e-005 -1.551064e-001 8.777168e-001
322515000 1.740726e-004 1.930777e-005 -1.272504e-001 8.844005e-001 -1.541908e-005 1.692435e-005 -1.274138e-001 8.879631e-001
322800000 3.584252e-006 -9.024569e-007 -9.896025e-002 8.926812e-001 4.716244e-005 -3.559559e-005 -9.962148e-002 8.967785e-001
323085000 4.714592e-005 4.117330e-005 -7.037260e-002 9.019529e-001 3.351279e-005 -9.109678e-005 -7.081652e-002 9.056147e-001
323370000 -7.372030e-005 -2.546504e-005 -4.034481e-002 9.096403e-001 -3.986616e-005 -3.350975e-005 -4.063789e-002 9.136645e-001
323655000 -1.943040e-005 1.466184e-005 -1.022128e-002 9.160752e-001 2.504397e-005 -6.224651e-005 -9.939464e-003 9.198624e-001
323940000 -1.501466e-004 -3.096764e-005 2.059416e-002 9.221694e-001 1.374913e-004 -1.777403e-005 2.081640e-002 9.258695e-001
324225000 -6.446013e-005 -1.414353e-005 5.221975e-002 9.267427e-001 6.747673e-005 -2.240054e-005 5.204880e-002 9.302313e-001
324510000 -4.541850e-005 -5.148881e-005 8.489995e-002 9.298852e-001 3.955659e-005 -1.228087e-004 8.471035e-002 9.344875e-001
324795000 3.567167e-006 7.059561e-006 1.171304e-001 9.331892e-001 1.214969e-004 -9.680789e-005 1.181951e-001 9.362016e-001
325080000 -1.615921e-005 -4.792939e-006 1.514339e-001 9.340901e-001 5.035537e-005 -1.496874e-004 1.513828e-001 9.376829e-001
325365000 -4.835328e-005 2.904196e-005 1.847262e-001 9.337350e-001 -5.788195e-005 -1.338807e-005 1.851024e-001 9.375246e-001
325650000 -8.317458e-005 3.447649e-005 2.187902e-001 9.324487e-001 2.197155e-005 -1.687761e-005 2.198705e-001 9.360573e-001
325935000 -1.485939e-005 -4.074720e-006 2.534558e-001 9.290257e-001 1.439947e-005 -2.433942e-006 2.545516e-001 9.331945e-001
326220000 6.247037e-005 -6.333175e-005 2.885692e-001 9.249424e-001 4.395589e-005 -5.882060e-005 2.901638e-001 9.289356e-001
326505000 3.165257e-005 9.575839e-006 3.240826e-001 9.188535e-001 -8.269069e-005 5.839339e-005 3.255261e-001 9.229897e-001
326790000 4.724648e-005 -3.480940e-005 3.592560e-001 9.116473e-001 -5.198229e-005 2.845681e-005 3.610378e-001 9.150944e-001
327075000 4.737787e-005 -1.017707e-004 3.948259e-001 9.022332e-001 5.368201e-005 -7.933478e-005 3.967511e-001 9.057797e-001
327360000 -4.047060e-006 6.761088e-005 4.306397e-001 8.911380e-001 1.153818e-005 -8.869816e-005 4.323609e-001 8.952381e-001
327645000 -1.125981e-004 4.142268e-005 4.659718e-001 8.793301e-001 -1.607124e-005 2.486513e-005 4.683304e-001 8.826297e-001
327930000 1.126778e-004 1.510676e-004 5.013402e-001 8.646852e-001 -1.041868e-004 -2.125228e-005 5.028079e-001 8.683330e-001
328215000 4.514725e-005 4.443217e-005 5.360129e-001 8.488572e-001 -7.556942e-006 -3.177008e-005 5.390189e-001 8.524759e-001
328500000 2.430044e-005 -8.979004e-005 5.705317e-001 8.308532e-001 -2.106194e-005 -1.755043e-005 5.731527e-001 8.340166e-001
328785000 -1.364165e-004 -3.990457e-005 6.046122e-001 8.111371e-001 -1.150598e-004 -1.467793e-005 6.073440e-001 8.148968e-001
329070000 6.703279e-005 -1.652490e-006 6.378144e-001 7.901924e-001 1.357486e-004 2.482939e-005 6.406274e-001 7.934934e-001
329355000 -4.999402e-005 -4.506134e-005 6.706182e-001 7.667009e-001 6.584014e-005 -2.556241e-005 6.732973e-001 7.702052e-001
329640000 -6.126955e-005 4.471882e-005 7.017827e-001 7.426518e-001 -1.734342e-005 -1.211088e-005 7.047600e-001 7.461823e-001
329925000 -9.765998e-005 3.882816e-005 7.321836e-001 7.162926e-001 -4.854702e-005 -7.018908e-005 7.352029e-001 7.190050e-001
330210000 1.675913e-005 6.576289e-005 7.612636e-001 6.880897e-001 5.830288e-005 -3.669354e-005 7.649019e-001 6.910232e-001
330495000 1.083889e-006 5.238010e-006 7.898490e-001 6.588748e-001 1.521829e-005 3.750430e-005 7.928535e-001 6.610238e-001
330780000 7.638502e-005 -5.978771e-005 8.164175e-001 6.282702e-001 -7.575770e-005 -5.546696e-005 8.198113e-001 6.305717e-001
331065000 -4.712388e-006 1.907968e-005 8.412872e-001 5.959702e-001 -8.180837e-005 3.676809e-006 8.455226e-001 5.982257e-001
331350000 1.194085e-004 1.303629e-004 8.652250e-001 5.626906e-001 -7.812319e-005 2.749459e-005 8.684222e-001 5.645809e-001
331635000 1.623192e-004 1.268097e-004 8.870566e-001 5.274039e-001 -6.667225e-005 -2.970686e-005 8.896424e-001 5.305080e-001
331920000 4.325505e-005 8.365338e-006 9.070695e-001 4.924731e-001 5.008608e-005 -2.376881e-005 9.105696e-001 4.944470e-001
332205000 -3.746754e-005 3.508258e-005 9.257951e-001 4.552360e-001 -5.349196e-005 -3.813868e-005 9.297996e-001 4.577177e-001
332490000 1.341033e-006 1.278802e-004 9.421755e-001 4.181805e-001 -3.226452e-005 -7.597942e-005 9.469547e-001 4.201062e-001
332775000 -6.786669e-005 -7.829486e-006 9.563878e-001 3.799393e-001 -7.419264e-005 -6.431367e-005 9.608014e-001 3.817045e-001
333060000 -1.592063e-005 5.202175e-005 9.697918e-001 3.413101e-001 2.914749e-006 5.736909e-006 9.738527e-001 3.427318e-001
333345000 1.050388e-004 7.360333e-005 9.803193e-001 3.026758e-001 4.804233e-005 6.556989e-006 9.845877e-001 3.043023e-001
333630000 -1.123870e-004 -1.691571e-004 9.896354e-001 2.630613e-001 3.299675e-006 -4.005680e-005 9.937818e-001 2.646702e-001
333915000 -9.333609e-005 7.450931e-005 9.962062e-001 2.247099e-001 -6.418666e-005 2.278858e-005 1.000842e+000 2.252548e-001
334200000 9.709620e-006 5.077459e-005 1.001565e+000 1.844837e-001 1.093159e-005 1.680065e-005 1.005458e+000 1.851232e-001
334485000 -8.938760e-005 1.716698e-005 1.004444e+000 1.455456e-001 1.450621e-005 -1.089455e-004 1.009513e+000 1.460911e-001
334770000 -1.620989e-005 2.633775e-005 1.005446e+000 1.059420e-001 -4.636410e-005 -9.117000e-005 1.010298e+000 1.062718e-001
335055000 -3.867950e-006 4.014142e-005 1.005222e+000 6.723164e-002 4.224619e-005 -8.400653e-005 1.009679e+000 6.819431e-002
335340000 -6.549493e-005 5.238432e-005 1.002456e+000 2.965024e-002 3.102685e-005 -7.213908e-005 1.007439e+000 2.920906e-002
335625000 -1.176276e-004 3.519823e-005 9.987279e-001 -8.876482e-003 -6.389622e-005 -4.440371e-005 1.003051e+000 -8.338210e-003
335910000 -3.767616e-005 1.538534e-005 9.934983e-001 -4.527013e-002 6.379956e-005 3.220061e-005 9.973003e-001 -4.561489e-002
336195000 3.211106e-005 -1.095635e-005 9.862076e-001 -8.218775e-002 -3.327552e-005 4.023160e-005 9.901441e-001 -8.187268e-002
336480000 -5.305922e-005 1.845612e-005 9.771227e-001 -1.177258e-001 -1.034864e-004 4.005667e-006 9.815711e-001 -1.182154e-001
336765000 4.542344e-005 1.201459e-005 9.670961e-001 -1.518628e-001 1.040533e-005 -1.303228e-004 9.714671e-001 -1.525049e-001
337050000 -5.577995e-005 -2.980230e-005 9.560030e-001 -1.857796e-001 9.822096e-006 -1.203154e-005 9.598366e-001 -1.870024e-001
337335000 4.409871e-005 1.257447e-004 9.433897e-001 -2.189219e-001 1.282247e-005 -1.199928e-005 9.470978e-001 -2.197323e-001
337620000 4.965509e-005 5.311582e-005 9.293208e-001 -2.509350e-001 -9.121894e-005 -2.215531e-005 9.332573e-001 -2.520356e-001
337905000 -2.696263e-005 5.559206e-005 9.148475e-001 -2.824914e-001 1.330846e-004 -9.088912e-005 9.184788e-001 -2.828574e-001
338190000 -2.959818e-005 -7.350477e-005 8.987472e-001 -3.114000e-001 -1.549359e-005 -1.562995e-004 9.030426e-001 -3.131001e-001
338475000 -3.451547e-005 3.516737e-005 8.821667e-001 -3.403678e-001 -8.155908e-005 -6.629441e-006 8.853701e-001 -3.418628e-001
338760000 -1.301270e-004 7.162074e-005 8.650463e-001 -3.687440e-001 -5.503412e-005 5.412178e-005 8.682467e-001 -3.700525e-001
339045000 -2.027655e-005 3.305737e-005 8.458542e-001 -3.953255e-001 -1.430665e-005 2.142506e-005 8.495998e-001 -3.968680e-001
339330000 -3.508694e-005 7.813123e-005 8.268809e-001 -4.207914e-001 1.621448e-005 4.055551e-005 8.309059e-001 -4.224717e-001
339615000 -4.118873e-005 8.665533e-005 8.076500e-001 -4.450445e-001 3.091077e-005 -9.344625e-005 8.114104e-001 -4.471644e-001
339900000 6.301430e-005 1.829126e-005 7.874966e-001 -4.688255e-001 6.586934e-005 2.556829e-005 7.906309e-001 -4.702310e-001
340185000 -1.030011e-005 -3.946282e-005 7.674800e-001 -4.909144e-001 7.529396e-005 -1.342969e-004 7.703664e-001 -4.928497e-001
340470000 4.695142e-005 4.358047e-005 7.461904e-001 -5.125031e-001 -1.121868e-004 1.017625e-004 7.495071e-001 -5.142204e-001
340755000 1.279003e-005 -1.463324e-005 7.244841e-001 -5.328795e-001 2.862384e-005 -2.933935e-005 7.281328e-001 -5.350516e-001
341040000 -7.783552e-005 1.340209e-005 7.028218e-001 -5.518811e-001 5.556054e-005 -3.519241e-005 7.058411e-001 -5.542263e-001
341325000 7.507495e-005 -2.736906e-005 6.810094e-001 -5.704502e-001 8.716710e-006 -6.850742e-005 6.839587e-001 -5.723010e-001
341610000 6.185072e-005 -3.505311e-005 6.591375e-001 -5.880216e-001 -2.182643e-005 -4.355381e-005 6.613355e-001 -5.899904e-001
341895000 4.485782e-005 -8.701414e-005 6.360459e-001 -6.045329e-001 8.891016e-006 1.102908e-005 6.396129e-001 -6.065965e-001
342180000 1.224275e-006 -1.706225e-005 6.134430e-001 -6.198307e-001 4.957145e-005 -3.500666e-007 6.163624e-001 -6.220902e-001
342465000 4.960827e-005 -2.981532e-005 5.909451e-001 -6.345478e-001 7.863005e-005 -8.649018e-005 5.934699e-001 -6.369362e-001
342750000 -5.739391e-006 -2.078362e-005 5.688662e-001 -6.478462e-001 -5.399824e-005 2.843496e-005 5.709219e-001 -6.510165e-001
343035000 2.774154e-005 8.799286e-005 5.458137e-001 -6.609601e-001 7.882588e-005 -1.953929e-005 5.480476e-001 -6.636248e-001
343320000 -6.916892e-005 -3.820231e-005 5.232556e-001 -6.730223e-001 -8.929033e-005 -6.741160e-005 5.254143e-001 -6.754493e-001
343605000 -2.449500e-005 2.587149e-005 5.003176e-001 -6.845357e-001 -9.677166e-007 -1.376528e-005 5.025797e-001 -6.872150e-001
343890000 3.816547e-005 1.265302e-004 4.773656e-001 -6.952846e-001 -2.332950e-005 -3.001506e-005 4.795512e-001 -6.979759e-001
