!Agilent Technologies,N5230C,SG49000117,A.08.50.07
!Agilent N5230C: A.08.50.07
!Date: Monday, March 18, 2024 19:13:44
!Correction: S11(Off) 
!S21(Off) 
!S12(Off) 
!S22(Off) 
!S2P File: Measurements: S11, S21, S12, S22:
# Hz S  RI   R 50
300000000 -2.505752e-005 -1.750071e-005 -6.513634e-001 -6.091307e-001 1.741141e-004 -1.579138e-005 -6.533854e-001 -6.111373e-001
300285000 -1.252461e-004 -3.233450e-005 -6.647508e-001 -5.856838e-001 7.934559e-005 -6.748423e-005 -6.675247e-001 -5.875075e-001
300570000 7.479205e-005 -1.088105e-004 -6.779060e-001 -5.621573e-001 -8.808461e-006 7.917024e-006 -6.807598e-001 -5.636839e-001
300855000 -1.467662e-005 1.138495e-005 -6.907337e-001 -5.383459e-001 2.655228e-005 3.652286e-005 -6.926225e-001 -5.396778e-001
301140000 -5.095491e-005 -6.008943e-005 -7.014213e-001 -5.143185e-001 -6.479050e-005 8.409357e-005 -7.038895e-001 -5.160610e-001
301425000 -4.134892e-005 -3.247335e-005 -7.124991e-001 -4.905339e-001 1.309737e-004 6.636491e-005 -7.147546e-001 -4.922720e-001
301710000 1.774935e-005 -1.010216e-004 -7.220631e-001 -4.665101e-001 3.585666e-005 7.558715e-005 -7.249123e-001 -4.682928e-001
301995000 2.266348e-005 -1.474675e-004 -7.309447e-001 -4.430245e-001 -7.147391e-005 7.104297e-005 -7.341034e-001 -4.445998e-001
302280000 5.502552e-005 -6.472991e-006 -7.398720e-001 -4.195900e-001 -9.942215e-006 7.957794e-005 -7.419124e-001 -4.216266e-001
302565000 8.173520e-005 -7.002913e-005 -7.470638e-001 -3.962741e-001 -9.524478e-005 -2.909566e-005 -7.494822e-001 -3.975570e-001
302850000 -4.907679e-005 8.567823e-006 -7.536376e-001 -3.727494e-001 6.764460e-005 -3.362459e-005 -7.564985e-001 -3.740894e-001
303135000 -6.465549e-005 1.639715e-005 -7.596943e-001 -3.497974e-001 -8.665708e-005 2.297750e-005 -7.627929e-001 -3.507104e-001
303420000 -4.072114e-005 -3.090840e-005 -7.657240e-001 -3.259618e-001 5.832866e-005 -9.620756e-005 -7.686894e-001 -3.270716e-001
303705000 -6.451058e-006 -1.827208e-005 -7.704425e-001 -3.032691e-001 -7.923054e-005 -7.611898e-005 -7.735195e-001 -3.048289e-001
303990000 3.851318e-005 -6.750595e-005 -7.752141e-001 -2.809505e-001 -5.046399e-005 -7.266216e-006 -7.779902e-001 -2.815938e-001
304275000 -2.557003e-005 -1.310789e-006 -7.783495e-001 -2.582452e-001 -4.319582e-005 -1.050697e-005 -7.821168e-001 -2.590780e-001
304560000 -1.539288e-005 -3.798640e-005 -7.824299e-001 -2.353008e-001 4.393370e-005 -1.393276e-006 -7.853822e-001 -2.361708e-001
304845000 -1.297644e-004 -2.440227e-005 -7.848351e-001 -2.133443e-001 1.307114e-004 -3.682374e-005 -7.880293e-001 -2.141432e-001
305130000 -2.061073e-005 -1.036710e-004 -7.871400e-001 -1.912240e-001 -2.305527e-005 -1.476724e-005 -7.904723e-001 -1.917452e-001
305415000 6.495360e-005 6.466224e-006 -7.889029e-001 -1.688299e-001 5.626212e-005 -1.162342e-004 -7.913919e-001 -1.694763e-001
305700000 9.550934e-007 -5.123283e-005 -7.899311e-001 -1.475402e-001 1.206181e-004 1.588699e-005 -7.932308e-001 -1.480565e-001
305985000 -1.159026e-004 8.514262e-006 -7.910229e-001 -1.255206e-001 5.006836e-005 -7.873859e-005 -7.941800e-001 -1.258646e-001
306270000 -2.898867e-005 3.308862e-005 -7.911386e-001 -1.037450e-001 7.868581e-005 8.265187e-005 -7.939116e-001 -1.042745e-001
306555000 -7.904141e-005 3.239604e-005 -7.909910e-001 -8.264895e-002 -5.716104e-005 -1.065678e-005 -7.940885e-001 -8.298154e-002
306840000 -8.126836e-005 2.436150e-007 -7.905525e-001 -6.122220e-002 5.860476e-005 3.096602e-005 -7.934774e-001 -6.170769e-002
307125000 -5.264974e-005 -1.149870e-005 -7.889825e-001 -4.019380e-002 -9.371814e-005 8.173360e-005 -7.922478e-001 -4.010711e-002
307410000 -8.052772e-005 -5.777961e-005 -7.883974e-001 -1.926751e-002 -7.099900e-005 -4.351731e-005 -7.908935e-001 -1.914995e-002
307695000 -4.396206e-005 3.247773e-005 -7.858959e-001 1.580078e-003 -6.498487e-005 -4.494825e-005 -7.892728e-001 2.047271e-003
307980000 1.018669e-005 -5.610331e-005 -7.848220e-001 2.225536e-002 1.011539e-005 -6.047793e-005 -7.873874e-001 2.231075e-002
308265000 3.240997e-005 7.457767e-005 -7.817580e-001 4.316980e-002 -2.351820e-005 -8.661360e-005 -7.846465e-001 4.252980e-002
308550000 9.097467e-005 8.251888e-005 -7.783165e-001 6.319813e-002 2.248576e-005 -9.464722e-005 -7.814249e-001 6.336521e-002
308835000 2.896615e-005 -4.841001e-005 -7.750991e-001 8.337107e-002 -1.644825e-004 8.420937e-006 -7.787094e-001 8.335507e-002
309120000 -7.459928e-005 1.025114e-004 -7.717935e-001 1.032667e-001 -1.294381e-004 5.859194e-005 -7.746005e-001 1.038224e-001
309405000 1.522916e-005 -5.360431e-005 -7.676302e-001 1.234096e-001 8.127815e-005 3.551783e-006 -7.705407e-001 1.239289e-001
309690000 4.068218e-005 -1.085288e-004 -7.631344e-001 1.430754e-001 -3.505287e-005 -2.445219e-005 -7.661417e-001 1.436903e-001
309975000 3.240522e-005 2.455552e-006 -7.588387e-001 1.629903e-001 -3.449491e-005 -4.451726e-005 -7.615693e-001 1.634183e-001
310260000 -6.683492e-005 -1.303011e-004 -7.532063e-001 1.824523e-001 2.732902e-005 -1.202699e-004 -7.562583e-001 1.827008e-001
310545000 -7.355306e-005 7.508555e-005 -7.478197e-001 2.018118e-001 -2.317346e-005 -8.668448e-005 -7.504016e-001 2.027192e-001
310830000 3.275731e-005 -5.360602e-005 -7.420970e-001 2.216028e-001 8.037790e-005 -2.540643e-005 -7.450761e-001 2.222247e-001
311115000 6.488579e-005 3.909075e-006 -7.358508e-001 2.406179e-001 -5.235404e-006 3.346990e-005 -7.390698e-001 2.413363e-001
311400000 2.589579e-005 4.260966e-005 -7.295049e-001 2.599055e-001 4.818469e-005 -8.653336e-005 -7.324829e-001 2.605061e-001
311685000 6.015357e-005 9.520415e-006 -7.226362e-001 2.789335e-001 -1.011507e-005 -7.786481e-006 -7.255577e-001 2.802723e-001
311970000 1.252379e-004 -4.806337e-005 -7.154900e-001 2.980179e-001 -5.780035e-005 -8.179815e-006 -7.184686e-001 2.984999e-001
312255000 2.789384e-005 -5.862426e-005 -7.077396e-001 3.163009e-001 3.635601e-005 5.212620e-005 -7.105411e-001 3.173310e-001
312540000 -8.586484e-006 3.054378e-005 -6.995345e-001 3.351374e-001 2.993775e-005 4.835388e-005 -7.031609e-001 3.365943e-001
312825000 -2.514153e-005 -4.804282e-005 -6.912565e-001 3.538115e-001 6.251332e-005 -7.027723e-005 -6.940893e-001 3.551734e-001
313110000 -4.809724e-006 1.607380e-004 -6.829624e-001 3.727594e-001 -9.611224e-005 1.209876e-005 -6.855599e-001 3.739725e-001
313395000 -3.715741e-005 3.575169e-005 -6.732613e-001 3.910363e-001 2.710652e-005 3.715421e-005 -6.769034e-001 3.929890e-001
313680000 -7.559941e-006 1.044511e-005 -6.642254e-001 4.093242e-001 1.193021e-004 -8.731191e-005 -6.668468e-001 4.107336e-001
313965000 -3.901158e-005 -3.552384e-005 -6.538978e-001 4.277465e-001 3.337597e-005 -6.323242e-005 -6.564691e-001 4.293273e-001
314250000 -7.496942e-005 2.784038e-005 -6.437590e-001 4.456915e-001 -9.611396e-005 6.037287e-005 -6.465706e-001 4.475454e-001
314535000 -5.246179e-005 8.636442e-005 -6.332621e-001 4.636801e-001 7.933604e-005 2.076632e-005 -6.359612e-001 4.656730e-001
314820000 -5.934112e-005 1.848194e-005 -6.216752e-001 4.828106e-001 -7.756749e-005 1.627133e-005 -6.246673e-001 4.840176e-001
315105000 -5.129261e-005 -5.892008e-005 -6.100715e-001 5.004601e-001 -9.937667e-005 -8.488842e-005 -6.126293e-001 5.022914e-001
315390000 3.538627e-005 -1.989307e-005 -5.978652e-001 5.177374e-001 4.169444e-005 4.094788e-005 -6.004332e-001 5.207050e-001
315675000 -6.423520e-005 -6.286232e-005 -5.856557e-001 5.354437e-001 4.647951e-005 -4.947428e-005 -5.881490e-001 5.379602e-001
315960000 -5.661475e-005 -8.783653e-005 -5.728003e-001 5.535687e-001 -9.508671e-005 -4.200256e-005 -5.745467e-001 5.553625e-001
316245000 2.866278e-005 8.584719e-006 -5.588154e-001 5.710314e-001 -7.770561e-006 -1.069673e-004 -5.613737e-001 5.726598e-001
316530000 7.040294e-005 -1.130911e-005 -5.448904e-001 5.882728e-001 7.417317e-005 7.697394e-005 -5.473289e-001 5.904608e-001
316815000 -1.980649e-005 -9.855985e-005 -5.303575e-001 6.051220e-001 8.007952e-005 -3.617600e-005 -5.325524e-001 6.078403e-001
317100000 -4.173266e-005 7.883325e-006 -5.153260e-001 6.222531e-001 4.888936e-005 5.779289e-006 -5.176663e-001 6.245084e-001
317385000 4.560141e-005 -5.612097e-005 -4.992560e-001 6.388667e-001 -3.480957e-005 -2.877749e-005 -5.020045e-001 6.415297e-001
317670000 3.613373e-005 4.196616e-005 -4.830762e-001 6.555383e-001 5.966104e-005 -6.211062e-005 -4.856039e-001 6.582355e-001
317955000 -5.977321e-006 5.471626e-005 -4.667876e-001 6.721891e-001 7.868799e-005 -7.550114e-006 -4.688480e-001 6.748506e-001
318240000 -1.409225e-004 5.851426e-005 -4.497023e-001 6.888136e-001 -1.366859e-004 1.935111e-005 -4.515379e-001 6.912492e-001
318525000 7.567606e-005 -6.424177e-006 -4.313818e-001 7.047420e-001 1.085093e-006 2.444477e-006 -4.337302e-001 7.074350e-001
318810000 1.017290e-005 -1.066483e-005 -4.130691e-001 7.206343e-001 9.061539e-005 6.007861e-006 -4.148426e-001 7.235970e-001
319095000 -6.821314e-006 -9.645240e-005 -3.943090e-001 7.362522e-001 7.170080e-005 5.698734e-005 -3.954962e-001 7.386807e-001
319380000 -4.839568e-005 3.157286e-005 -3.738626e-001 7.514014e-001 1.247229e-005 4.629125e-005 -3.752846e-001 7.540731e-001
319665000 1.214605e-004 2.121752e-005 -3.532813e-001 7.660629e-001 -4.574940e-005 1.554990e-004 -3.546271e-001 7.695547e-001
319950000 6.634950e-005 -5.938304e-005 -3.319476e-001 7.804710e-001 3.648522e-005 5.450466e-005 -3.336875e-001 7.840502e-001
320235000 -1.909408e-006 3.777118e-005 -3.101420e-001 7.946208e-001 -2.905861e-005 -2.640647e-005 -3.110678e-001 7.984426e-001
320520000 5.001977e-005 -3.960525e-009 -2.873397e-001 8.086438e-001 7.022749e-005 5.040606e-005 -2.882760e-001 8.118590e-001
320805000 7.836117e-006 -1.020902e-004 -2.633480e-001 8.218296e-001 7.336726e-005 8.693972e-005 -2.651887e-001 8.254846e-001
321090000 4.127786e-005 4.081135e-005 -2.401506e-001 8.341776e-001 1.768553e-005 8.817584e-006 -2.414227e-001 8.382409e-001
321375000 -1.203189e-004 -3.457049e-005 -2.149796e-001 8.466690e-001 -1.679943e-005 -1.892198e-007 -2.163344e-001 8.503748e-001
321660000 3.200264e-005 3.739803e-005 -1.897468e-001 8.580293e-001 6.860506e-005 4.347856e-005 -1.902605e-001 8.620543e-001
321945000 -3.598105e-005 -2.140689e-007 -1.631641e-001 8.690845e-001 -3.992794e-005 -2.748707e-005 -1.637530e-001 8.735479e-001
322230000 -6.508387e-005 -7.373963e-007 -1.364736e-001 8.798998e-001 5.502377e-005 3.399160e-005 -1.369480e-001 8.835176e-001
322515000 -4.249019e-006 -2.539077e-005 -1.089387e-001 8.890151e-001 1.885013e-005 3.424641e-005 -1.090535e-001 8.933142e-001
322800000 7.670727e-006 -5.151256e-005 -8.003969e-002 8.986436e-001 -2.414225e-005 5.932391e-005 -8.049182e-002 9.018972e-001
323085000 5.740290e-006 2.550346e-005 -5.086642e-002 9.060094e-001 -2.512497e-005 3.376396e-005 -5.157550e-002 9.098117e-001
323370000 -6.482534e-006 -1.489489e-005 -2.104328e-002 9.128309e-001 -1.459484e-006 9.712922e-005 -2.074132e-002 9.169174e-001
323655000 5.550613e-005 5.761632e-008 9.747380e-003 9.193531e-001 -9.750964e-005 -1.209213e-006 9.451892e-003 9.231313e-001
323940000 -1.417659e-006 -3.849626e-006 4.150503e-002 9.237673e-001 -7.738954e-005 1.151411e-004 4.074408e-002 9.283655e-001
324225000 5.406845e-005 1.992655e-005 7.299908e-002 9.279995e-001 -7.347602e-006 1.086137e-004 7.351755e-002 9.323358e-001
324510000 5.960467e-005 4.767860e-005 1.054254e-001 9.308084e-001 -5.223334e-005 3.323530e-005 1.057578e-001 9.348712e-001
324795000 9.741927e-005 6.072359e-005 1.381978e-001 9.326679e-001 -1.352600e-006 6.282607e-005 1.395636e-001 9.360773e-001
325080000 1.076209e-004 4.768642e-005 1.719533e-001 9.329877e-001 -6.156415e-005 8.507540e-006 1.738386e-001 9.366890e-001
325365000 3.850812e-005 -3.175733e-005 2.066557e-001 9.326685e-001 2.765143e-005 -3.779919e-005 2.078855e-001 9.359312e-001
325650000 7.012347e-005 1.674367e-005 2.413038e-001 9.289221e-001 1.257522e-005 3.730911e-005 2.420506e-001 9.334796e-001
325935000 7.744334e-005 1.029825e-004 2.760440e-001 9.255810e-001 1.116877e-004 5.059904e-005 2.773052e-001 9.296999e-001
326220000 -8.434629e-006 1.341024e-004 3.109131e-001 9.202579e-001 -1.036617e-005 -4.010206e-005 3.119125e-001 9.237776e-001
326505000 2.575198e-005 8.773619e-005 3.466548e-001 9.136781e-001 -9.911263e-006 -4.799556e-005 3.475383e-001 9.173026e-001
326790000 -2.048521e-006 -6.192416e-005 3.822190e-001 9.054492e-001 -2.631098e-005 -5.238105e-006 3.842051e-001 9.088525e-001
327075000 3.152073e-005 -1.122783e-004 4.178516e-001 8.945104e-001 9.607080e-005 -2.111829e-004 4.197349e-001 8.981900e-001
327360000 4.858920e-005 7.446198e-005 4.532281e-001 8.823101e-001 -7.456710e-005 -1.225637e-004 4.551977e-001 8.860167e-001
327645000 -3.921070e-005 4.793675e-005 4.885495e-001 8.694625e-001 5.377192e-005 -8.605366e-006 4.907205e-001 8.727421e-001
327930000 1.053397e-005 7.393387e-005 5.237012e-001 8.536974e-001 4.798498e-005 1.961066e-005 5.255060e-001 8.577312e-001
328215000 4.229242e-007 7.843212e-005 5.576242e-001 8.362081e-001 9.670505e-005 4.670414e-005 5.599488e-001 8.407110e-001
328500000 3.026729e-005 3.421800e-005 5.918820e-001 8.178772e-001 -9.860702e-006 -7.403213e-005 5.945302e-001 8.214087e-001
328785000 -3.767733e-005 -4.321079e-005 6.263159e-001 7.973006e-001 2.242732e-005 -4.583745e-005 6.282235e-001 8.007442e-001
329070000 8.242897e-006 7.796908e-006 6.589980e-001 7.750642e-001 5.282705e-005 -9.679200e-006 6.608897e-001 7.790025e-001
329355000 -3.075058e-005 4.368705e-005 6.902018e-001 7.506541e-001 -1.999377e-005 3.296871e-005 6.926939e-001 7.543913e-001
329640000 -9.014814e-005 -2.250110e-005 7.207809e-001 7.252969e-001 2.279017e-005 -4.186292e-006 7.243357e-001 7.287301e-001
329925000 -9.045441e-005 1.040097e-004 7.510111e-001 6.981307e-001 6.394989e-005 4.786878e-005 7.538643e-001 7.010477e-001
330210000 4.198655e-006 -1.714983e-005 7.790975e-001 6.692682e-001 1.219592e-004 -8.230644e-006 7.825243e-001 6.724558e-001
330495000 2.684960e-006 -1.371699e-004 8.070000e-001 6.391501e-001 -5.658074e-005 1.137031e-005 8.099028e-001 6.418657e-001
330780000 -7.757180e-006 -7.574255e-005 8.324147e-001 6.069533e-001 -2.224126e-005 6.488437e-006 8.355357e-001 6.096673e-001
331065000 7.142049e-005 -1.116783e-005 8.558462e-001 5.741800e-001 -4.093193e-005 8.167216e-005 8.604371e-001 5.770463e-001
331350000 -5.828624e-005 3.779878e-005 8.788076e-001 5.403074e-001 -3.458160e-005 -2.072285e-005 8.824338e-001 5.424402e-001
331635000 1.034851e-005 -1.211710e-004 9.001535e-001 5.044205e-001 7.789271e-005 -3.235927e-005 9.034575e-001 5.068088e-001
331920000 -3.357172e-005 -3.226064e-006 9.189093e-001 4.684354e-001 4.825073e-005 -1.834846e-005 9.231321e-001 4.706724e-001
332205000 1.761741e-005 -6.248646e-006 9.363413e-001 4.316086e-001 -1.920741e-005 -9.662757e-005 9.401349e-001 4.332238e-001
332490000 -5.021620e-005 6.363809e-005 9.515231e-001 3.938128e-001 -2.928438e-005 3.831010e-005 9.554677e-001 3.956048e-001
332775000 -1.259728e-004 7.263599e-006 9.654929e-001 3.555939e-001 -3.235448e-005 3.096680e-005 9.695671e-001 3.563009e-001
333060000 2.705524e-005 -5.141436e-005 9.771722e-001 3.164450e-001 -6.589798e-005 -3.789232e-005 9.807703e-001 3.184268e-001
333345000 1.407990e-004 3.642940e-005 9.865612e-001 2.774812e-001 6.107239e-006 7.440165e-005 9.906328e-001 2.783473e-001
333630000 -8.606186e-005 -1.042205e-004 9.939864e-001 2.377980e-001 -3.931418e-005 4.799498e-005 9.985446e-001 2.392453e-001
333915000 2.738456e-005 5.342442e-005 1.000252e+000 1.985651e-001 7.116902e-005 6.456882e-005 1.003746e+000 1.990449e-001
334200000 1.566550e-005 -4.971111e-005 1.004093e+000 1.591826e-001 -1.423891e-005 7.432982e-005 1.007829e+000 1.598770e-001
334485000 5.789852e-005 -5.214935e-005 1.005710e+000 1.198880e-001 -3.079683e-005 -1.043588e-005 1.010005e+000 1.204916e-001
334770000 4.109048e-005 -5.120443e-005 1.005486e+000 8.133049e-002 2.277066e-005 5.788825e-005 1.010532e+000 8.161182e-002
335055000 -3.916219e-005 -9.383010e-005 1.003829e+000 4.214946e-002 -7.714599e-005 1.263584e-005 1.008894e+000 4.270665e-002
335340000 -7.441380e-005 7.808883e-005 1.000809e+000 4.355528e-003 -7.243570e-005 3.366056e-005 1.004910e+000 4.186108e-003
335625000 -1.475485e-005 -1.481409e-004 9.954637e-001 -3.251479e-002 1.782420e-005 3.601326e-005 9.998505e-001 -3.373160e-002
335910000 2.525766e-005 -3.651660e-005 9.891176e-001 -6.937011e-002 9.478590e-005 3.483595e-005 9.935243e-001 -6.971855e-002
336195000 -8.492371e-005 5.636043e-005 9.811966e-001 -1.057389e-001 -6.446814e-005 1.246623e-004 9.850696e-001 -1.058528e-001
336480000 -1.014591e-004 -8.686107e-006 9.714990e-001 -1.400332e-001 -2.375500e-006 1.451945e-005 9.754915e-001 -1.412142e-001
336765000 9.794736e-005 3.074843e-005 9.604077e-001 -1.752143e-001 1.548849e-005 7.494999e-005 9.645041e-001 -1.755912e-001
337050000 2.386398e-005 9.761177e-005 9.479234e-001 -2.080111e-001 2.262111e-005 9.648244e-005 9.525969e-001 -2.090557e-001
337335000 -3.087175e-005 1.283140e-005 9.352508e-001 -2.405906e-001 -1.415476e-004 -2.254947e-005 9.384485e-001 -2.416567e-001
337620000 -6.634963e-005 -2.411871e-005 9.195526e-001 -2.721678e-001 -2.011442e-005 -2.908553e-005 9.250697e-001 -2.730603e-001
337905000 -5.058851e-006 6.460172e-005 9.045044e-001 -3.023345e-001 -1.140676e-005 -1.574529e-006 9.088152e-001 -3.044811e-001
338190000 5.679934e-007 -2.609982e-005 8.879201e-001 -3.318064e-001 1.574288e-004 4.824597e-005 8.921729e-001 -3.332473e-001
338475000 -4.552791e-006 1.690136e-005 8.709580e-001 -3.597349e-001 3.820867e-007 3.846195e-005 8.745376e-001 -3.611243e-001
338760000 -8.321595e-006 -7.746241e-005 8.523501e-001 -3.870390e-001 -1.613922e-005 6.048512e-005 8.566014e-001 -3.881375e-001
339045000 -9.240260e-005 -8.555639e-005 8.336279e-001 -4.127828e-001 -3.687038e-005 4.186001e-005 8.381226e-001 -4.143903e-001
339330000 -1.415788e-004 -4.897604e-005 8.142639e-001 -4.380625e-001 3.007329e-005 5.831513e-005 8.176503e-001 -4.399095e-001
339615000 4.386281e-005 -7.079658e-005 7.944390e-001 -4.617936e-001 -5.180838e-005 -3.139985e-005 7.981012e-001 -4.639937e-001
339900000 -5.873589e-006 -6.112917e-006 7.739904e-001 -4.848370e-001 6.487645e-005 -6.830825e-006 7.774379e-001 -4.867995e-001
340185000 -1.137749e-005 3.746937e-005 7.536442e-001 -5.061427e-001 5.627265e-005 -6.840828e-005 7.563308e-001 -5.085926e-001
340470000 2.581132e-005 8.092079e-006 7.313499e-001 -5.265387e-001 -2.307319e-005 -2.560243e-005 7.349117e-001 -5.296096e-001
340755000 -7.388670e-006 9.670930e-005 7.101344e-001 -5.466599e-001 -6.649542e-006 -3.120876e-005 7.129866e-001 -5.491090e-001
341040000 5.663342e-005 -1.213316e-006 6.880179e-001 -5.649692e-001 2.787481e-005 -8.432227e-005 6.907787e-001 -5.675957e-001
341325000 -2.055278e-005 -2.646650e-005 6.659874e-001 -5.832891e-001 -2.596115e-005 2.749491e-005 6.686021e-001 -5.860139e-001
341610000 -6.249240e-006 1.508624e-004 6.433014e-001 -6.002678e-001 -3.779586e-005 -3.462449e-005 6.462518e-001 -6.020325e-001
341895000 1.487158e-005 -4.874850e-005 6.207886e-001 -6.154431e-001 1.837345e-004 2.950195e-005 6.235987e-001 -6.181670e-001
342180000 -2.711773e-005 3.715223e-005 5.980506e-001 -6.301674e-001 2.997218e-005 8.294687e-005 6.010056e-001 -6.332734e-001
342465000 7.049170e-005 -2.947689e-005 5.755822e-001 -6.446372e-001 6.590570e-005 4.343423e-005 5.783530e-001 -6.475290e-001
342750000 3.735638e-005 6.544442e-005 5.526530e-001 -6.578622e-001 5.605448e-005 7.856905e-005 5.552832e-001 -6.605700e-001
343035000 -1.868127e-005 2.838786e-006 5.299608e-001 -6.704478e-001 -1.343165e-004 8.176348e-005 5.319535e-001 -6.727113e-001
343320000 -2.347181e-005 2.300727e-005 5.071975e-001 -6.818365e-001 -2.902984e-005 -8.513581e-005 5.093426e-001 -6.847375e-001
343605000 2.982016e-006 4.923640e-005 4.844096e-001 -6.926700e-001 -8.927062e-006 -5.659743e-005 4.858065e-001 -6.955155e-001
343890000 6.556914e-005 4.880504e-005 4.611367e-001 -7.026132e-001 -4.262956e-005 1.659728e-005 4.631781e-001 -7.052903e-001
