!Agilent Technologies,N5230C,SG49000117,A.08.50.07
!Agilent N5230C: A.08.50.07
!Date: Monday, March 18, 2024 19:14:35
!Correction: S11(Off) 
!S21(Off) 
!S12(Off) 
!S22(Off) 
!S2P File: Measurements: S11, S21, S12, S22:
# Hz S  RI   R 50
300000000 4.758770e-005 -1.544180e-005 -6.688294e-001 -5.804428e-001 -1.040827e-004 -4.178560e-005 -6.712708e-001 -5.833926e-001
300285000 -4.368572e-005 8.291264e-005 -6.816896e-001 -5.575582e-001 -1.455123e-005 -3.557534e-005 -6.844459e-001 -5.594358e-001
300570000 -2.410775e-005 -1.277560e-004 -6.938703e-001 -5.333596e-001 7.393913e-006 4.416162e-006 -6.964962e-001 -5.354515e-001
300855000 -5.273838e-005 2.403209e-006 -7.055401e-001 -5.096136e-001 -3.357845e-005 -1.802295e-005 -7.079059e-001 -5.115061e-001
301140000 4.150541e-005 -4.215737e-006 -7.158567e-001 -4.858333e-001 -8.237075e-005 2.966546e-005 -7.184603e-001 -4.877495e-001
301425000 -1.517083e-005 -9.361971e-005 -7.251856e-001 -4.614818e-001 1.741607e-005 -1.575300e-005 -7.280817e-001 -4.638066e-001
301710000 -6.008305e-005 5.960319e-005 -7.342396e-001 -4.378702e-001 -4.606353e-006 3.122591e-005 -7.368923e-001 -4.399657e-001
301995000 1.920109e-005 -3.206980e-005 -7.419002e-001 -4.142233e-001 -3.268603e-005 2.743202e-005 -7.452593e-001 -4.159854e-001
302280000 -8.558672e-006 -1.199394e-004 -7.498013e-001 -3.912007e-001 2.594826e-005 1.257832e-004 -7.524703e-001 -3.921204e-001
302565000 1.046291e-004 -8.495760e-005 -7.560193e-001 -3.671718e-001 -1.082980e-004 -1.171290e-005 -7.587153e-001 -3.691963e-001
302850000 -3.339406e-005 -4.349999e-005 -7.622269e-001 -3.443352e-001 4.214208e-005 2.275880e-005 -7.654643e-001 -3.449070e-001
303135000 1.012488e-004 1.037302e-004 -7.679494e-001 -3.206218e-001 -3.404175e-005 6.158571e-005 -7.706417e-001 -3.225495e-001
303420000 1.089880e-004 -8.240119e-005 -7.729048e-001 -2.980385e-001 4.667179e-007 -5.937476e-005 -7.754104e-001 -2.991159e-001
303705000 1.510713e-005 -7.583816e-005 -7.765971e-001 -2.749524e-001 -5.134103e-005 2.736366e-005 -7.793877e-001 -2.760473e-001
303990000 1.030954e-004 8.242537e-005 -7.808068e-001 -2.520623e-001 3.992816e-006 1.682212e-005 -7.834286e-001 -2.534489e-001
304275000 1.923097e-005 -3.254863e-005 -7.836486e-001 -2.297879e-001 -3.222519e-005 -5.070688e-005 -7.867015e-001 -2.309706e-001
304560000 -1.321058e-006 -6.409940e-005 -7.863941e-001 -2.072031e-001 -3.865155e-005 -9.764829e-005 -7.890332e-001 -2.084800e-001
304845000 -3.064615e-005 1.226339e-004 -7.879931e-001 -1.852580e-001 4.808521e-006 -8.277965e-005 -7.914904e-001 -1.862481e-001
305130000 2.875942e-005 4.268000e-005 -7.901061e-001 -1.637609e-001 -6.419270e-005 2.215173e-005 -7.927181e-001 -1.636522e-001
305415000 -3.080466e-005 2.274757e-005 -7.911000e-001 -1.414837e-001 5.642312e-005 3.033839e-005 -7.936836e-001 -1.417248e-001
305700000 7.024084e-005 4.159924e-005 -7.915344e-001 -1.200648e-001 -3.814997e-005 -1.052435e-005 -7.946334e-001 -1.202389e-001
305985000 6.148359e-006 1.161451e-004 -7.916918e-001 -9.778553e-002 -3.743359e-005 -6.842815e-005 -7.950449e-001 -9.854858e-002
306270000 -4.604878e-005 1.188658e-004 -7.912801e-001 -7.658271e-002 -2.447051e-005 1.061014e-006 -7.943461e-001 -7.721496e-002
306555000 -4.821186e-005 5.472431e-005 -7.909317e-001 -5.557398e-002 5.925837e-005 1.265580e-006 -7.940439e-001 -5.536262e-002
306840000 -7.143116e-005 -7.635611e-005 -7.892195e-001 -3.410627e-002 -8.417521e-005 -9.851267e-005 -7.928757e-001 -3.413993e-002
307125000 1.243520e-004 -3.876142e-005 -7.883968e-001 -1.304066e-002 -1.105856e-005 -1.070387e-004 -7.912092e-001 -1.303774e-002
307410000 -1.521781e-005 -9.804750e-006 -7.862967e-001 7.866723e-003 -3.807184e-005 1.750753e-005 -7.893632e-001 7.849682e-003
307695000 3.763379e-005 -7.426963e-006 -7.840623e-001 2.826395e-002 2.944437e-005 -4.022538e-005 -7.869916e-001 2.830098e-002
307980000 9.350650e-005 2.993360e-005 -7.813501e-001 4.897036e-002 8.333035e-005 -7.678100e-005 -7.840798e-001 4.877628e-002
308265000 -6.521710e-005 3.473527e-005 -7.781073e-001 6.870291e-002 5.797153e-005 1.185428e-004 -7.804859e-001 6.945018e-002
308550000 4.879788e-005 9.838604e-005 -7.745199e-001 8.986857e-002 4.974976e-005 2.641269e-005 -7.777749e-001 8.934154e-002
308835000 -4.460987e-005 8.697384e-005 -7.708509e-001 1.091371e-001 2.356618e-005 8.645960e-006 -7.737066e-001 1.100244e-001
309120000 8.754882e-005 1.978699e-004 -7.666139e-001 1.295862e-001 3.933935e-005 -7.787469e-005 -7.696638e-001 1.300446e-001
309405000 -7.486011e-005 3.699274e-005 -7.620634e-001 1.489718e-001 2.140909e-005 4.674544e-005 -7.645336e-001 1.502313e-001
309690000 -4.967028e-005 3.719568e-005 -7.572309e-001 1.691464e-001 -6.282839e-005 4.742044e-005 -7.599362e-001 1.693544e-001
309975000 4.657945e-005 -5.150236e-005 -7.518219e-001 1.881791e-001 2.406324e-005 -8.638052e-007 -7.550188e-001 1.895618e-001
310260000 -8.061347e-005 -3.969955e-005 -7.460992e-001 2.075719e-001 -1.041490e-004 4.412637e-005 -7.489962e-001 2.085404e-001
310545000 -3.774531e-007 1.502180e-004 -7.406546e-001 2.273380e-001 1.047515e-004 6.422720e-005 -7.431110e-001 2.284118e-001
310830000 -1.080957e-004 -1.350080e-005 -7.337804e-001 2.461690e-001 -1.058926e-004 6.261365e-005 -7.362982e-001 2.476375e-001
311115000 -5.151945e-005 8.188974e-006 -7.269853e-001 2.655621e-001 -1.242654e-004 -1.857610e-005 -7.298309e-001 2.666594e-001
311400000 -3.032343e-005 -6.996335e-005 -7.201082e-001 2.845234e-001 4.309722e-005 -1.905555e-005 -7.227164e-001 2.861238e-001
311685000 5.375935e-005 -1.179991e-004 -7.129648e-001 3.037601e-001 -4.290665e-005 3.885064e-005 -7.153582e-001 3.044572e-001
311970000 1.069110e-004 -1.643956e-005 -7.048145e-001 3.228057e-001 -1.698298e-005 3.900050e-006 -7.078402e-001 3.233767e-001
312255000 2.890746e-005 6.954273e-006 -6.964513e-001 3.409913e-001 -1.610520e-005 -1.948806e-005 -6.995254e-001 3.426231e-001
312540000 5.902792e-005 9.181711e-005 -6.879366e-001 3.601854e-001 -2.302337e-005 -1.543354e-004 -6.906344e-001 3.615203e-001
312825000 1.287182e-004 -6.666380e-005 -6.789256e-001 3.782524e-001 -1.130915e-004 -1.515516e-004 -6.821035e-001 3.798295e-001
313110000 1.107284e-004 -4.378215e-005 -6.699165e-001 3.968671e-001 -5.116835e-005 -5.257970e-005 -6.726397e-001 3.986310e-001
313395000 -5.056666e-005 1.086694e-004 -6.605541e-001 4.149460e-001 7.051207e-005 1.738454e-006 -6.631371e-001 4.171690e-001
313680000 -1.100248e-004 -2.732795e-005 -6.500193e-001 4.333647e-001 6.297640e-005 -7.633128e-005 -6.527095e-001 4.352810e-001
313965000 6.398393e-005 1.086223e-004 -6.396540e-001 4.514276e-001 -2.684281e-005 -2.460942e-005 -6.420805e-001 4.531332e-001
314250000 4.072008e-005 4.875507e-005 -6.291320e-001 4.696135e-001 3.163289e-005 -8.617387e-007 -6.312104e-001 4.713384e-001
314535000 5.786551e-005 2.237747e-005 -6.172954e-001 4.873308e-001 -1.524046e-005 3.003848e-005 -6.201264e-001 4.895478e-001
314820000 -4.609301e-005 7.779898e-005 -6.058464e-001 5.053219e-001 3.478593e-005 -7.981311e-005 -6.082338e-001 5.070900e-001
315105000 3.576976e-005 -8.735579e-005 -5.936426e-001 5.223376e-001 -8.165141e-005 1.976050e-005 -5.958403e-001 5.250103e-001
315390000 -3.821907e-006 1.500148e-004 -5.807655e-001 5.403765e-001 5.108392e-005 2.525939e-005 -5.829269e-001 5.425231e-001
315675000 -8.810269e-005 -3.045640e-005 -5.675921e-001 5.579662e-001 -5.941513e-005 7.602471e-005 -5.694430e-001 5.605975e-001
315960000 1.022944e-004 1.872290e-007 -5.533761e-001 5.756528e-001 1.894443e-005 2.722290e-005 -5.564395e-001 5.777124e-001
316245000 -1.125647e-005 1.080842e-005 -5.390596e-001 5.927407e-001 -5.992879e-005 7.104708e-005 -5.415652e-001 5.952204e-001
316530000 -6.188194e-006 -1.509908e-005 -5.246220e-001 6.094732e-001 -5.819160e-005 -3.354300e-005 -5.272037e-001 6.116903e-001
316815000 8.409571e-005 3.238108e-005 -5.093441e-001 6.267670e-001 9.215853e-006 6.868624e-005 -5.114141e-001 6.293243e-001
317100000 -4.130200e-005 -1.649780e-005 -4.935097e-001 6.431437e-001 -3.380190e-005 -1.702100e-005 -4.953700e-001 6.458643e-001
317385000 4.582633e-005 -1.139095e-006 -4.773106e-001 6.602627e-001 1.491249e-005 8.961211e-005 -4.793897e-001 6.627266e-001
317670000 -9.595189e-006 -4.595909e-006 -4.604458e-001 6.761494e-001 1.068981e-004 -1.061572e-005 -4.621854e-001 6.794673e-001
317955000 5.018068e-005 -1.335118e-004 -4.430442e-001 6.924468e-001 -1.234074e-004 -6.025788e-005 -4.446054e-001 6.951026e-001
318240000 -4.936376e-005 -1.348867e-004 -4.247797e-001 7.083007e-001 9.656935e-006 1.007949e-005 -4.261549e-001 7.115757e-001
318525000 8.729743e-005 -9.032295e-005 -4.058121e-001 7.243530e-001 -3.186017e-005 4.780088e-005 -4.073777e-001 7.276145e-001
318810000 -8.357349e-005 2.073660e-005 -3.865722e-001 7.396520e-001 4.303844e-005 -8.134782e-005 -3.884222e-001 7.422403e-001
319095000 6.544616e-005 6.503305e-005 -3.662753e-001 7.542607e-001 6.407782e-007 8.679321e-005 -3.681178e-001 7.577274e-001
319380000 1.920709e-005 1.257098e-005 -3.460722e-001 7.685745e-001 2.678319e-005 -2.967900e-005 -3.473216e-001 7.722596e-001
319665000 -2.966763e-005 -3.764624e-005 -3.242885e-001 7.830064e-001 -4.361949e-005 -4.372555e-005 -3.254652e-001 7.865268e-001
319950000 -5.514952e-005 -1.201409e-004 -3.026280e-001 7.973291e-001 -2.571880e-007 -8.893166e-005 -3.038124e-001 8.007352e-001
320235000 3.620814e-008 2.442574e-005 -2.796731e-001 8.109486e-001 3.672257e-005 -2.621942e-005 -2.807356e-001 8.141288e-001
320520000 8.544756e-005 1.028309e-004 -2.559127e-001 8.238943e-001 -1.153640e-004 -4.865405e-005 -2.569527e-001 8.272654e-001
320805000 7.614389e-005 1.002653e-005 -2.319342e-001 8.366690e-001 2.601524e-005 4.945807e-006 -2.326739e-001 8.395535e-001
321090000 2.300828e-005 9.367486e-005 -2.064403e-001 8.486188e-001 -5.142694e-005 3.810087e-006 -2.075225e-001 8.516105e-001
321375000 9.863099e-005 -7.391761e-005 -1.808402e-001 8.598881e-001 2.737100e-005 1.258684e-004 -1.819500e-001 8.633071e-001
321660000 -1.031513e-004 1.446484e-005 -1.549063e-001 8.702840e-001 2.458579e-005 3.362981e-005 -1.553636e-001 8.740873e-001
321945000 -2.827347e-005 -9.011856e-005 -1.274491e-001 8.803300e-001 4.584971e-005 1.745136e-005 -1.276186e-001 8.843505e-001
322230000 -3.506956e-005 -3.897873e-006 -9.957731e-002 8.903334e-001 2.301834e-005 2.823155e-005 -9.980985e-002 8.935782e-001
322515000 -4.367198e-005 -1.292565e-005 -7.060286e-002 8.980375e-001 -2.520484e-006 5.128117e-005 -7.150524e-002 9.020023e-001
322800000 -1.944725e-005 -8.184184e-006 -4.185823e-002 9.057833e-001 7.535372e-005 -3.366894e-005 -4.141714e-002 9.096859e-001
323085000 -1.039056e-004 -3.844302e-005 -1.155667e-002 9.124650e-001 3.120483e-005 2.780526e-005 -1.147431e-002 9.167656e-001
323370000 -2.970546e-005 -1.138950e-005 1.861832e-002 9.179676e-001 -7.336874e-005 8.197144e-005 1.906251e-002 9.223598e-001
323655000 5.704318e-005 -5.470086e-005 5.031646e-002 9.231852e-001 -8.277545e-005 -2.809501e-005 5.140716e-002 9.274225e-001
323940000 -1.566919e-005 -3.889202e-006 8.208659e-002 9.265481e-001 -8.251278e-005 5.916692e-005 8.328420e-002 9.308382e-001
324225000 -8.092728e-005 1.105524e-005 1.150715e-001 9.293872e-001 -2.454590e-005 7.084096e-005 1.160025e-001 9.327009e-001
324510000 1.103071e-005 -7.951881e-005 1.485463e-001 9.301172e-001 -1.640025e-004 7.339405e-005 1.490405e-001 9.344637e-001
324795000 -1.133869e-005 9.325626e-006 1.821221e-001 9.300851e-001 3.039059e-005 2.014712e-006 1.824765e-001 9.341412e-001
325080000 -1.738078e-004 -1.542812e-005 2.160431e-001 9.289867e-001 -7.124286e-005 -2.177452e-005 2.172479e-001 9.329156e-001
325365000 -7.765274e-005 7.101228e-006 2.505450e-001 9.268701e-001 6.239732e-005 -4.134289e-005 2.515428e-001 9.293898e-001
325650000 -4.657450e-005 -6.528186e-005 2.856314e-001 9.223423e-001 -2.255151e-006 8.390404e-006 2.866544e-001 9.263567e-001
325935000 9.146608e-005 -5.021844e-005 3.207850e-001 9.162821e-001 3.725889e-005 -1.133711e-005 3.222436e-001 9.197354e-001
326220000 6.690605e-005 -1.013316e-004 3.558121e-001 9.089135e-001 7.123288e-006 -1.767727e-006 3.579276e-001 9.126850e-001
326505000 9.830757e-005 3.774614e-006 3.912940e-001 9.005747e-001 -3.794226e-005 -3.703762e-005 3.928430e-001 9.035810e-001
326790000 -5.808875e-006 4.973159e-005 4.268543e-001 8.893782e-001 -2.217749e-005 -4.661447e-005 4.290900e-001 8.932822e-001
327075000 5.878886e-005 3.415343e-005 4.620769e-001 8.770825e-001 1.587418e-005 4.047130e-006 4.652098e-001 8.811972e-001
327360000 6.950581e-005 -1.929576e-005 4.975172e-001 8.636705e-001 2.712501e-005 -2.634289e-005 4.999621e-001 8.677076e-001
327645000 -9.338289e-006 7.355112e-005 5.323530e-001 8.475065e-001 -4.884096e-005 -4.295677e-005 5.349338e-001 8.506686e-001
327930000 -1.123482e-004 -3.908855e-005 5.668072e-001 8.296493e-001 5.117919e-005 3.768578e-005 5.693264e-001 8.336845e-001
328215000 4.750520e-005 6.597020e-005 6.005828e-001 8.110462e-001 5.972800e-005 8.617654e-005 6.030700e-001 8.141764e-001
328500000 7.592965e-005 -5.966476e-005 6.334236e-001 7.901242e-001 -5.917772e-005 1.035170e-004 6.366201e-001 7.931973e-001
328785000 8.288844e-006 -4.631362e-005 6.661071e-001 7.673605e-001 6.200888e-005 1.723047e-005 6.697446e-001 7.703745e-001
329070000 -2.301108e-005 -1.279899e-004 6.975487e-001 7.427160e-001 1.160188e-005 5.199870e-006 7.013947e-001 7.460738e-001
329355000 4.062201e-005 -2.334902e-005 7.284109e-001 7.166421e-001 4.022542e-006 1.209045e-004 7.316170e-001 7.201124e-001
329640000 -5.322329e-005 1.943438e-005 7.576786e-001 6.890604e-001 3.616809e-006 5.486895e-005 7.613744e-001 6.919505e-001
329925000 5.525931e-006 4.700270e-005 7.862604e-001 6.602185e-001 1.743333e-005 -5.660889e-005 7.895223e-001 6.626191e-001
330210000 7.439339e-005 3.762859e-005 8.129399e-001 6.294852e-001 -2.133163e-005 3.263031e-005 8.168212e-001 6.317451e-001
330495000 1.255863e-004 -7.903374e-006 8.386832e-001 5.973213e-001 7.622927e-005 2.229584e-005 8.417208e-001 6.001178e-001
330780000 4.644958e-005 6.112183e-005 8.622545e-001 5.645660e-001 -1.343781e-004 -3.091920e-005 8.658250e-001 5.664098e-001
331065000 8.927254e-005 1.088989e-004 8.839531e-001 5.296143e-001 -1.684181e-004 5.323192e-005 8.883093e-001 5.316680e-001
331350000 6.638558e-005 6.583845e-005 9.051598e-001 4.934723e-001 -8.562670e-005 -1.330813e-004 9.089381e-001 4.961873e-001
331635000 -8.785650e-005 8.812784e-005 9.236754e-001 4.574026e-001 -9.764265e-005 -6.525151e-005 9.273747e-001 4.593650e-001
331920000 -4.414218e-005 6.861056e-005 9.401436e-001 4.199758e-001 -8.562506e-006 -5.192459e-005 9.441031e-001 4.212376e-001
332205000 2.847833e-006 4.827218e-005 9.551518e-001 3.818642e-001 -5.603614e-005 -1.156607e-004 9.593347e-001 3.842412e-001
332490000 9.313905e-005 2.602245e-005 9.686104e-001 3.434919e-001 1.454693e-005 -7.698021e-005 9.727567e-001 3.452570e-001
332775000 -1.287635e-004 -4.670536e-005 9.799811e-001 3.049792e-001 -4.491266e-005 -8.264731e-005 9.835882e-001 3.056082e-001
333060000 1.502249e-005 -7.687646e-007 9.885941e-001 2.655344e-001 4.961500e-005 -1.248029e-004 9.924499e-001 2.659005e-001
333345000 -2.959520e-005 -6.266400e-006 9.962333e-001 2.259702e-001 3.680529e-005 -4.475551e-005 9.997822e-001 2.271665e-001
333630000 1.490071e-005 7.065156e-005 1.000910e+000 1.873225e-001 -2.226497e-006 2.737612e-005 1.005231e+000 1.876682e-001
333915000 -2.166126e-006 -5.528955e-006 1.004680e+000 1.469643e-001 -2.831800e-005 2.817898e-005 1.009081e+000 1.475459e-001
334200000 5.079533e-006 8.129056e-005 1.006141e+000 1.079109e-001 1.365925e-005 -7.113056e-006 1.010596e+000 1.085772e-001
334485000 -1.046205e-004 -5.395626e-005 1.005846e+000 6.925573e-002 1.469320e-005 9.642575e-005 1.009981e+000 6.940521e-002
334770000 -6.755989e-005 1.545485e-005 1.003478e+000 3.049892e-002 -2.379373e-006 4.944777e-005 1.008247e+000 3.054371e-002
335055000 -3.330724e-005 3.223479e-005 9.993935e-001 -7.698589e-003 6.506364e-005 1.316554e-005 1.004443e+000 -7.351774e-003
335340000 7.008920e-005 4.792298e-005 9.937370e-001 -4.489622e-002 -5.352048e-006 1.351180e-004 9.988110e-001 -4.514064e-002
335625000 -9.493101e-005 3.249136e-006 9.870172e-001 -8.138055e-002 -5.374784e-005 -5.184777e-005 9.911948e-001 -8.160521e-002
335910000 -9.092620e-005 -7.451127e-005 9.785338e-001 -1.173684e-001 -2.698653e-005 5.581644e-005 9.827956e-001 -1.175701e-001
336195000 -2.382483e-005 -5.453314e-005 9.682237e-001 -1.524028e-001 2.887523e-005 2.153353e-005 9.728367e-001 -1.527888e-001
336480000 5.574857e-005 -3.322886e-005 9.565138e-001 -1.862029e-001 8.138175e-005 -9.605482e-006 9.613606e-001 -1.871659e-001
336765000 -3.272736e-005 -2.128407e-006 9.441974e-001 -2.197498e-001 3.607479e-005 -6.951118e-005 9.487271e-001 -2.200396e-001
337050000 5.028387e-005 -3.677008e-005 9.307470e-001 -2.518092e-001 4.872728e-005 -6.169841e-005 9.344481e-001 -2.528004e-001
337335000 2.550119e-005 -5.989346e-005 9.156692e-001 -2.833118e-001 -5.624341e-008 5.293677e-005 9.197499e-001 -2.844177e-001
337620000 -1.083926e-005 2.721899e-005 9.000761e-001 -3.129362e-001 -7.248298e-005 -1.787364e-005 9.034585e-001 -3.145253e-001
337905000 -4.425665e-005 6.016788e-005 8.828687e-001 -3.418415e-001 -1.056808e-004 -1.152986e-005 8.861787e-001 -3.436329e-001
338190000 -8.741445e-005 1.056817e-004 8.650989e-001 -3.695323e-001 -9.959045e-005 9.822109e-005 8.689057e-001 -3.716699e-001
338475000 2.892496e-005 1.053536e-005 8.468124e-001 -3.970084e-001 -8.517682e-005 -4.977563e-005 8.508732e-001 -3.988580e-001
338760000 4.474919e-006 -7.062444e-005 8.279134e-001 -4.225151e-001 2.630652e-006 8.207950e-006 8.311657e-001 -4.246569e-001
339045000 -3.152229e-005 -2.963685e-005 8.083425e-001 -4.470624e-001 5.392395e-005 -6.418589e-005 8.110141e-001 -4.490503e-001
339330000 -6.331664e-006 1.905835e-005 7.876522e-001 -4.707620e-001 3.355044e-005 3.941690e-006 7.910246e-001 -4.729229e-001
339615000 -4.233169e-005 -1.791496e-005 7.668696e-001 -4.934264e-001 -2.771864e-006 -2.502404e-005 7.703238e-001 -4.956441e-001
339900000 -9.805949e-005 -8.151629e-005 7.454589e-001 -5.149940e-001 -1.173051e-005 -5.493538e-005 7.486805e-001 -5.171933e-001
340185000 7.957137e-005 -1.427679e-004 7.241418e-001 -5.352272e-001 8.111888e-006 -1.092939e-004 7.270500e-001 -5.371797e-001
340470000 1.954738e-005 -4.368867e-005 7.028068e-001 -5.544378e-001 -2.015397e-005 5.635709e-005 7.055644e-001 -5.572251e-001
340755000 6.239911e-005 -2.687174e-005 6.803799e-001 -5.729552e-001 -3.463084e-005 7.355973e-005 6.830288e-001 -5.751501e-001
341040000 -5.371228e-006 -1.042910e-005 6.576590e-001 -5.903475e-001 -3.767074e-005 -3.254509e-005 6.604934e-001 -5.924562e-001
341325000 1.536357e-005 -1.686775e-005 6.347719e-001 -6.065940e-001 -4.351561e-005 -3.299275e-005 6.379159e-001 -6.094647e-001
341610000 1.132518e-004 -2.331882e-005 6.125304e-001 -6.221217e-001 -1.788630e-005 -1.757697e-005 6.151249e-001 -6.247492e-001
341895000 -1.864768e-005 -1.503309e-004 5.898504e-001 -6.365880e-001 -6.752426e-005 -3.721315e-006 5.920940e-001 -6.392368e-001
342180000 -5.767696e-005 6.172329e-006 5.661986e-001 -6.505118e-001 -1.232710e-004 1.932237e-005 5.689751e-001 -6.536630e-001
342465000 -7.254921e-005 1.129093e-005 5.436418e-001 -6.638963e-001 3.753594e-006 -4.041208e-006 5.461788e-001 -6.665916e-001
342750000 6.403736e-005 7.458632e-005 5.206849e-001 -6.759254e-001 -1.487242e-004 -6.870113e-005 5.225564e-001 -6.786077e-001
343035000 -5.692974e-005 7.649615e-005 4.977886e-001 -6.866787e-001 4.563067e-005 2.263291e-005 4.995807e-001 -6.898697e-001
343320000 1.167960e-005 -5.832933e-008 4.752113e-001 -6.977205e-001 -1.104297e-004 -1.554893e-004 4.765323e-001 -7.002281e-001
343605000 -1.720528e-005 -7.914616e-005 4.521188e-001 -7.071634e-001 4.893416e-006 1.112467e-004 4.535901e-001 -7.103783e-001
343890000 4.565596e-005 -5.744844e-005 4.291820e-001 -7.162364e-001 -3.987702e-005 2.067801e-005 4.309059e-001 -7.191696e-001
