!Agilent Technologies,N5230C,SG49000117,A.08.50.07
!Agilent N5230C: A.08.50.07
!Date: Sunday, March 17, 2024 01:20:21
!Correction: S11(Off) 
!S21(Off) 
!S12(Off) 
!S22(Full 1 Port(2)) 
!S2P File: Measurements: S11, S21, S12, S22:
# Hz S  RI   R 50
300000000 -9.172429e-005 -4.803352e-005 -6.479301e-001 -6.141593e-001 1.444984e-005 -3.098695e-005 9.879156e-001 -2.675447e-001
300285000 -4.473238e-005 1.811419e-005 -6.624686e-001 -5.907772e-001 -1.229881e-004 5.168809e-005 9.880810e-001 -2.686391e-001
300570000 -1.736615e-005 -1.019579e-004 -6.755098e-001 -5.671345e-001 5.930247e-006 -1.839077e-004 9.892812e-001 -2.694317e-001
300855000 1.067613e-005 6.405719e-005 -6.879262e-001 -5.435141e-001 1.699996e-004 -3.500306e-005 9.882550e-001 -2.686524e-001
301140000 5.053197e-005 7.863366e-005 -6.992491e-001 -5.198802e-001 -4.702108e-006 6.534129e-005 9.891126e-001 -2.686382e-001
301425000 4.068420e-006 7.007211e-005 -7.097822e-001 -4.955411e-001 1.063015e-004 -7.107825e-005 9.888246e-001 -2.690624e-001
301710000 -9.014411e-006 1.011934e-004 -7.200218e-001 -4.720431e-001 3.677039e-005 2.526773e-006 9.887460e-001 -2.709892e-001
301995000 5.905386e-005 5.258741e-005 -7.289338e-001 -4.484274e-001 4.344949e-005 1.004262e-004 9.883585e-001 -2.707588e-001
302280000 1.019602e-004 2.992165e-005 -7.376962e-001 -4.247615e-001 5.749042e-005 3.886117e-005 9.886248e-001 -2.697080e-001
302565000 -7.616014e-005 -1.028452e-005 -7.451392e-001 -4.012291e-001 -3.513415e-005 -5.835414e-005 9.884445e-001 -2.703586e-001
302850000 1.329882e-005 -1.582131e-005 -7.520903e-001 -3.778369e-001 -6.794297e-005 -5.717947e-005 9.875898e-001 -2.697148e-001
303135000 -4.427913e-005 1.140053e-004 -7.589661e-001 -3.549029e-001 6.114315e-005 6.357528e-005 9.885289e-001 -2.700294e-001
303420000 -5.101746e-005 2.146661e-005 -7.647976e-001 -3.317507e-001 -3.832269e-005 -8.862543e-006 9.881677e-001 -2.713283e-001
303705000 -3.334811e-005 -1.672383e-005 -7.696905e-001 -3.084980e-001 6.209433e-005 2.508443e-005 9.898257e-001 -2.729787e-001
303990000 4.965682e-005 -1.787423e-005 -7.738676e-001 -2.858442e-001 -2.225933e-005 5.225896e-005 9.874235e-001 -2.701674e-001
304275000 -5.033957e-005 -4.687411e-005 -7.779005e-001 -2.631195e-001 -5.133555e-006 -3.144430e-005 9.879330e-001 -2.740244e-001
304560000 -4.398162e-005 -2.738771e-005 -7.819239e-001 -2.402591e-001 1.562388e-005 -2.478622e-006 9.881751e-001 -2.725325e-001
304845000 -3.864483e-005 -4.821647e-005 -7.843297e-001 -2.185362e-001 5.317757e-005 2.804933e-005 9.878342e-001 -2.734023e-001
305130000 2.915302e-005 7.084101e-005 -7.863529e-001 -1.956788e-001 4.885331e-005 4.526866e-006 9.878103e-001 -2.718258e-001
305415000 4.202270e-005 7.795906e-006 -7.886700e-001 -1.739830e-001 6.335328e-005 -4.772236e-005 9.884076e-001 -2.744603e-001
305700000 3.366844e-005 -1.155958e-005 -7.897290e-001 -1.520241e-001 -6.133482e-005 5.522109e-005 9.879718e-001 -2.722117e-001
305985000 -4.723656e-006 2.009163e-005 -7.907395e-001 -1.298249e-001 -2.473315e-005 -4.474683e-005 9.900476e-001 -2.735410e-001
306270000 6.619181e-005 -1.151213e-005 -7.912647e-001 -1.087010e-001 -5.011050e-005 3.846826e-005 9.906177e-001 -2.730961e-001
306555000 -4.182967e-005 2.172535e-005 -7.907571e-001 -8.749894e-002 5.499672e-005 -2.850935e-005 9.885279e-001 -2.743799e-001
306840000 -2.538211e-007 6.394393e-005 -7.906266e-001 -6.588487e-002 -5.356527e-006 4.640610e-005 9.865928e-001 -2.720276e-001
307125000 4.924217e-005 -3.865643e-005 -7.899215e-001 -4.499546e-002 -5.433109e-006 3.213110e-005 9.875335e-001 -2.753825e-001
307410000 -1.427152e-004 -8.367209e-005 -7.885723e-001 -2.476539e-002 4.162445e-005 4.453000e-005 9.867932e-001 -2.752002e-001
307695000 -8.201212e-005 -1.663382e-005 -7.869660e-001 -3.063458e-003 1.808432e-005 9.770859e-005 9.880321e-001 -2.758937e-001
307980000 -4.336434e-005 -7.463242e-005 -7.849782e-001 1.777073e-002 -1.287299e-004 1.157658e-004 9.872456e-001 -2.750680e-001
308265000 -4.591437e-005 -7.142329e-005 -7.820576e-001 3.811552e-002 -2.475660e-005 5.351736e-005 9.873366e-001 -2.747907e-001
308550000 2.966267e-005 -7.521685e-005 -7.791381e-001 5.828463e-002 -7.288344e-005 -9.120373e-005 9.867784e-001 -2.741533e-001
308835000 8.601131e-005 9.918293e-005 -7.761357e-001 7.863181e-002 6.009584e-006 3.098113e-005 9.862973e-001 -2.762428e-001
309120000 -9.977169e-005 -6.289921e-005 -7.732106e-001 9.870914e-002 -4.272691e-005 5.590099e-005 9.870760e-001 -2.768223e-001
309405000 5.858802e-005 3.362813e-006 -7.686289e-001 1.183520e-001 1.406274e-004 3.483802e-005 9.891231e-001 -2.770859e-001
309690000 -9.174574e-005 6.723592e-005 -7.644057e-001 1.386748e-001 -4.860024e-005 -9.728508e-005 9.888383e-001 -2.772072e-001
309975000 9.029345e-005 -2.726199e-005 -7.600614e-001 1.583481e-001 3.956710e-005 -3.074572e-005 9.872683e-001 -2.780842e-001
310260000 -6.045903e-005 1.127408e-005 -7.543700e-001 1.782558e-001 4.759024e-005 -5.865149e-006 9.886136e-001 -2.769980e-001
310545000 -5.806074e-005 4.984748e-005 -7.499096e-001 1.974295e-001 -1.019219e-005 2.101880e-005 9.869539e-001 -2.798635e-001
310830000 3.157858e-005 5.047759e-005 -7.436033e-001 2.170108e-001 5.139140e-005 -5.280698e-005 9.893620e-001 -2.795210e-001
311115000 -3.907552e-005 7.225186e-005 -7.379057e-001 2.361266e-001 -7.786254e-006 1.421803e-005 9.857516e-001 -2.783168e-001
311400000 -6.519060e-006 6.377914e-005 -7.314513e-001 2.553332e-001 -4.572630e-005 9.492678e-006 9.855437e-001 -2.787101e-001
311685000 -3.687268e-005 7.715085e-005 -7.241745e-001 2.743309e-001 1.003063e-004 -1.242365e-005 9.875432e-001 -2.783186e-001
311970000 4.122626e-005 -2.022283e-005 -7.170361e-001 2.934142e-001 7.157610e-005 -4.191304e-005 9.867118e-001 -2.793570e-001
312255000 5.732412e-005 5.017389e-005 -7.097688e-001 3.120646e-001 5.994912e-006 -2.448327e-005 9.854103e-001 -2.795045e-001
312540000 -4.760814e-005 -2.151078e-006 -7.012956e-001 3.305581e-001 -1.095906e-004 2.533900e-005 9.858024e-001 -2.800718e-001
312825000 -1.214847e-006 -6.948556e-006 -6.937692e-001 3.502066e-001 4.010167e-006 -5.748176e-005 9.874642e-001 -2.791617e-001
313110000 -1.365446e-005 -9.585890e-005 -6.851314e-001 3.684498e-001 -5.408838e-005 -3.644036e-005 9.857994e-001 -2.806013e-001
313395000 -1.355066e-005 9.297984e-006 -6.760468e-001 3.868496e-001 -3.255400e-005 -1.505179e-005 9.871749e-001 -2.797960e-001
313680000 7.032193e-005 -1.475732e-004 -6.667863e-001 4.055030e-001 -2.760923e-005 -8.441452e-006 9.872462e-001 -2.795006e-001
313965000 8.449608e-006 2.484888e-005 -6.568720e-001 4.240979e-001 2.096880e-005 -6.835734e-005 9.871709e-001 -2.803994e-001
314250000 1.314324e-005 9.954760e-006 -6.466891e-001 4.415246e-001 5.873423e-005 1.302280e-005 9.859006e-001 -2.806540e-001
314535000 1.469968e-005 3.373770e-005 -6.364222e-001 4.600850e-001 3.357275e-005 1.609743e-005 9.862176e-001 -2.811432e-001
314820000 -2.250747e-005 3.504266e-005 -6.248193e-001 4.778282e-001 -1.645881e-005 1.066015e-005 9.849926e-001 -2.820596e-001
315105000 3.400243e-006 -7.654664e-005 -6.129040e-001 4.956699e-001 -3.537026e-005 -5.934486e-006 9.827798e-001 -2.815385e-001
315390000 1.515172e-005 8.253129e-005 -6.018324e-001 5.137432e-001 -6.052501e-005 1.506942e-004 9.864573e-001 -2.828317e-001
315675000 1.228682e-005 1.109575e-004 -5.890399e-001 5.318958e-001 -3.107503e-005 -4.000798e-005 9.848417e-001 -2.826606e-001
315960000 -4.542213e-005 -1.945347e-005 -5.759925e-001 5.495163e-001 -5.505500e-005 -1.299364e-005 9.850297e-001 -2.838342e-001
316245000 -6.950938e-005 -5.388824e-005 -5.626768e-001 5.670887e-001 -3.363405e-005 -1.151817e-005 9.837458e-001 -2.823238e-001
316530000 -9.807760e-005 -7.375040e-005 -5.491987e-001 5.845256e-001 2.273344e-005 -7.860640e-005 9.865234e-001 -2.828018e-001
316815000 3.659905e-005 -2.520281e-005 -5.347831e-001 6.018490e-001 1.082387e-005 -3.573727e-005 9.856344e-001 -2.826247e-001
317100000 -4.267717e-005 -1.206164e-004 -5.192747e-001 6.183517e-001 -3.215802e-005 -1.185263e-004 9.849491e-001 -2.827415e-001
317385000 -2.517281e-005 3.931729e-005 -5.038431e-001 6.356852e-001 4.862339e-005 -2.945492e-005 9.866822e-001 -2.827391e-001
317670000 3.029226e-005 -5.908394e-005 -4.882667e-001 6.519727e-001 -1.115041e-005 -7.688909e-005 9.868631e-001 -2.843795e-001
317955000 4.689669e-006 2.221555e-005 -4.712637e-001 6.689799e-001 -3.278022e-006 -9.737955e-005 9.871096e-001 -2.832874e-001
318240000 5.483304e-006 1.154182e-004 -4.541384e-001 6.849485e-001 8.371731e-005 -9.905559e-005 9.847080e-001 -2.842838e-001
318525000 1.308483e-005 2.243523e-005 -4.363880e-001 7.013511e-001 -8.205597e-005 -1.135884e-004 9.846561e-001 -2.842858e-001
318810000 6.582976e-005 8.362323e-005 -4.179744e-001 7.173155e-001 -8.897421e-006 -4.863672e-005 9.864607e-001 -2.840152e-001
319095000 8.717163e-005 6.746854e-005 -3.986051e-001 7.328449e-001 9.301915e-005 4.941576e-005 9.842170e-001 -2.837120e-001
319380000 -3.014300e-005 -9.094094e-006 -3.789760e-001 7.480527e-001 5.799155e-005 -4.166885e-005 9.856474e-001 -2.857652e-001
319665000 -3.718964e-005 -1.553643e-005 -3.585836e-001 7.632649e-001 -1.352551e-005 -3.108946e-005 9.864222e-001 -2.843498e-001
319950000 -4.173384e-005 -9.805150e-005 -3.374586e-001 7.775268e-001 2.035565e-004 -5.272997e-005 9.850653e-001 -2.872275e-001
320235000 -3.257162e-005 -3.774640e-005 -3.155317e-001 7.920825e-001 1.465153e-005 -1.162316e-004 9.857362e-001 -2.880708e-001
320520000 -1.571750e-005 -4.270393e-005 -2.931913e-001 8.059931e-001 2.666398e-005 -1.509454e-005 9.850673e-001 -2.853254e-001
320805000 4.329929e-005 -4.593782e-005 -2.700104e-001 8.193004e-001 -2.693436e-006 -5.315837e-005 9.850155e-001 -2.865406e-001
321090000 -1.367579e-005 -1.191365e-004 -2.464173e-001 8.322718e-001 -4.521689e-005 2.028077e-005 9.852815e-001 -2.869085e-001
321375000 2.680977e-005 6.770620e-005 -2.213107e-001 8.442563e-001 -8.453256e-005 4.220074e-005 9.849812e-001 -2.875415e-001
321660000 3.362020e-005 7.033902e-006 -1.961996e-001 8.564121e-001 6.960586e-005 8.749603e-005 9.858028e-001 -2.871292e-001
321945000 6.417115e-005 -4.346713e-006 -1.697085e-001 8.673081e-001 9.538361e-005 4.299372e-005 9.840598e-001 -2.887073e-001
322230000 3.647673e-005 7.033144e-006 -1.435526e-001 8.773726e-001 7.422973e-005 2.548541e-005 9.843855e-001 -2.881687e-001
322515000 -6.288751e-005 1.064746e-004 -1.149520e-001 8.878545e-001 5.451756e-005 5.651911e-005 9.830860e-001 -2.880075e-001
322800000 4.122106e-005 2.111059e-005 -8.702715e-002 8.968919e-001 4.985629e-005 1.566022e-004 9.860705e-001 -2.887291e-001
323085000 1.032810e-004 -3.063304e-005 -5.817045e-002 9.045591e-001 9.183927e-006 -5.262377e-006 9.852321e-001 -2.881897e-001
323370000 -2.689651e-005 5.198592e-005 -2.820994e-002 9.125389e-001 3.221287e-005 -9.205436e-006 9.851800e-001 -2.894249e-001
323655000 6.359636e-005 -2.358478e-006 2.509977e-003 9.190809e-001 2.352838e-005 1.279591e-005 9.840196e-001 -2.901807e-001
323940000 2.815401e-005 -9.567123e-005 3.348254e-002 9.238220e-001 6.706714e-005 -6.372371e-006 9.836020e-001 -2.906327e-001
324225000 2.286598e-005 3.389387e-005 6.561024e-002 9.277551e-001 -6.418415e-005 -4.476862e-005 9.824193e-001 -2.900772e-001
324510000 -6.775180e-005 4.256189e-005 9.807327e-002 9.311984e-001 7.427059e-005 3.277657e-005 9.845608e-001 -2.917523e-001
324795000 4.752297e-005 -3.214964e-005 1.309207e-001 9.331869e-001 4.934640e-005 3.101403e-005 9.839011e-001 -2.916864e-001
325080000 1.516900e-006 2.860215e-005 1.642788e-001 9.340496e-001 4.826425e-005 5.143202e-005 9.845973e-001 -2.910725e-001
325365000 1.096598e-004 6.304385e-005 1.989399e-001 9.327467e-001 3.728679e-006 -1.252443e-005 9.849508e-001 -2.912913e-001
325650000 1.153915e-004 6.335475e-005 2.328974e-001 9.310405e-001 5.754907e-005 4.985700e-005 9.842752e-001 -2.918413e-001
325935000 1.732561e-005 2.766670e-005 2.678805e-001 9.270455e-001 -6.295613e-005 3.215672e-005 9.845566e-001 -2.922723e-001
326220000 5.082416e-006 5.595621e-005 3.028421e-001 9.230229e-001 2.228332e-005 5.970455e-005 9.835708e-001 -2.922992e-001
326505000 8.891882e-005 -8.618258e-005 3.388048e-001 9.159361e-001 -1.041467e-005 -9.071673e-005 9.834253e-001 -2.922208e-001
326790000 -2.000655e-005 9.763715e-005 3.739963e-001 9.080365e-001 -6.955188e-005 1.073923e-004 9.835008e-001 -2.909780e-001
327075000 5.970819e-005 -1.912191e-006 4.094774e-001 8.978543e-001 8.676681e-006 5.677628e-006 9.830446e-001 -2.933232e-001
327360000 1.318129e-005 9.348057e-006 4.444353e-001 8.865573e-001 -9.178855e-005 -5.811666e-005 9.853975e-001 -2.942885e-001
327645000 -7.581119e-005 4.137350e-005 4.809875e-001 8.735504e-001 -3.344504e-006 1.993137e-005 9.838287e-001 -2.927654e-001
327930000 -2.116269e-006 -1.555101e-004 5.154290e-001 8.588052e-001 1.736053e-005 -6.609294e-005 9.826805e-001 -2.913554e-001
328215000 4.376227e-005 5.895881e-005 5.501217e-001 8.424697e-001 -1.489995e-005 4.835285e-005 9.831349e-001 -2.937101e-001
328500000 -1.555963e-005 4.358099e-005 5.840591e-001 8.235021e-001 3.547776e-005 4.023005e-005 9.824354e-001 -2.948910e-001
328785000 1.031032e-005 1.617092e-004 6.181977e-001 8.029923e-001 1.322451e-005 -9.244969e-005 9.829013e-001 -2.937986e-001
329070000 -4.794722e-005 9.143577e-005 6.508462e-001 7.811645e-001 2.508949e-005 -8.243409e-005 9.833680e-001 -2.950526e-001
329355000 -6.495687e-005 -8.706121e-007 6.835080e-001 7.573097e-001 -5.337409e-005 -1.031955e-004 9.827382e-001 -2.950983e-001
329640000 -1.046692e-004 -2.746777e-005 7.144749e-001 7.321795e-001 -7.958162e-006 -5.242380e-005 9.831635e-001 -2.946137e-001
329925000 -3.704201e-005 -5.532976e-005 7.449036e-001 7.058317e-001 -3.736333e-005 -6.372172e-005 9.826990e-001 -2.947675e-001
330210000 -5.966561e-005 4.964950e-005 7.732910e-001 6.765655e-001 2.150308e-005 -8.663585e-005 9.824095e-001 -2.955529e-001
330495000 -2.897454e-005 -8.204480e-005 8.004897e-001 6.469760e-001 4.930150e-005 -8.287235e-006 9.828391e-001 -2.962188e-001
330780000 1.599667e-005 1.315671e-005 8.277090e-001 6.150320e-001 1.368379e-004 -1.250133e-005 9.838026e-001 -2.966431e-001
331065000 -1.838337e-005 -4.506927e-005 8.517284e-001 5.823394e-001 -5.549415e-005 -1.043471e-004 9.817274e-001 -2.951964e-001
331350000 -6.140389e-005 7.009169e-005 8.743129e-001 5.491804e-001 1.363344e-005 9.551163e-005 9.822926e-001 -2.970095e-001
331635000 -2.822754e-005 3.757172e-005 8.956140e-001 5.133325e-001 -1.013489e-004 4.100266e-005 9.841052e-001 -2.969261e-001
331920000 4.719494e-005 3.995110e-005 9.149914e-001 4.781660e-001 -9.725412e-005 1.932218e-005 9.831858e-001 -2.967013e-001
332205000 -7.616521e-006 5.477144e-005 9.329867e-001 4.405562e-001 -8.532595e-005 -5.259342e-005 9.814772e-001 -2.983198e-001
332490000 2.340686e-005 -4.958312e-005 9.492616e-001 4.026228e-001 -1.885687e-006 9.398266e-005 9.828467e-001 -2.977570e-001
332775000 2.218467e-005 6.458619e-006 9.635013e-001 3.649707e-001 -1.813252e-005 8.199254e-006 9.833795e-001 -2.982991e-001
333060000 -4.018601e-005 -8.512378e-006 9.743209e-001 3.264506e-001 -7.233178e-005 -1.202449e-004 9.827490e-001 -2.982243e-001
333345000 -5.541216e-005 -1.691967e-005 9.848262e-001 2.870721e-001 -2.858166e-005 -1.109133e-004 9.830562e-001 -2.988360e-001
333630000 -4.039820e-005 2.742543e-005 9.935014e-001 2.475315e-001 -8.612214e-006 5.823807e-005 9.817762e-001 -2.991146e-001
333915000 -1.558353e-005 7.874036e-005 9.994323e-001 2.083476e-001 -7.757027e-005 -1.228443e-004 9.813477e-001 -2.989446e-001
334200000 1.374884e-005 5.855238e-005 1.003047e+000 1.682406e-001 -3.955286e-005 -6.491484e-005 9.828914e-001 -3.004620e-001
334485000 -9.795402e-006 1.036982e-004 1.006317e+000 1.293916e-001 -4.961128e-005 -6.502450e-006 9.831273e-001 -2.981765e-001
334770000 2.295060e-005 -1.411438e-005 1.006187e+000 8.985356e-002 -1.068937e-005 -2.219709e-006 9.825295e-001 -3.003029e-001
335055000 -1.889706e-005 -2.155070e-005 1.004733e+000 5.100340e-002 -2.349529e-005 -3.124313e-005 9.824268e-001 -2.999541e-001
335340000 7.987182e-005 -5.974073e-005 1.002115e+000 1.338189e-002 -4.305261e-005 1.137900e-004 9.823120e-001 -3.014023e-001
335625000 2.763962e-005 -1.830444e-005 9.969887e-001 -2.343124e-002 -1.121208e-004 -4.432100e-005 9.823060e-001 -3.016210e-001
335910000 6.906368e-006 7.467248e-005 9.908409e-001 -6.082141e-002 6.028648e-007 -7.720540e-005 9.820834e-001 -3.007102e-001
336195000 4.528690e-005 6.550978e-005 9.832321e-001 -9.730245e-002 3.441656e-005 6.240282e-005 9.807566e-001 -3.007229e-001
336480000 -1.141737e-004 -2.679294e-005 9.738377e-001 -1.322196e-001 -2.193189e-005 -1.015710e-004 9.825650e-001 -3.023804e-001
336765000 -1.287882e-005 -2.126135e-005 9.636391e-001 -1.670436e-001 5.121083e-005 2.575815e-005 9.821640e-001 -3.010664e-001
337050000 2.557236e-006 6.861187e-005 9.511952e-001 -2.001964e-001 4.748490e-005 -1.695592e-005 9.826124e-001 -3.015482e-001
337335000 3.655762e-005 -3.865236e-005 9.385405e-001 -2.328574e-001 7.599443e-005 -3.652690e-005 9.809124e-001 -3.028176e-001
337620000 5.760332e-005 2.795671e-005 9.238691e-001 -2.645237e-001 -6.507435e-005 2.035733e-005 9.819615e-001 -3.027293e-001
337905000 -5.459954e-005 -1.086647e-004 9.087245e-001 -2.953160e-001 -7.892687e-005 -2.277450e-005 9.815623e-001 -3.014815e-001
338190000 -1.389821e-005 -5.013906e-005 8.928564e-001 -3.242611e-001 6.453636e-005 -4.541839e-005 9.804644e-001 -3.031414e-001
338475000 -8.856273e-005 -1.074058e-004 8.752151e-001 -3.532104e-001 8.456672e-005 1.169939e-004 9.808417e-001 -3.021563e-001
338760000 -3.865035e-005 1.530625e-005 8.574588e-001 -3.802620e-001 1.698367e-004 3.808472e-006 9.812787e-001 -3.040042e-001
339045000 -4.402408e-005 -1.377738e-005 8.388343e-001 -4.075150e-001 1.053646e-004 -4.428616e-005 9.803357e-001 -3.023762e-001
339330000 5.323933e-005 1.367696e-005 8.191978e-001 -4.317837e-001 -2.199773e-005 4.789285e-005 9.822358e-001 -3.021904e-001
339615000 4.524283e-005 -4.836891e-005 8.001040e-001 -4.559771e-001 -5.296175e-005 7.917287e-005 9.818622e-001 -3.039175e-001
339900000 -7.423964e-005 -7.020280e-005 7.795079e-001 -4.790092e-001 4.593918e-005 3.504548e-005 9.802507e-001 -3.053900e-001
340185000 4.606987e-005 1.577788e-005 7.582591e-001 -5.007740e-001 8.764209e-006 1.075761e-004 9.810431e-001 -3.059463e-001
340470000 6.784897e-005 6.937606e-006 7.370934e-001 -5.216507e-001 4.634907e-005 2.480437e-005 9.810736e-001 -3.035789e-001
340755000 7.014081e-005 -1.615536e-004 7.155577e-001 -5.419484e-001 -1.039858e-004 -4.069950e-005 9.796395e-001 -3.052020e-001
341040000 7.593579e-005 -2.192523e-005 6.937407e-001 -5.602191e-001 1.210430e-005 -1.229576e-005 9.800137e-001 -3.055995e-001
341325000 -2.160671e-005 -3.130106e-005 6.715982e-001 -5.789701e-001 -4.610618e-005 -1.099658e-004 9.826856e-001 -3.040048e-001
341610000 -7.030597e-007 -4.265117e-005 6.494427e-001 -5.955473e-001 -5.825991e-005 -4.912353e-005 9.830069e-001 -3.062718e-001
341895000 4.901545e-007 9.761495e-005 6.270374e-001 -6.115663e-001 -7.233160e-005 -7.580499e-005 9.807839e-001 -3.063223e-001
342180000 -5.935307e-005 -2.270522e-005 6.043029e-001 -6.266580e-001 -4.550761e-005 7.643880e-005 9.802220e-001 -3.082719e-001
342465000 -5.392669e-005 -4.930290e-005 5.811749e-001 -6.410396e-001 2.646371e-005 -2.803826e-005 9.810656e-001 -3.074977e-001
342750000 -3.132704e-005 -2.465056e-005 5.586189e-001 -6.541856e-001 6.079838e-006 3.662773e-005 9.813084e-001 -3.057490e-001
343035000 -2.752130e-005 -5.378420e-006 5.358793e-001 -6.668597e-001 1.264434e-005 -1.058443e-005 9.787845e-001 -3.079734e-001
343320000 1.124163e-004 -4.538297e-005 5.125957e-001 -6.787630e-001 -4.800271e-005 7.128381e-005 9.801868e-001 -3.078160e-001
343605000 1.236721e-004 2.421427e-005 4.900567e-001 -6.901157e-001 6.557580e-005 5.450388e-006 9.795749e-001 -3.074892e-001
343890000 -1.670271e-005 2.454060e-005 4.671629e-001 -7.002450e-001 -2.352682e-005 5.927463e-005 9.798432e-001 -3.086282e-001
