!Agilent Technologies,N5230C,SG49000117,A.08.50.07
!Agilent N5230C: A.08.50.07
!Date: Sunday, March 17, 2024 01:21:53
!Correction: S11(Off) 
!S21(Off) 
!S12(Off) 
!S22(Full 1 Port(2)) 
!S2P File: Measurements: S11, S21, S12, S22:
# Hz S  RI   R 50
300000000 8.870892e-005 2.023149e-005 -6.592828e-001 -5.969977e-001 6.284956e-005 1.990168e-005 9.735386e-001 -3.142846e-001
300285000 1.563612e-005 2.006617e-005 -6.725966e-001 -5.729483e-001 -8.570513e-006 5.681950e-005 9.736267e-001 -3.140135e-001
300570000 6.027371e-005 2.959191e-005 -6.850306e-001 -5.495917e-001 -9.627742e-006 -4.301154e-005 9.727581e-001 -3.165167e-001
300855000 -1.714357e-005 9.279662e-005 -6.976178e-001 -5.259287e-001 -1.102391e-005 7.262004e-005 9.736138e-001 -3.155371e-001
301140000 -2.700552e-005 4.363644e-005 -7.079235e-001 -5.015947e-001 -2.976690e-005 5.544555e-005 9.733688e-001 -3.177261e-001
301425000 3.643601e-005 2.648763e-005 -7.180702e-001 -4.780506e-001 2.093547e-005 3.241848e-005 9.746583e-001 -3.158717e-001
301710000 8.629779e-005 -6.010249e-005 -7.273862e-001 -4.545821e-001 -8.148728e-005 -7.615008e-005 9.741787e-001 -3.188790e-001
301995000 8.155153e-005 -1.424762e-005 -7.360067e-001 -4.302485e-001 3.372680e-005 3.380651e-005 9.736785e-001 -3.178537e-001
302280000 -6.927900e-005 -3.658752e-005 -7.438990e-001 -4.072904e-001 -6.392426e-005 -1.602125e-005 9.734017e-001 -3.167847e-001
302565000 -4.159735e-005 5.009328e-005 -7.512167e-001 -3.837704e-001 -2.779739e-005 -9.494201e-005 9.749649e-001 -3.186221e-001
302850000 -2.060786e-005 7.639477e-006 -7.576144e-001 -3.599201e-001 -4.040186e-005 9.070632e-005 9.731684e-001 -3.150036e-001
303135000 -6.685710e-005 -3.870127e-005 -7.636076e-001 -3.372623e-001 2.192793e-006 1.083829e-004 9.725319e-001 -3.178117e-001
303420000 1.098815e-005 2.159687e-005 -7.682269e-001 -3.135155e-001 4.503373e-005 1.231933e-004 9.707903e-001 -3.201433e-001
303705000 1.535714e-004 -1.763295e-005 -7.737321e-001 -2.914529e-001 -3.465200e-005 -7.076361e-005 9.747462e-001 -3.190097e-001
303990000 2.753862e-005 9.854369e-006 -7.779070e-001 -2.685062e-001 -8.325862e-006 5.016046e-005 9.735302e-001 -3.188442e-001
304275000 1.000690e-007 -1.934221e-005 -7.813603e-001 -2.457617e-001 -4.510274e-005 3.838312e-005 9.727144e-001 -3.185893e-001
304560000 1.196782e-004 -1.027188e-004 -7.841604e-001 -2.230430e-001 1.415316e-004 -3.119097e-005 9.724667e-001 -3.194839e-001
304845000 -6.535460e-005 -4.023712e-005 -7.864584e-001 -2.010790e-001 8.734477e-005 -2.634845e-005 9.711031e-001 -3.195057e-001
305130000 -6.456471e-007 -1.013860e-004 -7.883756e-001 -1.789422e-001 -3.380578e-005 4.036472e-005 9.721522e-001 -3.189482e-001
305415000 2.877190e-005 -7.929269e-005 -7.899696e-001 -1.569374e-001 1.224651e-004 -4.076832e-005 9.720516e-001 -3.199825e-001
305700000 5.180043e-005 -1.871700e-005 -7.910964e-001 -1.346657e-001 1.173461e-005 6.373184e-005 9.729539e-001 -3.198227e-001
305985000 3.892136e-005 1.953630e-005 -7.917407e-001 -1.134115e-001 -8.024227e-005 5.191067e-007 9.719418e-001 -3.209713e-001
306270000 -3.536067e-005 -2.594906e-005 -7.913216e-001 -9.191675e-002 9.689100e-005 5.285506e-005 9.742424e-001 -3.209049e-001
306555000 -4.387808e-005 -5.622832e-005 -7.906566e-001 -7.036282e-002 1.433177e-004 5.408093e-005 9.720315e-001 -3.215511e-001
306840000 -1.093554e-006 -1.376020e-007 -7.905760e-001 -4.964448e-002 1.083662e-005 -5.599250e-005 9.720038e-001 -3.204623e-001
307125000 -9.794693e-005 2.890645e-005 -7.890050e-001 -2.839225e-002 -5.312526e-005 -3.244868e-005 9.726033e-001 -3.212162e-001
307410000 -6.251229e-006 9.166151e-005 -7.872994e-001 -6.874861e-003 -8.061127e-005 -4.567623e-005 9.720015e-001 -3.219168e-001
307695000 -5.130588e-005 6.029885e-005 -7.853016e-001 1.312422e-002 5.825827e-006 8.090578e-007 9.735584e-001 -3.235660e-001
307980000 7.713844e-005 -1.267578e-005 -7.830797e-001 3.425259e-002 -3.978800e-005 4.588247e-006 9.707120e-001 -3.220091e-001
308265000 -2.459943e-005 -6.319450e-005 -7.800698e-001 5.450271e-002 -9.848220e-005 7.447932e-005 9.715165e-001 -3.225912e-001
308550000 2.563723e-005 -3.103473e-005 -7.776577e-001 7.447351e-002 -1.154888e-005 9.089446e-005 9.707113e-001 -3.224781e-001
308835000 2.441784e-005 3.459019e-005 -7.732472e-001 9.454035e-002 5.633242e-005 4.675607e-005 9.709126e-001 -3.248220e-001
309120000 1.473703e-004 -2.825019e-005 -7.699500e-001 1.147357e-001 -4.429687e-005 -6.910423e-005 9.710801e-001 -3.255990e-001
309405000 -1.802081e-005 2.565499e-005 -7.649685e-001 1.344501e-001 -1.716624e-005 -1.026475e-004 9.739890e-001 -3.251550e-001
309690000 2.553249e-005 -6.857308e-005 -7.607317e-001 1.545544e-001 -5.097733e-005 5.278147e-006 9.721826e-001 -3.248136e-001
309975000 -1.959631e-005 3.846112e-005 -7.559538e-001 1.742788e-001 4.499422e-005 -6.945460e-005 9.713027e-001 -3.263764e-001
310260000 -5.749048e-005 1.393471e-005 -7.504215e-001 1.938036e-001 -1.653361e-004 -5.190655e-005 9.713530e-001 -3.256326e-001
310545000 -1.902794e-005 6.130374e-005 -7.445222e-001 2.130110e-001 -1.288750e-004 -1.106504e-005 9.709929e-001 -3.280106e-001
310830000 4.566424e-005 3.364581e-005 -7.384661e-001 2.323319e-001 1.416991e-005 -4.023103e-005 9.729222e-001 -3.273252e-001
311115000 -1.953298e-005 -7.899731e-005 -7.324897e-001 2.515626e-001 3.099022e-005 3.889065e-006 9.697283e-001 -3.267223e-001
311400000 7.423781e-005 4.132137e-005 -7.250761e-001 2.706447e-001 3.240642e-005 1.242047e-005 9.705113e-001 -3.259592e-001
311685000 -6.218089e-005 -6.775028e-005 -7.180988e-001 2.896937e-001 8.620312e-005 1.610906e-005 9.712194e-001 -3.260070e-001
311970000 8.683452e-005 -8.026328e-006 -7.110509e-001 3.088977e-001 7.564051e-005 -1.162012e-004 9.694688e-001 -3.273440e-001
312255000 5.348810e-005 1.048522e-004 -7.031285e-001 3.274387e-001 5.665323e-005 4.252101e-005 9.702255e-001 -3.280201e-001
312540000 1.034823e-004 3.842250e-005 -6.950090e-001 3.456785e-001 1.934647e-004 -6.020462e-005 9.690565e-001 -3.281903e-001
312825000 9.103099e-005 -8.459817e-005 -6.861393e-001 3.646261e-001 5.122879e-005 -5.512872e-005 9.697558e-001 -3.282154e-001
313110000 -7.675201e-005 -2.463600e-005 -6.775534e-001 3.832969e-001 1.738605e-005 6.292524e-005 9.697629e-001 -3.287329e-001
313395000 1.562488e-005 -1.486932e-005 -6.676500e-001 4.016551e-001 -1.978076e-006 3.647284e-005 9.708293e-001 -3.279634e-001
313680000 2.811112e-005 -6.285116e-005 -6.580713e-001 4.199626e-001 3.539653e-005 -9.236908e-005 9.701964e-001 -3.278564e-001
313965000 -1.068766e-005 1.062399e-005 -6.475223e-001 4.381616e-001 -1.066653e-004 -3.928520e-006 9.697860e-001 -3.295714e-001
314250000 9.762852e-006 1.088782e-004 -6.371697e-001 4.564079e-001 1.959454e-005 8.588439e-005 9.693075e-001 -3.291307e-001
314535000 -1.311728e-004 -1.632941e-005 -6.263826e-001 4.745980e-001 2.143414e-005 -3.554295e-005 9.692130e-001 -3.285204e-001
314820000 -6.656541e-006 1.146131e-004 -6.148310e-001 4.925688e-001 -3.003180e-005 9.824712e-005 9.711590e-001 -3.300964e-001
315105000 -2.084123e-005 6.116286e-005 -6.031229e-001 5.099406e-001 -4.092455e-005 7.071867e-005 9.668464e-001 -3.305865e-001
315390000 2.452640e-005 5.388421e-005 -5.909624e-001 5.278053e-001 -1.242732e-004 5.646762e-005 9.695536e-001 -3.305896e-001
315675000 -1.005998e-004 -2.750976e-005 -5.775310e-001 5.453710e-001 -1.368493e-005 2.634660e-005 9.688357e-001 -3.297723e-001
315960000 6.159564e-005 -1.521160e-005 -5.644925e-001 5.634008e-001 -1.262379e-005 -1.026115e-004 9.696287e-001 -3.309224e-001
316245000 3.116894e-005 4.224277e-006 -5.507054e-001 5.807633e-001 4.045281e-005 -4.466213e-005 9.675308e-001 -3.315262e-001
316530000 9.370062e-006 -3.584099e-005 -5.360205e-001 5.974311e-001 6.358991e-005 1.098372e-005 9.681795e-001 -3.315242e-001
316815000 8.518082e-005 -2.977579e-005 -5.214271e-001 6.148648e-001 -6.182471e-005 2.167455e-006 9.700007e-001 -3.304613e-001
317100000 4.478737e-005 -5.452726e-005 -5.061449e-001 6.317071e-001 9.726676e-005 1.605239e-004 9.681448e-001 -3.315055e-001
317385000 9.298338e-006 -1.109365e-004 -4.901834e-001 6.482567e-001 1.085669e-004 8.158070e-005 9.691919e-001 -3.307105e-001
317670000 1.777112e-005 -8.201458e-005 -4.739712e-001 6.650692e-001 4.328559e-006 5.687074e-006 9.698750e-001 -3.311090e-001
317955000 -5.727847e-006 2.032610e-005 -4.567645e-001 6.813945e-001 6.547978e-005 9.629608e-006 9.687524e-001 -3.337258e-001
318240000 1.999926e-005 -9.129960e-005 -4.387019e-001 6.973014e-001 4.626091e-005 6.370535e-006 9.680966e-001 -3.322722e-001
318525000 -5.388198e-006 -1.080760e-006 -4.207613e-001 7.132894e-001 2.770294e-005 -7.059986e-005 9.690329e-001 -3.331597e-001
318810000 5.905867e-005 -6.001241e-005 -4.019359e-001 7.287437e-001 1.031612e-004 4.504855e-006 9.680197e-001 -3.336011e-001
319095000 -3.672640e-005 -1.518024e-005 -3.827780e-001 7.443532e-001 -1.843619e-005 5.759609e-005 9.683917e-001 -3.330956e-001
319380000 1.706748e-005 -4.466992e-005 -3.617680e-001 7.596679e-001 -3.682593e-005 7.138886e-005 9.687036e-001 -3.357960e-001
319665000 -6.616320e-005 -5.909883e-005 -3.408469e-001 7.738543e-001 1.148115e-005 -6.976975e-005 9.690965e-001 -3.352933e-001
319950000 1.176528e-004 3.617676e-005 -3.186255e-001 7.882165e-001 1.388883e-004 -4.978352e-005 9.677770e-001 -3.367741e-001
320235000 3.808658e-005 -1.948509e-005 -2.971942e-001 8.017399e-001 2.834875e-005 3.705826e-005 9.678275e-001 -3.351323e-001
320520000 5.369143e-005 8.907149e-005 -2.738788e-001 8.153017e-001 3.098369e-005 -6.693970e-005 9.675547e-001 -3.362276e-001
320805000 -4.332616e-005 -1.002551e-004 -2.502474e-001 8.281440e-001 3.444319e-005 -5.951185e-005 9.676728e-001 -3.367495e-001
321090000 9.955546e-005 -3.118459e-005 -2.256612e-001 8.408187e-001 -8.496962e-006 3.275369e-005 9.670182e-001 -3.364768e-001
321375000 -2.652569e-005 4.379305e-005 -2.007999e-001 8.526835e-001 9.587518e-005 -4.819128e-005 9.670799e-001 -3.364319e-001
321660000 1.004194e-004 -1.928076e-004 -1.746294e-001 8.636467e-001 2.150794e-005 4.175635e-005 9.686206e-001 -3.369527e-001
321945000 5.044854e-006 -4.857683e-005 -1.474829e-001 8.742199e-001 9.558820e-005 2.836136e-005 9.665537e-001 -3.378052e-001
322230000 1.634364e-004 -3.042009e-005 -1.208422e-001 8.836657e-001 -1.757252e-005 4.674465e-005 9.667553e-001 -3.374562e-001
322515000 -1.278593e-005 -3.174154e-005 -9.252814e-002 8.933110e-001 -2.652259e-005 1.731543e-005 9.657840e-001 -3.381420e-001
322800000 -4.625857e-005 -5.579665e-005 -6.372789e-002 9.017065e-001 5.237564e-005 4.431287e-005 9.681742e-001 -3.385429e-001
323085000 -4.777035e-005 -2.724202e-005 -3.390172e-002 9.092770e-001 6.919438e-005 -6.238096e-006 9.671481e-001 -3.393801e-001
323370000 7.518988e-005 -8.477326e-006 -3.738233e-003 9.158481e-001 4.366106e-005 3.251967e-005 9.679030e-001 -3.389274e-001
323655000 -2.266975e-005 4.268473e-005 2.653284e-002 9.214419e-001 2.978336e-005 1.162031e-005 9.669927e-001 -3.397068e-001
323940000 -1.455460e-004 5.038119e-005 5.883671e-002 9.255912e-001 -4.410234e-005 5.221214e-005 9.662696e-001 -3.406413e-001
324225000 -1.692853e-005 -1.005872e-005 9.162341e-002 9.287007e-001 3.083766e-005 6.805911e-005 9.663495e-001 -3.397098e-001
324510000 1.061325e-004 -1.323467e-004 1.237593e-001 9.309114e-001 -9.232790e-006 4.009057e-005 9.670628e-001 -3.403873e-001
324795000 4.552367e-005 -4.118282e-005 1.576339e-001 9.317635e-001 -2.167816e-005 -6.783678e-006 9.674298e-001 -3.405200e-001
325080000 8.568355e-005 3.851187e-005 1.911765e-001 9.317383e-001 -2.310048e-005 8.762420e-006 9.659119e-001 -3.399484e-001
325365000 1.126173e-004 9.295857e-005 2.255403e-001 9.301853e-001 2.837994e-005 2.981453e-005 9.667618e-001 -3.409975e-001
325650000 -3.480769e-006 -3.557160e-005 2.607965e-001 9.270241e-001 -5.133112e-005 4.264569e-005 9.665155e-001 -3.397796e-001
325935000 -1.334518e-004 8.245079e-005 2.961405e-001 9.225690e-001 -1.999627e-005 4.685961e-005 9.665453e-001 -3.423690e-001
326220000 -5.862617e-005 5.842714e-005 3.306254e-001 9.160970e-001 3.227724e-006 -6.739285e-005 9.675096e-001 -3.424205e-001
326505000 -3.047705e-006 -4.126351e-005 3.661755e-001 9.082749e-001 -4.818121e-005 -4.708788e-005 9.665697e-001 -3.431352e-001
326790000 -7.266331e-005 3.255301e-005 4.020012e-001 8.990101e-001 4.843080e-005 2.964309e-005 9.646275e-001 -3.421385e-001
327075000 -8.599658e-005 -3.240669e-005 4.374118e-001 8.883461e-001 -4.573087e-006 2.389275e-005 9.650673e-001 -3.441646e-001
327360000 -6.009479e-005 6.033064e-005 4.723737e-001 8.748504e-001 6.995819e-005 2.220180e-005 9.669384e-001 -3.434033e-001
327645000 -8.550650e-005 -6.573141e-006 5.073402e-001 8.602060e-001 1.951243e-004 1.622699e-004 9.657386e-001 -3.436163e-001
327930000 -6.609934e-005 6.623065e-005 5.422269e-001 8.443747e-001 -1.280230e-005 1.103147e-004 9.660637e-001 -3.429965e-001
328215000 -5.583692e-005 2.682610e-005 5.765380e-001 8.256912e-001 -7.052451e-005 4.273198e-005 9.658008e-001 -3.445757e-001
328500000 1.450968e-005 -9.100449e-005 6.103286e-001 8.063527e-001 -5.481837e-005 -1.826723e-005 9.645900e-001 -3.448799e-001
328785000 1.036796e-004 4.829312e-005 6.437560e-001 7.841539e-001 -2.244053e-005 8.333402e-006 9.649639e-001 -3.445588e-001
329070000 1.037133e-005 -7.506726e-005 6.760982e-001 7.617458e-001 -5.905296e-005 -1.596596e-004 9.658496e-001 -3.450652e-001
329355000 7.684066e-005 -6.429058e-005 7.072281e-001 7.372733e-001 5.778559e-005 -3.276992e-006 9.647940e-001 -3.448303e-001
329640000 5.211259e-005 -4.331182e-005 7.376540e-001 7.104140e-001 4.091817e-005 -7.338115e-005 9.655275e-001 -3.459007e-001
329925000 7.794776e-005 4.264193e-005 7.664597e-001 6.824650e-001 1.239978e-005 8.277880e-005 9.648712e-001 -3.458088e-001
330210000 6.724229e-005 5.182718e-005 7.943370e-001 6.525177e-001 2.069123e-005 -7.084486e-005 9.642268e-001 -3.464680e-001
330495000 -2.970508e-006 3.288318e-005 8.215374e-001 6.214881e-001 -1.803909e-005 1.449541e-005 9.649677e-001 -3.459686e-001
330780000 -1.481266e-005 1.352810e-004 8.453359e-001 5.889060e-001 2.971221e-005 -8.085452e-006 9.645020e-001 -3.476209e-001
331065000 2.162507e-005 5.987519e-005 8.694421e-001 5.551773e-001 -1.073355e-004 -6.057779e-005 9.632618e-001 -3.460075e-001
331350000 -2.099531e-005 1.863146e-005 8.901118e-001 5.207139e-001 -3.291763e-005 1.075056e-005 9.635932e-001 -3.469269e-001
331635000 -2.430197e-005 2.054585e-005 9.106818e-001 4.848878e-001 1.753194e-005 -4.529860e-005 9.646746e-001 -3.478008e-001
331920000 -2.165367e-005 -9.100653e-005 9.285320e-001 4.481743e-001 -3.053940e-005 -8.914044e-006 9.643740e-001 -3.483795e-001
332205000 1.597331e-005 -2.652053e-004 9.459736e-001 4.105909e-001 -4.629936e-005 5.944463e-005 9.635801e-001 -3.487983e-001
332490000 4.610940e-005 -4.243972e-006 9.595891e-001 3.722756e-001 -7.144905e-005 -7.587484e-005 9.648771e-001 -3.479917e-001
332775000 -5.111786e-005 -2.250330e-005 9.720750e-001 3.340483e-001 -5.097357e-005 -2.150143e-004 9.643127e-001 -3.491292e-001
333060000 4.078857e-005 -3.802785e-005 9.824108e-001 2.945480e-001 5.595999e-005 -3.969282e-005 9.637855e-001 -3.484209e-001
333345000 4.378677e-005 -1.504998e-005 9.909987e-001 2.556504e-001 3.663842e-005 -3.441096e-005 9.646506e-001 -3.501310e-001
333630000 -6.905693e-005 -5.270186e-005 9.983529e-001 2.164008e-001 1.951133e-005 8.744836e-005 9.633091e-001 -3.513775e-001
333915000 -4.050111e-005 -1.598378e-005 1.002318e+000 1.764985e-001 -8.975492e-006 -4.282203e-005 9.631615e-001 -3.503909e-001
334200000 1.602263e-005 -3.772180e-005 1.005291e+000 1.368547e-001 7.261794e-005 3.934172e-005 9.635555e-001 -3.517126e-001
334485000 1.108599e-004 -9.282285e-005 1.005782e+000 9.802550e-002 1.382721e-005 -3.119721e-005 9.635498e-001 -3.504643e-001
334770000 -1.884245e-005 -5.831955e-005 1.005449e+000 5.925056e-002 6.113125e-006 -4.903680e-005 9.636402e-001 -3.513868e-001
335055000 1.726631e-005 -5.327915e-005 1.003066e+000 2.050213e-002 2.711942e-005 2.238051e-005 9.628996e-001 -3.523598e-001
335340000 -8.696372e-005 6.178206e-006 9.984264e-001 -1.736543e-002 2.361797e-006 -1.003556e-004 9.628269e-001 -3.530650e-001
335625000 8.109811e-005 -7.705939e-005 9.923558e-001 -5.414496e-002 -8.607913e-005 -4.262268e-005 9.636776e-001 -3.516997e-001
335910000 1.034179e-005 6.171233e-005 9.850824e-001 -9.064006e-002 1.071806e-004 3.383420e-005 9.629300e-001 -3.514590e-001
336195000 -5.375908e-005 2.028882e-004 9.762605e-001 -1.253905e-001 9.952336e-006 -3.375437e-006 9.624314e-001 -3.534449e-001
336480000 7.612228e-005 4.228064e-005 9.653469e-001 -1.607843e-001 5.017756e-005 -4.658032e-005 9.632230e-001 -3.529592e-001
336765000 -6.843769e-007 5.177072e-005 9.538592e-001 -1.944969e-001 -3.503106e-005 6.614700e-006 9.621379e-001 -3.520303e-001
337050000 7.207537e-006 2.087113e-006 9.414569e-001 -2.277342e-001 -2.630208e-005 -3.077995e-005 9.625049e-001 -3.537706e-001
337335000 -2.695881e-005 -2.091529e-007 9.268534e-001 -2.591699e-001 -2.950049e-005 -6.207438e-005 9.620353e-001 -3.545142e-001
337620000 -9.167517e-005 -5.454552e-006 9.120839e-001 -2.901329e-001 1.219847e-004 -2.406159e-005 9.621896e-001 -3.551046e-001
337905000 2.049460e-005 8.803100e-005 8.953804e-001 -3.201272e-001 3.046684e-005 6.387751e-005 9.618201e-001 -3.529474e-001
338190000 -5.178645e-005 7.956714e-005 8.790190e-001 -3.483188e-001 4.401313e-005 5.185836e-005 9.629628e-001 -3.551913e-001
338475000 -3.745964e-005 2.827549e-005 8.599714e-001 -3.761693e-001 9.485484e-006 9.049871e-005 9.625021e-001 -3.539194e-001
338760000 1.336929e-004 1.524332e-004 8.426425e-001 -4.027157e-001 1.173398e-004 -3.143649e-005 9.615124e-001 -3.543654e-001
339045000 -8.889871e-005 5.021611e-005 8.225337e-001 -4.280899e-001 2.284641e-005 -2.810547e-005 9.616140e-001 -3.556443e-001
339330000 -1.119955e-004 6.603807e-005 8.030797e-001 -4.522260e-001 8.838272e-005 7.278176e-005 9.621329e-001 -3.558043e-001
339615000 -7.390140e-005 -1.839925e-005 7.829350e-001 -4.760487e-001 -1.179073e-004 3.965074e-005 9.612764e-001 -3.560161e-001
339900000 -2.517846e-006 -5.582966e-005 7.619818e-001 -4.980893e-001 -3.699369e-005 -5.791447e-005 9.608597e-001 -3.563002e-001
340185000 -3.789064e-005 -3.984424e-005 7.404625e-001 -5.187972e-001 9.423068e-006 -1.796108e-005 9.604155e-001 -3.569540e-001
340470000 4.085710e-005 -3.031617e-005 7.193996e-001 -5.390335e-001 1.713157e-005 -5.654956e-005 9.614735e-001 -3.565747e-001
340755000 -1.050466e-004 -2.589678e-005 6.969033e-001 -5.583675e-001 9.315367e-005 -8.987902e-005 9.611645e-001 -3.582318e-001
341040000 2.227404e-005 -5.124586e-005 6.748821e-001 -5.761977e-001 -4.483313e-006 -2.615488e-005 9.616919e-001 -3.586604e-001
341325000 6.667478e-006 -1.230655e-004 6.530043e-001 -5.935658e-001 -7.170589e-005 -4.017485e-005 9.625906e-001 -3.571433e-001
341610000 -2.040720e-005 3.416469e-005 6.299732e-001 -6.099690e-001 -6.902620e-006 4.510945e-005 9.620150e-001 -3.575590e-001
341895000 1.661494e-005 2.189701e-005 6.073962e-001 -6.246897e-001 -4.182232e-005 1.163406e-004 9.620200e-001 -3.596057e-001
342180000 5.647164e-006 -3.844620e-005 5.847236e-001 -6.399475e-001 -4.885487e-005 -4.346551e-005 9.600684e-001 -3.586865e-001
342465000 6.477278e-005 -1.092945e-005 5.619698e-001 -6.532597e-001 -3.238581e-005 -1.219038e-004 9.603142e-001 -3.599502e-001
342750000 1.733149e-005 7.194666e-005 5.388981e-001 -6.655692e-001 -1.135368e-004 -4.063077e-005 9.618835e-001 -3.589888e-001
343035000 1.395849e-005 1.374412e-005 5.163402e-001 -6.771787e-001 -6.861013e-006 -3.315277e-005 9.590441e-001 -3.604089e-001
343320000 1.958048e-005 3.070998e-005 4.936118e-001 -6.885279e-001 3.738844e-005 -2.811818e-005 9.589139e-001 -3.591682e-001
343605000 -5.318159e-006 4.123692e-006 4.701414e-001 -6.988607e-001 -1.806767e-005 4.053033e-005 9.610107e-001 -3.588709e-001
343890000 -3.386787e-005 7.667193e-005 4.476214e-001 -7.089348e-001 -2.211070e-005 -4.769854e-006 9.598612e-001 -3.605447e-001
