!Agilent Technologies,N5230C,SG49000117,A.08.50.07
!Agilent N5230C: A.08.50.07
!Date: Sunday, March 17, 2024 02:58:11
!Correction: S11(Off) 
!S21(Off) 
!S12(Off) 
!S22(Off) 
!S2P File: Measurements: S11, S21, S12, S22:
# Hz S  RI   R 50
300000000 -1.895820e-005 2.923268e-005 -6.946515e-001 -5.339552e-001 6.659929e-005 1.866343e-005 -6.970290e-001 -5.360394e-001
300285000 -2.163540e-005 3.211417e-006 -7.055455e-001 -5.106042e-001 8.231006e-005 2.894119e-005 -7.087044e-001 -5.122321e-001
300570000 8.144852e-006 -9.717296e-005 -7.167810e-001 -4.864420e-001 1.342992e-004 3.711833e-005 -7.191685e-001 -4.881473e-001
300855000 6.714495e-005 -1.574415e-004 -7.259788e-001 -4.619346e-001 2.389457e-005 1.989387e-005 -7.284649e-001 -4.642664e-001
301140000 5.216003e-005 -7.625829e-005 -7.345409e-001 -4.383043e-001 4.533395e-005 1.988201e-005 -7.373136e-001 -4.401542e-001
301425000 -6.147341e-005 -2.524108e-005 -7.427616e-001 -4.145899e-001 4.159291e-005 -2.134863e-005 -7.460706e-001 -4.162744e-001
301710000 5.434149e-005 -3.491328e-005 -7.504901e-001 -3.907705e-001 2.266359e-005 6.951201e-005 -7.532821e-001 -3.925360e-001
301995000 -1.659750e-005 -7.365950e-005 -7.571304e-001 -3.673841e-001 7.258812e-005 -7.999100e-005 -7.599907e-001 -3.687229e-001
302280000 5.087688e-005 3.160970e-005 -7.632642e-001 -3.437363e-001 1.290949e-004 4.633467e-005 -7.663791e-001 -3.451962e-001
302565000 4.083513e-005 -5.349445e-005 -7.688400e-001 -3.208364e-001 -3.313075e-005 9.711102e-005 -7.719527e-001 -3.222259e-001
302850000 -7.458278e-005 1.646927e-005 -7.739765e-001 -2.971461e-001 -9.492627e-005 -7.181165e-005 -7.765613e-001 -2.987800e-001
303135000 -2.866856e-005 -2.327433e-005 -7.778247e-001 -2.748151e-001 -1.540336e-004 1.694479e-005 -7.804312e-001 -2.755595e-001
303420000 -4.149315e-006 -6.178317e-005 -7.813007e-001 -2.512929e-001 -1.334372e-004 2.097805e-005 -7.841615e-001 -2.520380e-001
303705000 -2.622785e-005 -1.218458e-005 -7.846945e-001 -2.291347e-001 -7.558340e-005 1.176669e-005 -7.871608e-001 -2.295792e-001
303990000 -5.974507e-006 -4.263673e-005 -7.863137e-001 -2.060942e-001 -1.131632e-005 -1.356306e-004 -7.893705e-001 -2.070917e-001
304275000 -6.334778e-005 -5.367085e-005 -7.889248e-001 -1.838608e-001 2.552265e-005 -6.103769e-005 -7.915190e-001 -1.844290e-001
304560000 1.523134e-005 7.565826e-005 -7.904685e-001 -1.619406e-001 6.701358e-006 4.495327e-007 -7.932716e-001 -1.625358e-001
304845000 3.763482e-006 -7.917690e-006 -7.913131e-001 -1.399472e-001 7.294502e-005 9.991141e-005 -7.950745e-001 -1.401152e-001
305130000 -3.707686e-005 6.188160e-006 -7.924229e-001 -1.175888e-001 1.594510e-006 -1.288215e-005 -7.947272e-001 -1.180017e-001
305415000 5.961113e-005 4.014374e-005 -7.918301e-001 -9.630934e-002 6.164506e-005 -7.716467e-005 -7.953506e-001 -9.638683e-002
305700000 3.242252e-005 -2.507088e-005 -7.917862e-001 -7.464769e-002 -5.974802e-005 -1.092943e-004 -7.941592e-001 -7.480051e-002
305985000 6.922211e-005 9.001381e-005 -7.906682e-001 -5.364943e-002 -3.190573e-005 -2.417362e-005 -7.937968e-001 -5.365932e-002
306270000 -4.865969e-005 -4.316491e-005 -7.891738e-001 -3.243302e-002 7.995724e-006 -5.772832e-006 -7.933306e-001 -3.245625e-002
306555000 7.213213e-005 -6.168162e-005 -7.879521e-001 -1.121712e-002 8.023138e-006 -1.017096e-005 -7.911816e-001 -1.155391e-002
306840000 -1.088842e-004 1.763779e-005 -7.857739e-001 9.585599e-003 -1.903852e-005 7.117625e-005 -7.889972e-001 9.793772e-003
307125000 -1.543803e-004 4.626116e-005 -7.833727e-001 3.023784e-002 1.443214e-006 4.292146e-005 -7.866317e-001 3.059364e-002
307410000 -4.158688e-006 1.681549e-005 -7.803189e-001 5.110428e-002 4.843082e-005 6.446308e-005 -7.832729e-001 5.115297e-002
307695000 5.363571e-005 -3.199721e-005 -7.778073e-001 7.107631e-002 -9.815466e-005 -1.116545e-004 -7.801489e-001 7.170276e-002
307980000 -1.049768e-004 -1.209491e-004 -7.734512e-001 9.208067e-002 -1.098162e-004 -9.102531e-006 -7.766882e-001 9.194623e-002
308265000 -9.130234e-005 -8.194079e-005 -7.697955e-001 1.114883e-001 2.919204e-005 -4.806906e-005 -7.726315e-001 1.120441e-001
308550000 -9.471367e-005 2.297929e-005 -7.654325e-001 1.319313e-001 -7.414524e-005 -5.964873e-005 -7.682824e-001 1.323592e-001
308835000 2.907641e-005 -6.145211e-005 -7.606868e-001 1.516299e-001 1.067279e-004 -1.186135e-004 -7.638076e-001 1.524664e-001
309120000 1.653394e-005 4.681043e-006 -7.554377e-001 1.714765e-001 -7.766172e-005 8.103454e-006 -7.582772e-001 1.722903e-001
309405000 9.693388e-005 -4.575929e-005 -7.502158e-001 1.906980e-001 -3.595104e-006 -2.987902e-005 -7.530682e-001 1.916249e-001
309690000 6.569963e-005 -1.199806e-005 -7.445525e-001 2.103119e-001 6.705416e-005 -1.396847e-005 -7.473895e-001 2.107107e-001
309975000 2.639701e-004 1.910073e-005 -7.383809e-001 2.293611e-001 -3.093304e-005 -7.316641e-005 -7.412573e-001 2.305821e-001
310260000 -4.297561e-005 -3.081504e-005 -7.318377e-001 2.492682e-001 -1.055495e-005 -2.623424e-005 -7.347412e-001 2.501899e-001
310545000 -1.937277e-006 2.422300e-005 -7.242941e-001 2.678933e-001 -3.386784e-005 1.163306e-004 -7.274070e-001 2.687553e-001
310830000 -4.946735e-005 3.605176e-005 -7.177158e-001 2.870543e-001 -2.141405e-005 1.789869e-005 -7.208760e-001 2.884995e-001
311115000 -5.193940e-005 3.264980e-005 -7.100452e-001 3.053867e-001 -9.315631e-005 -1.496159e-004 -7.129778e-001 3.071306e-001
311400000 -9.386248e-006 4.148310e-005 -7.023987e-001 3.242423e-001 -1.469200e-004 2.229181e-005 -7.049719e-001 3.260437e-001
311685000 -4.977334e-005 -1.352704e-004 -6.940685e-001 3.428060e-001 -7.553175e-005 -1.637009e-005 -6.962641e-001 3.442888e-001
311970000 2.721179e-005 -8.756186e-005 -6.848332e-001 3.613850e-001 -1.577555e-006 -6.931950e-005 -6.879796e-001 3.629709e-001
312255000 8.628012e-005 -1.161533e-004 -6.764423e-001 3.798431e-001 -1.496288e-005 -7.679562e-006 -6.787961e-001 3.815701e-001
312540000 4.701736e-005 -3.073078e-005 -6.664993e-001 3.983383e-001 -3.555238e-005 7.968527e-005 -6.696119e-001 3.997902e-001
312825000 1.231506e-004 6.342029e-006 -6.570622e-001 4.169529e-001 1.135891e-004 -5.609822e-005 -6.594797e-001 4.180739e-001
313110000 1.246211e-004 2.023855e-005 -6.466870e-001 4.348631e-001 7.553858e-005 4.125584e-005 -6.492010e-001 4.365770e-001
313395000 1.307183e-004 -3.924500e-005 -6.362292e-001 4.533302e-001 4.810807e-005 5.285041e-005 -6.383745e-001 4.549229e-001
313680000 5.541753e-005 3.072740e-005 -6.248234e-001 4.710509e-001 1.539737e-005 6.062114e-005 -6.274559e-001 4.726647e-001
313965000 3.759431e-005 -2.550509e-006 -6.130805e-001 4.883918e-001 -1.429064e-005 4.133838e-005 -6.158679e-001 4.902978e-001
314250000 -1.183410e-004 9.832205e-005 -6.009872e-001 5.060512e-001 5.010326e-006 9.767244e-006 -6.042593e-001 5.085647e-001
314535000 -3.941321e-005 -1.004202e-004 -5.895073e-001 5.241361e-001 -3.368695e-005 2.989831e-005 -5.915648e-001 5.261448e-001
314820000 -5.711873e-005 1.665313e-005 -5.763817e-001 5.414059e-001 -1.164072e-005 5.770899e-005 -5.787718e-001 5.439268e-001
315105000 -2.865233e-005 5.419076e-005 -5.632325e-001 5.590047e-001 -4.109478e-005 -7.042845e-005 -5.653148e-001 5.607527e-001
315390000 1.600561e-005 -8.034369e-005 -5.492758e-001 5.759296e-001 -6.860425e-005 4.172315e-006 -5.514865e-001 5.785560e-001
315675000 -8.021912e-006 6.667885e-005 -5.350596e-001 5.927628e-001 -4.123784e-005 -9.283616e-005 -5.371805e-001 5.951265e-001
315960000 -2.570219e-005 5.514228e-006 -5.204742e-001 6.097799e-001 3.955229e-005 -3.656009e-005 -5.223359e-001 6.124017e-001
316245000 -2.804516e-006 3.287492e-005 -5.046864e-001 6.263186e-001 5.950144e-005 3.124435e-006 -5.070821e-001 6.294711e-001
316530000 7.815269e-005 -7.570479e-005 -4.886826e-001 6.431369e-001 -1.010609e-004 4.456695e-005 -4.905655e-001 6.461060e-001
316815000 6.175763e-005 3.575876e-005 -4.726567e-001 6.600848e-001 3.098017e-005 5.703255e-006 -4.740918e-001 6.623451e-001
317100000 2.027439e-005 -4.539823e-005 -4.553766e-001 6.762021e-001 -9.794173e-005 1.719983e-005 -4.575699e-001 6.784905e-001
317385000 -3.384882e-005 -3.382199e-005 -4.376181e-001 6.913776e-001 4.384728e-005 -1.343199e-005 -4.401274e-001 6.944558e-001
317670000 1.066901e-005 -2.868144e-005 -4.196358e-001 7.076766e-001 6.534720e-005 -4.884524e-005 -4.215848e-001 7.102265e-001
317955000 6.664128e-006 -8.682326e-005 -4.009151e-001 7.226208e-001 -4.939853e-005 -2.914118e-007 -4.028736e-001 7.259311e-001
318240000 6.665217e-006 -2.582959e-005 -3.817593e-001 7.384582e-001 1.123423e-005 -1.800877e-005 -3.829976e-001 7.408979e-001
318525000 -4.834345e-005 2.094330e-005 -3.612903e-001 7.526160e-001 2.281504e-006 3.421872e-005 -3.630597e-001 7.564617e-001
318810000 -3.202690e-005 -1.637621e-005 -3.408840e-001 7.672983e-001 -8.012837e-005 3.558622e-005 -3.425840e-001 7.709370e-001
319095000 2.301442e-006 1.419068e-004 -3.195084e-001 7.815233e-001 7.387177e-005 -9.251689e-006 -3.204765e-001 7.846357e-001
319380000 -1.460229e-006 8.134211e-005 -2.971949e-001 7.952479e-001 2.368163e-005 6.680886e-005 -2.985939e-001 7.980351e-001
319665000 3.016452e-005 3.084020e-005 -2.745908e-001 8.081267e-001 -1.532068e-005 1.931314e-005 -2.761794e-001 8.116768e-001
319950000 -8.587918e-005 -7.752577e-005 -2.509703e-001 8.210568e-001 -2.976724e-005 9.937103e-005 -2.521699e-001 8.245929e-001
320235000 -7.197522e-006 4.823023e-005 -2.273720e-001 8.333489e-001 -1.832530e-005 1.050195e-004 -2.278047e-001 8.366200e-001
320520000 4.723589e-006 7.614202e-005 -2.020090e-001 8.448787e-001 -1.200870e-005 -1.905875e-005 -2.027433e-001 8.487065e-001
320805000 -8.582853e-005 -2.618806e-006 -1.763081e-001 8.558896e-001 -1.047973e-004 -8.119585e-005 -1.769354e-001 8.602544e-001
321090000 1.029504e-005 -9.667615e-005 -1.501718e-001 8.670520e-001 1.614815e-006 -9.068763e-006 -1.508275e-001 8.706230e-001
321375000 -3.672967e-005 2.839326e-005 -1.233030e-001 8.767597e-001 4.654511e-006 1.362637e-005 -1.238083e-001 8.803068e-001
321660000 3.174746e-005 -2.492541e-005 -9.562480e-002 8.862051e-001 -1.174609e-005 8.392658e-005 -9.563522e-002 8.898050e-001
321945000 -6.087332e-005 2.737861e-005 -6.677420e-002 8.944442e-001 -8.967545e-005 4.559227e-005 -6.791762e-002 8.980502e-001
322230000 -4.201733e-005 -4.161910e-005 -3.763419e-002 9.008614e-001 -8.276385e-005 -1.995917e-005 -3.796116e-002 9.049379e-001
322515000 -3.315848e-005 7.164699e-005 -7.669144e-003 9.081070e-001 4.259387e-005 -1.416766e-004 -7.695790e-003 9.121420e-001
322800000 2.364821e-005 6.601496e-005 2.279425e-002 9.133826e-001 -4.274792e-005 -6.873346e-006 2.295711e-002 9.171340e-001
323085000 -2.253587e-005 -1.549308e-005 5.360465e-002 9.180332e-001 -2.943987e-005 -1.154804e-005 5.409381e-002 9.223998e-001
323370000 -8.920576e-005 2.004906e-005 8.578114e-002 9.212611e-001 -1.448007e-004 -4.224150e-005 8.645925e-002 9.255945e-001
323655000 -1.259936e-004 1.650430e-004 1.182048e-001 9.240118e-001 -9.788785e-005 -5.287988e-005 1.190464e-001 9.276815e-001
323940000 -9.805241e-005 -2.615278e-005 1.517221e-001 9.250804e-001 -8.701182e-006 -1.032147e-004 1.519220e-001 9.290891e-001
324225000 -1.030704e-005 -3.702169e-005 1.847478e-001 9.252422e-001 1.198311e-004 -4.257244e-005 1.853280e-001 9.290630e-001
324510000 -3.316094e-005 4.896240e-005 2.190564e-001 9.235972e-001 -2.785357e-005 -1.076257e-004 2.199166e-001 9.279675e-001
324795000 -2.680170e-005 -2.638853e-005 2.532780e-001 9.208720e-001 -1.184768e-005 9.361313e-006 2.545302e-001 9.248065e-001
325080000 4.933502e-006 -8.371801e-005 2.876601e-001 9.165575e-001 1.543570e-006 -8.110856e-005 2.884451e-001 9.203773e-001
325365000 6.308810e-005 -4.901933e-005 3.225534e-001 9.106239e-001 -4.156616e-005 -5.131886e-005 3.241599e-001 9.145938e-001
325650000 9.132761e-006 -9.576340e-005 3.574236e-001 9.031075e-001 -6.870169e-005 1.746847e-005 3.593258e-001 9.074076e-001
325935000 3.325360e-005 1.681921e-005 3.928561e-001 8.945626e-001 -1.147972e-004 -8.633208e-007 3.947388e-001 8.979036e-001
326220000 -7.291270e-006 -1.006073e-005 4.286972e-001 8.838817e-001 3.260141e-006 -1.976886e-004 4.296552e-001 8.876933e-001
326505000 3.434854e-005 -1.182152e-005 4.630332e-001 8.716229e-001 1.058745e-004 5.637314e-005 4.649736e-001 8.748291e-001
326790000 4.169083e-005 2.491958e-005 4.980655e-001 8.569555e-001 5.479704e-005 1.262723e-005 5.002645e-001 8.614216e-001
327075000 -3.581928e-006 7.167159e-005 5.333121e-001 8.415701e-001 1.226574e-005 3.622335e-005 5.348498e-001 8.455141e-001
327360000 -7.198437e-005 6.900892e-005 5.668214e-001 8.245573e-001 -5.323107e-005 5.471824e-005 5.693144e-001 8.279368e-001
327645000 -7.626995e-005 8.973220e-005 6.008580e-001 8.052333e-001 5.086062e-005 6.611671e-005 6.032909e-001 8.087228e-001
327930000 -4.400204e-005 5.145621e-005 6.339014e-001 7.840732e-001 -1.661447e-004 1.914928e-005 6.367357e-001 7.877427e-001
328215000 3.807972e-005 5.986641e-005 6.661169e-001 7.615086e-001 -8.675098e-005 -8.670363e-005 6.688792e-001 7.654881e-001
328500000 -4.291002e-005 -1.401992e-004 6.973939e-001 7.372338e-001 -1.684507e-005 -3.979096e-005 7.010500e-001 7.410491e-001
328785000 3.325178e-005 1.328623e-005 7.278978e-001 7.115221e-001 1.191194e-004 -3.183317e-005 7.309328e-001 7.144091e-001
329070000 6.329337e-005 -2.119176e-006 7.571905e-001 6.837553e-001 4.776869e-005 2.349829e-005 7.605029e-001 6.867541e-001
329355000 2.769631e-005 3.703537e-005 7.850540e-001 6.543658e-001 9.535709e-005 -2.530996e-005 7.886949e-001 6.575087e-001
329640000 7.436366e-005 4.496374e-005 8.122806e-001 6.238210e-001 6.268301e-005 -6.655978e-005 8.158959e-001 6.268456e-001
329925000 -1.816943e-005 -1.169222e-005 8.372797e-001 5.920948e-001 -1.866435e-005 -6.112956e-005 8.405020e-001 5.947235e-001
330210000 1.090935e-004 9.503889e-005 8.609203e-001 5.592534e-001 1.060651e-004 8.065282e-005 8.649005e-001 5.614653e-001
330495000 2.039783e-005 -5.938658e-005 8.832985e-001 5.247931e-001 1.074137e-004 4.555688e-005 8.868622e-001 5.270257e-001
330780000 1.717628e-005 6.722321e-005 9.035985e-001 4.889550e-001 1.452205e-004 8.394369e-005 9.077522e-001 4.913353e-001
331065000 -5.132152e-005 2.263184e-005 9.218779e-001 4.526256e-001 3.126132e-005 1.546944e-004 9.254895e-001 4.550159e-001
331350000 -5.687640e-005 8.607140e-005 9.384608e-001 4.152265e-001 8.283100e-007 1.281806e-004 9.431945e-001 4.170267e-001
331635000 -3.990242e-005 1.283503e-005 9.538226e-001 3.769913e-001 -1.367435e-004 4.826299e-005 9.581954e-001 3.792855e-001
331920000 -9.212568e-006 -9.349077e-005 9.671663e-001 3.395150e-001 -3.134342e-005 5.965785e-006 9.710576e-001 3.409234e-001
332205000 7.568495e-005 5.775848e-005 9.773217e-001 2.996322e-001 8.073290e-006 1.537988e-005 9.817713e-001 3.012730e-001
332490000 5.029844e-005 -1.261441e-005 9.870903e-001 2.613327e-001 3.498575e-005 1.293764e-005 9.915460e-001 2.622716e-001
332775000 1.820397e-005 -5.600408e-005 9.942924e-001 2.209118e-001 -5.893666e-005 -1.268132e-005 9.984716e-001 2.220418e-001
333060000 1.507124e-004 -1.837196e-005 9.995826e-001 1.814862e-001 -6.091187e-005 -3.256081e-005 1.003737e+000 1.826726e-001
333345000 -3.891483e-005 6.157463e-005 1.002832e+000 1.426199e-001 -3.126129e-005 -1.009099e-004 1.006850e+000 1.430472e-001
333630000 7.351075e-005 -1.011055e-004 1.003456e+000 1.031849e-001 -2.664630e-005 -9.885374e-005 1.008399e+000 1.036838e-001
333915000 5.540316e-006 -8.973175e-006 1.003927e+000 6.432772e-002 2.824864e-005 4.139060e-006 1.008249e+000 6.427127e-002
334200000 6.084707e-005 -6.416299e-005 1.001681e+000 2.571298e-002 -1.676499e-004 -2.140257e-005 1.006371e+000 2.586967e-002
334485000 -6.158960e-005 -1.886409e-005 9.970033e-001 -1.242600e-002 -6.079217e-005 -8.251683e-005 1.002283e+000 -1.173890e-002
334770000 -1.489746e-005 1.138077e-005 9.914765e-001 -4.958699e-002 -3.360969e-005 -3.309092e-005 9.966898e-001 -4.997138e-002
335055000 -2.233949e-005 -1.874319e-005 9.848652e-001 -8.625299e-002 -8.622579e-005 2.090923e-005 9.889851e-001 -8.684025e-002
335340000 -9.357538e-006 -8.553238e-006 9.764904e-001 -1.222955e-001 -5.547749e-005 2.813277e-005 9.807118e-001 -1.226366e-001
335625000 -5.954878e-005 -4.554839e-006 9.660576e-001 -1.570988e-001 -3.707858e-005 -1.456068e-004 9.700311e-001 -1.582274e-001
335910000 -9.874706e-006 4.764159e-005 9.547797e-001 -1.917501e-001 3.833840e-005 -9.503638e-005 9.585405e-001 -1.919937e-001
336195000 4.107456e-005 -2.998112e-005 9.421479e-001 -2.251001e-001 7.102951e-005 -7.708172e-005 9.455192e-001 -2.264007e-001
336480000 -6.130206e-006 -6.921453e-005 9.276669e-001 -2.565376e-001 -3.195276e-005 7.001263e-005 9.317958e-001 -2.578169e-001
336765000 -5.834141e-005 -1.126111e-005 9.126158e-001 -2.881728e-001 -3.122026e-005 3.050546e-005 9.164061e-001 -2.888652e-001
337050000 7.491007e-005 -6.644008e-007 8.963482e-001 -3.181164e-001 2.547247e-005 2.407151e-005 9.005204e-001 -3.197298e-001
337335000 -4.044691e-005 4.923186e-005 8.792239e-001 -3.471633e-001 3.536550e-005 8.266456e-005 8.832267e-001 -3.485485e-001
337620000 -5.057086e-005 6.600525e-005 8.619326e-001 -3.753052e-001 8.100141e-005 8.374453e-005 8.648503e-001 -3.766795e-001
337905000 -8.009747e-008 -2.033727e-005 8.427173e-001 -4.020724e-001 -9.323123e-005 -1.365019e-005 8.469916e-001 -4.035079e-001
338190000 9.032938e-005 -7.557240e-005 8.235658e-001 -4.279879e-001 -2.006083e-006 1.671538e-004 8.272437e-001 -4.299982e-001
338475000 6.183606e-005 3.537800e-006 8.036293e-001 -4.523100e-001 -4.153323e-005 4.940132e-005 8.072681e-001 -4.545293e-001
338760000 -3.487355e-005 -4.425096e-005 7.835557e-001 -4.761301e-001 -4.057056e-005 -1.237815e-004 7.867761e-001 -4.782260e-001
339045000 4.394817e-005 -3.646240e-005 7.620342e-001 -4.982545e-001 -7.416313e-006 -1.216701e-004 7.654857e-001 -5.001763e-001
339330000 -2.872258e-005 5.817722e-006 7.409279e-001 -5.198638e-001 6.624075e-005 5.147414e-005 7.440239e-001 -5.219862e-001
339615000 8.927709e-006 6.221666e-005 7.193621e-001 -5.396487e-001 -1.117292e-004 -6.638833e-005 7.221966e-001 -5.419856e-001
339900000 4.825505e-005 1.064778e-004 6.965238e-001 -5.595732e-001 -6.449321e-005 -9.078991e-006 7.005533e-001 -5.611346e-001
340185000 -3.814004e-005 9.263546e-005 6.749734e-001 -5.775158e-001 -3.418787e-005 6.719928e-005 6.775400e-001 -5.805766e-001
340470000 1.898949e-005 7.167163e-005 6.519827e-001 -5.945511e-001 5.863264e-005 4.781336e-005 6.549106e-001 -5.977793e-001
340755000 -1.120863e-005 3.574317e-005 6.290339e-001 -6.106986e-001 4.951788e-005 8.884024e-005 6.320524e-001 -6.133299e-001
341040000 -3.179838e-005 1.189919e-006 6.060997e-001 -6.260923e-001 7.317628e-006 1.041414e-004 6.094261e-001 -6.290238e-001
341325000 2.656124e-005 7.881667e-005 5.832951e-001 -6.409188e-001 -2.985207e-006 3.238700e-005 5.855341e-001 -6.433233e-001
341610000 3.605318e-005 -6.376593e-005 5.603762e-001 -6.541765e-001 -1.514305e-006 8.938557e-006 5.623908e-001 -6.574458e-001
341895000 -7.512311e-005 -1.233629e-005 5.368287e-001 -6.666930e-001 -1.749196e-005 9.234129e-005 5.395858e-001 -6.701084e-001
342180000 -3.778497e-006 -8.576316e-005 5.136858e-001 -6.795554e-001 3.906164e-006 -8.285847e-006 5.164384e-001 -6.819085e-001
342465000 -3.605274e-005 7.277967e-005 4.908995e-001 -6.901606e-001 -1.160672e-005 7.553137e-005 4.930161e-001 -6.933078e-001
342750000 4.857079e-005 4.388431e-005 4.678003e-001 -7.003837e-001 -1.745751e-006 1.509288e-005 4.698720e-001 -7.037646e-001
343035000 2.058066e-005 -4.875508e-005 4.449108e-001 -7.102438e-001 -2.674873e-005 -2.054788e-005 4.467951e-001 -7.131190e-001
343320000 9.507730e-005 -4.682277e-005 4.218569e-001 -7.189531e-001 -3.737296e-005 3.308833e-005 4.235592e-001 -7.224429e-001
343605000 1.479686e-005 -1.964263e-005 3.988382e-001 -7.275285e-001 -5.225186e-006 -4.554491e-006 4.007932e-001 -7.302102e-001
343890000 5.498370e-005 6.906884e-005 3.758130e-001 -7.347689e-001 -6.420498e-006 4.856095e-005 3.774498e-001 -7.377702e-001
