!Agilent Technologies,N5230C,SG49000117,A.08.50.07
!Agilent N5230C: A.08.50.07
!Date: Sunday, March 17, 2024 02:58:56
!Correction: S11(Off) 
!S21(Off) 
!S12(Off) 
!S22(Off) 
!S2P File: Measurements: S11, S21, S12, S22:
# Hz S  RI   R 50
300000000 1.235495e-004 -5.707202e-005 -7.114283e-001 -4.988618e-001 -4.374561e-005 -7.831796e-005 -7.141806e-001 -5.001903e-001
300285000 1.818652e-004 6.027365e-005 -7.218881e-001 -4.742645e-001 -4.718315e-006 3.486711e-005 -7.242035e-001 -4.763941e-001
300570000 1.628012e-005 6.639042e-005 -7.307863e-001 -4.508282e-001 5.588942e-005 4.084506e-005 -7.334737e-001 -4.522148e-001
300855000 -6.607794e-005 3.997923e-005 -7.392319e-001 -4.266396e-001 -4.880567e-005 -8.723623e-005 -7.418696e-001 -4.283328e-001
301140000 -3.888506e-005 2.703442e-005 -7.471004e-001 -4.024898e-001 -2.316514e-005 -9.050157e-005 -7.500650e-001 -4.040391e-001
301425000 -5.471386e-005 -2.275662e-005 -7.541540e-001 -3.787648e-001 -2.080916e-005 -2.518310e-005 -7.570850e-001 -3.806384e-001
301710000 2.450771e-005 -7.814276e-006 -7.608793e-001 -3.547263e-001 9.159588e-005 -1.409708e-004 -7.635335e-001 -3.564819e-001
301995000 -1.914673e-005 -4.725734e-005 -7.667201e-001 -3.319866e-001 6.131743e-005 -2.333448e-005 -7.691366e-001 -3.329639e-001
302280000 8.118936e-005 3.088450e-005 -7.717668e-001 -3.081169e-001 4.736984e-005 -1.290622e-005 -7.747552e-001 -3.096957e-001
302565000 5.585601e-005 -5.954516e-005 -7.761459e-001 -2.847044e-001 -3.063094e-005 -4.488942e-006 -7.789015e-001 -2.862358e-001
302850000 2.053759e-005 -1.267166e-004 -7.801315e-001 -2.621694e-001 6.659206e-005 -5.250546e-005 -7.828225e-001 -2.629091e-001
303135000 4.103794e-005 2.953585e-005 -7.833028e-001 -2.397033e-001 -9.950675e-006 2.244607e-005 -7.857388e-001 -2.405704e-001
303420000 -1.641186e-005 4.593382e-005 -7.859890e-001 -2.169248e-001 8.322281e-005 -1.042684e-004 -7.887118e-001 -2.176696e-001
303705000 6.847842e-005 2.989781e-005 -7.879670e-001 -1.942484e-001 6.045007e-005 3.365532e-006 -7.907964e-001 -1.945845e-001
303990000 1.720758e-004 -1.225461e-005 -7.897030e-001 -1.718036e-001 6.677028e-005 2.097182e-005 -7.931271e-001 -1.724891e-001
304275000 4.018577e-005 -3.926830e-005 -7.912841e-001 -1.499070e-001 5.539756e-005 2.548636e-005 -7.941560e-001 -1.498610e-001
304560000 -2.554694e-005 1.010312e-004 -7.919061e-001 -1.279405e-001 1.137715e-004 5.436402e-005 -7.947620e-001 -1.278829e-001
304845000 1.241640e-005 -1.341654e-004 -7.919613e-001 -1.059095e-001 8.243222e-006 -6.357535e-005 -7.949783e-001 -1.056652e-001
305130000 1.926993e-004 1.843974e-004 -7.914682e-001 -8.375020e-002 7.367743e-005 -1.018257e-005 -7.948828e-001 -8.431826e-002
305415000 2.240047e-005 -6.304999e-006 -7.914835e-001 -6.246588e-002 3.480226e-005 -9.093907e-005 -7.940070e-001 -6.302471e-002
305700000 2.056195e-005 3.097615e-005 -7.899659e-001 -4.101864e-002 -1.284897e-004 9.639683e-007 -7.930050e-001 -4.130933e-002
305985000 -3.293540e-005 -4.646445e-005 -7.878177e-001 -2.036571e-002 2.729278e-005 -7.248935e-005 -7.915515e-001 -1.979908e-002
306270000 1.294126e-005 5.425818e-005 -7.862843e-001 1.319900e-003 2.774628e-005 6.335849e-005 -7.894959e-001 7.727848e-004
306555000 -3.917660e-008 3.203240e-005 -7.840270e-001 2.197715e-002 1.626071e-004 -7.879757e-006 -7.869507e-001 2.209630e-002
306840000 4.616413e-005 -2.755403e-005 -7.814831e-001 4.214913e-002 -1.098295e-004 -1.356765e-005 -7.842534e-001 4.226682e-002
307125000 8.313212e-005 2.203808e-005 -7.780011e-001 6.291316e-002 1.175456e-005 6.606409e-005 -7.810659e-001 6.299707e-002
307410000 -6.252162e-005 1.454786e-005 -7.741482e-001 8.342509e-002 -8.761379e-005 1.020073e-004 -7.774506e-001 8.392560e-002
307695000 -2.014312e-005 9.686174e-005 -7.710479e-001 1.037471e-001 2.433920e-005 1.317794e-004 -7.737693e-001 1.034353e-001
307980000 -1.028491e-004 1.102648e-004 -7.666873e-001 1.241778e-001 5.583784e-005 -2.441714e-005 -7.694551e-001 1.237511e-001
308265000 -1.404745e-005 -8.689801e-005 -7.616481e-001 1.430405e-001 -9.520778e-005 -8.370559e-005 -7.647365e-001 1.437561e-001
308550000 1.238411e-005 3.027579e-007 -7.566422e-001 1.630434e-001 -2.587343e-005 -3.539903e-005 -7.597196e-001 1.639593e-001
308835000 9.662942e-006 -2.765874e-005 -7.520683e-001 1.826560e-001 6.089336e-005 -6.782832e-005 -7.545647e-001 1.837454e-001
309120000 3.742406e-007 -1.549840e-005 -7.460436e-001 2.022171e-001 5.534416e-005 -1.091998e-004 -7.489246e-001 2.031481e-001
309405000 6.356937e-005 -1.831716e-005 -7.397771e-001 2.220972e-001 7.882571e-005 6.108103e-006 -7.429394e-001 2.227267e-001
309690000 2.523536e-005 -5.042629e-005 -7.334065e-001 2.409966e-001 -3.809468e-005 -4.566655e-005 -7.359567e-001 2.415130e-001
309975000 6.259055e-005 -5.697470e-006 -7.265011e-001 2.597400e-001 -1.545947e-005 4.723196e-005 -7.292163e-001 2.609594e-001
310260000 7.895953e-005 8.612743e-005 -7.190165e-001 2.791749e-001 -4.629040e-005 -3.937765e-005 -7.222264e-001 2.804095e-001
310545000 2.232907e-005 -5.787469e-005 -7.121955e-001 2.980902e-001 -7.178351e-005 7.973435e-005 -7.149930e-001 2.990664e-001
310830000 -1.145289e-004 1.805805e-007 -7.040590e-001 3.167860e-001 9.940223e-007 -9.206656e-005 -7.069669e-001 3.179324e-001
311115000 1.543359e-004 -4.199961e-005 -6.957688e-001 3.352067e-001 -1.123898e-004 7.497489e-005 -6.990176e-001 3.365678e-001
311400000 -4.456301e-005 9.714836e-005 -6.870892e-001 3.539251e-001 2.949761e-005 -1.657265e-004 -6.901829e-001 3.556589e-001
311685000 -7.379404e-005 6.437084e-005 -6.779502e-001 3.723738e-001 2.035191e-006 -1.755754e-005 -6.810793e-001 3.737400e-001
311970000 -9.678392e-005 -4.063539e-005 -6.685553e-001 3.905061e-001 -2.204861e-005 5.788393e-005 -6.716378e-001 3.920441e-001
312255000 3.660805e-005 5.367890e-005 -6.590161e-001 4.092460e-001 -1.706706e-005 1.925809e-005 -6.621792e-001 4.107587e-001
312540000 1.790546e-005 -5.631844e-005 -6.491958e-001 4.270416e-001 4.825697e-005 6.299758e-005 -6.516739e-001 4.287710e-001
312825000 -5.311913e-005 5.564783e-006 -6.383600e-001 4.450188e-001 -2.737345e-005 -3.673373e-005 -6.409433e-001 4.472829e-001
313110000 -1.169008e-004 4.462752e-005 -6.273091e-001 4.630882e-001 -3.372698e-005 1.304009e-004 -6.300387e-001 4.646994e-001
313395000 -8.576370e-005 8.001067e-006 -6.163453e-001 4.806383e-001 -1.325223e-004 -4.361456e-005 -6.188741e-001 4.830029e-001
313680000 -3.028443e-005 -7.233620e-005 -6.043767e-001 4.985765e-001 7.930403e-005 -2.361779e-005 -6.071338e-001 5.007370e-001
313965000 -3.060751e-005 4.296656e-005 -5.921773e-001 5.161863e-001 4.927122e-005 4.135303e-005 -5.946655e-001 5.180406e-001
314250000 4.961567e-005 -1.685709e-004 -5.796114e-001 5.334943e-001 6.235435e-006 8.140858e-005 -5.820541e-001 5.358016e-001
314535000 -9.564598e-006 7.386209e-006 -5.664545e-001 5.507031e-001 -2.338888e-005 3.099862e-005 -5.686134e-001 5.526800e-001
314820000 -5.402126e-005 -2.520666e-005 -5.522895e-001 5.681386e-001 2.734715e-005 5.367528e-005 -5.551917e-001 5.698764e-001
315105000 1.616762e-004 -1.424434e-005 -5.386189e-001 5.846836e-001 -5.116098e-005 1.016545e-004 -5.405474e-001 5.872235e-001
315390000 7.057138e-005 8.428553e-005 -5.242015e-001 6.016566e-001 -1.779854e-005 -6.499975e-005 -5.262949e-001 6.045111e-001
315675000 -8.507969e-005 5.307451e-006 -5.090797e-001 6.180731e-001 2.489021e-005 9.183905e-005 -5.106198e-001 6.207649e-001
315960000 -3.304389e-005 -5.765610e-006 -4.931695e-001 6.349602e-001 8.154465e-005 -1.139712e-004 -4.951497e-001 6.372759e-001
316245000 -7.420631e-005 -3.277172e-005 -4.767447e-001 6.513333e-001 -2.617468e-005 8.121188e-005 -4.787952e-001 6.534268e-001
316530000 9.872538e-006 -1.395664e-004 -4.600031e-001 6.675721e-001 6.537913e-005 3.650201e-005 -4.620532e-001 6.700166e-001
316815000 -1.044330e-005 2.795090e-005 -4.427115e-001 6.835173e-001 -3.927759e-005 9.061551e-005 -4.444834e-001 6.859058e-001
317100000 4.670335e-006 -2.696610e-005 -4.251208e-001 6.988789e-001 -6.701284e-005 3.844764e-005 -4.267327e-001 7.019093e-001
317385000 -1.451239e-006 -2.166314e-005 -4.063012e-001 7.144370e-001 -7.117453e-006 1.581082e-005 -4.081259e-001 7.172189e-001
317670000 1.059383e-004 8.452572e-005 -3.872752e-001 7.294365e-001 -8.360889e-005 1.750791e-005 -3.888930e-001 7.325561e-001
317955000 6.786607e-005 -4.965029e-005 -3.676634e-001 7.440723e-001 -6.155645e-005 2.408993e-005 -3.693982e-001 7.469208e-001
318240000 1.867540e-005 4.004308e-005 -3.476770e-001 7.584672e-001 -7.778294e-005 -1.339822e-005 -3.487447e-001 7.617379e-001
318525000 5.552971e-005 -7.121816e-005 -3.262995e-001 7.727387e-001 5.247772e-005 -7.734730e-007 -3.278055e-001 7.759402e-001
318810000 3.961020e-005 -1.141631e-004 -3.050222e-001 7.863567e-001 1.209080e-006 -7.758713e-005 -3.055594e-001 7.894890e-001
319095000 -4.025186e-005 -7.035356e-005 -2.824622e-001 7.998619e-001 -5.847904e-005 -1.210342e-004 -2.832009e-001 8.030512e-001
319380000 -4.421199e-005 6.378573e-005 -2.590920e-001 8.128560e-001 2.327468e-005 -7.853686e-005 -2.601966e-001 8.160392e-001
319665000 1.777462e-005 7.518689e-005 -2.351280e-001 8.252603e-001 2.271605e-006 -1.124298e-004 -2.357693e-001 8.283844e-001
319950000 6.311599e-005 1.441126e-006 -2.105821e-001 8.369802e-001 9.344594e-005 -7.575588e-005 -2.119460e-001 8.408138e-001
320235000 -1.540999e-005 7.929966e-005 -1.859783e-001 8.485028e-001 1.167064e-005 3.391229e-005 -1.864787e-001 8.516272e-001
320520000 1.231055e-004 4.862388e-005 -1.601375e-001 8.586191e-001 2.982533e-005 -2.434552e-005 -1.601557e-001 8.624032e-001
320805000 -4.551178e-005 4.639669e-005 -1.333105e-001 8.693842e-001 -3.016514e-005 -1.645013e-006 -1.343232e-001 8.724548e-001
321090000 -4.625677e-005 -2.028043e-005 -1.055890e-001 8.782913e-001 1.468308e-005 -8.819589e-005 -1.064573e-001 8.815345e-001
321375000 -3.820168e-005 1.095415e-005 -7.848457e-002 8.863952e-001 5.829742e-005 -8.438897e-005 -7.791407e-002 8.906942e-001
321660000 -5.196419e-005 5.869950e-005 -4.910592e-002 8.944235e-001 9.428818e-006 1.481862e-005 -4.923896e-002 8.986109e-001
321945000 -1.407689e-005 -7.497011e-005 -1.953972e-002 9.015455e-001 8.593901e-005 -1.801402e-005 -1.952018e-002 9.052294e-001
322230000 -8.010918e-005 2.572516e-005 1.068280e-002 9.075530e-001 -1.196524e-005 3.797772e-005 1.026279e-002 9.112101e-001
322515000 -8.020601e-005 -9.494110e-005 4.117688e-002 9.124103e-001 6.306116e-005 1.711483e-005 4.129827e-002 9.162583e-001
322800000 4.878894e-005 -1.233998e-004 7.237860e-002 9.167342e-001 4.900234e-005 -4.066956e-007 7.363468e-002 9.200731e-001
323085000 -1.001931e-004 -1.549517e-005 1.045835e-001 9.190044e-001 3.827191e-006 2.534432e-005 1.049109e-001 9.231008e-001
323370000 1.083336e-004 -6.801693e-005 1.369871e-001 9.204290e-001 -1.601422e-004 -6.550327e-005 1.379454e-001 9.246125e-001
323655000 -4.808183e-005 -1.376732e-004 1.704284e-001 9.208131e-001 -1.005283e-004 -7.340264e-005 1.702040e-001 9.249915e-001
323940000 -1.936515e-005 -3.027414e-005 2.037365e-001 9.203407e-001 -5.928504e-005 -5.819935e-005 2.043653e-001 9.235085e-001
324225000 2.430358e-005 1.389112e-005 2.380291e-001 9.181871e-001 -1.151088e-005 5.603843e-005 2.385497e-001 9.216763e-001
324510000 2.948232e-005 -3.294250e-005 2.725419e-001 9.146228e-001 5.947465e-006 -5.721707e-005 2.733117e-001 9.181326e-001
324795000 3.245768e-005 -2.736557e-005 3.067259e-001 9.091815e-001 1.147039e-004 9.827599e-006 3.080661e-001 9.128389e-001
325080000 -4.771433e-006 1.493870e-005 3.410143e-001 9.027666e-001 -5.394493e-005 1.730731e-004 3.428463e-001 9.066286e-001
325365000 -5.694883e-005 -9.200675e-005 3.767023e-001 8.944823e-001 -1.074804e-004 2.299807e-005 3.781597e-001 8.977651e-001
325650000 1.053231e-004 -5.213309e-005 4.116312e-001 8.845162e-001 -1.175133e-004 -1.953491e-005 4.134977e-001 8.884631e-001
325935000 6.848431e-005 4.409144e-005 4.464058e-001 8.728267e-001 -1.171917e-004 7.192771e-005 4.481214e-001 8.764545e-001
326220000 -6.007242e-005 5.186910e-005 4.809566e-001 8.599253e-001 4.343088e-005 -1.971097e-005 4.835709e-001 8.633921e-001
326505000 1.709021e-005 9.887928e-006 5.161474e-001 8.453242e-001 -5.940226e-005 2.153409e-005 5.185081e-001 8.484578e-001
326790000 -5.308300e-005 1.366013e-005 5.502499e-001 8.287389e-001 4.063452e-005 6.519454e-005 5.531636e-001 8.321579e-001
327075000 -7.674606e-007 -1.887634e-004 5.839496e-001 8.101268e-001 2.991079e-005 -1.052563e-004 5.863096e-001 8.136135e-001
327360000 -1.244145e-005 -4.868206e-005 6.167740e-001 7.898650e-001 -1.352781e-004 -6.189026e-006 6.198508e-001 7.934666e-001
327645000 -5.946516e-006 -1.595613e-005 6.496794e-001 7.689134e-001 -1.264988e-004 1.866853e-005 6.524816e-001 7.719824e-001
327930000 9.091592e-005 -1.697006e-005 6.817128e-001 7.449500e-001 1.181942e-006 1.312576e-005 6.842129e-001 7.475784e-001
328215000 -1.061228e-004 -1.557401e-005 7.129969e-001 7.200497e-001 -6.827235e-006 1.419844e-005 7.151043e-001 7.229914e-001
328500000 7.122748e-005 -1.071340e-004 7.416179e-001 6.934020e-001 4.494777e-005 5.452869e-005 7.450273e-001 6.964701e-001
328785000 -2.903780e-005 7.551108e-006 7.711233e-001 6.652834e-001 4.234026e-005 -1.883532e-007 7.745352e-001 6.679438e-001
329070000 7.429910e-005 -7.557021e-005 7.984272e-001 6.351261e-001 -5.229378e-005 4.502795e-005 8.018101e-001 6.383758e-001
329355000 1.517711e-004 1.100833e-004 8.241479e-001 6.046807e-001 3.512749e-005 5.051660e-006 8.273118e-001 6.067769e-001
329640000 -7.307678e-005 -6.114379e-006 8.486719e-001 5.720300e-001 8.955295e-005 -1.163115e-006 8.517824e-001 5.735475e-001
329925000 -6.944933e-005 4.596891e-005 8.709048e-001 5.375597e-001 6.735564e-005 -5.872382e-005 8.751910e-001 5.401763e-001
330210000 -2.216377e-005 1.029816e-004 8.918313e-001 5.031511e-001 1.222466e-005 1.027967e-004 8.964054e-001 5.055169e-001
330495000 -9.618786e-005 5.036083e-005 9.122751e-001 4.671221e-001 -2.740298e-005 -4.504091e-005 9.156734e-001 4.693938e-001
330780000 -5.714140e-006 1.075468e-005 9.297236e-001 4.306123e-001 5.399443e-005 -3.854363e-005 9.335996e-001 4.321892e-001
331065000 6.238600e-005 -8.187153e-005 9.452565e-001 3.928103e-001 -1.038789e-005 1.288639e-004 9.496612e-001 3.944605e-001
331350000 -4.071946e-005 -1.172729e-004 9.596021e-001 3.544692e-001 3.156554e-005 8.333802e-005 9.634843e-001 3.562266e-001
331635000 -5.423812e-006 -3.082858e-005 9.713541e-001 3.154172e-001 -6.151068e-005 5.794601e-005 9.757719e-001 3.168167e-001
331920000 -1.491984e-006 -6.201713e-005 9.814286e-001 2.770194e-001 -5.378101e-005 -3.706464e-005 9.855059e-001 2.782188e-001
332205000 1.963896e-005 -5.773424e-005 9.893456e-001 2.374415e-001 -1.343505e-004 7.839537e-005 9.939724e-001 2.387592e-001
332490000 -6.076132e-005 6.407099e-005 9.950281e-001 1.976707e-001 -4.261427e-005 -5.843159e-005 1.000112e+000 1.985737e-001
332775000 -1.957329e-005 3.551495e-006 9.994201e-001 1.582086e-001 -1.040026e-004 -4.407185e-005 1.003839e+000 1.592418e-001
333060000 -5.415587e-005 -3.810888e-005 1.002294e+000 1.190078e-001 -1.185032e-007 9.615626e-007 1.005863e+000 1.202453e-001
333345000 -5.327324e-005 2.372849e-005 1.002772e+000 8.000783e-002 6.054017e-005 -2.445637e-005 1.007154e+000 8.003259e-002
333630000 5.346366e-005 -1.077477e-004 1.000473e+000 4.129053e-002 -5.922389e-005 -3.503708e-005 1.005022e+000 4.129270e-002
333915000 -3.287231e-005 -2.553611e-005 9.984410e-001 3.012780e-003 7.140794e-005 7.898374e-005 1.002331e+000 2.574427e-003
334200000 1.703522e-005 -2.030228e-005 9.925631e-001 -3.467055e-002 1.038711e-004 -4.013025e-005 9.977228e-001 -3.454378e-002
334485000 -6.010802e-005 -1.801628e-005 9.866038e-001 -7.188726e-002 7.951938e-006 -4.670722e-006 9.903909e-001 -7.271146e-002
334770000 3.766889e-005 -1.077793e-004 9.783098e-001 -1.080839e-001 2.375203e-005 -1.362619e-005 9.827418e-001 -1.089627e-001
335055000 -5.581793e-005 -3.791190e-005 9.685820e-001 -1.435196e-001 9.069765e-005 2.978139e-005 9.731742e-001 -1.443657e-001
335340000 -2.756190e-005 1.334640e-005 9.579989e-001 -1.788185e-001 -8.482109e-006 5.399431e-005 9.629608e-001 -1.796600e-001
335625000 -1.472404e-005 -3.971950e-005 9.459838e-001 -2.122231e-001 -7.961608e-005 1.408479e-005 9.500211e-001 -2.131104e-001
335910000 -3.934129e-005 -3.026143e-005 9.324597e-001 -2.450216e-001 -3.347161e-006 9.527804e-005 9.364281e-001 -2.458561e-001
336195000 -3.832694e-006 5.725729e-006 9.174629e-001 -2.765160e-001 -8.578238e-005 6.516528e-005 9.215639e-001 -2.775778e-001
336480000 -3.421635e-005 4.810215e-005 9.014339e-001 -3.068186e-001 -6.871767e-005 4.709174e-005 9.051875e-001 -3.085797e-001
336765000 1.323231e-004 4.109125e-005 8.854707e-001 -3.366656e-001 3.108678e-005 9.793470e-005 8.885112e-001 -3.377091e-001
337050000 -7.016961e-005 4.195951e-005 8.678307e-001 -3.648350e-001 4.090082e-005 6.959709e-005 8.718073e-001 -3.668855e-001
337335000 -2.942025e-005 9.466047e-005 8.494832e-001 -3.932917e-001 -9.066834e-006 1.444693e-004 8.534300e-001 -3.942408e-001
337620000 6.875725e-005 1.388904e-005 8.299915e-001 -4.184261e-001 -1.473513e-004 8.980264e-005 8.337648e-001 -4.208671e-001
337905000 4.397322e-005 -2.068925e-005 8.101870e-001 -4.439923e-001 -3.570203e-005 3.793971e-005 8.138803e-001 -4.454835e-001
338190000 -1.136875e-004 4.390760e-005 7.898949e-001 -4.677730e-001 9.324085e-005 -4.705441e-005 7.937501e-001 -4.697644e-001
338475000 3.124729e-005 -7.179804e-007 7.689932e-001 -4.909316e-001 -3.367215e-005 -7.615368e-005 7.719748e-001 -4.923441e-001
338760000 6.613169e-005 -3.774514e-005 7.479558e-001 -5.122930e-001 -1.648923e-005 5.667907e-005 7.507573e-001 -5.147063e-001
339045000 -1.482121e-005 8.405284e-005 7.260603e-001 -5.334678e-001 7.296891e-006 9.557635e-005 7.292103e-001 -5.362045e-001
339330000 -1.119890e-005 4.522893e-005 7.043554e-001 -5.530881e-001 -1.706537e-005 4.646716e-005 7.068333e-001 -5.554217e-001
339615000 -6.752623e-005 2.988662e-005 6.815982e-001 -5.717226e-001 2.719725e-005 7.432286e-005 6.839724e-001 -5.741974e-001
339900000 1.335486e-005 7.566069e-005 6.586357e-001 -5.892624e-001 -3.497677e-006 8.770939e-005 6.618512e-001 -5.918743e-001
340185000 -1.957950e-005 -7.325172e-005 6.362566e-001 -6.061041e-001 -6.828103e-005 8.285152e-005 6.386369e-001 -6.083640e-001
340470000 -4.920796e-005 -9.182629e-005 6.128433e-001 -6.218557e-001 -1.566975e-004 -9.006195e-006 6.155561e-001 -6.244389e-001
340755000 -4.496521e-005 2.752841e-005 5.900678e-001 -6.369981e-001 -6.151701e-005 -1.053760e-004 5.924281e-001 -6.393811e-001
341040000 -7.304057e-005 6.602583e-005 5.668365e-001 -6.501608e-001 -1.352990e-004 -9.353458e-005 5.690711e-001 -6.535060e-001
341325000 1.729815e-006 -1.513929e-004 5.440601e-001 -6.635830e-001 4.971672e-005 -6.175430e-006 5.457825e-001 -6.661766e-001
341610000 6.684734e-005 9.390825e-005 5.200400e-001 -6.757179e-001 4.157582e-005 -8.398647e-005 5.225785e-001 -6.782532e-001
341895000 -8.560756e-006 3.230638e-005 4.972842e-001 -6.868390e-001 1.012858e-004 -3.182515e-005 4.987484e-001 -6.902944e-001
342180000 1.128231e-004 -2.542533e-006 4.738342e-001 -6.973054e-001 -9.234101e-006 -5.045651e-005 4.754886e-001 -7.003595e-001
342465000 1.658460e-005 4.070138e-005 4.506113e-001 -7.073941e-001 -5.780523e-005 1.152588e-005 4.527963e-001 -7.100649e-001
342750000 -2.447507e-005 -4.217500e-005 4.275534e-001 -7.165052e-001 4.569429e-005 -3.433391e-005 4.295692e-001 -7.194329e-001
343035000 3.073968e-005 3.258538e-005 4.043030e-001 -7.246605e-001 3.842061e-005 -4.650600e-006 4.061338e-001 -7.277969e-001
343320000 -9.136909e-007 -2.590643e-005 3.813083e-001 -7.323409e-001 -4.053715e-005 8.112873e-005 3.828916e-001 -7.356063e-001
343605000 -1.095711e-004 3.041026e-006 3.585584e-001 -7.395808e-001 5.791174e-006 5.314971e-005 3.603445e-001 -7.424642e-001
343890000 -7.313491e-005 -1.035422e-004 3.359262e-001 -7.458918e-001 -2.944859e-005 1.052887e-005 3.372177e-001 -7.489032e-001
