!Agilent Technologies,N5230C,SG49000117,A.08.50.07
!Agilent N5230C: A.08.50.07
!Date: Sunday, March 17, 2024 03:00:32
!Correction: S11(Off) 
!S21(Off) 
!S12(Off) 
!S22(Off) 
!S2P File: Measurements: S11, S21, S12, S22:
# Hz S  RI   R 50
300000000 2.930267e-005 -8.345763e-005 -7.371877e-001 -4.260194e-001 -1.722371e-005 2.366642e-005 -7.397914e-001 -4.273946e-001
300285000 2.545930e-005 -4.916964e-005 -7.450597e-001 -4.019745e-001 -3.813321e-005 -1.832131e-004 -7.473873e-001 -4.037068e-001
300570000 -8.661712e-006 -1.621920e-005 -7.522658e-001 -3.781214e-001 -1.839612e-005 4.180926e-006 -7.552549e-001 -3.801496e-001
300855000 -5.503053e-005 -4.529061e-005 -7.587177e-001 -3.553114e-001 5.692699e-005 -2.688898e-005 -7.609712e-001 -3.557276e-001
301140000 -4.141404e-005 -1.184843e-005 -7.646160e-001 -3.312716e-001 3.634069e-005 2.105229e-005 -7.669115e-001 -3.322664e-001
301425000 -1.138818e-004 -3.808796e-005 -7.694739e-001 -3.074102e-001 -5.100390e-005 -7.707066e-005 -7.720989e-001 -3.087586e-001
301710000 -4.043090e-005 1.764610e-005 -7.740882e-001 -2.839269e-001 7.431844e-005 -3.688184e-005 -7.766211e-001 -2.851994e-001
301995000 -2.626673e-005 1.054346e-004 -7.779045e-001 -2.609962e-001 6.770158e-005 -4.466084e-005 -7.806819e-001 -2.618046e-001
302280000 7.462808e-005 7.780598e-006 -7.806113e-001 -2.383546e-001 2.574779e-005 1.142181e-004 -7.842352e-001 -2.382898e-001
302565000 -8.119434e-005 5.922754e-005 -7.835984e-001 -2.145648e-001 8.091197e-005 3.106929e-005 -7.869196e-001 -2.156772e-001
302850000 1.339541e-005 2.085654e-005 -7.855521e-001 -1.925487e-001 9.200438e-005 -5.466389e-005 -7.882140e-001 -1.931157e-001
303135000 1.285867e-006 -6.371896e-006 -7.874311e-001 -1.700207e-001 -1.237999e-006 6.998911e-005 -7.907399e-001 -1.706422e-001
303420000 -9.824200e-005 2.747665e-005 -7.886134e-001 -1.479011e-001 -3.634652e-006 -3.205350e-005 -7.910610e-001 -1.476764e-001
303705000 -2.526651e-006 -3.837519e-005 -7.890846e-001 -1.255396e-001 -1.211319e-004 -1.147432e-005 -7.921607e-001 -1.263117e-001
303990000 -1.635507e-005 1.419493e-005 -7.891082e-001 -1.034021e-001 -2.126572e-005 -5.450705e-005 -7.920838e-001 -1.040178e-001
304275000 -6.078120e-005 -2.782349e-005 -7.886062e-001 -8.172642e-002 -7.289449e-005 5.368663e-005 -7.916341e-001 -8.226067e-002
304560000 2.826614e-005 -1.086012e-004 -7.880098e-001 -6.057829e-002 -2.761779e-005 -3.748549e-005 -7.906505e-001 -6.058351e-002
304845000 3.312618e-005 -1.468862e-005 -7.866590e-001 -3.929268e-002 -1.189778e-004 4.320195e-005 -7.903525e-001 -3.986374e-002
305130000 2.878835e-005 4.374726e-005 -7.847519e-001 -1.784011e-002 1.843857e-005 -3.455079e-005 -7.882008e-001 -1.717091e-002
305415000 1.093532e-005 -1.472291e-005 -7.826723e-001 3.157021e-003 -4.998778e-006 -4.564571e-005 -7.859749e-001 3.310959e-003
305700000 -1.642272e-005 -8.148748e-005 -7.808478e-001 2.429842e-002 4.480112e-005 5.651275e-008 -7.837203e-001 2.400591e-002
305985000 8.821640e-005 4.472806e-006 -7.776371e-001 4.483963e-002 -4.503748e-005 -5.936366e-005 -7.804785e-001 4.505651e-002
306270000 -3.908139e-005 -1.159555e-005 -7.743046e-001 6.507796e-002 1.094545e-004 1.378545e-005 -7.774983e-001 6.502752e-002
306555000 4.150189e-005 2.673900e-005 -7.701255e-001 8.496762e-002 2.301496e-007 5.110106e-006 -7.733545e-001 8.578762e-002
306840000 7.054001e-005 -3.051747e-005 -7.666450e-001 1.055775e-001 2.445356e-005 -9.075827e-005 -7.693286e-001 1.058646e-001
307125000 8.690385e-005 1.264486e-004 -7.623481e-001 1.256305e-001 -7.011336e-005 -5.651992e-005 -7.656357e-001 1.262261e-001
307410000 -4.841838e-005 5.754617e-005 -7.575053e-001 1.453754e-001 -8.109341e-005 -4.884442e-006 -7.602429e-001 1.461850e-001
307695000 2.969093e-005 -8.176941e-006 -7.519010e-001 1.652616e-001 -7.767996e-006 4.432653e-005 -7.553548e-001 1.658354e-001
307980000 1.028055e-004 -3.235650e-005 -7.464852e-001 1.854575e-001 1.592200e-005 -7.362212e-005 -7.496643e-001 1.856640e-001
308265000 1.099353e-005 -8.558030e-006 -7.405782e-001 2.040248e-001 3.608941e-005 3.211331e-005 -7.432016e-001 2.049596e-001
308550000 4.741611e-005 6.832666e-006 -7.346597e-001 2.236932e-001 1.052829e-004 6.009073e-005 -7.374516e-001 2.242468e-001
308835000 1.848371e-005 7.846279e-006 -7.276394e-001 2.426627e-001 9.178344e-006 2.467978e-005 -7.301370e-001 2.438139e-001
309120000 -2.084940e-005 -4.205930e-005 -7.213436e-001 2.619680e-001 -6.492819e-005 2.698301e-005 -7.239688e-001 2.630647e-001
309405000 -4.921754e-005 4.338565e-005 -7.137133e-001 2.806790e-001 4.139250e-005 3.457527e-006 -7.162012e-001 2.821816e-001
309690000 3.105800e-005 4.379213e-005 -7.057796e-001 2.999063e-001 -1.011671e-005 -3.344327e-005 -7.084725e-001 3.012253e-001
309975000 1.046048e-005 -7.666890e-005 -6.977549e-001 3.183621e-001 1.607536e-005 -1.387423e-005 -7.002818e-001 3.194215e-001
310260000 4.937941e-005 7.470930e-006 -6.891433e-001 3.371067e-001 -4.520831e-005 7.871156e-006 -6.920350e-001 3.380283e-001
310545000 5.219070e-005 -5.335983e-005 -6.809846e-001 3.550742e-001 1.263978e-005 -1.159197e-004 -6.832718e-001 3.565231e-001
310830000 6.102142e-005 4.689099e-005 -6.718047e-001 3.732027e-001 -6.963125e-005 -1.028195e-004 -6.742593e-001 3.745518e-001
311115000 -4.878924e-005 -4.662603e-005 -6.619310e-001 3.914630e-001 -3.122208e-005 6.314499e-005 -6.646613e-001 3.932153e-001
311400000 -1.346606e-005 3.651327e-005 -6.518107e-001 4.096748e-001 2.580911e-005 9.911374e-006 -6.540584e-001 4.110274e-001
311685000 -1.910217e-005 1.422345e-004 -6.416344e-001 4.277538e-001 7.717436e-005 3.420719e-005 -6.442185e-001 4.293173e-001
311970000 -6.446480e-005 1.561946e-004 -6.307766e-001 4.453571e-001 -7.139517e-006 -2.751296e-005 -6.336542e-001 4.474572e-001
312255000 4.967892e-005 4.587051e-007 -6.198681e-001 4.636465e-001 8.106353e-005 7.634644e-005 -6.222017e-001 4.649227e-001
312540000 -5.693991e-005 7.754310e-005 -6.079171e-001 4.808256e-001 -1.245119e-004 3.870551e-005 -6.110986e-001 4.823222e-001
312825000 -4.533116e-005 1.787591e-006 -5.965565e-001 4.982900e-001 4.924288e-005 -4.591343e-006 -5.985801e-001 4.998766e-001
313110000 2.074474e-005 1.894027e-005 -5.841659e-001 5.150426e-001 -1.996117e-005 1.865250e-005 -5.862283e-001 5.174915e-001
313395000 -2.902442e-005 2.151169e-005 -5.711128e-001 5.323406e-001 -4.042510e-005 7.916705e-005 -5.735344e-001 5.341463e-001
313680000 -1.457062e-004 1.745173e-005 -5.581424e-001 5.499486e-001 4.103678e-005 3.810344e-005 -5.602425e-001 5.519558e-001
313965000 -1.078352e-004 2.837054e-005 -5.443915e-001 5.663645e-001 -5.136110e-005 3.313550e-006 -5.459850e-001 5.683663e-001
314250000 -6.220055e-005 -8.352724e-005 -5.300408e-001 5.830273e-001 -1.359042e-004 1.051995e-005 -5.324308e-001 5.853278e-001
314535000 3.841320e-005 7.744708e-005 -5.152149e-001 5.991990e-001 -6.735224e-005 6.059116e-006 -5.175229e-001 6.017928e-001
314820000 7.781602e-005 -9.654531e-005 -5.006460e-001 6.160000e-001 -6.159652e-005 -4.060069e-005 -5.015056e-001 6.184415e-001
315105000 6.543858e-005 -1.541119e-004 -4.845334e-001 6.319451e-001 1.940610e-005 -1.433632e-005 -4.865749e-001 6.343525e-001
315390000 -3.233960e-005 -3.053022e-005 -4.678884e-001 6.477317e-001 -3.820840e-005 -1.503458e-004 -4.706596e-001 6.505840e-001
315675000 -5.659225e-005 -7.287796e-005 -4.514656e-001 6.641245e-001 -1.525592e-004 -8.154035e-005 -4.531134e-001 6.664597e-001
315960000 6.376841e-005 -6.915941e-005 -4.336685e-001 6.789914e-001 1.598150e-005 -1.019203e-004 -4.361070e-001 6.822454e-001
316245000 1.041623e-004 1.262791e-004 -4.164526e-001 6.947858e-001 4.581269e-005 7.011121e-006 -4.179189e-001 6.975905e-001
316530000 3.048922e-005 -8.552828e-005 -3.978878e-001 7.093535e-001 5.216933e-005 1.669717e-005 -3.994350e-001 7.124168e-001
316815000 -5.220049e-005 -3.672873e-005 -3.784346e-001 7.247568e-001 -5.221093e-006 4.720187e-007 -3.803003e-001 7.274762e-001
317100000 6.254761e-005 -3.749943e-005 -3.592012e-001 7.388370e-001 -4.783783e-005 -5.408437e-005 -3.601825e-001 7.419041e-001
317385000 4.191081e-005 1.031958e-004 -3.387534e-001 7.531359e-001 -3.547008e-005 2.784630e-005 -3.398270e-001 7.558276e-001
317670000 -1.360818e-005 -2.692777e-005 -3.177576e-001 7.667704e-001 1.128082e-004 6.248555e-005 -3.192405e-001 7.694436e-001
317955000 -3.110024e-005 -1.910903e-005 -2.960311e-001 7.800976e-001 -8.135417e-005 1.749580e-005 -2.974575e-001 7.833670e-001
318240000 7.380146e-005 9.755876e-005 -2.734831e-001 7.931603e-001 -4.350567e-005 -4.236291e-005 -2.750185e-001 7.957624e-001
318525000 4.060681e-005 -4.553810e-006 -2.507588e-001 8.055415e-001 4.698627e-005 -5.929999e-005 -2.520540e-001 8.087915e-001
318810000 -4.650768e-005 -1.347263e-005 -2.266262e-001 8.170947e-001 -5.869207e-005 1.062596e-004 -2.284688e-001 8.209745e-001
319095000 -1.083668e-005 -6.950880e-006 -2.030942e-001 8.290524e-001 -1.789989e-006 -5.170083e-005 -2.040491e-001 8.320727e-001
319380000 4.333665e-005 -7.267517e-005 -1.783209e-001 8.397392e-001 2.571986e-006 -3.150426e-006 -1.786281e-001 8.429275e-001
319665000 -1.280473e-005 -2.405166e-005 -1.523563e-001 8.502834e-001 -2.105382e-004 2.517960e-006 -1.531176e-001 8.534046e-001
319950000 -4.866963e-005 3.049978e-005 -1.256813e-001 8.595428e-001 9.338308e-006 2.890605e-005 -1.266925e-001 8.632236e-001
320235000 -6.061387e-005 -5.387555e-005 -9.879873e-002 8.686995e-001 5.872480e-005 5.823773e-005 -9.901590e-002 8.721310e-001
320520000 -1.681725e-005 5.600994e-005 -7.128943e-002 8.766769e-001 -5.024279e-005 -1.750864e-005 -7.154874e-002 8.797631e-001
320805000 -2.615788e-005 7.316744e-005 -4.336667e-002 8.838560e-001 8.969680e-005 4.706002e-005 -4.327449e-002 8.873523e-001
321090000 1.547250e-005 -9.121311e-006 -1.398733e-002 8.903229e-001 -4.013646e-005 6.179974e-005 -1.396923e-002 8.943027e-001
321375000 -3.943348e-006 -5.654206e-005 1.579753e-002 8.963283e-001 -6.835371e-005 -5.661850e-005 1.601495e-002 8.999929e-001
321660000 -1.614065e-005 -6.062029e-005 4.620198e-002 9.010973e-001 2.128369e-005 2.342723e-005 4.690104e-002 9.044761e-001
321945000 -4.279564e-005 3.460885e-005 7.717317e-002 9.040736e-001 -1.437248e-005 2.891641e-005 7.774910e-002 9.078044e-001
322230000 -1.903644e-005 -5.159746e-005 1.089278e-001 9.066136e-001 6.123634e-005 -4.476739e-005 1.093820e-001 9.106545e-001
322515000 -4.055911e-005 -7.590060e-005 1.406495e-001 9.079662e-001 9.941612e-006 5.015758e-005 1.417100e-001 9.119002e-001
322800000 -4.968308e-005 -1.169361e-004 1.735649e-001 9.084404e-001 4.401338e-005 -5.337603e-005 1.739888e-001 9.122223e-001
323085000 5.885905e-005 -1.341688e-005 2.062411e-001 9.072205e-001 8.482764e-005 -4.132052e-005 2.070175e-001 9.111176e-001
323370000 6.128729e-005 6.126351e-006 2.401717e-001 9.047021e-001 1.063795e-004 6.229059e-005 2.407155e-001 9.090177e-001
323655000 8.039783e-005 -1.115684e-006 2.732073e-001 9.012495e-001 3.569302e-005 5.908367e-005 2.746276e-001 9.045174e-001
323940000 1.216814e-005 5.541953e-006 3.076132e-001 8.961723e-001 1.230196e-004 4.814559e-005 3.090297e-001 8.997437e-001
324225000 3.664859e-005 1.456133e-005 3.417451e-001 8.893022e-001 8.011922e-005 8.329319e-005 3.436047e-001 8.930328e-001
324510000 -7.760934e-005 -3.093886e-008 3.769039e-001 8.810343e-001 -9.024991e-006 -6.165356e-005 3.777324e-001 8.850350e-001
324795000 5.088479e-005 6.865482e-005 4.104739e-001 8.717090e-001 -1.257272e-004 -2.795287e-005 4.126849e-001 8.751680e-001
325080000 4.725661e-006 1.656517e-005 4.448068e-001 8.596460e-001 4.947793e-005 5.975423e-005 4.469773e-001 8.629333e-001
325365000 -4.076375e-005 6.503831e-005 4.794277e-001 8.467128e-001 -7.130756e-005 1.046551e-004 4.813995e-001 8.500127e-001
325650000 -3.978275e-005 -4.430384e-005 5.131636e-001 8.320183e-001 -7.543964e-005 4.304979e-005 5.152952e-001 8.356529e-001
325935000 -3.164669e-005 1.409453e-005 5.473459e-001 8.156363e-001 5.480404e-005 -7.581355e-005 5.498765e-001 8.194060e-001
326220000 -2.477383e-005 6.652230e-005 5.810850e-001 7.973631e-001 -1.053752e-005 -7.202942e-005 5.831892e-001 8.011093e-001
326505000 -4.790221e-006 -1.608633e-005 6.140159e-001 7.780083e-001 7.380782e-005 1.447995e-005 6.158407e-001 7.809372e-001
326790000 5.877744e-005 -4.536462e-006 6.448658e-001 7.557802e-001 -5.818904e-005 1.260026e-005 6.483132e-001 7.592863e-001
327075000 -1.163767e-004 5.120095e-005 6.765714e-001 7.330657e-001 9.028670e-005 1.035015e-004 6.790248e-001 7.359809e-001
327360000 -1.306156e-004 1.769440e-005 7.066688e-001 7.081420e-001 3.752254e-005 5.216926e-005 7.096786e-001 7.105278e-001
327645000 -7.871410e-005 6.308025e-005 7.364632e-001 6.820176e-001 -5.918494e-005 -6.551613e-006 7.399260e-001 6.850857e-001
327930000 7.138393e-007 5.207386e-005 7.643789e-001 6.541669e-001 -5.485300e-005 2.376630e-005 7.674632e-001 6.565817e-001
328215000 -5.313833e-005 1.926772e-005 7.919905e-001 6.245170e-001 2.480704e-005 3.631736e-005 7.954541e-001 6.275660e-001
328500000 -1.497168e-004 7.859301e-006 8.176091e-001 5.940847e-001 -1.332396e-005 9.211002e-007 8.201374e-001 5.961561e-001
328785000 -2.573344e-005 -5.633769e-006 8.411118e-001 5.610617e-001 -1.178709e-004 -1.167347e-004 8.440641e-001 5.638544e-001
329070000 1.452813e-005 -9.362503e-005 8.636321e-001 5.278819e-001 6.523443e-006 3.159774e-005 8.673074e-001 5.304695e-001
329355000 2.370026e-005 1.987373e-006 8.851312e-001 4.935674e-001 -4.502080e-005 -8.657905e-005 8.886414e-001 4.962518e-001
329640000 4.754445e-005 4.795157e-005 9.043263e-001 4.575987e-001 1.834980e-005 -5.740943e-005 9.073230e-001 4.599134e-001
329925000 -6.248347e-005 -6.112070e-005 9.211157e-001 4.219041e-001 -1.545323e-005 -8.104953e-005 9.256525e-001 4.239569e-001
330210000 2.307003e-005 -6.429428e-005 9.373357e-001 3.842273e-001 -1.324533e-004 2.086648e-005 9.418649e-001 3.859487e-001
330495000 1.600800e-006 1.330573e-005 9.505602e-001 3.465696e-001 -1.180038e-006 -5.632951e-007 9.544718e-001 3.478815e-001
330780000 2.017474e-005 -4.597734e-005 9.632820e-001 3.078644e-001 3.372036e-005 6.541184e-005 9.668573e-001 3.096323e-001
331065000 1.327446e-005 2.219996e-005 9.726783e-001 2.693540e-001 -3.081307e-005 -1.992717e-005 9.770952e-001 2.710806e-001
331350000 4.106333e-005 -3.924760e-005 9.802455e-001 2.304988e-001 7.335839e-006 -5.138935e-005 9.853690e-001 2.312703e-001
331635000 -1.509304e-004 -3.784248e-005 9.865420e-001 1.909694e-001 -4.253488e-005 -2.888081e-007 9.907966e-001 1.920294e-001
331920000 -9.352155e-005 2.514817e-005 9.909682e-001 1.517088e-001 2.302833e-005 -8.165881e-006 9.957899e-001 1.528565e-001
332205000 2.736848e-005 -3.153228e-005 9.929552e-001 1.129111e-001 -4.092205e-005 1.125324e-005 9.980552e-001 1.134789e-001
332490000 -2.353952e-006 -1.317542e-005 9.940266e-001 7.431272e-002 3.722824e-005 -2.645790e-005 9.977350e-001 7.425554e-002
332775000 -1.792790e-005 -7.503950e-005 9.921347e-001 3.541158e-002 -2.599021e-005 -1.059697e-005 9.968332e-001 3.537401e-002
333060000 -9.878343e-005 1.144719e-005 9.892886e-001 -2.423070e-003 -6.015763e-005 1.110331e-005 9.933529e-001 -2.803213e-003
333345000 -2.054734e-005 -4.930618e-005 9.841080e-001 -4.084319e-002 8.309243e-005 3.134930e-005 9.885697e-001 -4.066668e-002
333630000 5.258215e-005 -7.079802e-005 9.778366e-001 -7.733750e-002 -7.788603e-005 3.445500e-005 9.818239e-001 -7.757988e-002
333915000 -3.403811e-005 -2.017621e-005 9.693447e-001 -1.131953e-001 1.748189e-005 -4.716423e-005 9.736950e-001 -1.137206e-001
334200000 -2.315570e-005 -5.564321e-006 9.604034e-001 -1.487480e-001 -4.733548e-005 -8.728185e-005 9.643263e-001 -1.491474e-001
334485000 4.863012e-005 -4.036947e-005 9.493564e-001 -1.834404e-001 -1.311891e-005 6.647324e-005 9.533994e-001 -1.848255e-001
334770000 -7.678852e-005 -6.191813e-005 9.367804e-001 -2.169784e-001 -5.121390e-005 9.669816e-005 9.404911e-001 -2.177911e-001
335055000 -2.191295e-005 -5.726255e-005 9.232273e-001 -2.494716e-001 2.410333e-005 -3.850227e-005 9.273922e-001 -2.503807e-001
335340000 -6.730348e-005 -3.767579e-005 9.085058e-001 -2.812698e-001 -3.803166e-005 -3.081048e-005 9.124399e-001 -2.829317e-001
335625000 2.622557e-005 -2.529858e-005 8.924516e-001 -3.110790e-001 -2.503799e-005 -5.928395e-005 8.966283e-001 -3.129860e-001
335910000 7.258800e-005 3.598468e-007 8.757610e-001 -3.412972e-001 -4.709112e-005 5.717611e-005 8.798261e-001 -3.419497e-001
336195000 4.998880e-005 9.349978e-006 8.585430e-001 -3.698172e-001 -9.387240e-005 4.325075e-005 8.620791e-001 -3.709775e-001
336480000 8.382527e-005 -3.490923e-005 8.401758e-001 -3.963444e-001 -2.603282e-005 -1.533792e-005 8.435629e-001 -3.980250e-001
336765000 6.872707e-005 2.685402e-006 8.204408e-001 -4.223686e-001 1.440317e-005 -3.806558e-005 8.238488e-001 -4.241908e-001
337050000 -4.813386e-006 8.607804e-005 8.006814e-001 -4.470787e-001 -5.741300e-005 -8.436493e-005 8.042439e-001 -4.499079e-001
337335000 -2.807873e-006 -7.829436e-005 7.798847e-001 -4.714104e-001 -3.694304e-005 -1.086881e-004 7.833170e-001 -4.736455e-001
337620000 -1.920757e-005 8.621731e-006 7.590770e-001 -4.942322e-001 1.202863e-004 7.734865e-005 7.623858e-001 -4.964312e-001
337905000 -3.013325e-005 -8.015730e-005 7.380483e-001 -5.160141e-001 1.981090e-005 -4.632417e-005 7.405614e-001 -5.175800e-001
338190000 2.266708e-005 4.418012e-005 7.157959e-001 -5.358826e-001 1.021499e-004 4.580593e-005 7.189074e-001 -5.387299e-001
338475000 -1.183227e-006 7.611456e-005 6.934888e-001 -5.561094e-001 4.805055e-005 1.348356e-005 6.965606e-001 -5.581139e-001
338760000 1.233585e-005 -2.233037e-005 6.711333e-001 -5.742159e-001 -8.215118e-005 3.876612e-005 6.744190e-001 -5.770155e-001
339045000 -3.176010e-005 -2.113167e-005 6.479355e-001 -5.920419e-001 4.024264e-005 -6.411142e-005 6.507198e-001 -5.944235e-001
339330000 -3.239200e-005 -3.457095e-005 6.255448e-001 -6.079639e-001 5.804945e-006 1.201174e-005 6.278839e-001 -6.108662e-001
339615000 3.584879e-005 -7.271414e-005 6.023187e-001 -6.239019e-001 1.289214e-005 -2.361552e-005 6.050235e-001 -6.266220e-001
339900000 -3.834728e-005 -7.240572e-005 5.789125e-001 -6.384024e-001 4.066958e-005 8.690231e-005 5.813247e-001 -6.410354e-001
340185000 -3.385330e-005 -5.037175e-005 5.557492e-001 -6.518720e-001 -1.050618e-004 -7.531338e-005 5.575683e-001 -6.546139e-001
340470000 3.227046e-005 -2.465924e-005 5.323251e-001 -6.647467e-001 -1.113234e-005 -5.099668e-006 5.343058e-001 -6.676954e-001
340755000 -5.740468e-005 -1.038191e-004 5.087568e-001 -6.771365e-001 -1.956041e-005 5.959826e-005 5.116080e-001 -6.793991e-001
341040000 -6.971032e-006 -3.374210e-005 4.854175e-001 -6.875593e-001 -4.861544e-005 -2.881402e-005 4.876901e-001 -6.904069e-001
341325000 -2.873565e-005 -7.298918e-005 4.620228e-001 -6.981789e-001 -9.376545e-005 2.166135e-005 4.644541e-001 -7.008060e-001
341610000 2.884898e-005 -6.972013e-005 4.384668e-001 -7.080721e-001 2.262932e-006 -6.391484e-006 4.404028e-001 -7.108309e-001
341895000 2.957310e-005 -4.477898e-005 4.154588e-001 -7.162457e-001 4.993719e-006 3.814113e-005 4.170054e-001 -7.192853e-001
342180000 8.723005e-005 -4.142393e-005 3.925794e-001 -7.241495e-001 6.267853e-005 3.346833e-005 3.946402e-001 -7.271249e-001
342465000 1.294637e-004 -2.408727e-005 3.699531e-001 -7.316165e-001 -1.027519e-005 -2.513383e-005 3.713417e-001 -7.346948e-001
342750000 -3.540323e-005 3.104864e-005 3.468150e-001 -7.381550e-001 -3.942847e-006 -7.782851e-005 3.485196e-001 -7.412439e-001
343035000 5.077206e-005 4.085280e-005 3.240714e-001 -7.441164e-001 -2.543290e-005 3.285399e-005 3.253724e-001 -7.476485e-001
343320000 -6.789177e-005 1.485053e-004 3.013926e-001 -7.493310e-001 1.437245e-004 -5.904795e-005 3.026624e-001 -7.526565e-001
343605000 -6.257550e-005 -1.629479e-005 2.788417e-001 -7.546160e-001 1.887455e-005 4.388119e-005 2.798215e-001 -7.576341e-001
343890000 -9.146384e-005 6.591497e-005 2.566067e-001 -7.586155e-001 -4.503482e-005 5.177144e-005 2.572463e-001 -7.616242e-001
