!Agilent Technologies,N5230C,SG49000117,A.08.50.07
!Agilent N5230C: A.08.50.07
!Date: Thursday, December 07, 2023 04:58:31
!Correction: S11(Full 2 Port(1,2)) 
!S21(Full 2 Port(1,2)) 
!S12(Full 2 Port(1,2)) 
!S22(Full 2 Port(1,2)) 
!S2P File: Measurements: S11, S21, S12, S22:
# Hz S  RI   R 50
300000 1.021525e+000 -9.713928e-003 6.100073e-005 -8.199049e-005 -6.927140e-004 -2.223246e-004 1.039287e+000 -1.913844e-002
374985 9.990910e-001 -6.970314e-003 4.628623e-004 7.057383e-005 -3.734790e-004 -1.803456e-004 9.874390e-001 -1.552282e-002
449970 9.898304e-001 -1.148609e-003 1.487080e-005 3.850568e-005 2.254496e-004 2.884749e-004 9.543670e-001 -9.044952e-003
524955 9.776279e-001 6.488628e-003 1.206416e-004 -5.730978e-005 2.440188e-004 -8.633083e-005 9.301997e-001 -3.591121e-003
599940 9.803781e-001 5.572852e-003 2.376306e-005 -7.122070e-005 1.776483e-004 -5.371176e-005 9.434915e-001 5.117600e-003
674925 9.791828e-001 4.664422e-003 8.924899e-005 -5.123586e-005 -9.060002e-005 2.351786e-004 9.368728e-001 -1.484191e-002
749910 9.792584e-001 5.373850e-003 -4.248488e-005 1.166236e-004 -1.239830e-004 1.183267e-004 9.320750e-001 -9.013308e-003
824895 9.829060e-001 3.990352e-003 -8.469499e-005 -4.353792e-005 1.818288e-004 -1.090666e-004 9.377234e-001 -8.011012e-003
899880 9.874955e-001 1.312028e-003 5.527829e-005 -1.684058e-005 4.250911e-005 4.252031e-006 9.455343e-001 -1.246271e-002
974865 9.896488e-001 -5.043455e-004 -7.528839e-005 1.645367e-004 -2.796958e-004 -1.970719e-004 9.519885e-001 -1.068991e-002
1049850 9.937613e-001 -1.603795e-003 -8.610707e-005 -6.172571e-005 -6.169497e-005 -4.123191e-005 9.605127e-001 -1.037132e-002
1124835 9.976289e-001 -5.032545e-003 1.451438e-004 3.170332e-005 1.232117e-004 -8.457752e-005 9.683165e-001 -1.185672e-002
1199820 1.003385e+000 -8.322238e-003 2.354444e-005 -6.069791e-005 -1.037336e-004 -9.152966e-005 9.774206e-001 -8.367715e-003
1274805 1.008241e+000 -1.332964e-002 -6.104983e-006 -7.947764e-006 6.539605e-005 5.736506e-005 9.887782e-001 -8.685168e-003
1349790 1.000724e+000 -5.811105e-003 5.526682e-005 -5.266346e-005 -6.553450e-005 -3.902852e-005 1.005665e+000 -1.068570e-002
1424775 9.997100e-001 -5.942317e-003 -1.001561e-004 -2.571419e-005 -2.466464e-004 -2.909505e-005 1.004478e+000 -1.108793e-002
1499760 9.987992e-001 -4.493801e-003 7.560256e-005 -1.727714e-006 -3.577270e-005 1.358670e-004 1.005195e+000 -8.812789e-003
1574745 9.989673e-001 -3.686519e-003 -9.313598e-005 -2.214590e-004 -3.564503e-005 1.795417e-004 1.001288e+000 -1.013852e-002
1649730 9.982411e-001 -3.984354e-003 3.064316e-005 -3.803453e-005 -2.869890e-004 -3.427560e-005 1.003868e+000 -1.144002e-002
1724715 9.973540e-001 -4.917616e-003 4.049461e-005 -4.311864e-005 1.563179e-004 -9.135163e-005 1.004430e+000 -1.293032e-002
1799700 9.962922e-001 -4.174736e-003 9.148936e-007 2.104360e-005 6.505937e-005 -4.700126e-005 1.003481e+000 -1.158728e-002
1874685 9.962535e-001 -2.945827e-003 -1.122704e-004 1.104832e-004 2.947351e-004 -1.358375e-004 1.000909e+000 -8.307179e-003
1949670 9.955927e-001 -2.338770e-003 -9.049421e-005 -2.081604e-004 -2.754724e-004 2.193449e-004 1.002505e+000 -6.236244e-003
2024655 9.956021e-001 -2.447605e-003 -3.254240e-005 -5.640442e-005 2.607873e-004 2.688730e-006 1.000140e+000 -4.097070e-003
2099640 9.943364e-001 -2.459129e-003 1.918677e-005 9.359004e-005 1.264384e-004 -1.255116e-004 1.002093e+000 -6.115245e-003
2174625 9.945903e-001 -2.224796e-003 -9.739964e-006 2.965452e-005 -8.702733e-005 -1.626994e-004 1.002752e+000 -5.878828e-003
2249610 9.962654e-001 -2.764754e-003 -1.238119e-004 -7.023241e-006 2.701233e-004 -1.118090e-004 1.000799e+000 -5.771634e-003
2324595 1.000441e+000 -4.152786e-003 1.567751e-006 6.352857e-005 5.943292e-005 -6.102990e-005 1.001104e+000 -5.488685e-003
2399580 1.000191e+000 -4.248149e-003 2.926589e-005 -3.254082e-005 -2.982555e-004 1.142047e-004 1.002271e+000 -4.853774e-003
2474565 9.992145e-001 -1.534713e-003 1.462074e-005 -9.642482e-005 2.934188e-005 2.592184e-005 9.996156e-001 -5.531273e-003
2549550 1.001375e+000 -2.759173e-003 -1.060802e-004 -1.135878e-004 1.716554e-004 -1.289295e-005 9.990451e-001 -5.558458e-003
2624535 1.000665e+000 -3.020676e-003 5.022732e-005 -3.107173e-005 -6.439947e-005 -4.715143e-005 9.982228e-001 -6.719668e-003
2699520 1.000022e+000 -4.807073e-003 3.444380e-005 2.994111e-005 8.429474e-005 -5.766312e-005 9.953038e-001 -5.265767e-003
2774505 9.994584e-001 -2.173710e-003 -6.045179e-005 -1.387227e-004 9.798625e-005 2.145793e-004 1.000456e+000 -1.020139e-002
2849490 1.000866e+000 -2.088583e-003 -6.383839e-005 -8.981799e-005 -8.166092e-005 -3.947989e-005 9.981809e-001 -3.502932e-003
2924475 1.001132e+000 -2.473320e-003 -5.347206e-005 -1.019696e-004 4.067312e-004 -1.623982e-004 1.003548e+000 -5.951109e-003
2999460 1.000979e+000 -2.341286e-003 -5.235625e-005 -7.551366e-006 3.325413e-005 -1.785187e-004 9.998212e-001 -4.452173e-003
3074445 1.000908e+000 -1.890060e-003 -4.745700e-006 3.331418e-005 -1.979917e-005 -7.555167e-005 9.991703e-001 -4.201355e-003
3149430 1.001050e+000 -2.445197e-003 -1.638645e-004 -4.848149e-006 5.346299e-005 -2.634182e-005 9.992986e-001 -4.878689e-003
3224415 1.000377e+000 -2.601945e-003 5.768980e-005 -1.487413e-006 7.587756e-005 -1.191907e-004 9.987952e-001 -5.048281e-003
3299400 1.001217e+000 -3.047713e-003 -6.486882e-005 -1.187691e-004 -1.527243e-004 -2.731967e-004 9.995473e-001 -6.867334e-003
3374385 1.001081e+000 -3.067256e-003 -5.404704e-005 -4.164892e-005 2.004209e-004 -2.741741e-007 9.992497e-001 -5.067455e-003
3449370 1.000856e+000 -2.812746e-003 3.399007e-005 -5.802646e-005 1.335472e-004 -4.208682e-005 9.992774e-001 -5.880568e-003
3524355 1.001255e+000 -1.438307e-003 5.109052e-005 -9.596392e-006 5.726292e-006 -3.027303e-005 1.000153e+000 -2.911418e-003
3599340 1.000298e+000 -2.544317e-003 -1.222112e-004 5.398856e-005 2.185548e-004 -3.145529e-005 9.992994e-001 -5.930863e-003
3674325 1.001370e+000 -2.342163e-003 3.695903e-005 3.759680e-006 6.759852e-005 -2.620321e-004 9.983642e-001 -5.482646e-003
3749310 1.000975e+000 -2.655386e-003 -3.319381e-005 9.833209e-005 2.924095e-005 2.329767e-004 1.000116e+000 -5.106323e-003
3824295 1.001382e+000 -2.335022e-003 7.484847e-005 -2.129871e-005 -1.219944e-004 -1.920573e-004 9.996853e-001 -7.450437e-003
3899280 1.000835e+000 -3.671561e-003 -4.714537e-005 3.514764e-005 1.220449e-004 6.804187e-005 9.993090e-001 -6.913488e-003
3974265 1.000966e+000 -3.175684e-003 -4.586845e-005 -1.716255e-005 9.691480e-005 7.255179e-005 1.000322e+000 -5.726262e-003
4049250 1.001205e+000 -4.156220e-003 2.757406e-005 -1.971532e-005 1.823505e-004 8.427451e-006 1.000363e+000 -8.223321e-003
4124235 1.001193e+000 -3.973290e-003 -4.311336e-005 -7.351509e-005 -5.642946e-005 -4.146051e-005 9.993462e-001 -7.037305e-003
4199220 1.000365e+000 -3.142497e-003 -1.766932e-005 -1.954213e-005 -3.057517e-005 -7.689342e-005 9.991884e-001 -5.331117e-003
4274205 1.000859e+000 -3.480249e-003 3.504493e-005 -1.913556e-005 -9.124647e-005 3.279966e-005 1.001269e+000 -5.545192e-003
4349190 1.000648e+000 -3.517537e-003 -2.419903e-005 -5.387413e-005 1.217682e-005 1.486444e-004 1.000650e+000 -5.109351e-003
4424175 1.000849e+000 -3.407376e-003 -4.820108e-005 7.906944e-008 1.275342e-004 -5.554035e-005 9.997813e-001 -5.681525e-003
4499160 1.001202e+000 -3.518325e-003 -3.659270e-005 -2.428334e-006 7.874911e-005 -1.878033e-004 9.996501e-001 -5.572376e-003
4574145 1.000054e+000 -3.409753e-003 -1.432453e-004 2.430368e-006 -1.104773e-004 -1.850432e-004 9.993866e-001 -7.024340e-003
4649130 1.000321e+000 -3.791844e-003 -6.997677e-005 1.114464e-005 3.429832e-004 -1.452363e-004 9.996651e-001 -5.898518e-003
4724115 1.001295e+000 -3.177448e-003 -8.245202e-005 -9.446451e-005 -1.635918e-004 -7.647182e-006 9.993079e-001 -6.583411e-003
4799100 1.000668e+000 -2.966716e-003 -3.017462e-005 -1.655263e-005 -3.340486e-005 1.012576e-004 9.998725e-001 -5.696489e-003
4874085 1.001214e+000 -3.080816e-003 -9.810237e-007 6.614240e-005 -1.545871e-005 1.021468e-004 9.993107e-001 -4.084726e-003
4949070 1.001131e+000 -3.502741e-003 2.705356e-005 9.304503e-006 1.793585e-005 -3.074562e-004 9.997486e-001 -5.040558e-003
5024055 1.000385e+000 -2.493628e-003 1.447489e-005 4.647269e-005 -7.439653e-006 -1.781731e-008 9.996872e-001 -5.851449e-003
5099040 1.001274e+000 -2.632293e-003 1.538249e-005 -4.825444e-005 6.617587e-005 -9.920837e-005 1.000237e+000 -5.059192e-003
5174025 1.000704e+000 -2.827372e-003 1.601305e-005 -1.199295e-004 1.058645e-004 4.565757e-006 9.995519e-001 -5.593815e-003
5249010 1.001729e+000 -3.229053e-003 6.850578e-005 -4.265037e-005 -2.477654e-006 5.346154e-005 1.001194e+000 -4.515029e-003
5323995 1.000800e+000 -3.638085e-003 -2.249097e-005 1.256123e-004 1.637292e-004 -2.276232e-005 9.989179e-001 -5.142028e-003
5398980 1.001294e+000 -3.284796e-003 -2.497820e-005 -1.408279e-005 -1.994623e-004 7.400084e-005 9.994786e-001 -4.706435e-003
5473965 1.001325e+000 -3.297618e-003 3.175172e-005 9.244183e-005 -1.746353e-004 -3.933396e-005 9.996741e-001 -4.149903e-003
5548950 1.000743e+000 -4.041971e-003 1.512621e-005 1.558012e-005 1.097861e-004 -1.247061e-004 9.994220e-001 -5.369825e-003
5623935 1.001236e+000 -3.079705e-003 7.046344e-005 2.100494e-005 1.894831e-004 6.638034e-005 1.000135e+000 -4.233946e-003
5698920 1.000732e+000 -3.693430e-003 7.712439e-005 4.628331e-005 -1.162513e-004 1.053473e-004 1.001923e+000 -5.087284e-003
5773905 1.001395e+000 -3.386474e-003 -6.869398e-005 -4.663872e-006 2.818551e-004 -6.446998e-005 1.000174e+000 -5.749165e-003
5848890 1.001379e+000 -4.007545e-003 1.137191e-004 -1.983905e-006 -1.668052e-004 6.017860e-006 1.000345e+000 -5.303333e-003
5923875 1.001819e+000 -3.379174e-003 -3.617235e-005 -3.964037e-005 -1.176619e-004 2.135586e-004 1.000031e+000 -5.708674e-003
5998860 1.000764e+000 -3.916817e-003 -2.589897e-005 -2.902963e-005 -2.912226e-004 -8.539942e-005 1.000385e+000 -6.244976e-003
6073845 1.000365e+000 -3.878918e-003 -1.147692e-004 -8.388794e-006 -1.232819e-004 1.772656e-004 1.000510e+000 -6.826326e-003
6148830 1.000885e+000 -4.002090e-003 1.453974e-005 1.840054e-005 -1.994475e-005 -8.177639e-005 1.001717e+000 -7.577762e-003
6223815 1.001941e+000 -3.574881e-003 -2.943404e-005 -4.994969e-005 1.501338e-004 1.205197e-004 1.000253e+000 -6.288257e-003
6298800 1.001436e+000 -3.578640e-003 3.693752e-005 -8.914001e-005 -7.101196e-005 -3.194415e-005 9.989836e-001 -5.094985e-003
6373785 1.000689e+000 -2.853805e-003 2.143405e-005 3.442862e-006 4.402663e-005 -7.463740e-005 9.994967e-001 -7.842083e-003
6448770 1.001749e+000 -4.037801e-003 5.284375e-005 2.010202e-005 1.633085e-005 2.256894e-004 1.000340e+000 -6.702237e-003
6523755 1.000588e+000 -3.202180e-003 3.266615e-005 5.850541e-007 1.370617e-004 2.755299e-005 9.993275e-001 -7.816914e-003
6598740 1.001190e+000 -3.813748e-003 -2.177216e-005 -3.462526e-005 -3.918361e-004 1.112173e-004 9.998103e-001 -6.593066e-003
6673725 1.000940e+000 -3.496348e-003 6.611493e-005 -1.198710e-005 2.249764e-004 9.651801e-005 1.000507e+000 -6.777444e-003
6748710 9.999969e-001 -4.161299e-003 1.036610e-005 -5.070221e-005 3.587198e-005 1.754902e-004 1.000724e+000 -9.043127e-003
6823695 1.001150e+000 -4.206702e-003 5.498033e-005 4.334474e-005 -1.586969e-004 2.188125e-005 9.998491e-001 -8.157007e-003
6898680 1.000862e+000 -3.836462e-003 7.361943e-005 -6.927913e-005 -2.582135e-004 -3.718725e-004 1.000916e+000 -8.131004e-003
6973665 1.000664e+000 -4.104981e-003 1.818304e-005 1.366529e-004 -6.428691e-005 7.500762e-006 9.994723e-001 -8.664569e-003
7048650 1.000227e+000 -3.940322e-003 1.472969e-005 7.073279e-005 2.383899e-004 3.534345e-004 1.001273e+000 -7.733465e-003
7123635 1.000525e+000 -3.106908e-003 -1.382905e-005 -8.566806e-005 -5.059985e-005 -7.299644e-005 9.997312e-001 -9.198498e-003
7198620 1.000710e+000 -3.429066e-003 -5.120611e-005 -1.387478e-005 -1.723194e-004 7.080079e-005 9.997923e-001 -9.890286e-003
7273605 1.001264e+000 -3.849705e-003 -6.690376e-005 -1.820495e-005 -1.478124e-004 8.296209e-007 1.000475e+000 -8.420334e-003
7348590 1.000187e+000 -4.096875e-003 1.262670e-004 6.212680e-006 -5.819598e-005 6.705257e-005 9.992962e-001 -8.098857e-003
7423575 1.001375e+000 -3.805463e-003 7.079345e-005 3.533733e-005 1.470138e-005 -1.945040e-004 1.001146e+000 -9.711132e-003
7498560 1.000656e+000 -4.302788e-003 -1.942192e-005 5.994165e-005 1.983951e-004 8.370460e-005 1.000260e+000 -8.718332e-003
7573545 1.000388e+000 -4.535836e-003 -6.359723e-006 -1.895917e-006 1.284200e-004 2.048421e-004 1.000908e+000 -8.339906e-003
7648530 1.000661e+000 -4.086839e-003 -1.199342e-005 3.811865e-005 -4.547839e-004 -1.984417e-004 1.000381e+000 -7.707089e-003
7723515 1.000511e+000 -4.353101e-003 -3.615527e-005 1.506941e-006 -3.882069e-005 9.519864e-005 9.984018e-001 -9.125198e-003
7798500 1.000904e+000 -3.850809e-003 2.654198e-005 2.854454e-005 -2.429869e-004 -9.741879e-005 9.992435e-001 -9.215848e-003
7873485 1.001365e+000 -4.404495e-003 5.968711e-005 6.144086e-005 -1.708190e-004 1.249106e-004 9.992387e-001 -9.017588e-003
7948470 1.000976e+000 -4.342814e-003 2.272966e-005 8.817377e-005 -5.418801e-005 -2.236805e-004 1.000591e+000 -8.861004e-003
8023455 1.001484e+000 -4.094572e-003 -6.245689e-005 -8.678386e-005 5.405191e-005 1.585631e-004 9.997160e-001 -7.933568e-003
8098440 1.000879e+000 -4.014938e-003 4.147928e-005 -2.432025e-006 -1.449909e-004 -1.077345e-004 9.999406e-001 -7.510630e-003
8173425 1.000195e+000 -4.598682e-003 -7.118640e-006 -1.249931e-004 2.234611e-004 1.300067e-004 9.999703e-001 -7.128791e-003
8248410 1.000323e+000 -4.274223e-003 -1.127807e-004 6.092805e-005 2.187403e-004 -5.856025e-005 9.998131e-001 -7.794815e-003
8323395 1.000098e+000 -4.202776e-003 -6.793478e-005 7.015424e-005 1.209179e-004 -9.989946e-005 1.000854e+000 -6.405613e-003
8398380 9.998637e-001 -4.664585e-003 5.054452e-005 4.732970e-005 1.838583e-004 7.410799e-005 1.000168e+000 -7.205464e-003
8473365 1.000446e+000 -5.070893e-003 4.032318e-005 -6.487055e-005 1.324094e-004 7.147232e-005 9.996189e-001 -7.527100e-003
8548350 1.000532e+000 -4.603413e-003 -4.915094e-005 -4.939523e-005 1.919095e-005 -5.247719e-005 9.994856e-001 -9.800205e-003
8623335 1.001317e+000 -4.641660e-003 -7.979349e-005 -4.694433e-005 -4.526387e-005 2.020576e-004 9.993321e-001 -8.782943e-003
8698320 1.000822e+000 -4.772495e-003 4.656024e-005 6.755023e-005 1.298186e-004 2.200108e-004 9.998004e-001 -9.815463e-003
8773305 1.000498e+000 -4.902320e-003 -4.515302e-005 -4.898687e-006 -5.060371e-005 1.074669e-004 1.001757e+000 -8.297603e-003
8848290 1.000601e+000 -6.358896e-003 -3.727119e-005 7.884214e-005 -6.938996e-005 8.286874e-005 9.991881e-001 -9.679365e-003
8923275 1.000344e+000 -4.571558e-003 1.615254e-005 -1.710632e-006 1.554480e-004 1.096900e-004 9.993498e-001 -9.451335e-003
8998260 1.000578e+000 -4.669560e-003 6.489873e-005 2.594209e-005 3.228039e-004 1.445576e-004 1.001251e+000 -8.948177e-003
9073245 1.000685e+000 -5.662392e-003 -2.623879e-005 -1.906212e-005 2.657968e-005 1.705895e-004 1.000016e+000 -9.664423e-003
9148230 1.001103e+000 -5.271869e-003 -6.461547e-005 4.458324e-005 -3.707868e-005 2.199683e-004 1.001380e+000 -9.451129e-003
9223215 1.000496e+000 -6.003176e-003 1.092349e-004 5.125226e-005 -8.943787e-005 1.948868e-004 9.989373e-001 -1.111034e-002
9298200 1.000837e+000 -5.452355e-003 -4.361027e-006 1.179623e-005 -2.275037e-005 1.723558e-004 9.997012e-001 -1.031420e-002
9373185 1.000718e+000 -5.068355e-003 2.477297e-005 -5.571152e-006 2.900744e-005 -3.219765e-004 1.000708e+000 -9.611199e-003
9448170 1.000689e+000 -5.246120e-003 -6.464001e-005 -7.769656e-006 1.450695e-005 -1.196632e-004 9.999943e-001 -1.001863e-002
9523155 1.000400e+000 -6.115064e-003 1.586528e-004 -4.466553e-005 1.449829e-004 5.661308e-005 9.998852e-001 -9.964872e-003
9598140 9.998736e-001 -6.128428e-003 2.740700e-005 3.098619e-005 -7.746966e-005 1.524611e-004 1.000805e+000 -1.029442e-002
9673125 1.001415e+000 -5.982126e-003 2.206485e-005 6.526450e-005 1.061843e-004 1.534105e-005 1.000520e+000 -1.091698e-002
9748110 1.000567e+000 -6.360794e-003 1.923269e-005 3.135497e-005 -7.120419e-005 1.009131e-004 1.000175e+000 -1.038850e-002
9823095 1.000923e+000 -6.338971e-003 6.678441e-005 -3.661000e-005 4.774386e-005 -4.985768e-005 1.001972e+000 -1.231462e-002
9898080 1.000923e+000 -6.508462e-003 -3.440509e-005 8.544608e-005 -2.566316e-005 1.388474e-005 1.001424e+000 -1.064635e-002
9973065 1.000775e+000 -6.870596e-003 -6.682053e-005 -3.441268e-005 9.416458e-005 -1.123765e-004 1.000388e+000 -1.150691e-002
10048050 1.000581e+000 -7.455598e-003 -6.357856e-006 8.944620e-006 9.091969e-005 2.085539e-004 1.001556e+000 -1.311882e-002
10123035 1.000819e+000 -7.344776e-003 3.654779e-005 -2.227580e-007 1.596371e-005 6.966027e-005 1.002241e+000 -1.353701e-002
10198020 1.000384e+000 -7.707163e-003 -1.589090e-005 8.097276e-005 2.666245e-005 1.595063e-004 1.002148e+000 -1.489315e-002
10273005 1.000484e+000 -7.559063e-003 -1.811094e-006 -2.241894e-005 5.844349e-005 5.971638e-005 1.000505e+000 -1.240932e-002
10347990 1.000113e+000 -7.575719e-003 -9.897754e-005 2.107421e-005 -1.028436e-004 8.670687e-005 1.001522e+000 -1.531946e-002
10422975 1.000543e+000 -7.805055e-003 -5.363566e-005 -7.573910e-005 8.406793e-005 -7.100003e-005 1.001960e+000 -1.432369e-002
10497960 1.000845e+000 -7.801392e-003 -2.677654e-005 -2.650489e-005 -2.939299e-004 2.187801e-004 1.001681e+000 -1.456726e-002
10572945 1.000751e+000 -7.378330e-003 3.703355e-005 -3.717835e-005 2.280420e-005 -1.490296e-004 1.001193e+000 -1.504196e-002
10647930 1.000297e+000 -7.864391e-003 -3.140458e-005 7.087844e-005 -3.884206e-005 -1.265004e-004 1.001317e+000 -1.508878e-002
10722915 1.000376e+000 -7.757238e-003 -7.323367e-005 9.438638e-006 9.976968e-005 -1.746204e-004 1.001137e+000 -1.620695e-002
10797900 9.999166e-001 -6.949497e-003 1.097277e-004 -2.316874e-005 5.850043e-004 1.810413e-004 1.001157e+000 -1.663768e-002
10872885 9.993115e-001 -7.771008e-003 -4.391160e-005 -2.232870e-005 -1.600061e-004 2.325018e-004 1.002941e+000 -1.601059e-002
10947870 1.000057e+000 -7.688961e-003 4.888065e-005 6.391096e-005 -5.746452e-005 9.372135e-005 1.001135e+000 -1.775179e-002
11022855 9.998531e-001 -8.049923e-003 9.038242e-006 -6.661841e-005 1.923486e-004 4.169166e-006 1.001715e+000 -1.696477e-002
11097840 1.000708e+000 -7.209745e-003 5.818051e-005 5.744881e-005 -7.745152e-005 1.227831e-004 1.000913e+000 -1.759352e-002
11172825 1.000484e+000 -7.565911e-003 -6.527235e-005 -2.733546e-006 -1.887233e-004 -3.662330e-004 1.002289e+000 -1.779921e-002
11247810 9.996984e-001 -7.478853e-003 7.477327e-006 2.895296e-005 6.863454e-005 5.290525e-006 1.001134e+000 -1.773237e-002
11322795 9.998716e-001 -8.032960e-003 -6.087964e-005 8.692213e-005 1.333400e-004 -2.594862e-005 1.000691e+000 -1.637820e-002
11397780 1.000294e+000 -7.755083e-003 1.932770e-005 1.193386e-004 9.896031e-005 -2.921346e-004 1.000860e+000 -1.666106e-002
11472765 9.997257e-001 -8.228154e-003 -4.495153e-005 5.490133e-005 -1.006700e-004 8.548966e-005 1.001411e+000 -1.661197e-002
11547750 1.000447e+000 -7.912940e-003 -4.022318e-006 2.526023e-005 2.993596e-004 -1.041118e-004 1.001879e+000 -1.514536e-002
11622735 9.997641e-001 -8.047499e-003 5.015191e-005 -1.556317e-005 -4.173027e-005 5.352509e-004 1.000880e+000 -1.739064e-002
11697720 9.998085e-001 -8.179731e-003 -7.729524e-006 -2.595163e-005 -2.028004e-004 1.334861e-004 1.001748e+000 -1.808528e-002
11772705 9.994842e-001 -7.742908e-003 -1.595262e-005 -8.537740e-005 -5.735065e-005 2.009242e-004 1.002939e+000 -1.583424e-002
11847690 9.999926e-001 -7.698892e-003 -9.509704e-005 9.808926e-005 2.465424e-004 -1.484679e-004 1.002277e+000 -1.489141e-002
11922675 1.000680e+000 -8.126876e-003 3.890105e-006 -4.632123e-005 -2.145573e-004 1.280134e-004 1.002025e+000 -1.736224e-002
11997660 1.000663e+000 -8.180214e-003 7.993421e-005 -4.484532e-005 2.389623e-004 1.072825e-004 9.999705e-001 -1.528274e-002
