!Agilent Technologies,N5230C,SG49000117,A.08.50.07
!Agilent N5230C: A.08.50.07
!Date: Thursday, December 07, 2023 05:12:53
!Correction: S11(Full 2 Port(1,2)) 
!S21(Full 2 Port(1,2)) 
!S12(Full 2 Port(1,2)) 
!S22(Full 2 Port(1,2)) 
!S2P File: Measurements: S11, S21, S12, S22:
# Hz S  RI   R 50
300000 1.016834e+000 -1.099377e-002 1.572957e-005 -2.820673e-004 -1.330746e-004 -1.110253e-004 1.035682e+000 -2.335054e-002
374985 9.976085e-001 -3.586790e-003 -3.533514e-005 3.699063e-005 5.070874e-005 -7.780749e-005 9.822209e-001 -1.745213e-002
449970 9.876316e-001 -9.862578e-004 8.932927e-005 1.107675e-004 -1.207839e-004 -6.882606e-005 9.558797e-001 -1.078816e-002
524955 9.790826e-001 4.941018e-003 2.664224e-005 -4.004821e-006 8.378803e-005 -1.879658e-004 9.307619e-001 -9.434037e-004
599940 9.799855e-001 4.851154e-003 1.325720e-005 -4.039766e-005 -2.916595e-005 8.517239e-005 9.445573e-001 3.625057e-003
674925 9.795351e-001 4.527580e-003 4.365650e-005 6.236799e-005 2.506482e-005 -1.835639e-004 9.364477e-001 -1.478199e-002
749910 9.787830e-001 5.459747e-003 7.708643e-006 3.933756e-005 -1.814581e-004 -1.450228e-004 9.327036e-001 -9.595864e-003
824895 9.827326e-001 3.456134e-003 -1.566747e-005 4.573967e-005 -2.304676e-004 1.022417e-004 9.391467e-001 -9.509221e-003
899880 9.877687e-001 1.373699e-003 -6.269838e-005 -2.720344e-006 -9.505678e-005 4.921287e-005 9.425980e-001 -1.243478e-002
974865 9.903546e-001 2.152976e-004 -4.664000e-005 8.995547e-006 1.745659e-004 -9.305027e-005 9.505610e-001 -6.865491e-003
1049850 9.939440e-001 -2.704110e-003 -1.267626e-004 -6.815631e-005 1.120840e-005 3.104030e-004 9.586535e-001 -1.088288e-002
1124835 9.971089e-001 -5.461243e-003 4.405062e-005 5.883210e-005 2.761770e-004 1.291266e-004 9.678854e-001 -1.310971e-002
1199820 1.003750e+000 -9.702364e-003 -2.608738e-005 5.732242e-005 1.513744e-004 1.569222e-004 9.769962e-001 -1.089543e-002
1274805 1.008201e+000 -1.244638e-002 -2.013919e-005 -7.489471e-006 -8.461969e-005 -5.784973e-005 9.903378e-001 -8.466386e-003
1349790 1.000218e+000 -6.044922e-003 2.262632e-005 -1.272584e-004 3.776563e-005 -2.374035e-004 1.005371e+000 -1.213067e-002
1424775 9.993405e-001 -5.015263e-003 1.958367e-005 -4.981631e-005 -5.487100e-005 2.771570e-004 1.003541e+000 -1.196143e-002
1499760 9.990705e-001 -5.008025e-003 1.799041e-005 9.510420e-005 1.169266e-004 2.261276e-004 1.004857e+000 -8.080324e-003
1574745 9.981036e-001 -3.634630e-003 -1.971039e-004 -6.282989e-006 -4.827664e-006 3.768607e-004 1.001076e+000 -8.502601e-003
1649730 9.983338e-001 -4.471685e-003 7.586306e-006 -2.463756e-005 3.566602e-005 -1.471360e-005 1.003252e+000 -1.024246e-002
1724715 9.968561e-001 -4.346113e-003 -1.146473e-005 3.975225e-005 -1.736683e-004 8.713561e-006 1.004262e+000 -1.187505e-002
1799700 9.971876e-001 -4.222375e-003 -7.952304e-005 2.964065e-005 -2.932783e-004 -1.294032e-005 1.002415e+000 -1.169036e-002
1874685 9.963523e-001 -2.741876e-003 7.694829e-005 1.725032e-004 1.657830e-004 -5.853459e-005 1.002211e+000 -7.688123e-003
1949670 9.950250e-001 -2.608411e-003 -1.081444e-005 -1.256393e-004 -2.213556e-004 -6.716324e-004 1.001473e+000 -5.498308e-003
2024655 9.952205e-001 -1.871474e-003 -1.308305e-004 7.749214e-005 2.043646e-004 -2.062003e-004 9.999204e-001 -3.948488e-003
2099640 9.954161e-001 -2.204754e-003 -5.442759e-006 -4.057951e-005 -3.877450e-005 -9.061521e-005 1.001569e+000 -5.835929e-003
2174625 9.948322e-001 -2.336939e-003 4.928095e-005 4.729898e-005 5.572077e-005 -7.011298e-005 1.001676e+000 -7.325043e-003
2249610 9.961427e-001 -2.948945e-003 -1.065869e-004 -3.075747e-005 -5.027413e-005 2.708917e-004 9.998390e-001 -6.805263e-003
2324595 9.999947e-001 -4.090936e-003 3.977037e-007 -3.552567e-005 2.436276e-005 9.744512e-005 1.002742e+000 -7.528010e-003
2399580 1.000019e+000 -3.587481e-003 3.687307e-005 1.580193e-005 -1.440219e-004 3.514655e-005 1.003109e+000 -5.558416e-003
2474565 9.995391e-001 -1.414621e-003 -7.441419e-005 -3.921759e-005 2.656359e-004 5.445606e-005 9.995929e-001 -4.535929e-003
2549550 1.001963e+000 -2.489005e-003 -2.364193e-005 -7.856992e-005 -1.211091e-004 -7.357359e-005 1.000305e+000 -7.188389e-003
2624535 1.000929e+000 -2.591834e-003 2.801235e-005 3.209807e-006 5.735402e-005 -6.260614e-005 1.000084e+000 -6.735036e-003
2699520 1.000565e+000 -3.913185e-003 6.205081e-005 3.502058e-005 -3.278202e-004 -7.593717e-005 9.951267e-001 -4.853386e-003
2774505 9.998234e-001 -2.431392e-003 -1.087629e-004 4.688196e-006 5.943425e-005 1.089956e-005 9.998698e-001 -8.035428e-003
2849490 1.001628e+000 -2.697160e-003 7.915148e-005 -4.125281e-005 -1.470867e-004 7.290706e-005 9.970353e-001 -3.993773e-003
2924475 1.002005e+000 -3.458336e-003 -6.146466e-005 -6.510502e-005 -8.185203e-005 -8.828109e-006 1.002389e+000 -6.202251e-003
2999460 1.000938e+000 -2.902600e-003 3.095883e-005 8.096094e-005 1.600674e-004 -2.866542e-005 1.000200e+000 -5.609139e-003
3074445 1.001065e+000 -2.647311e-003 -7.560410e-006 2.136344e-005 -5.958082e-005 1.957100e-004 1.000409e+000 -5.894717e-003
3149430 1.000975e+000 -1.805824e-003 9.628085e-006 7.053420e-005 -4.449935e-005 9.138537e-005 1.000636e+000 -6.324397e-003
3224415 1.000826e+000 -2.729543e-003 -1.718374e-005 -1.816897e-006 -1.627687e-004 -4.719836e-005 9.999848e-001 -5.607116e-003
3299400 1.001038e+000 -2.864090e-003 -1.477634e-004 8.726690e-006 -2.841898e-007 -2.000588e-005 1.000029e+000 -6.167424e-003
3374385 1.000751e+000 -3.362952e-003 -5.434615e-005 -7.202860e-006 -1.423996e-004 -7.473609e-005 9.997084e-001 -6.873130e-003
3449370 1.000469e+000 -2.537048e-003 -1.213083e-004 -5.442434e-006 -4.460268e-005 -1.969474e-004 9.985892e-001 -6.540923e-003
3524355 1.000868e+000 -1.603666e-003 -1.099773e-004 -3.441338e-005 1.947793e-005 -1.901778e-004 9.994887e-001 -4.604635e-003
3599340 1.000439e+000 -2.379650e-003 1.802477e-005 1.201319e-005 4.602015e-005 1.464025e-004 9.990844e-001 -5.265348e-003
3674325 1.000690e+000 -2.554951e-003 -7.809395e-005 -3.664790e-005 -1.540973e-004 -1.369346e-004 1.000758e+000 -6.324067e-003
3749310 1.001462e+000 -2.778681e-003 1.079828e-005 1.804856e-005 -1.151416e-004 9.284205e-005 9.983227e-001 -6.246579e-003
3824295 1.001060e+000 -3.033779e-003 -6.250775e-005 5.169280e-005 3.602907e-005 -5.880671e-005 9.995709e-001 -6.051175e-003
3899280 1.000973e+000 -2.939456e-003 -1.117372e-004 -1.295516e-004 6.733657e-005 -1.581725e-004 9.999116e-001 -7.268782e-003
3974265 1.001036e+000 -3.359026e-003 -8.467140e-006 -3.339335e-005 -1.018830e-004 2.945115e-005 1.000076e+000 -6.574268e-003
4049250 1.001632e+000 -3.602059e-003 -9.370757e-005 -2.703717e-005 1.990615e-004 2.898451e-005 1.000694e+000 -6.188017e-003
4124235 1.001738e+000 -3.311026e-003 -3.697685e-005 -2.591572e-006 1.050711e-004 1.358266e-004 9.998575e-001 -6.271202e-003
4199220 1.001680e+000 -3.117438e-003 5.451713e-005 -3.597070e-005 1.196227e-005 -7.626014e-005 9.991269e-001 -6.168319e-003
4274205 1.000020e+000 -3.563593e-003 -2.476322e-005 -9.132857e-005 1.819444e-004 2.382630e-004 9.997572e-001 -6.305090e-003
4349190 1.000872e+000 -3.187577e-003 9.601102e-005 2.925477e-005 -1.577311e-004 -4.129088e-005 9.994898e-001 -5.361600e-003
4424175 1.001581e+000 -3.053870e-003 -4.004144e-005 7.473175e-005 -3.876886e-005 -1.965787e-005 9.991531e-001 -5.502124e-003
4499160 1.000619e+000 -3.011327e-003 5.864277e-005 -1.076761e-006 3.874185e-005 -8.509237e-005 9.993893e-001 -5.422900e-003
4574145 1.000970e+000 -3.543873e-003 2.402014e-005 1.420728e-004 -1.850174e-004 2.471607e-004 9.991179e-001 -5.002900e-003
4649130 1.002108e+000 -3.165550e-003 7.911937e-006 -1.851134e-005 1.014670e-004 -3.945223e-005 9.992852e-001 -5.925932e-003
4724115 1.000563e+000 -3.097635e-003 -1.406577e-005 4.188688e-005 1.012455e-004 7.266967e-005 9.997087e-001 -6.975075e-003
4799100 1.001427e+000 -2.789956e-003 7.958071e-005 -5.587866e-005 -2.299264e-004 -1.065420e-005 1.000693e+000 -4.800330e-003
4874085 1.000854e+000 -3.321131e-003 -4.967819e-005 6.812424e-005 1.905317e-004 2.022503e-005 9.999956e-001 -4.475372e-003
4949070 1.000302e+000 -3.481857e-003 6.649530e-005 6.409031e-005 -2.435762e-005 -2.038653e-004 9.999573e-001 -5.207648e-003
5024055 1.001724e+000 -3.053710e-003 1.037886e-004 6.228076e-005 -2.038401e-005 -2.644565e-005 9.993932e-001 -5.162665e-003
5099040 1.001197e+000 -3.556940e-003 1.289883e-004 -2.251756e-005 -4.039592e-005 1.033241e-004 9.992409e-001 -5.132173e-003
5174025 1.001201e+000 -3.505115e-003 -1.643554e-005 -5.095093e-005 1.147938e-004 -3.328708e-004 9.992291e-001 -5.256339e-003
5249010 1.001390e+000 -3.184556e-003 -1.822937e-004 1.407993e-005 1.062900e-004 -4.046543e-005 9.993159e-001 -3.489665e-003
5323995 1.000701e+000 -3.220495e-003 1.035852e-004 8.289715e-005 -4.929847e-005 5.169991e-005 9.992166e-001 -4.719867e-003
5398980 1.001143e+000 -3.156012e-003 6.161909e-005 -4.899680e-005 2.619315e-004 -3.605018e-005 1.000131e+000 -4.002483e-003
5473965 1.001149e+000 -2.952495e-003 -4.016951e-005 3.932661e-005 -4.334922e-005 -1.475309e-004 1.000939e+000 -3.995992e-003
5548950 1.000979e+000 -2.964556e-003 7.405681e-005 8.797440e-005 2.021223e-004 -1.038848e-004 9.991109e-001 -4.225473e-003
5623935 1.000966e+000 -3.526635e-003 -2.493844e-005 -3.999141e-006 -2.285963e-004 -1.535498e-004 9.996395e-001 -5.795902e-003
5698920 1.001228e+000 -3.173452e-003 -1.202901e-004 -7.521301e-005 1.246284e-004 -1.754150e-004 9.998612e-001 -4.830388e-003
5773905 1.001006e+000 -4.364284e-003 -1.033449e-004 3.841649e-005 1.637971e-004 -1.324384e-004 1.000045e+000 -6.819533e-003
5848890 1.000174e+000 -3.718002e-003 7.420917e-005 -4.898916e-005 1.769457e-004 7.258918e-005 9.992325e-001 -6.355229e-003
5923875 1.000764e+000 -3.640875e-003 4.266588e-005 2.977783e-005 -1.325449e-004 -2.230762e-004 1.000617e+000 -6.565793e-003
5998860 1.000376e+000 -3.670347e-003 -5.670380e-005 2.287622e-005 2.172769e-004 -4.933331e-005 1.000054e+000 -6.577220e-003
6073845 1.000602e+000 -4.168502e-003 -2.378070e-005 2.067198e-005 -9.582940e-005 -5.617936e-005 1.000449e+000 -7.159772e-003
6148830 1.000444e+000 -3.673846e-003 -5.864236e-005 8.359792e-006 -9.467739e-005 -1.527979e-004 1.000998e+000 -7.066474e-003
6223815 1.000510e+000 -3.207842e-003 -2.473851e-005 -5.671714e-005 -1.438727e-004 -2.362539e-005 1.000180e+000 -7.331265e-003
6298800 1.001412e+000 -3.490731e-003 7.038230e-005 -6.061519e-006 2.772168e-004 3.388424e-004 9.999191e-001 -5.728809e-003
6373785 1.000430e+000 -4.089292e-003 -1.081815e-004 1.229887e-004 4.387709e-005 7.229085e-005 9.996895e-001 -6.927786e-003
6448770 1.000966e+000 -3.971296e-003 -4.918620e-005 -9.169227e-005 -8.863732e-005 -8.149776e-005 9.993473e-001 -7.020408e-003
6523755 1.000415e+000 -3.552372e-003 -1.837734e-005 1.625091e-006 -1.627444e-004 1.832496e-004 1.000604e+000 -6.958608e-003
6598740 1.001074e+000 -3.302755e-003 8.550572e-005 2.822026e-005 1.216013e-004 7.563490e-005 1.000741e+000 -8.039836e-003
6673725 1.000679e+000 -3.699176e-003 -2.018120e-005 9.377242e-005 3.778227e-005 -2.501447e-004 9.999185e-001 -7.973821e-003
6748710 1.000488e+000 -3.893758e-003 -5.650750e-005 -3.613833e-005 3.251364e-005 -1.305399e-004 1.001646e+000 -7.390665e-003
6823695 1.000353e+000 -2.905902e-003 -5.259653e-005 -5.081249e-005 5.285496e-006 2.237782e-004 1.000109e+000 -9.073881e-003
6898680 1.001050e+000 -3.079635e-003 -4.064930e-005 -2.732207e-005 -9.676310e-005 2.044532e-004 9.993399e-001 -8.274961e-003
6973665 1.000675e+000 -4.289928e-003 4.972153e-005 1.153837e-004 4.369172e-005 1.167582e-004 9.999465e-001 -8.502680e-003
7048650 1.000988e+000 -3.641865e-003 8.122104e-005 4.736734e-006 9.511066e-005 2.413288e-004 1.000286e+000 -7.097812e-003
7123635 1.000660e+000 -3.510274e-003 -9.677101e-005 -3.219684e-005 -6.277795e-005 -1.469157e-004 1.000710e+000 -9.460669e-003
7198620 1.000356e+000 -4.357407e-003 6.300012e-005 -7.547888e-005 -6.919217e-005 -1.655103e-004 9.991604e-001 -8.109308e-003
7273605 1.000269e+000 -4.073315e-003 4.723308e-005 7.532697e-005 2.924147e-004 5.762738e-005 9.996591e-001 -8.141935e-003
7348590 1.000763e+000 -3.510346e-003 7.201508e-005 1.042493e-004 -3.425534e-005 1.341967e-004 9.987605e-001 -7.265421e-003
7423575 1.000857e+000 -3.987638e-003 6.619525e-005 -1.848240e-005 9.280747e-005 6.742997e-005 1.000947e+000 -7.967991e-003
7498560 1.000393e+000 -4.075871e-003 -2.300881e-005 9.894123e-005 -1.491875e-005 -1.849312e-004 9.997287e-001 -8.025942e-003
7573545 1.000339e+000 -4.210236e-003 4.863368e-006 -3.139608e-006 -3.696364e-004 -1.325682e-004 1.000032e+000 -8.897293e-003
7648530 1.000939e+000 -3.682927e-003 -6.680652e-006 -3.136449e-005 -1.938291e-004 1.931220e-005 1.000255e+000 -8.882102e-003
7723515 1.001645e+000 -3.997570e-003 6.371036e-005 -1.613533e-005 -1.526705e-004 -8.313213e-005 9.992414e-001 -7.643283e-003
7798500 1.001267e+000 -4.195346e-003 4.449786e-005 -1.359593e-004 -2.021926e-004 -1.058081e-004 9.993175e-001 -8.926948e-003
7873485 1.000638e+000 -3.504480e-003 2.891491e-005 8.435643e-005 1.798576e-005 -1.204314e-004 9.983531e-001 -9.861005e-003
7948470 1.000660e+000 -4.276151e-003 7.132263e-005 3.437126e-006 1.018635e-005 -2.084334e-005 9.992105e-001 -6.590161e-003
8023455 1.000298e+000 -4.805047e-003 -6.752650e-005 3.864545e-005 1.581153e-004 -2.412244e-005 9.991379e-001 -9.646950e-003
8098440 1.000521e+000 -4.515481e-003 2.702174e-005 6.031840e-005 -2.760809e-004 -2.174528e-005 1.000359e+000 -5.670766e-003
8173425 1.000558e+000 -4.488368e-003 -1.188501e-005 1.348313e-005 -1.345629e-005 -2.966878e-004 9.995907e-001 -8.874971e-003
8248410 1.000576e+000 -4.715507e-003 -1.223910e-006 7.503622e-005 -8.173451e-005 -9.990944e-005 9.999823e-001 -5.926958e-003
8323395 9.998633e-001 -4.261652e-003 -6.693024e-005 -7.867631e-005 2.890032e-005 8.707197e-005 1.000879e+000 -6.823972e-003
8398380 1.000494e+000 -4.612218e-003 1.626734e-004 -1.141214e-005 1.021722e-004 -8.564203e-005 1.001056e+000 -6.848234e-003
8473365 1.000290e+000 -3.824310e-003 2.746795e-005 5.752054e-005 -3.341127e-005 5.954422e-005 1.001044e+000 -6.815024e-003
8548350 1.000889e+000 -4.516787e-003 -3.610154e-005 7.630503e-005 8.745274e-005 2.472735e-005 9.998631e-001 -7.777419e-003
8623335 1.000587e+000 -4.423529e-003 1.319050e-005 1.723278e-005 4.037229e-005 6.532132e-006 9.988738e-001 -9.644167e-003
8698320 9.997274e-001 -5.203262e-003 -1.183185e-004 7.189731e-005 -6.973962e-005 -4.120115e-005 1.000670e+000 -8.426837e-003
8773305 1.000438e+000 -4.837457e-003 1.110521e-004 5.865452e-005 4.421939e-005 -7.791794e-005 9.996438e-001 -9.756848e-003
8848290 1.000996e+000 -5.069249e-003 2.955121e-005 4.330945e-005 -2.510853e-004 -1.012882e-004 1.001364e+000 -8.641218e-003
8923275 1.000703e+000 -6.066747e-003 2.067194e-005 -7.525484e-005 -1.645557e-007 -1.317314e-004 1.000400e+000 -9.690762e-003
8998260 1.000193e+000 -4.860252e-003 -5.937812e-005 -3.226297e-005 -2.340516e-005 7.078806e-005 9.998674e-001 -8.745089e-003
9073245 1.000207e+000 -5.161841e-003 -6.616226e-005 -4.614144e-005 -8.526727e-005 1.532361e-004 1.000506e+000 -9.299908e-003
9148230 1.001422e+000 -4.906958e-003 -5.509386e-005 1.413941e-004 1.811686e-004 7.978691e-005 1.000681e+000 -7.053873e-003
9223215 1.001272e+000 -5.239652e-003 7.615022e-005 1.982758e-005 1.779969e-004 -1.752164e-004 9.996281e-001 -8.615793e-003
9298200 1.000761e+000 -5.826860e-003 2.678562e-005 -5.472032e-005 2.240004e-004 9.100369e-006 1.001584e+000 -8.685319e-003
9373185 1.000608e+000 -5.532454e-003 -8.889329e-005 -1.053369e-005 -2.333883e-004 -1.146593e-004 9.995741e-001 -9.598038e-003
9448170 1.000381e+000 -5.496551e-003 5.726176e-006 3.269190e-005 -1.693077e-004 2.381947e-006 9.999322e-001 -9.907597e-003
9523155 1.000022e+000 -5.402933e-003 4.999322e-005 -2.927844e-006 -1.259778e-004 7.724247e-005 1.002078e+000 -9.657892e-003
9598140 1.001084e+000 -6.070051e-003 -7.918495e-005 8.094391e-006 -7.084276e-006 -4.903512e-005 1.000681e+000 -1.077922e-002
9673125 1.001340e+000 -5.822319e-003 7.410696e-006 -3.331549e-006 1.697521e-004 2.386488e-004 1.001880e+000 -1.002277e-002
9748110 1.000573e+000 -5.992929e-003 3.752966e-005 8.522814e-005 9.169805e-005 -2.670967e-005 1.000166e+000 -1.159653e-002
9823095 1.000417e+000 -6.616465e-003 1.861072e-005 1.161234e-004 6.387807e-006 8.484176e-005 1.001325e+000 -1.249389e-002
9898080 1.000725e+000 -6.653474e-003 -1.964893e-005 -1.265381e-005 -2.418102e-004 7.615709e-005 1.001008e+000 -1.216626e-002
9973065 1.001214e+000 -6.280222e-003 -4.510308e-005 4.258750e-005 -7.482662e-005 7.394538e-005 1.000985e+000 -1.234664e-002
10048050 1.000731e+000 -7.807106e-003 5.538252e-005 8.749836e-005 -2.683989e-004 -3.191769e-004 1.002909e+000 -1.281426e-002
10123035 1.001097e+000 -7.344655e-003 -3.902385e-005 1.846759e-005 -7.542133e-005 7.446305e-005 1.000625e+000 -1.213144e-002
10198020 9.999160e-001 -7.113402e-003 -4.379254e-005 -2.425826e-007 -2.241987e-004 2.109473e-004 1.000410e+000 -1.285646e-002
10273005 1.000266e+000 -7.080378e-003 -1.058776e-004 5.715907e-005 -5.034459e-005 3.694212e-005 1.002979e+000 -1.346779e-002
10347990 1.000554e+000 -7.084485e-003 1.720815e-005 -6.208954e-005 -1.605340e-004 2.783232e-004 1.002355e+000 -1.264942e-002
10422975 9.997348e-001 -7.299800e-003 -3.950734e-005 -2.489863e-005 -7.931739e-005 -5.722010e-005 1.002278e+000 -1.507734e-002
10497960 9.997891e-001 -7.772482e-003 -1.180044e-004 -3.336840e-005 -2.775544e-004 -1.553595e-005 1.001328e+000 -1.449932e-002
10572945 1.000460e+000 -7.727934e-003 9.816286e-006 -3.034307e-005 9.702973e-005 1.373727e-005 1.001102e+000 -1.458794e-002
10647930 9.996304e-001 -7.640426e-003 9.299421e-006 -3.624074e-005 6.511544e-005 8.672654e-005 1.001288e+000 -1.477348e-002
10722915 1.000924e+000 -7.731678e-003 9.340871e-005 5.234440e-005 2.071041e-004 -8.988963e-005 1.000841e+000 -1.649691e-002
10797900 1.000564e+000 -6.792345e-003 -9.537549e-005 -2.225831e-005 3.058442e-005 -3.366561e-004 1.002241e+000 -1.535424e-002
10872885 1.000439e+000 -6.792177e-003 2.101176e-005 -4.003082e-005 -6.795149e-005 1.479545e-004 1.002306e+000 -1.632646e-002
10947870 9.997249e-001 -7.571632e-003 6.315995e-005 -7.828560e-005 -5.156307e-005 1.992643e-004 9.998662e-001 -1.670218e-002
11022855 9.995239e-001 -7.246478e-003 -3.790606e-005 -7.766233e-006 -2.187291e-004 1.209488e-004 1.001112e+000 -1.681985e-002
11097840 9.996077e-001 -7.683298e-003 -7.365205e-005 -7.862560e-005 -2.582239e-005 -1.134721e-004 1.001943e+000 -1.786028e-002
11172825 1.000294e+000 -7.773034e-003 -1.247212e-004 -4.494206e-006 8.261816e-005 3.507629e-004 1.000533e+000 -1.741839e-002
11247810 9.999565e-001 -7.832354e-003 2.083851e-005 2.510396e-005 1.486815e-004 2.216872e-004 9.998831e-001 -1.689853e-002
11322795 9.995179e-001 -7.123475e-003 7.857686e-005 -6.235042e-005 2.480237e-004 2.516219e-004 1.001123e+000 -1.766648e-002
11397780 1.000529e+000 -7.983692e-003 -1.614000e-004 4.441608e-005 1.289986e-004 2.105004e-004 1.002097e+000 -1.720440e-002
11472765 9.992704e-001 -8.008330e-003 1.572189e-005 1.473593e-004 -1.417535e-004 -8.269635e-005 1.002228e+000 -1.660672e-002
11547750 9.999430e-001 -7.828429e-003 -1.207152e-006 1.065956e-004 1.103022e-005 2.860937e-004 1.001634e+000 -1.747322e-002
11622735 1.000562e+000 -7.677563e-003 5.071600e-005 -9.964041e-005 -4.894890e-005 1.126739e-004 1.001547e+000 -1.756638e-002
11697720 9.993693e-001 -8.123231e-003 1.712247e-006 1.270713e-004 1.063978e-004 -2.502083e-004 1.001474e+000 -1.628672e-002
11772705 9.996181e-001 -7.826687e-003 -8.316997e-005 6.837412e-005 1.206914e-004 -9.238790e-005 1.001885e+000 -1.773256e-002
11847690 9.997928e-001 -9.039568e-003 9.082846e-005 1.438582e-004 -2.816719e-004 1.659923e-004 1.001202e+000 -1.656185e-002
11922675 1.000525e+000 -9.248924e-003 3.560651e-005 9.875098e-005 2.872168e-006 -2.351902e-004 1.001404e+000 -1.530439e-002
11997660 1.000101e+000 -8.335467e-003 -2.800645e-005 1.070362e-004 1.561851e-005 6.344368e-005 1.004008e+000 -1.593960e-002
