!Agilent Technologies,N5230C,SG49000117,A.08.50.07
!Agilent N5230C: A.08.50.07
!Date: Thursday, December 07, 2023 05:17:19
!Correction: S11(Full 2 Port(1,2)) 
!S21(Full 2 Port(1,2)) 
!S12(Full 2 Port(1,2)) 
!S22(Full 2 Port(1,2)) 
!S2P File: Measurements: S11, S21, S12, S22:
# Hz S  RI   R 50
300000 1.020770e+000 -8.238329e-003 -2.602289e-006 3.077184e-004 -2.694854e-004 -2.104866e-004 1.035666e+000 -1.713965e-002
374985 9.975687e-001 -3.507153e-003 -1.317877e-005 -2.340922e-004 6.555730e-005 5.589980e-004 9.826265e-001 -1.658434e-002
449970 9.881068e-001 -1.806444e-004 -1.110079e-004 2.760956e-005 -1.517243e-004 1.282350e-005 9.619845e-001 -1.414617e-002
524955 9.790477e-001 6.084182e-003 3.942080e-005 4.367584e-005 -6.430124e-005 1.459928e-004 9.294974e-001 -1.732720e-003
599940 9.803397e-001 5.351732e-003 -1.172961e-004 1.673503e-006 -1.169623e-004 -1.188003e-004 9.427803e-001 4.205653e-003
674925 9.783717e-001 4.126502e-003 4.866644e-005 5.431905e-005 -5.637465e-005 7.935442e-005 9.361514e-001 -1.682123e-002
749910 9.782839e-001 5.177767e-003 2.728757e-005 1.444555e-005 1.512317e-004 2.863735e-004 9.326368e-001 -7.809340e-003
824895 9.836245e-001 3.796265e-003 1.100283e-004 -3.613522e-005 -1.045223e-004 4.649044e-005 9.392902e-001 -9.864516e-003
899880 9.872147e-001 1.151625e-003 1.525983e-005 9.942834e-005 -7.903295e-005 1.112832e-004 9.445783e-001 -1.351350e-002
974865 9.899397e-001 -3.253392e-004 6.672902e-005 -6.297122e-006 3.928262e-005 -1.842038e-005 9.523711e-001 -1.153883e-002
1049850 9.945941e-001 -2.917529e-003 5.433306e-005 -7.364639e-005 -1.435909e-004 8.104151e-005 9.603052e-001 -1.230193e-002
1124835 9.975894e-001 -5.944036e-003 1.268367e-005 7.082805e-005 -9.960643e-005 1.408475e-004 9.687375e-001 -1.247983e-002
1199820 1.003202e+000 -9.171505e-003 1.968155e-005 1.540165e-005 7.156019e-005 1.437381e-004 9.788787e-001 -7.515437e-003
1274805 1.007818e+000 -1.263642e-002 2.312772e-005 -5.262826e-005 1.681674e-004 -1.125618e-004 9.894629e-001 -7.934294e-003
1349790 1.000769e+000 -5.765164e-003 1.017623e-004 2.691453e-006 2.658727e-004 1.557952e-005 1.001637e+000 -1.258520e-002
1424775 9.991320e-001 -4.713110e-003 -9.592136e-005 -1.350566e-005 -3.340140e-004 -2.286725e-005 1.003587e+000 -1.231488e-002
1499760 9.983475e-001 -5.047881e-003 -1.465538e-004 3.887735e-005 1.050088e-004 3.833601e-006 1.004505e+000 -9.074601e-003
1574745 9.990502e-001 -3.425572e-003 -6.080263e-005 -2.722788e-005 3.501895e-005 4.815914e-004 9.998745e-001 -9.673568e-003
1649730 9.983874e-001 -3.653538e-003 6.485479e-005 1.016525e-004 -2.063530e-004 9.215199e-005 1.003489e+000 -1.163354e-002
1724715 9.978840e-001 -3.745966e-003 2.096082e-005 4.478668e-005 2.806168e-004 -1.384350e-004 1.004552e+000 -1.079541e-002
1799700 9.965412e-001 -4.507407e-003 1.158370e-005 -1.994314e-005 2.999682e-004 -1.347047e-005 1.004779e+000 -1.193957e-002
1874685 9.961018e-001 -3.537589e-003 5.031738e-006 -9.214801e-005 -8.924279e-005 -2.318070e-005 1.001592e+000 -8.941445e-003
1949670 9.965162e-001 -2.321414e-003 -9.153564e-005 1.327182e-004 -4.334878e-005 5.951764e-004 9.987133e-001 -8.096074e-003
2024655 9.948139e-001 -2.295180e-003 7.319291e-005 -1.890476e-005 1.359398e-004 1.997714e-004 1.000174e+000 -5.949603e-003
2099640 9.942349e-001 -2.497889e-003 -7.309217e-005 1.772058e-005 -3.336313e-005 -1.050618e-004 9.992629e-001 -6.961865e-003
2174625 9.935195e-001 -2.964882e-003 -1.506958e-004 -6.501874e-005 2.942389e-004 2.536768e-005 1.000997e+000 -6.559376e-003
2249610 9.956741e-001 -2.152005e-003 1.324777e-004 -6.487680e-005 -2.338253e-004 -1.830917e-004 1.000126e+000 -7.078570e-003
2324595 1.000842e+000 -3.753724e-003 -3.137195e-005 -4.038155e-005 5.572047e-005 1.196166e-004 1.000651e+000 -5.711874e-003
2399580 1.000068e+000 -3.506471e-003 3.221815e-005 5.915039e-006 2.559070e-004 2.980403e-004 1.001547e+000 -4.979229e-003
2474565 9.993610e-001 -8.890835e-004 -1.311447e-004 -3.203830e-005 1.895044e-004 1.191452e-004 1.001063e+000 -5.961675e-003
2549550 1.000979e+000 -2.455338e-003 -1.186954e-004 -2.090469e-004 -6.596370e-005 -7.271698e-005 9.988520e-001 -6.020815e-003
2624535 1.000344e+000 -2.674600e-003 7.017094e-006 -1.405757e-004 -9.398185e-005 -6.147308e-005 9.993541e-001 -6.831920e-003
2699520 1.000532e+000 -4.020565e-003 7.173790e-005 -1.078744e-004 1.830572e-004 -5.429553e-006 9.945576e-001 -6.458405e-003
2774505 9.999166e-001 -2.167278e-003 2.430281e-005 -8.509593e-005 1.655601e-004 1.699896e-004 1.000212e+000 -8.598439e-003
2849490 1.000875e+000 -2.127986e-003 -1.005346e-004 1.854807e-005 3.382949e-004 1.487418e-004 9.988306e-001 -4.788715e-003
2924475 1.001047e+000 -3.185484e-003 -7.319085e-005 -3.080420e-005 -1.504952e-004 -3.242704e-004 1.003349e+000 -5.850519e-003
2999460 1.001023e+000 -2.407041e-003 6.414265e-005 -1.256219e-004 -1.903590e-004 -1.901735e-004 1.000251e+000 -5.329049e-003
3074445 1.000856e+000 -1.608989e-003 -3.865261e-005 -4.618011e-005 1.478934e-004 -1.584658e-005 1.000348e+000 -5.046812e-003
3149430 1.000443e+000 -3.044867e-003 6.771733e-006 3.633120e-005 2.127966e-004 -5.925707e-005 9.988616e-001 -5.649741e-003
3224415 1.001007e+000 -2.910282e-003 7.775650e-005 -3.394580e-005 -1.403191e-004 5.382412e-005 1.000052e+000 -5.018095e-003
3299400 1.001074e+000 -3.543585e-003 -7.258014e-005 -1.003688e-004 3.556560e-005 -1.549949e-005 9.999143e-001 -6.697591e-003
3374385 1.000797e+000 -3.753410e-003 -1.098901e-004 1.247545e-004 -1.634924e-004 3.691832e-005 9.997556e-001 -6.100041e-003
3449370 1.000604e+000 -2.977052e-003 8.956857e-005 1.027468e-006 -1.272040e-004 -1.336964e-004 1.000103e+000 -4.685648e-003
3524355 1.000504e+000 -2.717159e-003 -1.141956e-004 -3.863984e-005 1.121908e-004 1.124760e-005 9.995499e-001 -5.907079e-003
3599340 1.000876e+000 -2.075746e-003 -1.208580e-004 -7.264768e-005 -3.554040e-004 1.266525e-004 9.995015e-001 -5.271411e-003
3674325 1.001284e+000 -2.141270e-003 1.155145e-004 5.635164e-005 1.875478e-007 6.301744e-005 9.988907e-001 -6.875344e-003
3749310 1.001769e+000 -1.641529e-003 6.720243e-005 -1.213663e-005 1.282551e-004 3.153029e-004 9.997439e-001 -4.565812e-003
3824295 1.001176e+000 -2.790241e-003 1.821300e-005 7.382997e-005 -6.537799e-005 1.149924e-004 1.000100e+000 -5.078565e-003
3899280 1.000987e+000 -3.255610e-003 3.341027e-005 -1.514753e-005 1.172193e-004 -1.258790e-004 9.999135e-001 -7.690349e-003
3974265 1.001973e+000 -2.997778e-003 -9.340384e-006 -1.039660e-004 -3.487633e-005 -4.846714e-005 9.994442e-001 -6.555863e-003
4049250 1.000508e+000 -3.586256e-003 1.886125e-005 -8.407520e-005 -1.169064e-004 7.195549e-005 9.996560e-001 -8.006220e-003
4124235 1.001007e+000 -3.009050e-003 1.419590e-005 -1.540446e-005 -7.709384e-005 -1.612623e-004 9.990613e-001 -6.165804e-003
4199220 1.000884e+000 -3.993735e-003 -6.785373e-006 -4.809329e-005 5.624094e-005 -9.833503e-005 9.992565e-001 -6.789416e-003
4274205 1.000216e+000 -3.890297e-003 -6.533856e-005 -8.622216e-005 -4.011834e-005 1.237396e-004 9.996558e-001 -6.140312e-003
4349190 1.000973e+000 -3.388863e-003 1.085808e-005 7.861603e-005 1.862955e-005 1.359583e-004 9.986984e-001 -6.813992e-003
4424175 1.001007e+000 -3.461332e-003 4.939772e-005 4.847549e-005 -2.075160e-004 9.113021e-005 9.986402e-001 -5.437789e-003
4499160 1.001002e+000 -3.839087e-003 1.397275e-004 1.355643e-004 -6.087587e-005 -1.237504e-004 1.000352e+000 -6.790184e-003
4574145 1.000948e+000 -3.819009e-003 -2.761435e-005 2.768148e-005 6.329273e-006 -5.132907e-006 9.992404e-001 -5.349347e-003
4649130 1.000407e+000 -2.966673e-003 -4.156380e-005 -4.396988e-005 -2.719914e-004 -2.462134e-005 9.986814e-001 -5.629044e-003
4724115 1.000469e+000 -2.892883e-003 -7.714193e-005 -6.032158e-005 2.570970e-004 1.198734e-004 9.990265e-001 -5.123348e-003
4799100 1.001146e+000 -3.732667e-003 -5.969750e-005 -7.386587e-005 1.693084e-004 1.484564e-004 1.001436e+000 -4.260134e-003
4874085 1.001806e+000 -2.875007e-003 -8.185471e-005 -4.385199e-005 -1.796090e-004 9.029679e-005 9.991112e-001 -5.514665e-003
4949070 1.001011e+000 -3.043195e-003 -2.439973e-004 -3.129303e-005 3.984064e-005 1.463644e-004 9.996111e-001 -5.610109e-003
5024055 1.000430e+000 -3.810136e-003 -2.820666e-005 4.086554e-005 7.427482e-005 1.237501e-004 9.992048e-001 -4.285228e-003
5099040 1.001143e+000 -3.171875e-003 5.598490e-005 -1.206377e-004 3.315575e-004 3.474051e-005 9.997225e-001 -5.126853e-003
5174025 1.001282e+000 -2.897874e-003 -1.661807e-004 -5.414900e-006 -1.327503e-004 5.105273e-005 9.980495e-001 -5.390669e-003
5249010 1.001932e+000 -3.328443e-003 3.392237e-005 3.771800e-005 -2.721780e-004 2.937386e-004 1.000986e+000 -4.045266e-003
5323995 1.000077e+000 -3.306536e-003 -3.414281e-005 1.035604e-004 1.059572e-004 1.813981e-004 9.973247e-001 -4.788958e-003
5398980 1.001011e+000 -3.172648e-003 -4.655734e-005 -5.861980e-005 4.194454e-005 4.620913e-005 9.976580e-001 -4.772015e-003
5473965 1.001598e+000 -3.091865e-003 3.160043e-005 -1.622783e-005 -8.566817e-006 -2.725223e-004 9.989936e-001 -4.947691e-003
5548950 1.000661e+000 -2.857634e-003 -4.859630e-005 -2.729714e-005 2.159926e-004 1.776583e-004 9.997124e-001 -4.718556e-003
5623935 1.001145e+000 -2.773293e-003 -7.179583e-005 -1.134276e-004 -6.584263e-005 2.252558e-004 9.992030e-001 -3.914260e-003
5698920 1.000235e+000 -3.399454e-003 -4.341223e-005 3.898321e-006 -2.830363e-006 -1.883495e-004 9.996017e-001 -4.791711e-003
5773905 1.001004e+000 -3.498044e-003 1.988055e-005 -3.640095e-005 -7.865318e-005 1.747506e-005 9.990841e-001 -5.940279e-003
5848890 1.000954e+000 -3.789377e-003 -7.829932e-005 3.489913e-005 -4.607823e-005 4.895946e-005 9.990267e-001 -6.587300e-003
5923875 1.000636e+000 -3.738272e-003 -3.147752e-005 4.605831e-005 9.757357e-005 6.065290e-005 1.000246e+000 -6.586696e-003
5998860 1.000639e+000 -3.675130e-003 6.476149e-005 6.550184e-005 7.603705e-005 -8.986872e-005 1.000494e+000 -8.258656e-003
6073845 1.000421e+000 -3.566649e-003 3.558042e-005 -1.889893e-005 -2.224155e-004 8.988978e-005 1.001626e+000 -6.264234e-003
6148830 1.000764e+000 -3.503598e-003 5.548678e-005 1.527650e-005 2.765430e-005 -2.805924e-005 1.001037e+000 -6.129860e-003
6223815 1.000757e+000 -3.447336e-003 2.491889e-005 2.356287e-005 1.991477e-005 8.255464e-005 1.000105e+000 -5.298998e-003
6298800 1.000383e+000 -3.848610e-003 7.786138e-005 -1.301004e-004 -6.672109e-005 1.225955e-004 1.000105e+000 -6.873304e-003
6373785 1.001089e+000 -2.897858e-003 -3.089273e-005 -1.026307e-004 -6.099979e-005 -9.787703e-005 1.000620e+000 -5.917702e-003
6448770 1.001174e+000 -2.972806e-003 -6.953183e-005 -4.499836e-006 1.993927e-004 -4.135519e-005 1.000005e+000 -7.367175e-003
6523755 1.000922e+000 -3.277248e-003 8.372120e-005 -3.407523e-005 -1.031754e-004 -4.781079e-005 1.000095e+000 -6.287543e-003
6598740 1.000898e+000 -3.078101e-003 -2.789283e-005 4.005324e-006 -1.936082e-004 1.222901e-004 1.001122e+000 -7.703869e-003
6673725 1.000685e+000 -4.004114e-003 9.052657e-005 -1.558446e-005 1.785992e-004 -1.093461e-004 9.996857e-001 -8.199786e-003
6748710 1.000607e+000 -3.945457e-003 -1.007476e-004 -6.458890e-005 7.523010e-006 3.404456e-004 9.989312e-001 -6.769805e-003
6823695 1.000646e+000 -2.808104e-003 -7.772365e-005 -1.000425e-006 2.306991e-004 5.251494e-005 9.997063e-001 -9.137711e-003
6898680 1.000192e+000 -3.266134e-003 6.784211e-005 1.703555e-005 1.013099e-004 -7.345666e-005 1.000116e+000 -8.253861e-003
6973665 1.001207e+000 -3.339313e-003 8.073344e-005 2.750511e-005 2.255624e-004 -2.768636e-004 9.988347e-001 -7.463846e-003
7048650 1.000711e+000 -3.677181e-003 -9.345991e-005 1.340097e-005 1.716044e-004 1.711997e-004 1.001496e+000 -9.631166e-003
7123635 1.000999e+000 -4.084098e-003 -5.439413e-005 8.135020e-005 5.281257e-005 3.232050e-005 1.002182e+000 -8.355547e-003
7198620 1.000562e+000 -3.465161e-003 5.414075e-005 2.440589e-007 -1.195134e-004 -1.523015e-004 9.994688e-001 -8.205757e-003
7273605 1.000919e+000 -3.874379e-003 1.445711e-004 1.803960e-006 -1.356304e-004 8.740288e-005 1.000044e+000 -8.586069e-003
7348590 1.000876e+000 -4.018665e-003 -1.111862e-004 6.449633e-006 5.371912e-005 2.019204e-004 9.991760e-001 -9.101687e-003
7423575 1.000443e+000 -3.969260e-003 1.057778e-004 -1.137695e-006 -7.742934e-005 7.525431e-005 1.000759e+000 -9.486342e-003
7498560 1.000731e+000 -3.935780e-003 8.526729e-005 -1.186082e-004 2.122843e-004 -8.859558e-005 1.000237e+000 -9.199118e-003
7573545 1.000782e+000 -3.764975e-003 -9.171635e-005 -7.759540e-005 -1.445159e-005 2.885137e-004 1.000450e+000 -7.224502e-003
7648530 1.000903e+000 -3.642492e-003 2.407038e-005 9.343401e-006 -1.506831e-004 5.690726e-005 1.000140e+000 -8.087714e-003
7723515 1.001155e+000 -3.796965e-003 1.196775e-004 -4.158247e-006 -1.706661e-005 -2.850177e-004 9.989899e-001 -7.986728e-003
7798500 1.001406e+000 -4.564280e-003 7.098268e-005 3.473577e-005 7.701053e-006 6.997609e-005 9.999056e-001 -7.945720e-003
7873485 1.001318e+000 -3.921230e-003 7.558416e-006 2.349167e-005 -1.512767e-004 1.399093e-004 1.000218e+000 -7.796119e-003
7948470 1.000906e+000 -4.593465e-003 2.383310e-005 1.782717e-005 -1.349432e-004 1.232681e-004 1.000460e+000 -6.681483e-003
8023455 1.001306e+000 -3.891940e-003 -3.968971e-005 -6.584138e-005 1.996012e-004 3.296922e-004 1.000000e+000 -6.604953e-003
8098440 1.000726e+000 -4.474042e-003 -4.387193e-005 9.889889e-006 1.706445e-004 -3.036341e-004 9.994961e-001 -7.134427e-003
8173425 1.000355e+000 -4.409175e-003 -3.583263e-005 -2.368897e-005 -2.757434e-004 1.151094e-004 1.000243e+000 -7.631069e-003
8248410 1.000880e+000 -4.377124e-003 5.684848e-005 -6.311284e-005 2.380922e-004 8.816865e-005 1.000410e+000 -7.068727e-003
8323395 1.000872e+000 -4.248920e-003 -9.025046e-005 7.877296e-005 -7.547248e-005 4.791225e-005 9.996881e-001 -6.459154e-003
8398380 1.001220e+000 -4.514347e-003 4.034900e-005 -1.008136e-004 3.487287e-004 1.700181e-004 9.997323e-001 -7.340413e-003
8473365 1.000019e+000 -4.511361e-003 -8.701349e-005 9.963494e-005 -3.609571e-005 -1.161567e-005 1.000250e+000 -7.233154e-003
8548350 1.001287e+000 -4.272110e-003 4.797605e-005 2.872746e-005 1.756002e-004 -2.414854e-004 1.001374e+000 -7.049663e-003
8623335 1.001212e+000 -4.801375e-003 6.070057e-005 -2.423174e-005 1.679220e-004 -1.627748e-004 1.000616e+000 -9.096257e-003
8698320 1.000390e+000 -4.449650e-003 5.427078e-005 9.273390e-006 -9.185242e-005 1.271819e-004 1.000089e+000 -9.215455e-003
8773305 1.000369e+000 -4.812228e-003 -8.395619e-005 5.072496e-005 7.058136e-006 2.755144e-004 1.001165e+000 -8.212998e-003
8848290 1.000562e+000 -4.812847e-003 2.456132e-005 -3.347497e-005 -1.940942e-005 1.495292e-004 1.000872e+000 -9.066280e-003
8923275 1.000274e+000 -4.676443e-003 6.424976e-005 -3.470565e-005 -1.896238e-005 -8.942528e-005 1.000680e+000 -8.909125e-003
8998260 1.000808e+000 -4.841167e-003 -9.255329e-005 -9.520796e-006 2.122796e-005 -2.576503e-004 1.000762e+000 -8.381260e-003
9073245 1.000659e+000 -5.244671e-003 7.783293e-005 6.340657e-005 1.920869e-004 -9.333833e-005 1.000730e+000 -8.977539e-003
9148230 1.001021e+000 -4.505138e-003 -5.197633e-005 -2.376911e-005 -7.911996e-005 -1.290994e-004 9.998441e-001 -8.105007e-003
9223215 9.999899e-001 -5.887461e-003 3.589612e-005 4.365154e-005 -2.493261e-004 -7.876824e-005 1.000549e+000 -9.577563e-003
9298200 1.001027e+000 -5.208576e-003 -6.397314e-005 1.016616e-004 5.845677e-005 -1.762118e-004 1.000758e+000 -1.024265e-002
9373185 1.000610e+000 -5.563767e-003 -1.336401e-005 4.662082e-005 -6.602132e-005 2.502256e-005 1.000318e+000 -8.383919e-003
9448170 1.000666e+000 -5.396592e-003 -3.033288e-005 -5.122634e-005 -1.838110e-004 1.658877e-004 9.996747e-001 -9.105128e-003
9523155 1.000472e+000 -4.999382e-003 1.041192e-005 -1.229316e-005 2.013822e-004 8.821182e-005 1.002227e+000 -1.018157e-002
9598140 1.000382e+000 -5.625150e-003 -7.049070e-005 1.472961e-005 8.868139e-005 2.422848e-004 9.998116e-001 -1.018931e-002
9673125 1.000479e+000 -5.428100e-003 5.952896e-006 2.307559e-005 8.767517e-005 1.029696e-004 1.000699e+000 -1.060317e-002
9748110 1.001248e+000 -5.706361e-003 2.358477e-005 2.879808e-005 6.711691e-005 -3.760601e-005 1.000825e+000 -1.125961e-002
9823095 1.000994e+000 -5.624566e-003 -1.253140e-005 -3.859762e-005 -2.301642e-004 -4.733001e-005 1.000273e+000 -1.066102e-002
9898080 1.000796e+000 -6.837084e-003 -1.859616e-005 -5.727208e-005 2.591592e-005 -2.879489e-004 9.998077e-001 -1.208362e-002
9973065 1.000862e+000 -6.459870e-003 -1.868040e-005 -1.280683e-004 -1.374298e-004 1.066599e-004 1.002204e+000 -1.250671e-002
10048050 1.000796e+000 -7.342963e-003 4.832701e-005 9.088379e-007 -4.560314e-005 -3.041171e-005 1.000216e+000 -1.224382e-002
10123035 1.000385e+000 -7.229048e-003 2.283862e-005 -2.967129e-005 3.101671e-004 -1.561416e-005 1.003264e+000 -1.336703e-002
10198020 1.000582e+000 -6.983605e-003 -3.133524e-005 -9.945354e-006 -1.386104e-004 -1.675221e-004 1.002823e+000 -1.283243e-002
10273005 9.998950e-001 -7.502934e-003 -1.070083e-004 -5.480475e-005 7.401958e-005 3.291373e-005 1.001408e+000 -1.334831e-002
10347990 1.000181e+000 -7.705824e-003 -4.168754e-005 -2.131816e-004 -5.971246e-005 -2.996686e-005 1.001767e+000 -1.256507e-002
10422975 1.000239e+000 -7.143232e-003 -4.684915e-006 -4.483177e-005 3.435768e-004 1.842800e-004 1.001410e+000 -1.395124e-002
10497960 1.000365e+000 -7.186724e-003 -1.564441e-005 2.143534e-005 -9.565872e-005 1.733435e-004 1.001617e+000 -1.396916e-002
10572945 9.998027e-001 -7.576574e-003 6.648309e-005 8.787181e-005 6.275254e-005 -9.832176e-005 1.000173e+000 -1.547986e-002
10647930 1.000129e+000 -6.927963e-003 -1.076679e-005 2.876516e-005 2.091404e-004 -1.907843e-004 1.002095e+000 -1.467664e-002
10722915 1.000342e+000 -7.069739e-003 -1.286557e-005 1.021073e-004 1.217654e-004 -1.625179e-004 1.000522e+000 -1.581557e-002
10797900 1.000196e+000 -6.929956e-003 -1.498421e-004 1.577271e-005 4.182104e-006 2.029559e-004 9.983687e-001 -1.721845e-002
10872885 1.000185e+000 -7.970043e-003 -9.013588e-005 2.865176e-005 1.804642e-004 -1.241186e-004 1.001298e+000 -1.601677e-002
10947870 1.000032e+000 -7.329514e-003 8.005423e-005 1.360051e-004 -1.201325e-004 -7.282413e-005 1.000614e+000 -1.638024e-002
11022855 9.998051e-001 -7.654994e-003 1.191668e-004 -2.466521e-005 1.027860e-004 2.009841e-004 1.001471e+000 -1.546815e-002
11097840 9.997529e-001 -7.204569e-003 9.307432e-006 7.039409e-005 1.654277e-004 -1.621723e-006 1.002315e+000 -1.671568e-002
11172825 1.000540e+000 -6.924345e-003 9.197206e-006 -1.684104e-005 1.106826e-004 5.980802e-005 1.001224e+000 -1.552853e-002
11247810 1.000302e+000 -7.321212e-003 -1.205446e-005 9.450957e-005 1.624030e-004 2.196740e-004 1.000619e+000 -1.694386e-002
11322795 1.000652e+000 -7.501939e-003 1.925149e-004 2.469304e-005 -8.785717e-005 -1.355550e-004 1.000898e+000 -1.527495e-002
11397780 1.000528e+000 -7.690227e-003 -1.177609e-004 1.705734e-005 -1.692472e-004 -1.890227e-004 1.001225e+000 -1.469312e-002
11472765 9.996749e-001 -7.761280e-003 -2.447373e-005 -7.911218e-006 1.791353e-004 -1.011371e-004 1.001265e+000 -1.536771e-002
11547750 1.000068e+000 -7.066371e-003 7.190627e-005 5.251199e-005 -6.037148e-005 2.036900e-004 1.000940e+000 -1.712131e-002
11622735 9.999156e-001 -8.024543e-003 4.568310e-005 7.150455e-005 2.489403e-004 -9.518944e-005 1.003344e+000 -1.613539e-002
11697720 1.000106e+000 -8.058156e-003 -4.115371e-005 -8.980510e-006 -3.682304e-005 -1.678163e-005 1.001034e+000 -1.576525e-002
11772705 1.000429e+000 -8.105827e-003 5.744856e-005 3.796906e-005 -4.692426e-005 -2.807745e-005 1.001039e+000 -1.581256e-002
11847690 9.998222e-001 -7.771290e-003 2.231826e-006 -6.808891e-005 2.083282e-004 -9.154314e-005 1.001929e+000 -1.602002e-002
11922675 9.998901e-001 -8.782463e-003 2.060902e-005 8.500748e-005 4.578702e-005 8.951149e-005 1.002441e+000 -1.462715e-002
11997660 9.997033e-001 -7.812287e-003 6.597788e-005 8.562479e-005 -1.169266e-004 -4.154219e-005 1.002786e+000 -1.517331e-002
