!Agilent Technologies,N5230C,SG49000117,A.08.50.07
!Agilent N5230C: A.08.50.07
!Date: Thursday, December 07, 2023 05:20:07
!Correction: S11(Full 2 Port(1,2)) 
!S21(Full 2 Port(1,2)) 
!S12(Full 2 Port(1,2)) 
!S22(Full 2 Port(1,2)) 
!S2P File: Measurements: S11, S21, S12, S22:
# Hz S  RI   R 50
300000 1.018620e+000 -8.408493e-003 -3.560715e-004 4.687910e-005 6.335429e-005 -5.486266e-004 1.039432e+000 -2.121289e-002
374985 9.975317e-001 -2.133076e-003 -1.393769e-004 -1.716965e-004 -4.152518e-004 -5.558294e-004 9.902433e-001 -1.237552e-002
449970 9.879162e-001 -2.203697e-004 -1.566336e-005 -8.875238e-006 1.115486e-004 -4.528226e-006 9.573529e-001 -1.137975e-002
524955 9.786437e-001 5.537314e-003 -9.941696e-006 -1.508361e-004 -1.391466e-004 2.081707e-004 9.311667e-001 -3.837411e-003
599940 9.798675e-001 5.766375e-003 1.750819e-005 -9.553379e-006 -4.907198e-005 -3.098410e-005 9.419274e-001 4.058423e-003
674925 9.794068e-001 4.410639e-003 -5.707096e-005 -8.387380e-005 -1.057207e-004 2.833772e-005 9.350371e-001 -1.404756e-002
749910 9.784112e-001 5.408225e-003 3.018107e-005 -2.818709e-005 1.755633e-004 -3.658457e-005 9.304905e-001 -1.007497e-002
824895 9.834232e-001 3.590064e-003 1.722402e-005 -2.949876e-006 8.035460e-005 -1.094152e-004 9.384112e-001 -8.326097e-003
899880 9.872866e-001 1.106274e-003 6.699378e-005 -2.062346e-005 -2.483938e-004 8.718165e-005 9.438602e-001 -1.142948e-002
974865 9.891330e-001 7.100259e-004 7.164649e-005 6.860883e-005 -4.178567e-005 -9.890792e-005 9.491770e-001 -1.068355e-002
1049850 9.942197e-001 -2.260927e-003 5.804604e-005 -7.343671e-005 -7.545236e-005 2.357305e-004 9.575333e-001 -9.276375e-003
1124835 9.978018e-001 -6.682885e-003 3.509118e-005 7.739627e-005 -2.028037e-004 -2.081919e-004 9.689928e-001 -1.060424e-002
1199820 1.002461e+000 -9.574269e-003 -3.869205e-005 9.322804e-005 -2.369384e-004 5.306896e-006 9.775100e-001 -1.126917e-002
1274805 1.008197e+000 -1.303942e-002 7.342618e-005 -7.530825e-005 3.745350e-005 -3.179516e-004 9.889080e-001 -8.803523e-003
1349790 1.000561e+000 -5.770155e-003 -4.119675e-005 -7.335073e-005 -1.972778e-004 -5.102048e-005 1.003826e+000 -1.141723e-002
1424775 9.993769e-001 -5.383309e-003 -3.373903e-005 1.668252e-005 -3.218480e-004 -3.369449e-004 1.003569e+000 -1.064325e-002
1499760 9.991380e-001 -4.171286e-003 4.962439e-005 6.051687e-005 9.113923e-005 -3.158276e-005 1.004696e+000 -7.242971e-003
1574745 9.989009e-001 -3.829370e-003 -1.210925e-004 1.706225e-005 8.995418e-005 2.008211e-004 1.001343e+000 -1.055168e-002
1649730 9.982491e-001 -4.361374e-003 -1.598886e-005 -4.175631e-006 1.146474e-005 1.417378e-004 1.003053e+000 -1.030757e-002
1724715 9.972600e-001 -4.414262e-003 1.068649e-004 6.556686e-005 3.207901e-005 -9.508755e-005 1.002409e+000 -1.229089e-002
1799700 9.962553e-001 -4.216041e-003 -3.296342e-006 -2.518527e-005 2.785535e-004 1.600883e-005 1.006150e+000 -1.074728e-002
1874685 9.957790e-001 -2.342125e-003 2.070056e-005 -2.648986e-005 -2.719717e-004 -2.377607e-005 1.001732e+000 -7.927311e-003
1949670 9.952229e-001 -1.081282e-003 -1.002777e-004 1.566391e-004 -1.384312e-005 -2.474487e-004 9.998739e-001 -5.191502e-003
2024655 9.953127e-001 -1.906142e-003 6.173198e-005 -4.782212e-005 -1.071795e-004 -2.811374e-004 1.001372e+000 -7.765358e-003
2099640 9.949902e-001 -2.996648e-003 2.362261e-005 -1.442041e-004 -1.353430e-004 1.539053e-004 1.000866e+000 -3.868828e-003
2174625 9.943501e-001 -3.040524e-003 -8.621481e-005 1.064886e-004 -1.036355e-004 -1.520343e-004 1.001340e+000 -5.867596e-003
2249610 9.953156e-001 -3.625939e-003 1.428528e-006 3.819106e-005 1.452107e-007 1.025850e-004 9.993119e-001 -6.745317e-003
2324595 1.000897e+000 -3.742195e-003 -2.909320e-005 -1.201944e-005 6.884345e-005 -1.586538e-006 1.002820e+000 -6.651728e-003
2399580 1.000596e+000 -4.574529e-003 -5.858509e-005 3.150051e-005 -1.065257e-004 3.341659e-005 1.003817e+000 -6.376863e-003
2474565 9.990174e-001 -1.069054e-003 -1.553271e-004 2.369560e-005 1.186377e-004 -6.504484e-005 9.988289e-001 -5.272516e-003
2549550 1.000767e+000 -2.267039e-003 -4.687751e-005 -1.454611e-006 -6.514275e-005 4.369060e-005 9.986528e-001 -7.173921e-003
2624535 1.001072e+000 -2.023202e-003 1.087338e-004 -1.420482e-004 -6.003715e-006 -1.551865e-004 9.990773e-001 -6.303182e-003
2699520 1.000137e+000 -4.126243e-003 2.811928e-006 2.778792e-005 -2.861920e-004 8.734450e-005 9.964661e-001 -5.900753e-003
2774505 1.000239e+000 -2.418805e-003 6.340098e-006 -8.566559e-005 -2.208454e-004 2.525447e-004 9.993313e-001 -9.673630e-003
2849490 1.001354e+000 -2.650772e-003 -3.370168e-005 -8.344607e-005 -4.189592e-006 -1.867176e-004 9.977273e-001 -4.811923e-003
2924475 1.001541e+000 -3.089139e-003 7.112992e-006 -7.222572e-005 -2.124422e-004 4.285372e-005 1.001983e+000 -5.800837e-003
2999460 1.000548e+000 -3.066054e-003 5.676576e-005 -4.233130e-006 2.198084e-004 1.272221e-004 1.000239e+000 -4.730374e-003
3074445 1.000787e+000 -3.126751e-003 8.594515e-005 1.755300e-006 1.263225e-004 8.178074e-005 1.000640e+000 -5.355729e-003
3149430 1.000779e+000 -2.555079e-003 -5.742584e-005 7.175901e-005 2.023783e-004 7.136143e-005 1.000048e+000 -5.444003e-003
3224415 1.000660e+000 -2.823956e-003 7.760164e-005 -4.041519e-005 -2.554804e-004 4.437045e-005 9.992163e-001 -5.626807e-003
3299400 1.000940e+000 -2.642616e-003 8.152194e-005 3.617797e-005 -1.481698e-004 -9.712313e-005 1.000089e+000 -7.071512e-003
3374385 1.000604e+000 -2.720427e-003 -3.056043e-005 5.743837e-005 -1.844366e-004 3.422412e-005 9.994169e-001 -6.052012e-003
3449370 1.000865e+000 -2.203952e-003 -1.013639e-004 1.222301e-004 1.776473e-004 -1.710245e-004 9.985120e-001 -4.585754e-003
3524355 1.001044e+000 -1.664971e-003 -7.817661e-005 -1.070876e-004 -1.394964e-004 -9.399361e-005 9.993227e-001 -4.484768e-003
3599340 1.000960e+000 -2.874427e-003 1.096322e-004 -4.562416e-005 -1.256477e-006 1.224182e-004 9.997066e-001 -5.774957e-003
3674325 1.001027e+000 -3.058089e-003 6.348112e-005 1.143253e-004 7.059787e-005 -1.475735e-004 9.996243e-001 -4.718591e-003
3749310 1.001336e+000 -1.529679e-003 5.952478e-005 -5.155179e-006 9.115268e-005 9.334709e-005 9.994735e-001 -5.014964e-003
3824295 1.000977e+000 -3.036660e-003 -2.151664e-005 1.505565e-005 -1.160095e-004 -1.875241e-004 9.997999e-001 -6.496144e-003
3899280 1.000860e+000 -3.064891e-003 -6.669670e-005 1.386360e-005 -1.319390e-004 2.656414e-005 9.986975e-001 -7.227946e-003
3974265 1.000694e+000 -3.144448e-003 1.605915e-005 -5.894456e-006 -1.576478e-005 5.930651e-005 9.998615e-001 -6.526993e-003
4049250 1.001366e+000 -3.130299e-003 -4.592297e-005 -2.693704e-005 -5.609932e-005 -5.846852e-005 1.000633e+000 -7.154413e-003
4124235 1.001256e+000 -3.797734e-003 -9.978162e-005 -2.897867e-005 -1.825258e-004 -1.039834e-005 9.991677e-001 -6.825311e-003
4199220 1.000868e+000 -3.791893e-003 -6.696169e-005 -7.472497e-005 2.233850e-004 -1.518065e-004 9.977419e-001 -8.048052e-003
4274205 1.000973e+000 -3.197316e-003 3.173259e-005 3.664777e-005 -3.826699e-005 -1.440108e-005 9.990858e-001 -5.617124e-003
4349190 1.000899e+000 -3.131722e-003 -1.618847e-004 -5.754722e-005 -1.430427e-005 1.534114e-004 9.991809e-001 -4.940738e-003
4424175 1.001062e+000 -3.524852e-003 -2.781709e-005 -6.255114e-005 -1.976746e-004 -8.774366e-005 9.994074e-001 -5.656941e-003
4499160 1.000486e+000 -3.701743e-003 -5.114615e-005 5.550122e-005 1.498325e-004 1.682935e-004 9.993911e-001 -3.548666e-003
4574145 1.000846e+000 -3.120265e-003 4.178009e-005 -1.350389e-004 3.829331e-004 -2.261880e-004 9.999382e-001 -2.975818e-003
4649130 1.000755e+000 -3.791117e-003 4.721757e-008 7.488264e-005 3.390229e-004 -1.421010e-004 9.989530e-001 -6.447506e-003
4724115 1.000968e+000 -3.678597e-003 6.272408e-005 6.730269e-007 8.921280e-005 -1.432814e-004 9.987406e-001 -4.758536e-003
4799100 1.001532e+000 -2.218396e-003 3.192438e-005 3.861534e-005 1.969299e-004 2.398058e-004 9.990801e-001 -5.355706e-003
4874085 1.001402e+000 -3.041147e-003 1.473467e-005 9.078889e-007 -1.071685e-004 2.810738e-005 9.990805e-001 -4.786606e-003
4949070 1.001131e+000 -3.300780e-003 -3.199283e-005 8.008576e-005 2.177384e-005 -1.479494e-004 1.000728e+000 -5.801101e-003
5024055 1.001335e+000 -2.705783e-003 -7.785936e-005 2.431946e-005 1.572773e-005 -4.533181e-005 9.992670e-001 -5.693757e-003
5099040 1.000765e+000 -3.163077e-003 1.969887e-005 -5.762468e-005 2.356699e-004 8.071784e-005 1.000513e+000 -5.017498e-003
5174025 1.001630e+000 -3.297216e-003 1.038103e-004 8.651332e-005 -2.798591e-004 1.959189e-004 9.984660e-001 -3.018405e-003
5249010 1.001507e+000 -3.679547e-003 -2.885952e-006 5.446254e-005 -1.915405e-004 3.438913e-005 1.000410e+000 -3.942705e-003
5323995 1.000782e+000 -3.083257e-003 -3.548031e-005 1.302151e-005 1.475969e-004 4.131375e-005 9.992052e-001 -6.688580e-003
5398980 1.001731e+000 -3.330795e-003 4.798067e-006 5.909711e-006 -5.325590e-005 -1.188326e-006 9.990253e-001 -4.710736e-003
5473965 1.001775e+000 -3.334041e-003 4.585370e-006 -5.397185e-005 -5.192638e-005 7.326771e-005 1.000239e+000 -6.184979e-003
5548950 1.001223e+000 -3.368564e-003 -8.147632e-005 2.295350e-005 2.404486e-004 1.884331e-004 9.993092e-001 -4.315290e-003
5623935 1.000884e+000 -2.933628e-003 -6.385642e-006 -6.783436e-005 -8.235545e-005 1.736830e-004 1.000272e+000 -5.629888e-003
5698920 1.000731e+000 -3.605054e-003 5.331803e-005 1.321581e-005 -1.408267e-004 -1.937923e-005 1.001558e+000 -6.089862e-003
5773905 1.000827e+000 -3.785022e-003 1.827752e-005 -1.098501e-005 -9.183944e-005 1.284136e-004 9.990594e-001 -6.243726e-003
5848890 1.001139e+000 -3.684630e-003 -7.732339e-005 -6.664776e-006 8.552150e-005 2.626611e-004 1.000815e+000 -5.863063e-003
5923875 1.001014e+000 -3.805412e-003 2.633846e-005 -4.476198e-005 -1.304359e-004 3.638066e-005 9.989073e-001 -6.151010e-003
5998860 1.000882e+000 -3.599647e-003 4.820465e-005 -1.511516e-006 2.984804e-004 -3.923124e-005 1.001161e+000 -6.671492e-003
6073845 1.000797e+000 -3.802689e-003 -6.100060e-006 -5.098924e-006 2.130096e-004 3.221500e-004 1.002034e+000 -6.221192e-003
6148830 1.000921e+000 -3.428259e-003 -3.050039e-005 -8.325095e-005 5.897482e-005 -3.170615e-005 1.000829e+000 -7.657067e-003
6223815 1.001059e+000 -3.956189e-003 2.139676e-008 -1.906941e-006 -8.292002e-005 5.360556e-005 9.991699e-001 -5.120689e-003
6298800 1.000592e+000 -3.336177e-003 -1.769104e-005 -5.176429e-005 2.237113e-004 -2.014653e-004 9.989428e-001 -5.889374e-003
6373785 1.000571e+000 -4.058036e-003 -9.305958e-006 3.011766e-005 -1.955252e-004 -1.787254e-004 9.992169e-001 -7.836107e-003
6448770 1.000691e+000 -3.718381e-003 -1.459648e-004 2.071769e-005 2.134945e-005 -1.138701e-004 1.000054e+000 -7.839337e-003
6523755 1.000333e+000 -3.729072e-003 -2.230518e-005 -1.801850e-004 6.197174e-005 -1.039187e-004 1.000685e+000 -6.998986e-003
6598740 1.000270e+000 -3.615724e-003 -6.844258e-005 3.330339e-005 1.100291e-004 -7.393405e-005 9.989331e-001 -7.678459e-003
6673725 1.000375e+000 -3.031144e-003 8.801882e-005 -2.870412e-005 -1.042921e-004 1.178384e-004 1.001036e+000 -7.306439e-003
6748710 1.001208e+000 -3.896650e-003 -5.451160e-005 9.741621e-006 6.133625e-005 -1.433130e-004 9.998717e-001 -9.103837e-003
6823695 1.000847e+000 -4.025298e-003 -2.965924e-005 4.131441e-005 -1.456695e-004 1.555058e-004 1.000655e+000 -1.035717e-002
6898680 1.000734e+000 -3.453658e-003 5.926991e-006 1.746074e-005 -1.966589e-005 9.478394e-005 1.000436e+000 -7.788167e-003
6973665 1.000896e+000 -3.186475e-003 1.009315e-004 5.500104e-005 -1.166829e-004 -7.190325e-005 1.000310e+000 -8.576902e-003
7048650 1.001190e+000 -3.440236e-003 -7.550811e-005 -2.472588e-005 2.133478e-004 -2.312721e-007 1.000829e+000 -8.810492e-003
7123635 1.000720e+000 -3.864996e-003 -4.805351e-005 2.100923e-005 8.343681e-006 1.408939e-004 1.000181e+000 -9.323323e-003
7198620 1.000463e+000 -3.798447e-003 9.013851e-005 -5.127639e-005 -1.081491e-005 -3.028320e-004 1.001675e+000 -7.768001e-003
7273605 1.001077e+000 -4.034108e-003 -1.519646e-005 -2.303012e-005 -5.539866e-005 9.039264e-005 1.000701e+000 -7.770101e-003
7348590 1.000577e+000 -3.850848e-003 -8.261272e-005 4.566873e-005 1.770370e-005 2.117991e-005 9.998288e-001 -9.372674e-003
7423575 1.000386e+000 -3.239969e-003 3.836396e-006 -1.059646e-004 7.647224e-005 -1.445549e-004 9.998077e-001 -9.587555e-003
7498560 1.000205e+000 -4.084930e-003 -3.917564e-005 -4.627201e-005 -2.407885e-004 -2.950585e-004 1.001729e+000 -7.861176e-003
7573545 1.000304e+000 -3.949616e-003 -3.338713e-007 -9.832978e-005 -1.767113e-004 1.041075e-004 1.000876e+000 -9.589967e-003
7648530 9.997823e-001 -4.163415e-003 -2.699787e-005 1.921461e-005 3.678413e-005 3.869237e-004 1.000784e+000 -7.518334e-003
7723515 1.000836e+000 -3.699998e-003 2.950352e-005 2.216741e-005 -4.750553e-005 9.822443e-005 9.982688e-001 -8.582653e-003
7798500 1.001325e+000 -3.467511e-003 5.357459e-005 2.599767e-005 5.181327e-005 7.043497e-005 9.990264e-001 -7.368504e-003
7873485 1.001149e+000 -4.120797e-003 8.866988e-005 4.135385e-005 -7.960072e-005 -9.834228e-005 9.996558e-001 -8.353025e-003
7948470 1.001321e+000 -3.085785e-003 4.121400e-005 8.607089e-006 2.234850e-004 -1.648356e-005 9.987140e-001 -7.583680e-003
8023455 1.000290e+000 -4.136214e-003 -1.243878e-005 -1.525439e-005 6.455529e-005 1.066527e-004 1.000240e+000 -8.445046e-003
8098440 1.001062e+000 -4.371911e-003 -4.470831e-005 2.603606e-006 -8.107884e-005 -1.199943e-005 9.988672e-001 -7.931384e-003
8173425 1.000902e+000 -3.662692e-003 -3.237636e-005 2.877786e-005 -1.951698e-005 -8.335784e-005 9.995603e-001 -7.976506e-003
8248410 1.000838e+000 -4.281529e-003 -1.670296e-006 -4.698566e-005 -9.771434e-005 3.553918e-005 1.001113e+000 -6.577768e-003
8323395 9.999719e-001 -4.560268e-003 -1.021680e-004 -5.839564e-006 1.213127e-004 -7.805924e-005 9.987510e-001 -6.760493e-003
8398380 1.000061e+000 -4.908076e-003 3.423465e-006 -6.090932e-006 -1.478721e-004 4.799225e-005 9.995646e-001 -6.904166e-003
8473365 1.001142e+000 -4.059818e-003 7.975149e-006 -4.687160e-005 2.136861e-004 -3.357408e-004 9.994622e-001 -7.509327e-003
8548350 1.000309e+000 -4.375104e-003 -7.724473e-005 -6.635852e-005 -1.864822e-005 -2.729929e-005 9.996217e-001 -8.286911e-003
8623335 1.001148e+000 -4.586273e-003 4.070747e-005 -5.083096e-005 -7.422241e-005 -8.890797e-005 1.000978e+000 -8.146486e-003
8698320 1.000576e+000 -4.984790e-003 7.104212e-005 -5.020253e-006 -1.736302e-004 1.055038e-005 1.000637e+000 -9.965044e-003
8773305 1.000825e+000 -5.207548e-003 -1.952775e-005 -1.024711e-004 2.997503e-005 3.951443e-006 1.000000e+000 -8.440979e-003
8848290 1.000730e+000 -5.033305e-003 -1.647780e-005 7.306990e-005 -2.865938e-004 -1.629073e-004 9.996903e-001 -7.879742e-003
8923275 1.001073e+000 -5.111080e-003 -1.775828e-005 -2.534996e-005 -1.739882e-004 -2.394050e-005 1.000161e+000 -8.414876e-003
8998260 1.001129e+000 -4.615603e-003 -1.253825e-006 4.507114e-005 7.869680e-005 3.550221e-004 1.000731e+000 -8.714288e-003
9073245 1.000895e+000 -5.580375e-003 6.217120e-006 -1.479930e-005 -9.157348e-005 7.757058e-005 9.993644e-001 -9.641648e-003
9148230 1.000820e+000 -4.865613e-003 -1.575830e-005 1.010726e-004 -8.113861e-005 4.845651e-005 1.000678e+000 -9.127528e-003
9223215 1.001666e+000 -5.780107e-003 9.239408e-006 -3.170898e-005 1.285888e-004 1.239086e-005 1.000617e+000 -6.554425e-003
9298200 1.000743e+000 -6.010732e-003 9.160402e-005 5.467626e-005 1.041275e-004 1.213287e-004 1.002036e+000 -8.473092e-003
9373185 1.001038e+000 -6.135776e-003 -1.158780e-004 1.564885e-005 -1.785115e-005 -8.791083e-006 1.000809e+000 -1.017757e-002
9448170 1.000661e+000 -6.235122e-003 -7.187716e-005 -4.758954e-005 -1.108523e-004 1.432152e-004 1.001801e+000 -1.101261e-002
9523155 1.000687e+000 -5.665676e-003 -7.776250e-006 -1.157535e-004 -2.069037e-004 5.909554e-005 1.000592e+000 -8.925450e-003
9598140 1.000446e+000 -5.829205e-003 5.320835e-005 -4.572525e-005 -1.196615e-004 1.411264e-004 1.000311e+000 -1.211438e-002
9673125 1.000740e+000 -6.168090e-003 3.486552e-005 3.878115e-005 -1.412927e-005 2.597395e-005 1.000715e+000 -1.008935e-002
9748110 1.000569e+000 -5.988841e-003 -1.442631e-004 4.757490e-005 -1.701239e-006 2.271111e-005 1.001207e+000 -1.169575e-002
9823095 1.000561e+000 -6.232930e-003 -1.307799e-005 -1.758025e-004 -4.470392e-006 -1.130983e-004 1.000915e+000 -1.223392e-002
9898080 1.000498e+000 -5.942615e-003 1.864010e-005 -4.794630e-005 -8.705734e-005 9.126870e-005 1.000074e+000 -1.177149e-002
9973065 1.000830e+000 -6.099180e-003 6.075408e-006 3.209187e-005 -9.248647e-005 9.348377e-006 1.000751e+000 -1.165835e-002
10048050 1.000307e+000 -7.437577e-003 -2.077874e-005 1.829266e-005 -4.510835e-005 2.042346e-005 1.000524e+000 -1.269143e-002
10123035 1.000338e+000 -6.806655e-003 -3.454247e-006 -6.165506e-005 1.162861e-005 1.594146e-004 1.002112e+000 -1.221666e-002
10198020 1.000878e+000 -6.816683e-003 -1.777273e-006 1.348272e-004 1.643001e-004 -7.661306e-005 1.003137e+000 -1.509540e-002
10273005 1.000795e+000 -7.034941e-003 -7.761105e-005 -1.821733e-005 -2.196588e-004 -2.306733e-004 1.001702e+000 -1.302268e-002
10347990 1.000715e+000 -6.846171e-003 3.212360e-005 5.268839e-005 -1.937498e-004 2.327633e-005 1.001298e+000 -1.456618e-002
10422975 1.000520e+000 -7.282411e-003 -4.311655e-005 6.491999e-005 -1.364533e-004 1.461013e-004 1.001784e+000 -1.457653e-002
10497960 1.000711e+000 -7.049539e-003 7.376309e-005 3.876651e-005 3.198099e-004 1.600015e-004 1.001684e+000 -1.515344e-002
10572945 1.000469e+000 -7.350590e-003 -5.868647e-005 -1.223023e-005 -3.361463e-004 -3.041070e-005 1.002623e+000 -1.534549e-002
10647930 1.000353e+000 -7.117091e-003 -6.408250e-005 -7.021679e-005 3.421761e-005 7.944927e-005 1.000591e+000 -1.544939e-002
10722915 1.000206e+000 -7.476491e-003 -4.786410e-005 -8.948155e-005 7.375014e-005 9.291407e-005 1.001153e+000 -1.566204e-002
10797900 9.995608e-001 -7.558185e-003 1.190879e-005 -6.790830e-005 -1.093507e-005 -1.791936e-004 1.001715e+000 -1.624428e-002
10872885 9.995985e-001 -7.452446e-003 -1.623179e-005 -4.373462e-005 1.115760e-004 -3.306959e-005 1.002599e+000 -1.449219e-002
10947870 1.000685e+000 -6.982584e-003 4.150973e-007 3.704264e-005 2.445708e-004 2.422631e-005 9.998972e-001 -1.625168e-002
11022855 1.000382e+000 -8.202703e-003 6.354075e-005 -7.034295e-005 -3.699246e-005 2.849990e-005 1.000229e+000 -1.656227e-002
11097840 9.994345e-001 -6.697996e-003 1.107586e-004 -1.080629e-004 -2.068950e-005 -1.567440e-005 1.002291e+000 -1.636015e-002
11172825 1.000221e+000 -7.226139e-003 -5.416877e-005 7.343018e-006 -6.550099e-005 -1.568612e-004 1.001153e+000 -1.625926e-002
11247810 1.000642e+000 -8.295529e-003 -1.484149e-005 -9.071574e-005 6.940547e-005 2.314779e-005 1.001060e+000 -1.688087e-002
11322795 1.000395e+000 -7.938814e-003 1.501451e-004 1.765034e-004 -2.477522e-004 1.597662e-004 1.001500e+000 -1.726653e-002
11397780 1.000153e+000 -7.434173e-003 -9.086137e-005 2.275585e-005 1.764600e-004 -1.862551e-004 1.002172e+000 -1.641007e-002
11472765 1.000840e+000 -8.290110e-003 -2.092357e-005 -1.074407e-004 -1.601690e-005 1.696420e-004 1.002620e+000 -1.695980e-002
11547750 9.998528e-001 -7.172521e-003 -6.071687e-005 5.588303e-005 -1.374744e-004 4.729299e-005 1.003431e+000 -1.611505e-002
11622735 1.000638e+000 -8.712717e-003 -4.911368e-005 3.909419e-005 -1.190151e-004 7.589169e-005 1.001725e+000 -1.776980e-002
11697720 1.000054e+000 -8.162670e-003 7.555974e-005 -3.115663e-005 -4.473771e-005 -5.348144e-005 1.002056e+000 -1.428778e-002
11772705 9.995291e-001 -8.602636e-003 -5.421576e-006 -4.278494e-006 -9.144776e-005 1.642250e-004 1.002115e+000 -1.478374e-002
11847690 1.000147e+000 -7.530426e-003 -4.335511e-005 4.704794e-005 1.246377e-004 -6.350388e-005 1.000957e+000 -1.698801e-002
11922675 9.998108e-001 -8.293481e-003 -3.213603e-005 -2.421668e-005 1.813769e-004 5.150981e-005 1.002591e+000 -1.666133e-002
11997660 9.996876e-001 -7.667153e-003 8.140132e-005 -1.908267e-006 2.134564e-004 -3.778266e-004 1.002343e+000 -1.478407e-002
