!Agilent Technologies,N5230C,SG49000117,A.08.50.07
!Agilent N5230C: A.08.50.07
!Date: Thursday, December 07, 2023 05:28:48
!Correction: S11(Full 2 Port(1,2)) 
!S21(Full 2 Port(1,2)) 
!S12(Full 2 Port(1,2)) 
!S22(Full 2 Port(1,2)) 
!S2P File: Measurements: S11, S21, S12, S22:
# Hz S  RI   R 50
300000 1.017716e+000 -1.290522e-002 2.126824e-004 -4.665254e-005 -1.248568e-005 -9.055094e-005 1.029052e+000 -1.905858e-002
374985 9.974843e-001 -3.324651e-003 -3.120612e-004 6.910254e-005 -2.627873e-004 -3.596928e-004 9.799168e-001 -1.699839e-002
449970 9.894583e-001 1.021952e-004 1.746741e-004 2.148623e-004 1.228700e-004 3.172015e-004 9.578296e-001 -1.154143e-002
524955 9.792504e-001 5.118758e-003 1.330081e-006 -5.056126e-005 1.114750e-004 1.349083e-004 9.294863e-001 -8.983724e-004
599940 9.814767e-001 4.198291e-003 -3.283199e-005 -1.091965e-004 -8.061836e-005 1.754865e-004 9.436798e-001 1.878681e-003
674925 9.782599e-001 4.609949e-003 -3.771967e-005 -6.536493e-005 -2.018278e-005 -1.001652e-005 9.369136e-001 -1.505994e-002
749910 9.789929e-001 5.857118e-003 -1.294739e-005 7.480374e-005 -1.229800e-004 2.731118e-004 9.319126e-001 -9.549040e-003
824895 9.838326e-001 3.957347e-003 3.390946e-005 -4.654649e-005 -2.026504e-004 1.791441e-004 9.399092e-001 -8.982669e-003
899880 9.877520e-001 2.270729e-003 2.904662e-005 -1.369926e-004 -1.823234e-004 -1.134256e-004 9.419751e-001 -1.126133e-002
974865 9.890364e-001 -8.547487e-004 6.201369e-005 1.918464e-006 -5.758876e-005 6.751276e-005 9.517764e-001 -1.199001e-002
1049850 9.933845e-001 -3.216616e-003 6.441648e-006 -6.174039e-006 -1.214024e-004 -8.873588e-005 9.577806e-001 -1.129327e-002
1124835 9.982156e-001 -6.373743e-003 2.495755e-005 -3.965552e-005 -7.923208e-005 -1.006202e-004 9.684255e-001 -1.092506e-002
1199820 1.002392e+000 -9.086476e-003 4.276776e-005 5.188761e-005 1.240204e-004 1.325836e-004 9.777712e-001 -1.045167e-002
1274805 1.007864e+000 -1.289660e-002 -4.985038e-005 -4.538682e-005 -1.572678e-004 1.058826e-004 9.883140e-001 -8.122400e-003
1349790 1.000373e+000 -5.948794e-003 -1.152205e-004 -1.017282e-005 2.785127e-005 8.695063e-005 1.002558e+000 -1.085672e-002
1424775 9.991439e-001 -5.809218e-003 -1.689633e-005 -6.464929e-005 5.262437e-006 5.908633e-005 1.004352e+000 -1.292599e-002
1499760 9.982030e-001 -4.801915e-003 1.013532e-004 -3.319434e-005 -3.541906e-005 1.668675e-004 1.004300e+000 -8.295628e-003
1574745 9.979811e-001 -3.997437e-003 -3.103593e-005 -6.865963e-006 -2.530897e-005 5.289187e-004 1.000466e+000 -9.165745e-003
1649730 9.981560e-001 -4.788786e-003 -3.198752e-006 1.296953e-004 -5.643929e-005 -1.472525e-004 1.003010e+000 -1.051019e-002
1724715 9.970480e-001 -4.388788e-003 1.397971e-004 -2.976519e-005 -1.993575e-004 -9.020697e-005 1.003470e+000 -1.119173e-002
1799700 9.965977e-001 -4.733402e-003 -1.580753e-004 -1.251738e-004 -5.338649e-005 -3.591687e-005 1.006169e+000 -1.244748e-002
1874685 9.958500e-001 -2.551797e-003 -2.636630e-005 -4.314630e-005 9.322885e-006 -7.017836e-005 1.001025e+000 -9.859174e-003
1949670 9.949802e-001 -2.900850e-003 -1.828768e-004 -1.336827e-004 8.714694e-005 2.883925e-004 1.002451e+000 -7.467234e-003
2024655 9.946882e-001 -1.932248e-003 -9.000300e-005 -5.551731e-006 -4.465964e-005 -2.194912e-004 1.000683e+000 -5.332358e-003
2099640 9.940020e-001 -1.828713e-003 1.263145e-004 -9.844945e-005 1.531636e-004 -3.234636e-004 9.993871e-001 -4.583350e-003
2174625 9.946858e-001 -2.793246e-003 2.377167e-005 -1.718274e-004 -7.849849e-005 -1.833966e-005 1.000988e+000 -5.594302e-003
2249610 9.946750e-001 -3.130522e-003 -2.686013e-005 1.471740e-005 -2.122054e-006 -3.083856e-005 1.002185e+000 -7.083092e-003
2324595 1.000683e+000 -4.408788e-003 7.572472e-005 -1.021954e-005 8.079205e-006 5.247626e-005 1.002779e+000 -6.640729e-003
2399580 1.000665e+000 -3.244360e-003 3.448678e-005 1.046916e-004 -3.406646e-004 1.256681e-004 1.003241e+000 -5.785001e-003
2474565 9.988629e-001 -9.857478e-004 -1.908895e-004 -1.283970e-004 9.742441e-005 -3.507573e-004 1.000663e+000 -8.245694e-003
2549550 1.000755e+000 -3.007139e-003 -5.083428e-005 -7.521026e-005 -1.997288e-004 -6.075756e-005 9.972742e-001 -6.268864e-003
2624535 1.001030e+000 -2.820271e-003 -6.504451e-005 -8.094136e-005 -6.206952e-007 2.700424e-004 1.001373e+000 -5.840881e-003
2699520 9.997926e-001 -3.713007e-003 5.116972e-006 -7.555979e-005 -2.389032e-005 -2.329055e-004 9.959865e-001 -5.803897e-003
2774505 1.000075e+000 -2.090881e-003 2.382855e-005 -4.418916e-005 -1.461311e-004 3.363071e-005 9.992153e-001 -8.790838e-003
2849490 1.001215e+000 -1.990286e-003 -8.898535e-007 3.490731e-005 9.701253e-005 5.294503e-005 9.970726e-001 -3.700753e-003
2924475 1.001339e+000 -2.360790e-003 7.755666e-005 -5.877329e-005 1.934385e-004 -9.753515e-005 1.002496e+000 -6.050067e-003
2999460 1.000832e+000 -2.305027e-003 -8.917261e-005 3.592622e-005 -3.358641e-005 -4.407056e-005 1.000512e+000 -6.102862e-003
3074445 1.000799e+000 -2.592793e-003 2.237743e-005 -3.836198e-005 -1.344025e-004 -1.412583e-004 9.993411e-001 -4.080366e-003
3149430 1.000026e+000 -2.446298e-003 -4.286415e-005 1.143655e-004 1.755025e-004 2.531681e-004 9.996246e-001 -6.266945e-003
3224415 1.000588e+000 -2.800978e-003 -3.220281e-006 1.914149e-005 8.373077e-005 2.513734e-005 1.000023e+000 -4.980728e-003
3299400 1.000733e+000 -2.996136e-003 1.838765e-005 3.009857e-005 -1.169356e-004 1.668741e-004 1.000916e+000 -6.897838e-003
3374385 1.000588e+000 -3.223493e-003 6.764331e-005 2.154336e-005 1.709763e-004 -9.518360e-005 9.983186e-001 -5.007618e-003
3449370 1.000626e+000 -2.935401e-003 -6.963869e-006 2.566324e-005 5.925714e-005 2.960434e-004 9.979533e-001 -5.811335e-003
3524355 1.001307e+000 -1.825688e-003 -5.454153e-005 7.811515e-005 1.582353e-004 -2.335243e-005 9.997546e-001 -4.548158e-003
3599340 1.000890e+000 -1.709847e-003 3.609062e-005 -3.522617e-005 -4.142100e-005 1.364041e-004 9.993689e-001 -4.764162e-003
3674325 1.000332e+000 -2.748276e-003 -1.278520e-005 4.576606e-005 2.503474e-004 1.853529e-004 9.995664e-001 -5.692442e-003
3749310 1.001292e+000 -2.700810e-003 3.865550e-005 -3.759759e-005 2.427622e-004 -4.403813e-005 1.000380e+000 -5.447159e-003
3824295 1.001218e+000 -2.002028e-003 6.661440e-005 3.307021e-005 -1.086048e-004 3.903806e-005 1.000296e+000 -7.599156e-003
3899280 1.000472e+000 -3.455669e-003 3.760211e-005 2.162431e-005 -2.818450e-004 5.154958e-005 1.000213e+000 -7.818433e-003
3974265 1.001955e+000 -3.761641e-003 2.606642e-005 7.588870e-005 -1.164879e-004 -1.493964e-004 1.000312e+000 -7.756209e-003
4049250 1.001723e+000 -3.768533e-003 7.812921e-006 -2.823168e-005 2.147272e-005 1.517345e-004 9.995249e-001 -6.341006e-003
4124235 1.001612e+000 -3.749111e-003 -1.199308e-004 8.322289e-006 8.634156e-005 2.989824e-004 9.992085e-001 -6.592246e-003
4199220 1.001576e+000 -4.069473e-003 -3.151709e-005 -1.314335e-005 1.330868e-004 3.813899e-005 1.000296e+000 -5.638000e-003
4274205 1.000717e+000 -2.795693e-003 -7.950870e-005 2.046130e-005 6.836056e-005 6.200425e-005 9.995239e-001 -6.318535e-003
4349190 1.000743e+000 -3.116775e-003 -1.765701e-005 4.682153e-005 1.002566e-004 -2.116375e-004 1.000298e+000 -5.457204e-003
4424175 1.001088e+000 -3.434267e-003 -2.304865e-005 -7.826963e-005 7.615567e-005 1.065320e-004 9.996173e-001 -5.364280e-003
4499160 1.000630e+000 -3.149381e-003 -1.536887e-006 -5.897322e-005 -4.681116e-005 -2.140088e-004 9.991744e-001 -4.794193e-003
4574145 1.000702e+000 -3.316634e-003 -1.195099e-004 6.305094e-005 3.780139e-005 1.669463e-004 1.000461e+000 -4.549145e-003
4649130 1.001146e+000 -3.225611e-003 1.768741e-005 -5.416533e-007 -5.584137e-005 2.027026e-004 9.994534e-001 -4.528570e-003
4724115 1.001418e+000 -3.603439e-003 6.314976e-005 1.739031e-004 -1.043617e-004 2.327538e-004 9.996176e-001 -5.892708e-003
4799100 1.001003e+000 -3.096428e-003 2.425114e-005 -1.105409e-004 3.265036e-005 -8.406148e-005 9.985640e-001 -5.807292e-003
4874085 1.000583e+000 -3.474948e-003 -1.129025e-004 -1.183507e-005 8.878732e-005 1.075031e-004 9.990433e-001 -5.406107e-003
4949070 1.000933e+000 -3.682015e-003 -1.131768e-005 -5.058469e-005 -4.616128e-005 1.186486e-004 9.992113e-001 -5.699481e-003
5024055 1.001015e+000 -3.243140e-003 -9.298758e-006 -2.418959e-005 1.869751e-005 1.594390e-004 9.988388e-001 -3.126046e-003
5099040 1.000450e+000 -3.258452e-003 -2.660305e-006 -2.254730e-005 4.747662e-005 2.415859e-004 9.997340e-001 -4.713520e-003
5174025 1.000932e+000 -2.628887e-003 8.746245e-005 2.827571e-005 -1.251931e-004 -6.533253e-005 9.988417e-001 -4.177363e-003
5249010 1.001538e+000 -3.448182e-003 4.506792e-005 4.196102e-005 4.868804e-006 3.470591e-005 9.999529e-001 -3.348009e-003
5323995 1.000254e+000 -2.958691e-003 -5.429716e-005 1.171984e-005 7.809711e-005 1.485950e-005 9.985980e-001 -6.116717e-003
5398980 1.000511e+000 -3.489633e-003 1.286294e-004 -9.191165e-005 -4.872450e-004 6.088446e-005 9.987545e-001 -2.410060e-003
5473965 1.001351e+000 -3.214422e-003 -1.575555e-004 -1.149987e-004 1.414773e-004 -1.049291e-006 9.999163e-001 -4.447358e-003
5548950 1.000070e+000 -3.525944e-003 6.570770e-005 -1.145124e-004 1.294035e-004 3.705635e-004 9.994207e-001 -5.441607e-003
5623935 1.001729e+000 -3.663621e-003 8.252957e-005 -1.323073e-004 -1.004596e-004 -1.221792e-004 9.997853e-001 -5.748942e-003
5698920 1.000212e+000 -3.799585e-003 3.224171e-005 1.419912e-005 -5.064546e-005 -1.428246e-004 1.001881e+000 -5.280877e-003
5773905 1.000606e+000 -3.558643e-003 -5.065008e-005 7.077721e-005 -1.219615e-004 -1.320112e-004 1.000801e+000 -6.490648e-003
5848890 1.000859e+000 -3.050749e-003 5.495402e-006 -1.275654e-004 -2.249689e-004 3.612569e-005 9.999697e-001 -5.247291e-003
5923875 1.000862e+000 -3.287285e-003 2.180229e-007 3.899754e-005 -3.222649e-004 6.464601e-005 9.998855e-001 -6.272054e-003
5998860 1.001020e+000 -3.787909e-003 -1.870778e-004 4.430451e-005 4.548939e-005 1.348792e-004 1.001182e+000 -7.120744e-003
6073845 1.001184e+000 -3.362228e-003 -3.692674e-005 -2.074036e-005 1.284942e-004 -4.036806e-005 1.001224e+000 -6.139288e-003
6148830 1.000241e+000 -4.447788e-003 -2.546945e-005 4.928413e-005 1.534604e-004 -1.099588e-005 1.001253e+000 -6.680042e-003
6223815 1.001770e+000 -3.102765e-003 3.883179e-005 -1.187855e-004 -4.632326e-007 -3.842686e-005 9.999353e-001 -6.233467e-003
6298800 1.000448e+000 -3.414378e-003 -3.404962e-005 2.495634e-005 8.455403e-005 -5.656696e-006 9.984626e-001 -6.129269e-003
6373785 1.000897e+000 -3.114256e-003 6.738710e-005 2.712952e-005 -2.127634e-004 -2.590952e-005 9.982246e-001 -5.804331e-003
6448770 1.001264e+000 -2.994692e-003 -3.613689e-005 2.332093e-005 -1.952904e-004 1.405904e-004 1.000469e+000 -6.736925e-003
6523755 1.000695e+000 -3.582283e-003 1.928998e-005 6.557736e-005 1.526383e-004 5.465576e-005 1.000977e+000 -6.205410e-003
6598740 1.001203e+000 -3.706176e-003 -1.263507e-004 -3.365894e-005 -1.357671e-005 -1.740190e-004 1.001833e+000 -7.775276e-003
6673725 1.000663e+000 -3.338700e-003 -1.325214e-004 -5.187193e-006 3.263515e-005 -2.541116e-004 9.997122e-001 -7.126681e-003
6748710 1.001089e+000 -3.585555e-003 2.577831e-005 -7.274123e-005 1.802967e-004 2.319210e-004 1.000728e+000 -7.247728e-003
6823695 1.000956e+000 -3.493477e-003 -4.645787e-005 4.963923e-005 -1.125208e-004 5.954881e-005 1.000903e+000 -9.470701e-003
6898680 1.000448e+000 -3.680058e-003 -9.380451e-005 1.675988e-005 2.114205e-005 -3.526461e-004 1.000098e+000 -9.063485e-003
6973665 1.001235e+000 -3.466859e-003 1.191637e-004 7.724209e-005 -7.082128e-005 2.205330e-004 1.001037e+000 -7.684682e-003
7048650 1.000968e+000 -3.279914e-003 -7.695610e-006 1.991417e-005 -8.614282e-005 -4.101661e-005 1.001314e+000 -8.054149e-003
7123635 1.000527e+000 -3.923826e-003 2.579572e-006 -4.817020e-005 9.533317e-005 7.360723e-005 9.992791e-001 -8.260665e-003
7198620 1.001122e+000 -3.459563e-003 7.100371e-006 4.110634e-005 1.337497e-004 -1.031524e-004 9.997799e-001 -8.229105e-003
7273605 1.001491e+000 -3.958664e-003 1.810948e-005 1.513170e-004 -1.465080e-004 1.498772e-004 9.998836e-001 -6.542603e-003
7348590 1.000946e+000 -3.588077e-003 -1.723457e-004 -9.652338e-005 3.051881e-005 -7.658561e-005 9.983211e-001 -7.631327e-003
7423575 1.000293e+000 -4.343590e-003 9.809394e-005 1.197019e-005 1.052781e-004 -8.545751e-005 9.994853e-001 -7.770675e-003
7498560 1.000633e+000 -3.173727e-003 5.029961e-005 4.633655e-005 1.470595e-004 1.043163e-004 9.997541e-001 -7.623301e-003
7573545 1.000303e+000 -3.620311e-003 6.484324e-006 9.936673e-005 -5.059579e-004 -1.028385e-005 9.996381e-001 -8.690397e-003
7648530 1.000422e+000 -4.183650e-003 6.745001e-005 -5.759061e-005 -7.661730e-005 -1.700019e-004 1.000891e+000 -7.843567e-003
7723515 1.001260e+000 -4.182497e-003 5.368749e-006 2.556217e-006 7.261105e-005 4.574829e-005 9.988704e-001 -8.117749e-003
7798500 1.000274e+000 -3.814437e-003 2.593232e-005 -7.983726e-005 -5.368184e-005 8.199417e-005 9.991736e-001 -9.846614e-003
7873485 1.000574e+000 -3.891540e-003 2.956302e-005 -3.123672e-005 2.331792e-004 -7.506768e-005 9.995688e-001 -7.963140e-003
7948470 1.000615e+000 -4.149790e-003 -4.872897e-005 7.392731e-005 -6.410346e-005 7.385371e-005 1.000371e+000 -7.329699e-003
8023455 1.000195e+000 -4.243326e-003 -7.966343e-005 8.847976e-005 -1.054128e-004 -1.752227e-004 9.995196e-001 -8.444109e-003
8098440 1.000828e+000 -3.641360e-003 1.122649e-005 1.116412e-004 -4.450407e-006 1.142028e-004 9.999104e-001 -7.963969e-003
8173425 1.000542e+000 -4.287268e-003 -1.136448e-005 -5.823804e-005 -3.040976e-005 2.264539e-005 1.000544e+000 -7.487788e-003
8248410 1.000804e+000 -4.388749e-003 -3.370514e-005 2.943118e-005 -1.400228e-004 -3.171803e-004 1.000700e+000 -7.032504e-003
8323395 1.000208e+000 -4.824815e-003 4.283809e-005 -8.688879e-006 6.899390e-005 1.331114e-004 9.998312e-001 -6.157061e-003
8398380 1.000645e+000 -4.528106e-003 2.889518e-006 -8.881505e-006 -1.600839e-004 -6.202064e-005 9.999236e-001 -8.609512e-003
8473365 1.000607e+000 -4.303147e-003 -2.611250e-005 -4.236734e-005 5.554728e-005 1.745469e-004 1.000459e+000 -7.221159e-003
8548350 1.000202e+000 -4.229321e-003 -7.188433e-005 3.778738e-005 1.055394e-004 -3.097485e-004 1.000286e+000 -7.254946e-003
8623335 1.000699e+000 -4.566578e-003 6.483954e-005 -7.492528e-005 -3.357728e-007 -1.187384e-004 9.997346e-001 -8.116692e-003
8698320 1.001475e+000 -5.432246e-003 -5.908279e-005 -6.969748e-005 3.930047e-006 -7.854242e-005 9.999489e-001 -8.015594e-003
8773305 1.000786e+000 -4.461875e-003 -8.200975e-005 -1.004935e-004 3.237215e-005 -6.504654e-005 1.000379e+000 -8.166447e-003
8848290 1.000436e+000 -4.635855e-003 4.670869e-006 -9.345660e-005 -4.335213e-005 9.525042e-005 1.002156e+000 -8.581487e-003
8923275 1.000122e+000 -4.407731e-003 -4.896035e-005 3.791078e-005 4.968782e-005 -2.533569e-004 1.000348e+000 -8.823467e-003
8998260 1.000850e+000 -5.133436e-003 9.986682e-005 1.541568e-005 5.206010e-005 2.547649e-005 1.000706e+000 -8.560638e-003
9073245 1.000832e+000 -4.562028e-003 6.254007e-005 -1.300839e-005 2.540224e-005 2.746922e-005 9.998006e-001 -1.005214e-002
9148230 1.000848e+000 -4.399602e-003 5.614708e-006 8.130294e-005 8.109857e-005 -1.811830e-004 1.002040e+000 -1.011041e-002
9223215 1.000653e+000 -5.494706e-003 -3.886111e-006 6.782656e-005 -2.916797e-004 2.160820e-004 9.989200e-001 -8.588023e-003
9298200 1.000565e+000 -6.078796e-003 -3.980419e-005 8.851888e-005 6.170505e-006 -2.269876e-005 1.000683e+000 -9.035407e-003
9373185 1.000598e+000 -5.648609e-003 -9.328635e-005 1.308998e-005 5.909540e-005 1.412301e-005 1.001767e+000 -9.256260e-003
9448170 1.001236e+000 -5.990651e-003 -3.093383e-005 -3.674788e-005 -3.094507e-005 3.278922e-004 1.000580e+000 -1.027063e-002
9523155 1.000391e+000 -5.675476e-003 7.406252e-005 -1.191205e-004 -9.905905e-005 1.651408e-004 1.000589e+000 -9.810671e-003
9598140 1.000671e+000 -6.248871e-003 -1.223186e-005 -3.002995e-005 4.217097e-005 -8.850440e-005 1.001159e+000 -1.067700e-002
9673125 1.000606e+000 -5.649297e-003 -8.851503e-005 -5.001909e-005 -1.799853e-004 -2.980612e-005 1.000247e+000 -1.002877e-002
9748110 1.000791e+000 -5.843042e-003 -3.232132e-005 8.539084e-005 -4.389195e-005 2.658839e-005 1.000305e+000 -9.652747e-003
9823095 1.000860e+000 -5.749321e-003 -1.637422e-005 -7.869729e-005 1.058650e-004 -1.685242e-004 1.001067e+000 -1.068914e-002
9898080 1.000092e+000 -5.890246e-003 1.280170e-006 -2.278874e-005 -1.342562e-004 -2.322947e-004 1.001267e+000 -1.345130e-002
9973065 1.000625e+000 -5.947710e-003 1.053680e-005 -2.162905e-005 1.665700e-004 -1.307286e-005 1.000815e+000 -1.060802e-002
10048050 1.000713e+000 -7.090171e-003 4.310281e-005 -7.185897e-005 1.115729e-004 8.297936e-005 1.001061e+000 -1.182487e-002
10123035 1.000146e+000 -6.888341e-003 2.750109e-005 9.685651e-005 -8.932152e-005 -5.969172e-004 1.002347e+000 -1.347745e-002
10198020 1.001042e+000 -6.852353e-003 -9.907009e-005 3.658103e-005 2.912301e-004 -9.010053e-005 1.003628e+000 -1.167985e-002
10273005 9.997119e-001 -7.153092e-003 8.486753e-005 1.313608e-005 -8.386563e-005 -1.241487e-005 1.002062e+000 -1.409630e-002
10347990 9.999135e-001 -7.824905e-003 3.511440e-006 -3.573993e-005 1.291106e-004 1.296091e-004 1.000750e+000 -1.274111e-002
10422975 1.000552e+000 -6.879525e-003 2.624549e-005 -4.754663e-005 4.285261e-005 5.258183e-005 1.001043e+000 -1.341497e-002
10497960 1.000501e+000 -7.640136e-003 -1.068496e-004 -1.020278e-004 -9.154883e-005 2.456205e-005 1.001884e+000 -1.436869e-002
10572945 1.000568e+000 -7.506849e-003 -4.693932e-005 -3.043923e-005 -1.958921e-004 6.715295e-005 1.001227e+000 -1.580205e-002
10647930 1.000222e+000 -7.764296e-003 -1.496400e-005 -6.066619e-006 -2.671592e-004 -1.190979e-004 1.001945e+000 -1.305084e-002
10722915 1.000909e+000 -7.190166e-003 5.021213e-005 -3.287917e-005 -5.274387e-005 1.023764e-005 1.001070e+000 -1.578406e-002
10797900 1.000551e+000 -7.161781e-003 4.751913e-005 -8.140419e-005 -5.103970e-005 -2.468290e-004 1.002388e+000 -1.481985e-002
10872885 9.996731e-001 -7.688952e-003 2.566232e-005 3.040951e-006 -2.736841e-005 -4.981530e-006 9.996004e-001 -1.556688e-002
10947870 9.994091e-001 -8.027740e-003 -2.055072e-006 7.641109e-005 -1.917374e-004 -2.343779e-004 1.001001e+000 -1.678064e-002
11022855 9.997799e-001 -7.201715e-003 3.902208e-005 3.096833e-006 1.648337e-004 -1.416593e-004 1.001966e+000 -1.407598e-002
11097840 1.000111e+000 -7.522020e-003 3.447675e-005 3.878486e-005 -1.376778e-004 -9.330872e-005 1.001770e+000 -1.589841e-002
11172825 1.000130e+000 -8.248364e-003 8.654667e-006 -4.011799e-005 1.238559e-005 -2.090782e-004 1.001877e+000 -1.582055e-002
11247810 1.000130e+000 -7.750724e-003 -2.557298e-005 -2.734666e-006 1.028645e-004 -5.195653e-005 1.000902e+000 -1.650461e-002
11322795 9.989821e-001 -7.161969e-003 3.764023e-005 8.102111e-005 -4.461807e-005 -7.404261e-005 1.000389e+000 -1.646018e-002
11397780 1.000019e+000 -8.156576e-003 2.587657e-005 4.477305e-005 -1.205418e-004 -2.190547e-005 1.000297e+000 -1.638960e-002
11472765 9.997013e-001 -7.522153e-003 1.412928e-004 7.649847e-005 1.485459e-004 -1.284412e-004 9.999757e-001 -1.487161e-002
11547750 9.995407e-001 -8.267445e-003 -2.969897e-005 8.147587e-005 -2.484487e-004 7.413096e-005 1.001473e+000 -1.618187e-002
11622735 1.000864e+000 -7.530886e-003 1.513210e-005 -2.557789e-006 -2.353841e-004 -1.731386e-004 1.001354e+000 -1.620335e-002
11697720 1.000172e+000 -7.543442e-003 -7.875552e-006 9.716112e-005 -7.745497e-005 -1.646918e-005 1.000743e+000 -1.653825e-002
11772705 1.000092e+000 -8.176289e-003 -5.243782e-005 9.914544e-006 -1.682435e-004 1.410202e-004 1.002365e+000 -1.611918e-002
11847690 9.995037e-001 -8.318037e-003 5.725735e-005 -5.341256e-005 -5.103087e-005 6.919647e-005 1.002254e+000 -1.562766e-002
11922675 1.000705e+000 -7.746047e-003 4.144197e-005 1.454348e-004 -5.161190e-005 2.358126e-005 1.001377e+000 -1.549380e-002
11997660 1.000072e+000 -8.170726e-003 -1.384627e-005 2.594182e-005 -2.769290e-004 1.090369e-004 1.000590e+000 -1.375262e-002
