!Agilent Technologies,N5230C,SG49000117,A.08.50.07
!Agilent N5230C: A.08.50.07
!Date: Thursday, December 07, 2023 05:41:48
!Correction: S11(Full 2 Port(1,2)) 
!S21(Full 2 Port(1,2)) 
!S12(Full 2 Port(1,2)) 
!S22(Full 2 Port(1,2)) 
!S2P File: Measurements: S11, S21, S12, S22:
# Hz S  RI   R 50
300000 1.017867e+000 -1.044060e-002 -2.256588e-004 -8.116217e-005 1.352106e-005 4.094172e-004 1.028586e+000 -2.195266e-002
374985 9.968430e-001 -3.566137e-003 1.213324e-005 -6.865522e-005 2.084993e-004 4.860450e-005 9.823260e-001 -1.882092e-002
449970 9.884230e-001 -2.338057e-004 8.728705e-006 1.513189e-004 8.812228e-005 -1.069654e-004 9.546352e-001 -1.273832e-002
524955 9.781156e-001 6.704340e-003 -6.418501e-005 -7.359903e-005 -2.389691e-004 -2.257442e-004 9.297002e-001 -1.186706e-003
599940 9.810646e-001 5.343981e-003 -1.238951e-005 6.274680e-005 2.402632e-005 7.701115e-005 9.425576e-001 3.818521e-003
674925 9.780844e-001 4.072129e-003 -9.175875e-005 -6.724862e-006 1.650008e-004 2.643722e-004 9.360664e-001 -1.281615e-002
749910 9.787455e-001 4.928458e-003 -6.138557e-005 -8.068186e-005 2.882410e-005 6.600150e-005 9.329174e-001 -8.515058e-003
824895 9.839056e-001 3.497562e-003 -6.566910e-005 -2.859660e-005 1.042762e-004 -3.513870e-005 9.371194e-001 -1.000515e-002
899880 9.868270e-001 4.070101e-004 -6.305031e-005 -1.164449e-005 -3.743300e-005 6.398733e-005 9.431782e-001 -1.164374e-002
974865 9.893269e-001 1.628607e-004 7.482909e-005 2.969416e-005 1.149913e-004 5.334821e-005 9.502896e-001 -1.002135e-002
1049850 9.954936e-001 -2.733679e-003 -1.045139e-004 -2.249813e-005 -2.231357e-005 -8.745315e-005 9.574957e-001 -1.172471e-002
1124835 9.980147e-001 -5.732359e-003 -4.288691e-005 7.906118e-005 4.056335e-005 -6.751406e-005 9.685764e-001 -1.055812e-002
1199820 1.003157e+000 -9.486687e-003 -4.802626e-005 5.191278e-005 -5.687025e-005 1.791781e-004 9.761447e-001 -9.270194e-003
1274805 1.007814e+000 -1.305653e-002 1.204189e-004 5.543087e-006 7.781278e-005 -3.089134e-004 9.894882e-001 -8.852009e-003
1349790 1.000464e+000 -6.495025e-003 -2.907947e-005 3.061899e-005 -3.407488e-004 2.844870e-004 1.004480e+000 -1.003461e-002
1424775 9.993775e-001 -5.280786e-003 6.500653e-005 1.610721e-004 -5.078002e-006 3.926110e-005 1.003248e+000 -1.323956e-002
1499760 9.982261e-001 -4.340959e-003 -4.043229e-005 1.354865e-004 4.478433e-005 2.036540e-004 1.004767e+000 -7.859481e-003
1574745 9.982315e-001 -3.620225e-003 -3.340114e-006 -5.943934e-005 1.788671e-004 8.033120e-005 9.999934e-001 -1.057542e-002
1649730 9.974810e-001 -4.398605e-003 1.215668e-005 1.013947e-004 1.116596e-004 8.217485e-005 1.000514e+000 -1.091179e-002
1724715 9.974909e-001 -3.902728e-003 7.218534e-005 3.502064e-005 4.256366e-005 -1.378978e-004 1.003589e+000 -1.081899e-002
1799700 9.965000e-001 -4.890453e-003 -4.628873e-005 2.559236e-006 2.377599e-004 1.125615e-004 1.003099e+000 -1.056352e-002
1874685 9.960225e-001 -3.190868e-003 1.161007e-004 1.077261e-004 -3.282251e-004 2.391697e-004 1.001619e+000 -1.053579e-002
1949670 9.956491e-001 -2.001065e-003 -3.302293e-005 -3.112305e-005 1.170777e-004 1.643864e-004 1.000135e+000 -5.519814e-003
2024655 9.948868e-001 -1.698245e-003 -2.783474e-005 -2.575564e-005 4.163637e-004 -1.794938e-004 9.997218e-001 -4.808828e-003
2099640 9.944827e-001 -2.021042e-003 -8.674049e-005 -3.454883e-005 -3.300293e-004 -4.716363e-005 1.001347e+000 -5.177296e-003
2174625 9.941615e-001 -2.749154e-003 -2.429427e-005 3.655889e-005 3.425196e-004 -7.421800e-005 1.000370e+000 -6.370313e-003
2249610 9.957761e-001 -3.643913e-003 -2.274701e-006 -1.065631e-006 -1.552293e-005 -1.990794e-004 1.000128e+000 -7.043134e-003
2324595 1.001276e+000 -4.243766e-003 -3.241417e-005 -1.691785e-005 1.492444e-004 1.033373e-005 1.001824e+000 -4.790477e-003
2399580 1.000471e+000 -4.207270e-003 1.660828e-005 6.611527e-005 -9.909469e-005 -5.234272e-006 1.004503e+000 -6.259233e-003
2474565 9.994490e-001 -1.033936e-003 -1.869650e-004 -1.246432e-004 -3.785058e-005 -1.707678e-004 1.000032e+000 -6.639621e-003
2549550 1.000753e+000 -2.027540e-003 3.042841e-005 -7.038064e-005 -4.831689e-005 -5.435372e-005 9.985613e-001 -5.935529e-003
2624535 1.001350e+000 -3.311203e-003 -1.158156e-004 5.654508e-005 7.587890e-005 1.579784e-004 9.996014e-001 -5.888015e-003
2699520 1.000037e+000 -4.181533e-003 -5.150743e-005 -8.263955e-005 -2.827243e-005 -1.396944e-004 9.955911e-001 -5.218927e-003
2774505 9.996040e-001 -2.197480e-003 5.471545e-005 -1.292723e-005 1.707090e-004 5.693644e-006 9.991665e-001 -1.008543e-002
2849490 1.000810e+000 -2.913638e-003 -4.101455e-006 5.400985e-006 -4.966747e-005 -1.680075e-004 9.969700e-001 -4.880698e-003
2924475 1.000651e+000 -3.301973e-003 -3.393441e-005 3.047002e-005 -7.543331e-005 -9.080444e-005 1.001897e+000 -6.707107e-003
2999460 1.001065e+000 -2.589157e-003 2.472161e-005 1.045139e-005 8.760087e-005 -5.358747e-005 1.000256e+000 -5.342302e-003
3074445 1.001305e+000 -2.899354e-003 -5.214736e-005 6.310139e-005 -9.506738e-005 -1.147387e-004 9.990804e-001 -4.866087e-003
3149430 1.000754e+000 -3.123372e-003 7.154108e-005 -9.672288e-005 5.350663e-005 -1.255518e-004 1.000013e+000 -4.354583e-003
3224415 1.000997e+000 -2.558515e-003 -4.053712e-006 -9.865285e-006 5.874909e-005 -1.888234e-004 9.988880e-001 -6.245442e-003
3299400 1.000499e+000 -2.979415e-003 3.855719e-005 -1.339100e-005 1.244076e-004 2.109401e-004 1.000769e+000 -6.266742e-003
3374385 1.000751e+000 -3.247490e-003 4.335524e-005 1.338736e-005 -7.652691e-005 -1.624319e-004 9.997655e-001 -5.105478e-003
3449370 1.000749e+000 -2.002505e-003 2.379237e-005 5.625155e-005 2.283679e-004 -1.663420e-004 9.976733e-001 -6.283130e-003
3524355 1.001211e+000 -1.494742e-003 -1.595059e-005 1.017970e-004 -1.637115e-004 -8.955883e-005 9.988963e-001 -4.298383e-003
3599340 1.000896e+000 -2.070874e-003 2.574990e-005 1.756451e-004 -6.687384e-006 1.249547e-004 9.989362e-001 -5.978950e-003
3674325 1.000213e+000 -1.982546e-003 3.044562e-005 -1.015322e-004 -1.338748e-004 6.999067e-005 9.992775e-001 -6.760726e-003
3749310 1.001155e+000 -1.876990e-003 5.110304e-005 -1.070705e-004 2.524892e-005 8.687655e-005 9.990088e-001 -5.369463e-003
3824295 1.000390e+000 -2.660269e-003 3.089471e-005 1.460316e-004 -4.928938e-005 -1.973628e-004 9.994921e-001 -6.607970e-003
3899280 1.000908e+000 -3.208288e-003 -7.876289e-006 8.100462e-005 -2.220258e-004 2.997200e-004 1.000451e+000 -6.847912e-003
3974265 1.001171e+000 -3.319988e-003 3.916039e-005 5.550501e-005 -2.578344e-005 -3.170167e-005 9.994467e-001 -6.800364e-003
4049250 1.001141e+000 -3.619891e-003 3.019039e-005 -1.490631e-007 1.949739e-006 5.563460e-005 9.990424e-001 -7.254053e-003
4124235 1.001617e+000 -3.665151e-003 7.555474e-005 -7.647721e-005 3.944755e-005 4.779067e-005 9.999884e-001 -6.207362e-003
4199220 1.001408e+000 -3.267469e-003 -6.551342e-005 -7.940342e-005 -1.970944e-004 9.097080e-005 9.995108e-001 -7.124071e-003
4274205 9.996722e-001 -2.995298e-003 1.510594e-005 -1.820123e-005 -3.386797e-005 -5.473341e-005 9.978763e-001 -6.216775e-003
4349190 1.000842e+000 -3.434371e-003 -5.972667e-006 -2.711389e-005 1.034011e-004 -3.646804e-005 1.000567e+000 -4.953046e-003
4424175 1.001377e+000 -3.219872e-003 1.226891e-005 -7.955431e-006 2.168847e-004 -3.066329e-005 9.983505e-001 -5.975659e-003
4499160 1.000661e+000 -2.937112e-003 -8.104111e-005 6.994032e-005 -1.896623e-004 5.532373e-005 9.996652e-001 -5.596070e-003
4574145 1.001016e+000 -2.830968e-003 9.012094e-005 4.417977e-005 5.825437e-005 1.934760e-005 9.997811e-001 -3.312350e-003
4649130 1.001177e+000 -3.070420e-003 6.255589e-005 -9.968301e-005 1.813375e-004 -1.328069e-004 9.995043e-001 -4.785512e-003
4724115 1.001036e+000 -3.172106e-003 4.801249e-005 4.627335e-005 -9.843279e-005 7.459307e-005 9.993743e-001 -5.067143e-003
4799100 1.000301e+000 -2.872204e-003 -1.283177e-005 4.439856e-006 -5.905994e-005 1.535337e-004 9.989438e-001 -4.570551e-003
4874085 1.001440e+000 -3.196807e-003 -1.192895e-005 6.664549e-005 1.457378e-004 1.989233e-004 1.000066e+000 -4.984796e-003
4949070 1.001258e+000 -3.441109e-003 1.883699e-005 -2.351385e-005 -2.687872e-004 1.753153e-004 9.991513e-001 -5.322412e-003
5024055 1.001047e+000 -3.745996e-003 3.409550e-005 4.886995e-005 2.302214e-004 2.678853e-005 9.989809e-001 -4.097334e-003
5099040 1.001862e+000 -3.003022e-003 -5.915496e-005 -7.030250e-005 -3.395221e-004 4.309897e-005 9.989336e-001 -5.269681e-003
5174025 1.001157e+000 -3.153709e-003 4.135040e-005 -7.456417e-005 5.629263e-005 1.141711e-005 9.999658e-001 -5.124048e-003
5249010 1.001758e+000 -3.508046e-003 1.106170e-004 -2.988391e-005 3.307091e-004 -1.869459e-005 1.001221e+000 -4.146856e-003
5323995 1.000894e+000 -3.139226e-003 3.971074e-005 -3.533300e-005 2.887449e-004 7.344811e-005 9.987116e-001 -5.818528e-003
5398980 1.001045e+000 -3.095982e-003 3.317075e-005 -4.690359e-005 -7.488207e-005 2.308236e-004 1.000003e+000 -4.180737e-003
5473965 1.001376e+000 -2.805267e-003 -3.415495e-005 -8.682285e-006 -1.716041e-005 -1.469676e-004 9.988901e-001 -3.298755e-003
5548950 1.000425e+000 -3.246953e-003 -4.939112e-006 -6.201206e-005 1.195147e-004 1.751559e-004 9.982229e-001 -4.888228e-003
5623935 1.000653e+000 -2.758646e-003 1.245194e-005 9.817568e-007 -2.252456e-004 1.278599e-005 1.001089e+000 -5.032706e-003
5698920 1.000942e+000 -2.755834e-003 7.550737e-005 -5.144341e-005 -1.358128e-004 -1.716206e-004 1.000026e+000 -5.960962e-003
5773905 1.000850e+000 -3.772181e-003 -9.163789e-006 6.308309e-005 1.062689e-005 -2.413202e-004 1.001072e+000 -7.234954e-003
5848890 1.001631e+000 -3.504780e-003 -6.496949e-006 5.956101e-005 -1.957085e-004 2.566239e-004 9.998602e-001 -6.372343e-003
5923875 1.000943e+000 -3.738319e-003 3.989540e-005 5.436999e-005 1.127737e-004 -6.320802e-005 1.001261e+000 -6.839976e-003
5998860 1.001645e+000 -3.312755e-003 -5.305573e-005 1.029960e-005 1.517959e-004 -1.130306e-004 1.000681e+000 -6.490202e-003
6073845 1.000951e+000 -3.534073e-003 3.085142e-005 2.633416e-005 2.038152e-004 1.099381e-004 1.000110e+000 -6.047263e-003
6148830 1.000632e+000 -3.995690e-003 1.739943e-005 6.832409e-005 -4.629407e-005 -1.827074e-004 1.001232e+000 -6.376122e-003
6223815 1.000873e+000 -3.271361e-003 3.940873e-005 1.108863e-004 -7.776688e-005 6.438973e-005 9.979187e-001 -5.128782e-003
6298800 1.001337e+000 -3.729658e-003 -4.240984e-005 1.433174e-005 -2.616229e-006 1.469880e-004 9.995728e-001 -6.183460e-003
6373785 1.001140e+000 -3.098067e-003 -7.518676e-006 -3.756802e-005 -6.578058e-005 1.817658e-004 9.999245e-001 -5.307592e-003
6448770 1.000911e+000 -3.130520e-003 -7.610919e-005 -2.249088e-005 7.990799e-005 -2.897251e-004 9.995538e-001 -7.955248e-003
6523755 1.000862e+000 -3.162106e-003 3.463157e-005 2.349735e-005 -2.257625e-004 7.268710e-005 9.989052e-001 -6.943496e-003
6598740 1.000568e+000 -3.240170e-003 -1.280817e-006 -6.060621e-005 -1.876997e-004 -4.568123e-005 9.997492e-001 -7.109550e-003
6673725 1.000362e+000 -3.514812e-003 3.505289e-005 -9.424222e-005 -1.826430e-004 1.342543e-004 9.995670e-001 -5.379471e-003
6748710 1.001054e+000 -3.289000e-003 -4.528184e-005 -4.195495e-005 -4.049121e-005 3.870481e-006 1.000255e+000 -8.634004e-003
6823695 1.000677e+000 -3.631426e-003 -1.033920e-004 -7.987766e-005 -4.647502e-005 2.705416e-005 9.995962e-001 -8.823274e-003
6898680 1.000712e+000 -3.240628e-003 2.124650e-005 -1.120350e-005 -1.260511e-004 -4.418519e-005 9.996365e-001 -9.990290e-003
6973665 1.001161e+000 -3.589630e-003 -4.799266e-005 -2.338993e-005 4.841022e-005 1.361148e-004 1.001130e+000 -7.179177e-003
7048650 1.000890e+000 -3.830521e-003 -6.160696e-005 9.922950e-005 -3.919952e-004 -1.619180e-004 1.001832e+000 -7.819594e-003
7123635 1.000821e+000 -3.537935e-003 -3.020277e-005 -2.839948e-005 1.368429e-004 8.550908e-005 1.000492e+000 -8.942279e-003
7198620 1.000490e+000 -4.051874e-003 2.003044e-005 -2.810593e-005 7.193164e-005 1.045850e-004 1.002264e+000 -7.644552e-003
7273605 1.001043e+000 -3.152087e-003 1.339702e-004 -1.607669e-005 -7.701865e-005 2.669714e-004 9.993247e-001 -8.459530e-003
7348590 1.000550e+000 -3.814889e-003 3.609817e-005 -8.506150e-005 -1.268870e-004 1.850746e-004 9.992099e-001 -8.306203e-003
7423575 9.998751e-001 -3.983483e-003 -6.350483e-005 1.471095e-004 -3.068242e-005 7.988576e-006 1.000400e+000 -9.555524e-003
7498560 1.000672e+000 -3.686670e-003 -5.745202e-005 -3.439572e-005 1.471720e-004 -1.414148e-005 9.998413e-001 -8.820583e-003
7573545 1.000585e+000 -4.069854e-003 2.207765e-005 -1.540557e-005 2.255704e-004 2.564891e-004 9.986629e-001 -7.116770e-003
7648530 1.000611e+000 -3.747817e-003 -7.909778e-005 -4.182576e-005 -3.516335e-005 -4.713413e-005 1.000981e+000 -7.403083e-003
7723515 1.000737e+000 -3.322429e-003 -2.934342e-005 7.596822e-005 -3.787765e-005 -4.425250e-005 9.991252e-001 -7.880297e-003
7798500 1.001242e+000 -4.004030e-003 -1.419551e-004 5.826927e-005 -6.765271e-005 2.027941e-004 9.981006e-001 -9.516090e-003
7873485 1.000837e+000 -4.467217e-003 -1.303582e-004 -1.280971e-006 1.623864e-005 -4.868475e-005 9.997813e-001 -7.656306e-003
7948470 1.001075e+000 -3.880585e-003 1.180479e-005 8.790403e-006 6.990001e-006 3.919535e-005 9.990547e-001 -7.353190e-003
8023455 1.001345e+000 -4.269880e-003 -2.544955e-006 3.627326e-005 1.835247e-004 -7.648865e-005 1.000780e+000 -7.856988e-003
8098440 1.001088e+000 -4.501714e-003 6.510349e-005 3.073031e-005 3.091030e-004 -2.525751e-005 9.995592e-001 -7.189251e-003
8173425 1.000658e+000 -4.359852e-003 -3.118283e-005 4.870714e-005 -9.491454e-005 -9.059524e-005 9.993582e-001 -9.057756e-003
8248410 1.000653e+000 -4.523783e-003 -9.897113e-005 -2.872698e-005 6.353666e-005 -1.155912e-004 1.000368e+000 -7.457993e-003
8323395 1.000447e+000 -4.571543e-003 2.517126e-005 2.355911e-005 -5.803154e-005 -1.529988e-005 1.000209e+000 -6.273438e-003
8398380 9.999571e-001 -4.111941e-003 4.218486e-005 2.112991e-005 6.148068e-005 1.945748e-005 9.988303e-001 -8.199236e-003
8473365 1.000856e+000 -4.256604e-003 -3.428567e-005 -1.611700e-005 -6.214542e-005 1.238050e-004 1.000131e+000 -7.098458e-003
8548350 1.000326e+000 -4.941255e-003 6.483363e-006 -2.098026e-005 2.042518e-005 2.588763e-004 1.000263e+000 -7.601966e-003
8623335 9.998087e-001 -4.395336e-003 -6.571472e-005 1.710727e-004 -5.565372e-005 1.260207e-004 1.000308e+000 -8.162989e-003
8698320 1.000129e+000 -4.648992e-003 -2.257928e-005 -8.075672e-005 -5.724311e-005 2.049422e-005 1.000395e+000 -8.426257e-003
8773305 9.998217e-001 -4.897254e-003 8.581911e-005 9.356234e-006 2.151539e-004 -3.160874e-005 9.992537e-001 -8.136525e-003
8848290 1.001179e+000 -5.046965e-003 -1.137766e-004 3.682708e-005 -5.791743e-005 -1.804860e-004 1.000912e+000 -8.236499e-003
8923275 1.000501e+000 -4.764130e-003 7.644478e-006 7.071780e-005 -1.462733e-005 3.362026e-005 1.000897e+000 -1.050994e-002
8998260 1.000858e+000 -5.097672e-003 9.132089e-005 -4.688176e-005 -5.030758e-005 -7.329429e-005 1.000315e+000 -8.202831e-003
9073245 1.000116e+000 -4.726796e-003 7.119416e-005 -8.006509e-005 2.665610e-005 -3.019451e-004 1.001272e+000 -8.858257e-003
9148230 1.000438e+000 -4.870293e-003 -4.862952e-005 -3.810450e-006 1.077174e-005 1.408207e-004 1.000542e+000 -9.189156e-003
9223215 1.000927e+000 -5.364935e-003 -5.915968e-005 -1.029414e-004 -3.489080e-004 -1.129022e-004 1.000923e+000 -9.814929e-003
9298200 1.000402e+000 -5.380434e-003 1.797888e-005 -2.518412e-005 -1.752791e-004 1.639167e-006 9.995688e-001 -8.682035e-003
9373185 1.000348e+000 -5.487964e-003 -8.070212e-005 -1.047715e-004 -3.182719e-004 -9.535583e-005 9.993401e-001 -9.491646e-003
9448170 1.001019e+000 -6.434080e-003 -6.132595e-005 1.197780e-004 -1.317120e-004 -7.057750e-005 9.997334e-001 -1.022075e-002
9523155 1.000678e+000 -5.570289e-003 -3.450663e-005 -1.734023e-005 -1.210225e-004 -3.778885e-004 9.992251e-001 -9.805026e-003
9598140 1.000118e+000 -5.377295e-003 2.132139e-006 -2.802921e-005 1.251011e-004 -1.123567e-004 1.000646e+000 -1.106363e-002
9673125 1.000362e+000 -5.778939e-003 5.297325e-005 -1.766607e-005 5.848592e-005 5.400929e-005 1.000450e+000 -1.085219e-002
9748110 1.000341e+000 -5.806048e-003 1.357380e-005 3.899070e-005 2.344577e-004 5.253350e-005 1.001324e+000 -1.123054e-002
9823095 1.000440e+000 -6.814255e-003 1.135636e-004 5.178552e-005 -1.659848e-004 -1.823050e-004 1.001021e+000 -1.037417e-002
9898080 1.000341e+000 -6.238674e-003 -2.911390e-005 -2.785575e-005 2.567226e-004 -9.863440e-005 1.001346e+000 -1.168195e-002
9973065 1.000806e+000 -6.807244e-003 3.723899e-005 -6.702129e-005 1.121418e-004 2.923436e-005 1.000237e+000 -1.245105e-002
10048050 1.000697e+000 -6.708031e-003 1.218662e-004 8.495531e-005 -1.586592e-004 -9.127453e-005 1.003234e+000 -1.336075e-002
10123035 1.001490e+000 -6.789463e-003 4.896695e-005 -1.715951e-005 9.535995e-005 8.933793e-006 1.001914e+000 -1.306873e-002
10198020 1.000092e+000 -6.607448e-003 -7.592714e-005 -3.357144e-005 -8.374773e-005 1.716588e-005 1.001339e+000 -1.262292e-002
10273005 1.000364e+000 -7.978180e-003 -1.122673e-005 -6.226210e-005 -5.504077e-005 -3.076344e-005 1.001885e+000 -1.319296e-002
10347990 1.000560e+000 -7.662283e-003 -4.683320e-005 3.765374e-005 -2.261872e-004 -1.295574e-004 1.001622e+000 -1.451448e-002
10422975 1.000989e+000 -7.408011e-003 1.189889e-004 -5.576437e-005 -1.535491e-004 4.644556e-005 1.000750e+000 -1.344589e-002
10497960 1.000788e+000 -7.683055e-003 -1.120143e-005 6.170854e-006 -1.698990e-004 -1.331121e-004 1.001166e+000 -1.569747e-002
10572945 9.998071e-001 -7.140627e-003 2.034361e-005 4.773963e-005 -1.096254e-004 2.578099e-004 1.001578e+000 -1.461639e-002
10647930 1.000280e+000 -6.946055e-003 -8.533868e-005 -4.019811e-005 1.118179e-004 -3.334914e-005 1.001105e+000 -1.417002e-002
10722915 9.990472e-001 -7.490591e-003 1.263214e-005 7.115300e-005 -1.639207e-005 3.767499e-005 1.002491e+000 -1.438791e-002
10797900 9.998355e-001 -7.262584e-003 -1.088402e-004 -1.864061e-005 1.472600e-005 -5.555249e-006 1.000814e+000 -1.542233e-002
10872885 1.000465e+000 -7.334291e-003 -2.360259e-005 1.178242e-005 -1.413021e-004 -6.980365e-005 1.001275e+000 -1.588182e-002
10947870 1.000344e+000 -7.355976e-003 -2.034199e-005 1.402466e-005 1.968178e-004 2.228084e-005 1.002014e+000 -1.556116e-002
11022855 9.993318e-001 -7.799277e-003 2.048715e-005 1.763750e-005 1.129293e-004 -2.629299e-004 1.002200e+000 -1.619728e-002
11097840 9.995912e-001 -7.262275e-003 1.729418e-005 -1.618180e-005 9.358243e-005 -8.820135e-005 1.001687e+000 -1.572456e-002
11172825 9.997725e-001 -7.198798e-003 3.098713e-005 1.320424e-005 9.079024e-005 2.589804e-005 1.003205e+000 -1.634847e-002
11247810 1.000404e+000 -7.631292e-003 -3.849173e-005 4.712143e-005 -5.918997e-005 -6.690493e-005 1.001587e+000 -1.593685e-002
11322795 1.000570e+000 -7.747711e-003 1.060022e-004 7.008872e-005 1.787651e-004 -2.545692e-005 1.002052e+000 -1.632815e-002
11397780 9.998024e-001 -8.051814e-003 4.595399e-005 -6.058995e-005 -2.191341e-005 -6.300706e-006 1.001041e+000 -1.500729e-002
11472765 1.000484e+000 -7.986127e-003 7.124674e-005 -9.831672e-005 -2.164785e-004 7.823369e-005 1.000488e+000 -1.590323e-002
11547750 1.000425e+000 -7.492332e-003 -9.519527e-005 -1.729572e-004 1.656518e-004 -3.131450e-005 1.001370e+000 -1.625667e-002
11622735 1.000139e+000 -7.641454e-003 -8.929420e-005 -7.273412e-005 -3.252809e-004 3.362658e-004 1.001306e+000 -1.701183e-002
11697720 1.000382e+000 -7.444741e-003 7.493504e-005 -1.205981e-005 -3.063172e-006 -1.127699e-004 1.001136e+000 -1.530131e-002
11772705 9.995305e-001 -7.975251e-003 1.151132e-005 -6.428170e-006 -9.644606e-005 -7.827022e-005 1.002040e+000 -1.572954e-002
11847690 9.997403e-001 -7.810074e-003 -1.252240e-004 5.522384e-005 -9.673020e-005 -1.208964e-004 1.001885e+000 -1.416925e-002
11922675 9.991256e-001 -8.533004e-003 -5.498490e-005 1.026466e-005 -5.206788e-005 1.043347e-004 1.001705e+000 -1.610811e-002
11997660 1.000477e+000 -7.633368e-003 4.839152e-005 -5.010945e-005 -1.395771e-004 -1.186904e-004 1.003158e+000 -1.553065e-002
