!Agilent Technologies,N5230C,SG49000117,A.08.50.07
!Agilent N5230C: A.08.50.07
!Date: Thursday, December 07, 2023 05:49:26
!Correction: S11(Full 2 Port(1,2)) 
!S21(Full 2 Port(1,2)) 
!S12(Full 2 Port(1,2)) 
!S22(Full 2 Port(1,2)) 
!S2P File: Measurements: S11, S21, S12, S22:
# Hz S  RI   R 50
300000 1.017481e+000 -7.740631e-003 2.590029e-004 -2.102470e-004 -7.160247e-004 -1.303410e-004 1.035179e+000 -2.535847e-002
374985 1.000143e+000 -5.703288e-003 1.243676e-004 -4.318461e-005 2.506964e-004 -6.126840e-006 9.824029e-001 -1.670745e-002
449970 9.899060e-001 -1.169964e-004 1.148833e-004 9.324891e-005 2.497906e-004 -1.029233e-004 9.552646e-001 -1.288397e-002
524955 9.781528e-001 5.138075e-003 1.455634e-004 -2.501652e-005 -2.517408e-004 1.085273e-004 9.307476e-001 -2.801317e-003
599940 9.806548e-001 5.442742e-003 -4.342625e-005 -8.940823e-005 -2.328309e-004 -1.797224e-004 9.431962e-001 3.793724e-003
674925 9.773245e-001 4.392960e-003 9.321518e-005 -6.529278e-005 1.814643e-006 7.503944e-005 9.390018e-001 -1.655720e-002
749910 9.792295e-001 4.793083e-003 -5.331181e-005 7.226699e-005 -6.529156e-005 -4.737632e-005 9.323601e-001 -9.376109e-003
824895 9.835364e-001 3.608223e-003 -1.508456e-006 2.077318e-006 1.122795e-004 -2.032493e-005 9.372023e-001 -9.029061e-003
899880 9.876615e-001 1.890994e-003 -1.570266e-005 3.134436e-005 -2.149992e-005 1.608369e-004 9.437938e-001 -1.206590e-002
974865 9.899857e-001 5.166347e-004 8.839065e-005 -3.900969e-005 -4.350520e-005 2.289105e-004 9.511064e-001 -5.278060e-003
1049850 9.933150e-001 -2.846283e-003 5.279693e-005 -3.425238e-005 3.351506e-004 -1.684345e-004 9.587002e-001 -1.244230e-002
1124835 9.978978e-001 -5.269088e-003 -5.721431e-005 1.497337e-005 3.740577e-004 -7.848414e-005 9.683410e-001 -1.154348e-002
1199820 1.002403e+000 -9.416097e-003 -5.450300e-005 2.430498e-005 -2.657266e-004 -7.388878e-005 9.777374e-001 -1.073201e-002
1274805 1.007687e+000 -1.302273e-002 1.280440e-005 -3.192560e-005 -7.985593e-005 -7.062189e-005 9.892786e-001 -8.348820e-003
1349790 1.000466e+000 -5.657312e-003 7.843804e-005 5.808294e-006 -2.173372e-004 1.264426e-004 1.003784e+000 -1.127818e-002
1424775 9.993452e-001 -5.954280e-003 -4.829016e-006 7.763588e-005 -1.098271e-004 -2.527977e-004 1.003888e+000 -1.212182e-002
1499760 9.986445e-001 -4.238417e-003 -2.822778e-005 7.183625e-005 1.070326e-004 1.528766e-005 1.005057e+000 -8.112707e-003
1574745 9.981685e-001 -3.764661e-003 -1.036233e-004 -2.548070e-005 -2.611571e-004 2.434574e-004 9.998795e-001 -8.570652e-003
1649730 9.980399e-001 -4.424270e-003 -1.231290e-005 -1.398063e-006 -1.325463e-004 1.329498e-005 1.002034e+000 -1.091295e-002
1724715 9.978460e-001 -4.844124e-003 1.397868e-005 4.948124e-005 1.490485e-005 -5.127627e-005 1.004247e+000 -1.192845e-002
1799700 9.961340e-001 -4.582827e-003 -6.519603e-005 -4.838506e-006 2.081658e-004 -2.135836e-005 1.004852e+000 -1.061555e-002
1874685 9.959388e-001 -3.027334e-003 1.854482e-006 3.804743e-005 -4.289558e-005 1.128769e-004 1.000980e+000 -8.466310e-003
1949670 9.956568e-001 -2.597015e-003 4.961596e-005 7.539275e-006 -9.988975e-005 1.326522e-004 1.002119e+000 -8.209857e-003
2024655 9.944252e-001 -2.752665e-003 -2.332908e-004 -2.856264e-005 2.735939e-004 4.103557e-004 9.971243e-001 -5.140653e-003
2099640 9.949167e-001 -1.865092e-003 4.684537e-005 -1.289733e-004 -1.866269e-004 -1.803352e-004 1.000972e+000 -5.224286e-003
2174625 9.950308e-001 -2.053482e-003 7.272833e-005 -3.024581e-005 7.002055e-005 7.235528e-006 1.001454e+000 -6.932241e-003
2249610 9.946642e-001 -3.501551e-003 -1.320893e-004 -1.721402e-004 -9.627851e-005 -2.241093e-004 1.001486e+000 -7.229915e-003
2324595 1.000991e+000 -3.965412e-003 -2.860263e-005 -1.294165e-004 1.201093e-004 7.340680e-005 1.000433e+000 -5.980169e-003
2399580 1.001035e+000 -4.024266e-003 9.229202e-005 8.994224e-005 -3.399629e-006 -1.150738e-004 1.002892e+000 -4.198953e-003
2474565 9.991913e-001 -1.116987e-003 -6.256786e-005 -7.340574e-007 -8.274004e-005 7.812754e-005 1.000218e+000 -5.677921e-003
2549550 1.000735e+000 -3.116823e-003 -5.159037e-005 -1.098380e-004 4.590724e-005 2.816526e-004 9.989604e-001 -5.378083e-003
2624535 1.000672e+000 -2.698047e-003 -1.198755e-004 -2.919499e-005 1.543423e-004 -4.024893e-004 9.987198e-001 -5.089392e-003
2699520 1.000216e+000 -4.035783e-003 -5.239694e-005 -1.310822e-005 -2.308027e-004 1.038379e-005 9.964024e-001 -4.431218e-003
2774505 9.994276e-001 -2.278725e-003 -5.235306e-005 4.422135e-005 -1.138065e-004 3.077883e-004 1.000134e+000 -8.556617e-003
2849490 1.001050e+000 -1.573400e-003 -3.930029e-005 5.204652e-005 1.076758e-004 -1.073626e-005 9.971886e-001 -4.059947e-003
2924475 1.001506e+000 -2.956009e-003 -4.411260e-005 6.489829e-005 1.776195e-004 -4.527594e-005 1.002248e+000 -5.699504e-003
2999460 1.000881e+000 -2.568245e-003 -1.159656e-004 1.260879e-004 -8.650275e-005 -6.735211e-005 1.000380e+000 -7.280739e-003
3074445 1.000786e+000 -2.921451e-003 1.856342e-005 -6.301011e-005 -2.089537e-004 -1.475464e-005 1.000660e+000 -6.670410e-003
3149430 1.000789e+000 -3.086482e-003 -2.960358e-005 -5.061227e-005 2.065244e-005 -2.428880e-004 1.000487e+000 -4.106470e-003
3224415 1.001202e+000 -2.729273e-003 1.171244e-005 2.568706e-005 -1.626389e-005 -3.171443e-004 9.992299e-001 -5.282558e-003
3299400 1.001068e+000 -2.810742e-003 -1.545366e-004 -9.060667e-006 -4.141693e-005 -1.001816e-004 1.000099e+000 -6.724693e-003
3374385 1.000322e+000 -3.171894e-003 2.885218e-005 -3.019133e-006 -2.160799e-004 -5.620276e-005 9.992037e-001 -5.527142e-003
3449370 9.996334e-001 -2.842634e-003 3.549731e-005 -1.143719e-004 1.522876e-004 2.525207e-004 9.990105e-001 -7.257173e-003
3524355 1.001053e+000 -1.999490e-003 7.527521e-006 -2.035252e-005 3.665560e-004 2.884360e-004 9.998623e-001 -5.056270e-003
3599340 1.000605e+000 -2.769795e-003 -1.331323e-004 -1.756734e-005 -2.797090e-005 1.274875e-004 9.991781e-001 -5.487525e-003
3674325 1.000776e+000 -2.339379e-003 -4.842070e-005 -7.869644e-005 8.621483e-005 5.244279e-005 9.987044e-001 -5.717723e-003
3749310 1.001146e+000 -2.322538e-003 -5.038140e-005 6.964570e-006 -9.894421e-007 -1.108670e-004 9.979178e-001 -6.010965e-003
3824295 1.000738e+000 -3.043096e-003 2.294484e-005 -9.614728e-006 1.668494e-004 3.176203e-004 9.998753e-001 -7.516367e-003
3899280 1.000828e+000 -3.264191e-003 -3.592878e-005 2.729859e-005 1.439473e-004 -1.474022e-005 1.000428e+000 -7.258758e-003
3974265 1.002180e+000 -3.445184e-003 2.380561e-005 -4.787557e-005 4.176020e-004 -7.191447e-005 9.992710e-001 -7.344039e-003
4049250 1.000981e+000 -3.369058e-003 1.038039e-005 -4.873927e-005 -3.880189e-005 2.201242e-005 1.000782e+000 -8.356665e-003
4124235 1.001086e+000 -3.765251e-003 1.521552e-005 -1.047947e-004 1.162081e-004 -9.090502e-005 9.986688e-001 -7.830259e-003
4199220 1.000841e+000 -3.684215e-003 4.672659e-005 -2.154144e-004 1.096396e-004 1.765977e-004 1.000183e+000 -7.220326e-003
4274205 1.000847e+000 -3.148616e-003 -4.502191e-006 1.031547e-005 1.559880e-004 -4.929880e-005 9.986602e-001 -4.584344e-003
4349190 1.001120e+000 -3.220142e-003 -4.179351e-005 2.707349e-005 1.259822e-005 6.097581e-005 9.991970e-001 -5.839908e-003
4424175 1.000227e+000 -2.484611e-003 1.085833e-004 4.701455e-005 -1.781036e-004 5.613464e-005 1.000969e+000 -5.964617e-003
4499160 1.000045e+000 -4.065276e-003 -4.410097e-005 9.746573e-005 1.868180e-004 -6.472620e-005 1.000146e+000 -4.066855e-003
4574145 1.001565e+000 -2.966649e-003 8.601852e-005 1.991986e-005 3.703319e-006 7.651935e-005 9.997343e-001 -3.251075e-003
4649130 1.001085e+000 -3.700865e-003 -8.889278e-005 -8.776729e-005 7.286170e-005 -1.123741e-004 9.992728e-001 -5.352401e-003
4724115 1.000851e+000 -2.980388e-003 -4.555288e-005 -3.123852e-005 3.914430e-005 -9.841903e-005 9.992210e-001 -3.537912e-003
4799100 1.001099e+000 -3.109038e-003 -9.370224e-005 5.686189e-005 -4.166157e-005 2.565497e-004 9.994686e-001 -5.735221e-003
4874085 1.001177e+000 -2.982070e-003 1.599253e-005 -3.786493e-005 -1.484883e-004 -1.497020e-004 9.991741e-001 -5.915098e-003
4949070 1.001457e+000 -3.504408e-003 7.403305e-005 1.566622e-005 2.000191e-004 1.888053e-004 9.996591e-001 -6.033646e-003
5024055 1.000628e+000 -3.119719e-003 -1.045608e-004 2.046240e-005 1.930534e-004 -2.317451e-005 1.000081e+000 -5.041247e-003
5099040 1.001236e+000 -3.319170e-003 -1.093988e-004 5.024579e-005 7.024928e-005 6.386394e-005 1.000483e+000 -4.573073e-003
5174025 1.000484e+000 -2.945075e-003 9.429516e-006 -6.522378e-005 -5.646233e-005 9.270642e-005 9.991156e-001 -4.075699e-003
5249010 1.001843e+000 -3.035006e-003 -5.539407e-005 6.665256e-005 9.176960e-005 -1.053278e-004 1.000174e+000 -3.481708e-003
5323995 1.000667e+000 -2.726912e-003 -2.132095e-005 1.656658e-005 4.700881e-005 3.324165e-004 9.982484e-001 -5.503139e-003
5398980 1.001090e+000 -2.662174e-003 1.003562e-004 7.972667e-005 9.302621e-005 -6.142497e-005 9.993494e-001 -4.688130e-003
5473965 1.000633e+000 -3.097204e-003 9.990470e-005 7.383721e-005 -3.865524e-005 2.195323e-005 1.000123e+000 -4.355921e-003
5548950 1.000696e+000 -3.661652e-003 -4.269407e-006 9.043473e-005 1.457657e-004 3.002723e-004 9.997482e-001 -4.661552e-003
5623935 1.000588e+000 -2.768323e-003 7.794606e-005 -3.043882e-005 -6.910987e-005 -1.142825e-004 9.996571e-001 -3.247975e-003
5698920 1.001008e+000 -3.917735e-003 -8.275793e-005 -7.707423e-005 -2.293104e-004 -4.267018e-004 1.000195e+000 -5.839990e-003
5773905 1.001231e+000 -3.786317e-003 -3.431646e-005 2.384488e-005 -3.399222e-005 1.777745e-004 1.000238e+000 -5.203263e-003
5848890 1.000941e+000 -3.437214e-003 -4.524775e-005 -4.664157e-005 -1.931647e-005 -1.742564e-005 1.001010e+000 -6.439416e-003
5923875 1.000987e+000 -3.258088e-003 -1.156701e-004 -5.555265e-005 1.074180e-004 -5.993115e-005 9.997128e-001 -7.264046e-003
5998860 1.001223e+000 -3.679394e-003 1.606448e-004 -6.588599e-005 6.093428e-005 9.684996e-006 1.000267e+000 -5.870992e-003
6073845 1.001047e+000 -4.032983e-003 2.156234e-005 -9.053469e-005 -2.697293e-005 1.219091e-004 1.001351e+000 -5.717219e-003
6148830 1.000829e+000 -4.065176e-003 3.003174e-005 5.013487e-005 1.720803e-005 1.136338e-004 1.000423e+000 -6.016259e-003
6223815 1.001126e+000 -3.713996e-003 2.641846e-005 2.923370e-005 -1.118829e-004 1.954725e-004 9.993911e-001 -7.345519e-003
6298800 1.000724e+000 -2.812251e-003 -2.429393e-005 -3.444515e-005 1.287004e-004 1.686011e-004 9.992046e-001 -6.799082e-003
6373785 1.001204e+000 -3.862226e-003 1.047547e-004 4.507723e-005 7.023723e-005 -4.631412e-004 1.000835e+000 -6.494265e-003
6448770 1.001335e+000 -3.686150e-003 -8.206980e-005 1.424112e-006 -4.171847e-004 -1.042041e-005 9.994457e-001 -6.182266e-003
6523755 1.001106e+000 -3.241435e-003 -4.760323e-006 2.718392e-005 -3.130596e-004 1.353082e-005 9.995139e-001 -8.149983e-003
6598740 1.001128e+000 -3.220866e-003 -6.737078e-005 -4.978543e-005 3.406551e-004 -1.368944e-004 9.999436e-001 -7.783046e-003
6673725 1.000474e+000 -3.510911e-003 2.227995e-005 -1.470495e-004 2.569043e-004 -1.687595e-005 1.000238e+000 -6.832507e-003
6748710 1.000784e+000 -3.657546e-003 3.481987e-005 1.918961e-005 2.986487e-004 3.839418e-006 9.996195e-001 -6.091896e-003
6823695 1.000472e+000 -3.712739e-003 -6.879667e-005 -1.573344e-004 1.832306e-004 1.597422e-004 9.990908e-001 -6.409043e-003
6898680 1.000939e+000 -3.265546e-003 -1.109253e-004 1.080378e-005 8.438739e-005 5.384258e-005 9.995825e-001 -7.251769e-003
6973665 1.000458e+000 -3.923599e-003 -3.303156e-005 3.027363e-005 -3.410575e-005 -3.684085e-005 1.001497e+000 -7.464118e-003
7048650 1.000716e+000 -3.663173e-003 1.811447e-005 8.465490e-006 1.683458e-004 1.231751e-004 1.001486e+000 -8.612473e-003
7123635 1.001135e+000 -2.786568e-003 -7.171270e-005 -1.143473e-004 1.009547e-004 -1.944154e-004 9.987608e-001 -9.170406e-003
7198620 1.000297e+000 -3.878653e-003 2.369704e-005 7.014914e-005 -2.340127e-004 1.701768e-006 1.000859e+000 -1.040296e-002
7273605 1.000995e+000 -3.196946e-003 6.481047e-005 -9.814831e-005 1.831415e-004 1.506450e-004 1.000554e+000 -7.178181e-003
7348590 9.999543e-001 -3.969387e-003 3.596821e-005 2.933204e-005 -2.724424e-004 -1.899722e-004 1.000686e+000 -8.971467e-003
7423575 1.000412e+000 -3.567052e-003 -6.089393e-005 -6.713723e-005 -2.308969e-004 2.180979e-004 1.000358e+000 -9.031012e-003
7498560 9.999265e-001 -4.132483e-003 -4.360520e-005 -1.324332e-004 -2.470107e-004 1.021936e-004 9.999448e-001 -9.072358e-003
7573545 1.000772e+000 -3.479546e-003 -2.380218e-005 -2.148437e-005 6.282274e-005 -1.954385e-004 1.001119e+000 -6.498654e-003
7648530 9.998402e-001 -3.523544e-003 3.263727e-005 8.982377e-005 2.586330e-005 9.690721e-005 9.992021e-001 -7.980530e-003
7723515 1.001341e+000 -4.296053e-003 -2.905421e-005 4.239718e-005 1.703675e-005 1.338130e-004 1.000533e+000 -8.459456e-003
7798500 1.001636e+000 -3.772674e-003 -1.382106e-004 4.148730e-005 -9.645760e-005 2.893217e-004 9.996102e-001 -8.863622e-003
7873485 1.001010e+000 -3.554680e-003 -5.848171e-006 -1.065218e-005 1.308062e-004 -1.263290e-004 9.993814e-001 -7.642559e-003
7948470 1.000977e+000 -4.070401e-003 -5.807081e-005 -8.392274e-005 1.013469e-004 1.920291e-004 1.000482e+000 -8.893887e-003
8023455 1.000899e+000 -4.230449e-003 -4.455436e-005 -1.970829e-006 1.665240e-004 -3.310703e-005 9.998747e-001 -7.426879e-003
8098440 1.000046e+000 -4.557683e-003 6.866736e-005 -7.779195e-005 9.182402e-005 1.303403e-004 9.996220e-001 -7.223744e-003
8173425 1.000613e+000 -4.025454e-003 4.927272e-005 -8.003547e-005 -5.806697e-005 -8.501701e-005 1.001979e+000 -7.113396e-003
8248410 1.000489e+000 -3.841494e-003 8.050058e-005 8.975962e-007 7.563242e-005 -2.121717e-004 9.995162e-001 -5.405663e-003
8323395 1.000439e+000 -3.978462e-003 1.977010e-006 -1.539622e-005 1.555406e-004 8.804163e-005 1.000916e+000 -6.747701e-003
8398380 1.000042e+000 -4.729650e-003 -3.403725e-005 1.242671e-004 1.908078e-004 1.010466e-004 1.000059e+000 -7.649827e-003
8473365 1.000412e+000 -4.127088e-003 -5.557858e-005 8.206573e-005 1.735282e-004 -3.326311e-005 9.999573e-001 -7.087831e-003
8548350 1.000424e+000 -4.515375e-003 3.973037e-006 -5.590629e-005 -6.403205e-005 2.336279e-004 9.996936e-001 -8.427789e-003
8623335 1.001555e+000 -4.211948e-003 -4.522461e-005 5.653459e-005 2.331081e-004 -1.845803e-004 9.999415e-001 -8.599623e-003
8698320 1.000140e+000 -4.558134e-003 5.792558e-006 5.550135e-005 1.514114e-004 3.453295e-005 9.998727e-001 -7.627816e-003
8773305 1.000453e+000 -4.397395e-003 -1.911305e-005 -5.486837e-005 1.907369e-004 1.561752e-004 1.001687e+000 -8.709675e-003
8848290 1.001006e+000 -5.123090e-003 3.454753e-005 8.012792e-005 2.043052e-004 -9.632123e-005 1.000841e+000 -1.032648e-002
8923275 1.000302e+000 -5.164414e-003 -5.644913e-005 -2.938545e-005 5.490051e-005 1.834729e-004 9.999529e-001 -8.548419e-003
8998260 1.000724e+000 -4.917451e-003 -5.414626e-005 -3.332708e-005 -1.744519e-004 4.505012e-005 9.995556e-001 -8.576595e-003
9073245 9.999543e-001 -5.361487e-003 4.062631e-005 -2.570790e-005 1.078475e-004 -7.007496e-005 9.976199e-001 -1.050942e-002
9148230 1.000584e+000 -5.447926e-003 2.124624e-005 6.200368e-005 -1.538087e-004 6.138824e-005 1.003320e+000 -1.071066e-002
9223215 1.000806e+000 -4.423970e-003 3.679266e-006 4.429646e-005 -1.991854e-005 -8.649131e-005 1.001406e+000 -8.437910e-003
9298200 1.000566e+000 -5.245950e-003 -1.752238e-004 -4.530923e-005 -2.521531e-004 8.669681e-005 1.000704e+000 -8.283838e-003
9373185 1.000379e+000 -5.025772e-003 -3.330341e-005 -1.126616e-004 6.994571e-005 2.977896e-004 1.002874e+000 -8.998333e-003
9448170 1.001157e+000 -5.386879e-003 8.561234e-006 -9.709788e-005 2.027956e-005 1.697011e-004 1.000255e+000 -1.003780e-002
9523155 1.000886e+000 -5.678087e-003 4.093679e-006 -4.913699e-005 6.464244e-005 1.946414e-004 1.001094e+000 -1.078646e-002
9598140 1.000868e+000 -6.090519e-003 7.734535e-006 -3.083348e-005 -1.549514e-005 -1.275936e-005 1.001033e+000 -8.823453e-003
9673125 1.000948e+000 -6.249963e-003 7.671180e-005 2.962225e-005 1.844932e-004 5.063136e-005 1.001253e+000 -1.045628e-002
9748110 1.000680e+000 -5.748158e-003 -2.614457e-005 -1.524796e-005 1.648483e-004 7.242196e-005 1.001001e+000 -1.108107e-002
9823095 1.000322e+000 -5.305746e-003 1.283056e-004 -6.576613e-006 1.145251e-004 1.461599e-005 1.001526e+000 -1.149725e-002
9898080 1.000886e+000 -6.619873e-003 3.214459e-005 2.125735e-005 1.043781e-005 1.959413e-004 1.000882e+000 -1.156838e-002
9973065 1.000766e+000 -6.324055e-003 -2.504743e-005 1.164155e-004 7.211106e-005 -2.147496e-004 1.002729e+000 -1.134056e-002
10048050 1.001413e+000 -6.572517e-003 -7.716139e-005 1.624267e-005 -3.243051e-005 -1.807317e-004 9.987794e-001 -1.263608e-002
10123035 1.000365e+000 -7.098297e-003 -3.079074e-005 4.118889e-005 -1.872230e-004 -2.673962e-006 1.001085e+000 -1.381199e-002
10198020 1.000537e+000 -6.929745e-003 1.503814e-004 1.226021e-004 -1.860335e-004 3.430879e-004 1.002349e+000 -1.179832e-002
10273005 1.000759e+000 -7.348199e-003 -7.245861e-005 1.265551e-004 -7.421152e-005 3.776102e-004 1.001740e+000 -1.229818e-002
10347990 1.000824e+000 -7.571752e-003 6.768652e-005 5.205127e-005 -2.094245e-004 -2.176974e-004 1.002282e+000 -1.392587e-002
10422975 1.000280e+000 -7.065796e-003 3.633265e-005 -3.906687e-005 -4.192668e-005 6.688390e-006 1.000380e+000 -1.445274e-002
10497960 1.000577e+000 -7.468646e-003 -1.080600e-005 -5.052505e-005 1.320952e-004 -2.212851e-004 1.002117e+000 -1.398928e-002
10572945 1.000831e+000 -7.539324e-003 -4.797328e-005 -3.708943e-005 -2.024811e-006 -2.283502e-004 1.001091e+000 -1.385778e-002
10647930 9.997932e-001 -6.754194e-003 1.625371e-005 -2.572602e-005 -8.921146e-005 1.832616e-004 1.001238e+000 -1.553308e-002
10722915 1.000288e+000 -7.364786e-003 2.045607e-005 5.413705e-005 -2.433325e-004 1.062238e-005 1.002844e+000 -1.538502e-002
10797900 9.998289e-001 -7.435375e-003 2.232708e-004 -5.661089e-005 4.333349e-005 8.279133e-005 1.001809e+000 -1.638833e-002
10872885 9.992380e-001 -7.718344e-003 4.284332e-005 1.707217e-005 -2.398302e-004 -1.098446e-005 1.003198e+000 -1.766274e-002
10947870 1.000283e+000 -7.077042e-003 -3.316895e-006 -5.569217e-005 3.429453e-005 1.546937e-004 1.001600e+000 -1.554225e-002
11022855 1.000504e+000 -8.150428e-003 1.990915e-005 -5.118192e-005 -5.970194e-005 2.049864e-004 1.001528e+000 -1.563940e-002
11097840 1.000299e+000 -7.074454e-003 4.474750e-005 1.381916e-005 2.218765e-004 2.562141e-004 1.001488e+000 -1.611165e-002
11172825 9.999497e-001 -7.312773e-003 -6.600374e-005 7.886868e-005 1.902560e-004 1.745608e-004 1.001557e+000 -1.547617e-002
11247810 1.000516e+000 -7.940554e-003 8.609518e-005 7.825655e-005 -3.432340e-004 -2.607434e-004 1.002532e+000 -1.389676e-002
11322795 1.000807e+000 -7.390912e-003 3.315680e-005 -1.169583e-004 1.121273e-005 1.187486e-004 1.001790e+000 -1.610317e-002
11397780 1.000353e+000 -7.151959e-003 -6.619971e-005 -2.644695e-005 -1.124541e-004 -1.269356e-004 1.000490e+000 -1.773384e-002
11472765 9.997696e-001 -7.800387e-003 -1.762992e-005 9.755420e-005 1.490475e-004 -2.460690e-005 1.001057e+000 -1.678829e-002
11547750 1.000564e+000 -8.031089e-003 5.143436e-005 1.100313e-004 5.523594e-005 2.504810e-004 1.000638e+000 -1.727934e-002
11622735 9.998601e-001 -7.699135e-003 1.329490e-004 -1.496983e-005 1.375297e-004 -7.157862e-005 1.001622e+000 -1.547687e-002
11697720 1.000451e+000 -7.941460e-003 -8.021983e-005 -3.698144e-005 6.084761e-005 1.337150e-004 1.002476e+000 -1.648821e-002
11772705 9.998143e-001 -7.709807e-003 -3.186832e-005 7.276572e-005 1.158258e-004 -7.289842e-005 1.002674e+000 -1.500157e-002
11847690 1.000246e+000 -7.168899e-003 -7.108799e-005 -6.019057e-006 2.246484e-005 8.324278e-005 1.001142e+000 -1.631431e-002
11922675 9.994095e-001 -8.209914e-003 -1.015858e-005 -4.898168e-005 1.722808e-004 -1.543868e-004 1.001546e+000 -1.605966e-002
11997660 1.000016e+000 -8.504363e-003 4.175627e-005 6.343218e-005 -1.001877e-005 -1.157006e-005 1.001561e+000 -1.480414e-002
