!Agilent Technologies,N5230C,SG49000117,A.08.50.07
!Agilent N5230C: A.08.50.07
!Date: Thursday, December 07, 2023 05:59:17
!Correction: S11(Full 2 Port(1,2)) 
!S21(Full 2 Port(1,2)) 
!S12(Full 2 Port(1,2)) 
!S22(Full 2 Port(1,2)) 
!S2P File: Measurements: S11, S21, S12, S22:
# Hz S  RI   R 50
300000 1.020957e+000 -8.924538e-003 7.025333e-005 1.523738e-004 -2.980646e-004 4.019061e-005 1.031325e+000 -2.003838e-002
374985 9.979904e-001 -3.662618e-003 9.748875e-006 -1.550007e-004 4.383969e-004 2.268574e-004 9.793885e-001 -1.825785e-002
449970 9.879193e-001 -3.073395e-004 -4.618166e-005 6.931970e-005 3.853781e-004 -8.820150e-005 9.577187e-001 -1.282680e-002
524955 9.780589e-001 6.235345e-003 -5.229024e-006 -6.767958e-006 -5.680951e-005 -6.197174e-005 9.303660e-001 -3.232071e-003
599940 9.805318e-001 4.341962e-003 -6.856531e-005 3.068465e-005 -1.269498e-004 -2.379604e-004 9.440687e-001 2.167799e-003
674925 9.795777e-001 3.199873e-003 -4.871852e-005 -9.061708e-005 4.324529e-005 -1.316785e-004 9.371166e-001 -1.514002e-002
749910 9.783164e-001 4.969647e-003 -1.722237e-005 9.702586e-005 -6.445362e-006 -2.065672e-004 9.312288e-001 -7.632669e-003
824895 9.829448e-001 3.307923e-003 -6.091883e-005 4.703815e-005 -1.336169e-004 -1.871018e-004 9.378250e-001 -1.107930e-002
899880 9.879728e-001 2.187158e-003 -2.916448e-005 -4.392288e-005 4.061853e-005 -1.750961e-004 9.444351e-001 -1.144296e-002
974865 9.884909e-001 -1.839787e-003 5.180303e-005 4.117797e-005 2.566011e-004 -2.376365e-006 9.500514e-001 -8.462427e-003
1049850 9.939245e-001 -1.536416e-003 -4.329308e-005 -1.865466e-005 -2.818009e-005 6.539948e-005 9.568653e-001 -1.203546e-002
1124835 9.976099e-001 -6.179967e-003 1.550086e-006 6.702472e-005 1.232959e-004 -1.381753e-004 9.680334e-001 -1.069241e-002
1199820 1.003078e+000 -9.081551e-003 -4.526567e-005 -5.036058e-005 -4.625953e-005 -8.194741e-006 9.778017e-001 -9.014564e-003
1274805 1.007554e+000 -1.246310e-002 -6.733779e-005 -6.527746e-005 4.302731e-005 -2.213302e-004 9.882511e-001 -9.711546e-003
1349790 1.001333e+000 -5.702154e-003 -7.493572e-006 1.622861e-005 -1.442169e-004 1.915303e-004 1.003389e+000 -1.159758e-002
1424775 9.993908e-001 -5.317735e-003 -2.840205e-005 -2.199170e-005 -7.551412e-005 1.918612e-004 1.003023e+000 -1.002061e-002
1499760 9.990205e-001 -5.062524e-003 -5.829206e-005 9.628551e-005 1.944805e-004 -1.452731e-004 1.003847e+000 -8.844735e-003
1574745 9.985058e-001 -3.079477e-003 -5.847132e-005 -2.304256e-004 -2.222130e-004 2.440862e-004 1.000375e+000 -1.078681e-002
1649730 9.986664e-001 -4.816087e-003 -7.031467e-005 1.475397e-005 -9.257048e-005 4.465887e-006 1.002563e+000 -1.060005e-002
1724715 9.969761e-001 -5.161178e-003 1.762219e-004 -1.934524e-005 -1.389593e-004 1.107399e-004 1.003004e+000 -1.277519e-002
1799700 9.958408e-001 -4.651858e-003 -2.509097e-005 -1.337033e-005 2.876278e-005 5.991610e-006 1.006180e+000 -1.168283e-002
1874685 9.956253e-001 -2.731883e-003 -8.224662e-005 5.233747e-005 -1.132407e-004 2.718921e-004 9.996331e-001 -9.079233e-003
1949670 9.955631e-001 -2.902286e-003 -4.112171e-005 2.837075e-005 -2.879431e-005 -1.658726e-004 1.002073e+000 -5.640951e-003
2024655 9.946702e-001 -1.791937e-003 -2.244259e-005 1.402716e-005 -2.351594e-004 5.677945e-004 1.000359e+000 -8.840652e-003
2099640 9.948958e-001 -1.911240e-003 4.543734e-005 -8.199573e-005 4.783796e-005 -1.994306e-005 9.999589e-001 -4.935171e-003
2174625 9.943368e-001 -2.475672e-003 2.921076e-005 -4.796499e-005 -4.690851e-005 1.133653e-004 9.997414e-001 -6.546328e-003
2249610 9.954991e-001 -3.538471e-003 6.281277e-005 1.448500e-004 -6.261603e-005 8.445968e-005 1.001207e+000 -5.906808e-003
2324595 1.001170e+000 -4.449580e-003 3.120976e-005 -7.497359e-006 -5.971898e-005 5.999977e-005 1.002831e+000 -6.936728e-003
2399580 1.001061e+000 -3.886517e-003 -6.028920e-005 3.712908e-005 -2.404404e-005 -6.278957e-005 1.002499e+000 -6.588442e-003
2474565 9.991211e-001 -9.460669e-004 4.715015e-005 -3.129858e-005 -1.048897e-004 -9.941974e-005 1.001362e+000 -5.036753e-003
2549550 1.000803e+000 -2.778311e-003 -5.457104e-005 -8.732318e-005 -2.841500e-005 1.084807e-004 9.989033e-001 -6.754451e-003
2624535 1.000785e+000 -2.844300e-003 -1.317410e-005 4.070213e-005 -4.768569e-005 -1.586046e-004 1.000174e+000 -5.351999e-003
2699520 1.000358e+000 -3.884016e-003 -1.252612e-005 -3.031569e-005 5.086045e-005 -1.117811e-004 9.967107e-001 -5.310922e-003
2774505 1.000088e+000 -2.248317e-003 -2.351843e-005 1.285041e-006 8.139163e-005 5.260887e-005 1.001110e+000 -1.039979e-002
2849490 1.000672e+000 -2.365701e-003 1.211096e-005 -4.085034e-005 -2.850501e-005 1.124729e-004 9.970381e-001 -3.781093e-003
2924475 1.001289e+000 -2.959844e-003 -7.513453e-005 -1.723975e-006 -7.868815e-005 8.436055e-005 1.002044e+000 -4.288259e-003
2999460 1.000906e+000 -2.451942e-003 -1.521284e-005 2.043304e-005 -1.058031e-004 -4.675185e-005 9.997800e-001 -5.505026e-003
3074445 1.000656e+000 -2.745424e-003 -8.883699e-005 1.614847e-005 -9.892197e-005 6.238261e-005 1.000683e+000 -6.739153e-003
3149430 1.000290e+000 -1.973456e-003 -6.078231e-005 1.442926e-005 -1.438218e-005 -1.635626e-004 1.000530e+000 -4.408348e-003
3224415 1.000370e+000 -2.230556e-003 1.708446e-004 -6.701751e-005 6.561333e-005 -4.108843e-005 1.000475e+000 -5.431487e-003
3299400 1.001504e+000 -2.975714e-003 -1.255755e-005 2.560310e-005 9.291633e-006 -4.747968e-005 1.000571e+000 -5.829827e-003
3374385 1.001001e+000 -2.805896e-003 -4.021021e-006 -3.266057e-005 -3.699115e-005 -1.112103e-004 9.990845e-001 -5.612302e-003
3449370 1.000279e+000 -2.473471e-003 -4.457556e-005 7.716258e-005 2.097721e-004 -6.659496e-005 9.978712e-001 -5.890558e-003
3524355 1.001097e+000 -2.300399e-003 6.206486e-005 -5.338603e-005 1.154333e-004 -1.506082e-004 9.994407e-001 -4.461345e-003
3599340 1.000627e+000 -1.810403e-003 4.315808e-005 -2.457156e-005 1.015681e-004 -1.416924e-004 9.986078e-001 -6.823368e-003
3674325 1.000192e+000 -1.700543e-003 -7.253815e-005 -4.864631e-005 -2.135868e-004 -1.085703e-004 9.998950e-001 -6.093963e-003
3749310 1.000962e+000 -2.152919e-003 7.594902e-006 -8.062769e-005 -1.054972e-004 -4.040739e-004 9.995969e-001 -4.803997e-003
3824295 1.000936e+000 -2.894805e-003 1.481889e-004 -1.653030e-004 1.470119e-004 -3.409219e-005 9.996797e-001 -6.951108e-003
3899280 1.000813e+000 -3.090137e-003 2.287384e-005 -4.479015e-005 -1.053652e-005 1.651602e-004 9.994200e-001 -7.512683e-003
3974265 1.000903e+000 -3.268507e-003 -2.843725e-005 -1.194903e-005 2.363486e-005 5.563754e-005 9.993526e-001 -7.037865e-003
4049250 1.001377e+000 -3.566116e-003 -9.421292e-005 -4.187705e-005 -7.391620e-006 -3.921320e-005 1.000664e+000 -6.562694e-003
4124235 1.001584e+000 -3.341583e-003 -2.798208e-005 -6.539591e-005 -2.147719e-004 1.255027e-004 9.994116e-001 -7.492457e-003
4199220 1.001025e+000 -3.584874e-003 2.949979e-005 -7.833818e-005 7.941034e-006 3.005281e-005 1.000183e+000 -6.048142e-003
4274205 1.000652e+000 -2.600407e-003 7.713467e-005 -6.652177e-005 -1.139045e-005 3.188207e-005 9.989592e-001 -5.057618e-003
4349190 1.001147e+000 -3.781055e-003 -1.124934e-004 1.462172e-005 2.748147e-004 -1.720664e-004 9.990949e-001 -4.651831e-003
4424175 1.000656e+000 -3.435431e-003 4.196485e-005 2.938040e-005 9.624115e-005 -6.555278e-007 9.994129e-001 -5.183039e-003
4499160 1.000817e+000 -3.432201e-003 -4.843465e-005 3.683871e-005 -2.160359e-004 -1.832087e-004 9.997520e-001 -4.668201e-003
4574145 1.000544e+000 -2.971307e-003 -3.818185e-005 3.096995e-005 -1.013586e-004 -1.249828e-004 1.000237e+000 -3.932715e-003
4649130 1.000894e+000 -2.805673e-003 1.290228e-004 -1.054727e-004 -1.765350e-005 1.023030e-004 1.000144e+000 -6.661187e-003
4724115 1.000587e+000 -3.076920e-003 4.380793e-006 3.838511e-005 9.976264e-005 6.913213e-006 9.989643e-001 -6.361994e-003
4799100 1.000951e+000 -3.535171e-003 -7.651242e-006 -5.539100e-005 -7.032873e-005 -7.641805e-005 9.990432e-001 -5.011082e-003
4874085 1.001645e+000 -3.660047e-003 -1.722727e-005 8.623898e-006 2.419653e-004 -3.015802e-004 9.989734e-001 -5.549745e-003
4949070 1.001261e+000 -3.341310e-003 7.516189e-005 -7.341981e-005 -6.704726e-006 -1.318453e-004 9.998595e-001 -5.286424e-003
5024055 1.000408e+000 -3.119468e-003 7.103632e-005 -1.879138e-005 1.399029e-005 4.386236e-005 9.991940e-001 -4.382681e-003
5099040 1.001110e+000 -2.505942e-003 -1.485275e-005 3.860885e-006 -4.635365e-005 -2.793953e-004 9.992772e-001 -3.935850e-003
5174025 1.001742e+000 -2.891870e-003 9.808272e-006 7.695519e-005 -6.194752e-005 5.466680e-006 9.996418e-001 -3.879815e-003
5249010 1.001659e+000 -3.879043e-003 -2.166023e-005 1.175377e-004 5.863760e-005 -7.048283e-005 1.000927e+000 -4.389725e-003
5323995 1.000654e+000 -3.733380e-003 1.865431e-005 2.916919e-005 -2.186919e-004 6.608597e-005 9.974558e-001 -4.572514e-003
5398980 1.001038e+000 -2.845765e-003 -4.711749e-005 -2.607813e-005 7.733825e-006 -8.658954e-006 9.979551e-001 -4.563231e-003
5473965 1.001200e+000 -3.295393e-003 1.535617e-006 -3.995771e-007 1.286733e-004 -1.238144e-004 1.000525e+000 -3.662975e-003
5548950 1.000263e+000 -3.107074e-003 -3.060359e-006 1.420600e-004 -2.797220e-005 -1.890519e-004 1.000972e+000 -4.593974e-003
5623935 1.001114e+000 -2.995823e-003 6.158106e-005 -4.113232e-005 2.780354e-004 -1.214223e-004 1.000386e+000 -4.981453e-003
5698920 1.001037e+000 -3.075478e-003 -2.761789e-005 9.057283e-005 1.242036e-004 2.073583e-004 1.001393e+000 -5.159658e-003
5773905 1.001166e+000 -4.036191e-003 6.890672e-005 6.391050e-005 1.796970e-005 -7.477860e-005 1.001261e+000 -6.529280e-003
5848890 1.000849e+000 -4.529956e-003 -6.179875e-006 5.272219e-005 -1.081768e-004 -1.193649e-004 1.000472e+000 -6.405918e-003
5923875 1.000592e+000 -3.422422e-003 -2.743667e-005 1.050632e-004 6.456438e-005 -1.119471e-004 1.000262e+000 -6.015800e-003
5998860 1.000829e+000 -3.843152e-003 8.561797e-005 -5.813001e-005 2.120596e-005 -2.266342e-005 1.000792e+000 -6.001643e-003
6073845 1.000317e+000 -3.571804e-003 4.379649e-005 -4.970101e-005 -3.882802e-006 -9.532728e-005 1.000160e+000 -7.592830e-003
6148830 1.000915e+000 -3.628843e-003 2.724914e-005 -8.177541e-005 1.326903e-004 2.291433e-005 1.000920e+000 -5.152080e-003
6223815 1.001321e+000 -3.647121e-003 -1.183271e-005 -5.405581e-005 1.153186e-005 -2.565698e-006 1.000049e+000 -5.747458e-003
6298800 1.000815e+000 -3.540580e-003 -1.692895e-004 4.264450e-005 -7.821606e-005 1.800552e-005 9.999962e-001 -5.289393e-003
6373785 1.001248e+000 -3.186924e-003 -2.890068e-005 -1.369344e-006 -8.970590e-005 -1.361140e-004 9.988216e-001 -5.393338e-003
6448770 1.000496e+000 -3.442331e-003 2.147781e-005 -3.273654e-006 6.371592e-005 2.887167e-005 1.001255e+000 -6.165328e-003
6523755 1.001227e+000 -3.400400e-003 1.583332e-006 9.764722e-005 1.465101e-004 -3.728297e-005 1.000249e+000 -8.242495e-003
6598740 1.000153e+000 -3.208718e-003 -3.842624e-006 8.404424e-005 4.337714e-006 8.812429e-005 1.000375e+000 -6.897639e-003
6673725 1.000732e+000 -3.223631e-003 1.904692e-005 6.735203e-005 -2.884411e-004 -1.784294e-004 9.990180e-001 -6.352132e-003
6748710 1.001142e+000 -3.755938e-003 -5.926785e-005 -4.968176e-005 3.775214e-004 -2.096314e-004 1.000228e+000 -7.052985e-003
6823695 1.000743e+000 -2.957011e-003 -5.245361e-008 4.478243e-005 1.077371e-004 -1.526153e-004 9.996812e-001 -8.690811e-003
6898680 1.000400e+000 -3.701049e-003 -5.206688e-005 -2.620730e-005 3.642000e-005 -3.271066e-005 1.000553e+000 -7.227103e-003
6973665 1.000463e+000 -3.298557e-003 -3.431354e-005 -4.701747e-005 1.192512e-004 -9.404108e-005 9.998317e-001 -9.878051e-003
7048650 1.000859e+000 -3.074468e-003 3.094112e-005 3.390342e-005 1.740437e-004 -1.319239e-004 9.999631e-001 -7.657940e-003
7123635 1.000793e+000 -3.305163e-003 -4.861674e-005 -1.541990e-005 3.752467e-004 6.690114e-005 9.990576e-001 -7.301163e-003
7198620 1.000860e+000 -3.510349e-003 -2.436139e-005 -1.176751e-004 -5.226856e-005 1.410562e-004 9.997050e-001 -1.021556e-002
7273605 1.001248e+000 -4.245325e-003 -8.791278e-005 4.735729e-005 -2.525779e-004 1.405068e-004 1.000999e+000 -9.291935e-003
7348590 1.000445e+000 -3.992279e-003 -5.258731e-006 8.058612e-006 -7.121750e-005 4.352961e-005 9.986016e-001 -8.079710e-003
7423575 1.000661e+000 -3.896040e-003 -9.069519e-006 -9.280451e-005 -9.036146e-005 7.354246e-005 1.000338e+000 -7.192245e-003
7498560 1.000258e+000 -4.047966e-003 -1.825100e-005 -8.253829e-005 -9.297540e-005 -2.473564e-005 9.996402e-001 -8.946947e-003
7573545 1.000623e+000 -3.813104e-003 -7.179458e-007 8.706679e-005 1.617053e-004 -4.411381e-006 1.000345e+000 -9.240986e-003
7648530 9.999415e-001 -4.142196e-003 -3.338971e-005 -2.490604e-005 -1.103922e-004 -2.291835e-004 1.000629e+000 -8.726504e-003
7723515 1.001414e+000 -3.891341e-003 4.241675e-005 -3.670538e-005 -2.035719e-005 2.709629e-004 1.000538e+000 -9.442148e-003
7798500 1.000887e+000 -4.595192e-003 7.532793e-005 -4.762336e-006 1.280794e-005 -8.147071e-005 1.000161e+000 -7.778346e-003
7873485 1.001512e+000 -4.383989e-003 7.486086e-006 1.773639e-005 -1.350487e-004 -3.671518e-005 9.995011e-001 -8.302132e-003
7948470 1.000622e+000 -4.557658e-003 -8.737775e-005 -7.518855e-006 1.078804e-004 3.177465e-004 9.993955e-001 -7.370551e-003
8023455 1.000026e+000 -4.218600e-003 2.709240e-005 2.985390e-005 9.685211e-005 1.580274e-004 9.992657e-001 -7.744563e-003
8098440 1.000493e+000 -4.824005e-003 -3.751670e-005 5.370756e-005 -2.098178e-004 5.395349e-005 9.999501e-001 -7.802404e-003
8173425 1.000696e+000 -3.774920e-003 -5.641462e-005 -6.071412e-005 -1.128158e-004 -1.022332e-004 1.000906e+000 -7.857069e-003
8248410 1.000405e+000 -4.278295e-003 1.079044e-004 3.211376e-005 1.463797e-004 -3.430064e-004 1.000161e+000 -5.830130e-003
8323395 1.000302e+000 -4.627644e-003 -2.730086e-005 -1.148374e-004 7.210732e-005 2.543226e-004 9.993475e-001 -6.702143e-003
8398380 1.001269e+000 -4.192843e-003 -2.154087e-005 -8.622044e-005 -2.661447e-004 -1.469619e-004 1.000131e+000 -8.585149e-003
8473365 1.000550e+000 -4.832292e-003 -1.052064e-005 1.459779e-005 2.810424e-004 5.467352e-006 9.999404e-001 -7.845534e-003
8548350 1.000690e+000 -4.864088e-003 -4.428442e-005 2.163116e-005 -1.649973e-004 6.086362e-006 1.000156e+000 -8.367292e-003
8623335 1.000676e+000 -4.845764e-003 2.069295e-005 -3.028934e-005 3.045310e-005 -3.849536e-005 1.000104e+000 -8.535834e-003
8698320 1.001058e+000 -4.484276e-003 -6.134917e-005 -3.812130e-005 1.695444e-005 8.809514e-005 1.000559e+000 -8.166722e-003
8773305 1.000554e+000 -5.146404e-003 4.416275e-007 2.479140e-005 1.305278e-004 -2.343444e-005 1.000057e+000 -9.131607e-003
8848290 9.996470e-001 -5.098564e-003 4.027132e-005 4.219809e-005 -4.271763e-005 3.578016e-004 1.001378e+000 -8.665418e-003
8923275 1.000408e+000 -5.094187e-003 -1.134538e-004 1.474559e-005 -1.195064e-004 4.680592e-005 1.000830e+000 -9.598835e-003
8998260 1.001452e+000 -5.163176e-003 2.598270e-005 -3.713646e-005 6.307098e-005 7.382318e-005 1.000653e+000 -9.126713e-003
9073245 1.000677e+000 -5.389951e-003 -7.566519e-006 5.288138e-005 1.293554e-004 -7.896734e-005 1.001493e+000 -8.729740e-003
9148230 1.000875e+000 -5.168866e-003 5.945185e-005 6.421393e-005 -1.821146e-004 1.387640e-004 1.000888e+000 -8.356071e-003
9223215 1.000861e+000 -5.016353e-003 -7.361553e-006 -7.719158e-005 1.726776e-004 -7.204690e-005 9.980699e-001 -9.534687e-003
9298200 1.000658e+000 -5.905932e-003 3.261409e-005 -4.306244e-005 1.166219e-004 8.283286e-005 1.000245e+000 -7.835529e-003
9373185 1.000643e+000 -4.839828e-003 3.265398e-005 -3.912120e-005 -3.359946e-005 1.146973e-004 1.000239e+000 -9.117234e-003
9448170 1.000468e+000 -5.202908e-003 -4.477082e-005 -5.462425e-005 5.052448e-005 -2.568618e-004 9.995802e-001 -9.995581e-003
9523155 1.000854e+000 -5.889159e-003 -1.093510e-004 1.620294e-005 -7.877636e-005 -2.200724e-004 9.995618e-001 -8.933146e-003
9598140 1.000027e+000 -6.046550e-003 -7.457761e-005 8.207929e-005 1.382230e-005 8.564335e-005 1.000740e+000 -1.080046e-002
9673125 1.000533e+000 -5.839768e-003 -1.959967e-005 3.306204e-005 2.286445e-004 1.512393e-004 1.000650e+000 -1.068770e-002
9748110 1.000653e+000 -6.929878e-003 4.046260e-005 7.346708e-005 -4.747159e-005 -4.321224e-005 1.001665e+000 -1.216384e-002
9823095 1.000919e+000 -6.339220e-003 2.988617e-005 8.632849e-005 3.027064e-004 8.649932e-005 1.001380e+000 -1.240452e-002
9898080 9.998893e-001 -6.252165e-003 -2.747657e-005 1.237889e-005 -4.208460e-004 -2.551679e-005 1.000525e+000 -1.166759e-002
9973065 1.000754e+000 -6.497578e-003 -1.864491e-004 9.997826e-005 8.155918e-005 1.625038e-004 9.993398e-001 -1.171364e-002
10048050 1.000399e+000 -6.914051e-003 1.540705e-004 9.149115e-005 2.839000e-004 -1.481626e-004 1.003134e+000 -1.219702e-002
10123035 1.001079e+000 -7.230115e-003 1.096151e-004 1.362933e-004 6.781358e-005 -1.549566e-004 1.001637e+000 -1.291362e-002
10198020 1.000626e+000 -7.119176e-003 1.038354e-004 -2.555318e-005 4.384871e-005 2.092158e-004 1.002217e+000 -1.317183e-002
10273005 1.000650e+000 -7.638861e-003 5.397022e-005 -7.356988e-005 1.441320e-004 -1.070962e-004 1.000074e+000 -1.396807e-002
10347990 1.000956e+000 -6.941312e-003 7.112244e-005 6.694141e-005 -1.519220e-005 -7.362116e-005 1.001382e+000 -1.285375e-002
10422975 1.000541e+000 -7.516932e-003 5.905946e-005 -4.626891e-005 1.438147e-005 -1.934749e-004 1.002569e+000 -1.457703e-002
10497960 9.996726e-001 -6.655114e-003 6.124397e-006 -3.266717e-006 -1.452899e-004 1.456402e-005 1.002133e+000 -1.451667e-002
10572945 1.000520e+000 -7.581466e-003 -7.874000e-005 -1.305794e-004 1.185270e-004 4.675897e-005 1.001724e+000 -1.483861e-002
10647930 9.999807e-001 -7.267771e-003 -1.842939e-005 1.191891e-005 -1.096810e-007 2.466298e-004 1.000962e+000 -1.444633e-002
10722915 1.000321e+000 -7.413238e-003 -4.607926e-005 -3.938050e-005 -4.680972e-005 8.670884e-005 1.001902e+000 -1.741016e-002
10797900 9.999475e-001 -7.157304e-003 -8.727737e-005 -5.269667e-005 1.890318e-005 1.895132e-004 1.001613e+000 -1.485830e-002
10872885 9.998709e-001 -7.465372e-003 5.581180e-005 1.541546e-006 -2.812202e-005 -4.679190e-005 1.002053e+000 -1.582330e-002
10947870 1.000473e+000 -7.898392e-003 -1.843844e-005 9.650234e-005 -2.037916e-004 2.522602e-004 1.002582e+000 -1.646587e-002
11022855 1.000257e+000 -8.039569e-003 -3.831159e-005 -3.253157e-005 -8.988608e-005 -2.710002e-004 1.002436e+000 -1.627886e-002
11097840 1.000140e+000 -6.726176e-003 4.871527e-005 5.703449e-005 -7.408749e-005 -1.439883e-004 1.000988e+000 -1.709071e-002
11172825 1.000461e+000 -7.244697e-003 5.396410e-005 1.463246e-005 2.660586e-004 -8.911725e-005 1.002192e+000 -1.741512e-002
11247810 1.000280e+000 -7.812008e-003 4.135645e-005 -6.161851e-005 -1.161608e-004 6.013819e-005 1.001580e+000 -1.678626e-002
11322795 9.998949e-001 -8.185091e-003 -1.033008e-004 9.636224e-005 -3.011566e-005 -1.515689e-004 1.001962e+000 -1.668189e-002
11397780 9.998593e-001 -7.455902e-003 -1.465512e-005 -1.059627e-004 3.118325e-004 9.648919e-006 9.995741e-001 -1.755752e-002
11472765 1.000503e+000 -7.562867e-003 -7.435518e-005 -7.190606e-005 -2.486570e-004 -2.086347e-005 1.001380e+000 -1.627675e-002
11547750 1.000395e+000 -8.115295e-003 9.660811e-005 3.907609e-005 -7.040334e-005 -3.601399e-005 1.001452e+000 -1.517119e-002
11622735 9.996484e-001 -7.702204e-003 3.030113e-005 1.622748e-004 6.730061e-005 -2.834044e-004 1.002250e+000 -1.470423e-002
11697720 9.997601e-001 -7.925908e-003 1.146302e-004 -1.205807e-005 -6.549198e-005 1.347118e-004 1.001131e+000 -1.741483e-002
11772705 9.993460e-001 -8.458820e-003 -2.431959e-005 4.536338e-005 -1.095122e-004 1.198329e-004 1.001017e+000 -1.656909e-002
11847690 9.998710e-001 -7.871106e-003 2.407694e-006 6.863294e-005 -3.635567e-005 7.762288e-005 1.001444e+000 -1.568441e-002
11922675 9.995795e-001 -7.646270e-003 6.642028e-005 -8.311601e-005 1.377692e-004 1.179999e-004 1.001467e+000 -1.616922e-002
11997660 1.000123e+000 -8.651587e-003 8.829477e-005 -1.599870e-005 -9.458564e-005 -1.862829e-004 1.001412e+000 -1.424624e-002
