!Agilent Technologies,N5230C,SG49000117,A.08.50.07
!Agilent N5230C: A.08.50.07
!Date: Thursday, December 07, 2023 06:08:48
!Correction: S11(Full 2 Port(1,2)) 
!S21(Full 2 Port(1,2)) 
!S12(Full 2 Port(1,2)) 
!S22(Full 2 Port(1,2)) 
!S2P File: Measurements: S11, S21, S12, S22:
# Hz S  RI   R 50
300000 1.019034e+000 -7.360781e-003 4.130124e-005 1.568641e-004 -6.665660e-004 -1.624313e-005 1.033074e+000 -2.344654e-002
374985 9.992318e-001 -4.066722e-003 1.737039e-004 8.128431e-005 2.069042e-004 -1.239935e-004 9.812714e-001 -1.861723e-002
449970 9.889178e-001 -1.437496e-003 -4.388121e-005 1.399094e-005 -7.096063e-006 2.752098e-004 9.565541e-001 -1.225066e-002
524955 9.786999e-001 6.750255e-003 -1.629653e-005 1.148585e-005 -1.037267e-004 -1.498349e-004 9.304190e-001 -3.129054e-003
599940 9.802237e-001 4.284577e-003 -3.876308e-005 -7.703700e-005 2.010487e-004 -2.540117e-004 9.439086e-001 4.573392e-003
674925 9.784303e-001 3.233434e-003 -8.696964e-006 -4.700195e-006 1.634601e-004 2.441893e-005 9.369214e-001 -1.569498e-002
749910 9.789437e-001 5.219399e-003 -5.498197e-005 -1.298358e-004 2.036314e-004 -4.881715e-005 9.324553e-001 -8.086013e-003
824895 9.843993e-001 3.447163e-003 6.555257e-005 -1.524151e-004 1.565690e-004 3.372501e-006 9.390049e-001 -1.058432e-002
899880 9.866518e-001 1.251784e-003 -3.239496e-005 7.653006e-005 1.332388e-005 -1.125658e-005 9.428056e-001 -1.268798e-002
974865 9.896992e-001 6.525081e-004 5.727876e-005 -1.351636e-005 1.112372e-004 8.763177e-005 9.513892e-001 -7.591915e-003
1049850 9.946783e-001 -4.152271e-003 -1.003549e-005 -1.265146e-005 -4.426761e-006 -1.456552e-005 9.562848e-001 -9.869820e-003
1124835 9.972810e-001 -5.175101e-003 -1.453079e-005 -1.254304e-004 -8.137864e-005 1.925848e-004 9.687818e-001 -1.155923e-002
1199820 1.002669e+000 -9.887911e-003 -9.092968e-005 3.338982e-005 3.498875e-005 9.511080e-005 9.775106e-001 -8.390727e-003
1274805 1.007530e+000 -1.272134e-002 3.978431e-005 -9.706388e-005 -1.483963e-004 2.132266e-005 9.895408e-001 -8.876564e-003
1349790 1.000784e+000 -5.590354e-003 1.190470e-004 -1.518352e-005 3.058217e-006 -1.006147e-004 1.003636e+000 -1.183595e-002
1424775 9.996952e-001 -5.730268e-003 -1.385630e-005 9.136541e-005 -1.374879e-004 -2.897301e-005 1.003643e+000 -1.316517e-002
1499760 9.986724e-001 -4.623828e-003 -6.251632e-005 7.028590e-006 -9.298920e-005 -1.702364e-004 1.005923e+000 -8.333699e-003
1574745 9.978436e-001 -3.755827e-003 -7.100860e-005 -3.470885e-005 -8.845001e-005 1.393540e-004 1.000647e+000 -9.988703e-003
1649730 9.979125e-001 -4.311230e-003 -9.995620e-005 -1.511953e-004 -1.872177e-004 -1.880170e-004 1.001987e+000 -1.278448e-002
1724715 9.969260e-001 -4.989634e-003 8.271493e-005 -1.656549e-004 -1.922082e-004 -6.138058e-005 1.003098e+000 -1.186229e-002
1799700 9.955416e-001 -4.980894e-003 1.539368e-006 -5.580553e-005 9.681210e-006 8.171734e-005 1.004386e+000 -1.140263e-002
1874685 9.961802e-001 -2.728888e-003 3.571636e-006 4.071027e-005 4.766100e-005 5.576526e-005 1.002942e+000 -9.711300e-003
1949670 9.952303e-001 -2.506325e-003 -9.346416e-005 1.164401e-004 -5.649751e-005 4.879936e-004 9.999909e-001 -8.501731e-003
2024655 9.950351e-001 -2.667715e-003 -1.601278e-005 -3.150615e-005 1.548669e-004 8.623122e-005 1.001283e+000 -5.432388e-003
2099640 9.951150e-001 -2.146862e-003 -3.050763e-005 1.469514e-004 -2.599613e-004 5.442404e-005 9.995276e-001 -4.480612e-003
2174625 9.945147e-001 -2.407110e-003 -1.613413e-004 -3.639548e-005 3.145684e-004 -1.676521e-004 9.999825e-001 -5.551806e-003
2249610 9.962984e-001 -3.608014e-003 7.023929e-005 -6.440026e-005 3.609026e-004 -1.698846e-006 1.001376e+000 -6.020531e-003
2324595 9.998385e-001 -3.723935e-003 -7.916191e-005 5.493434e-005 -2.521903e-004 -1.720972e-004 1.001846e+000 -7.818503e-003
2399580 1.000284e+000 -3.998053e-003 -3.540485e-005 7.262579e-005 -2.043015e-004 -3.373672e-004 1.003552e+000 -7.931518e-003
2474565 9.994906e-001 -1.621982e-003 -1.235974e-004 -2.375412e-006 -1.650420e-004 -1.635534e-005 1.001135e+000 -5.045193e-003
2549550 1.000844e+000 -2.507384e-003 -9.606330e-005 -1.502273e-004 -1.127829e-004 -1.631500e-004 9.980760e-001 -6.220168e-003
2624535 1.001101e+000 -2.918189e-003 -3.123994e-005 3.545059e-005 -2.758005e-005 1.963370e-004 1.000559e+000 -6.091722e-003
2699520 1.000690e+000 -4.181533e-003 -3.089218e-005 -2.863166e-005 -7.335313e-005 -1.379813e-004 9.957165e-001 -6.450928e-003
2774505 1.000340e+000 -2.685001e-003 -3.615378e-005 3.934151e-005 8.475821e-005 -1.716048e-004 9.988135e-001 -8.729095e-003
2849490 1.001021e+000 -2.101302e-003 8.918657e-006 -4.134035e-005 -1.247343e-004 -1.547836e-005 9.969806e-001 -4.609025e-003
2924475 1.001262e+000 -3.231184e-003 -1.539895e-004 -2.418175e-005 1.390174e-004 -2.831022e-005 1.002065e+000 -5.818551e-003
2999460 1.001049e+000 -2.572524e-003 -4.007680e-005 5.356471e-005 -1.251623e-005 2.419418e-004 1.001310e+000 -6.230241e-003
3074445 1.000355e+000 -2.728670e-003 -3.284916e-005 9.193700e-006 7.948114e-005 -1.559778e-004 9.995216e-001 -4.678487e-003
3149430 1.000203e+000 -2.862945e-003 6.094071e-005 -1.211968e-004 4.038744e-005 -3.405998e-005 1.000137e+000 -5.876455e-003
3224415 1.000790e+000 -2.660288e-003 7.258835e-005 7.614234e-005 -1.425825e-004 2.360201e-004 1.000150e+000 -5.154125e-003
3299400 1.000661e+000 -2.709044e-003 4.161210e-005 7.712820e-006 -9.152263e-005 -9.190426e-005 1.001077e+000 -5.921448e-003
3374385 9.999032e-001 -2.755350e-003 5.648286e-005 1.585741e-007 9.127220e-005 -3.268114e-004 9.983869e-001 -6.732313e-003
3449370 1.001072e+000 -3.191764e-003 2.516784e-005 -1.671546e-005 -2.089892e-004 -1.847339e-005 9.986635e-001 -5.731812e-003
3524355 1.000773e+000 -2.123356e-003 -8.623177e-005 3.785648e-005 5.461874e-005 1.230407e-004 1.000385e+000 -5.755299e-003
3599340 1.000786e+000 -2.398146e-003 9.510788e-005 -4.929950e-005 -1.543847e-004 7.845213e-005 9.995348e-001 -5.332638e-003
3674325 1.000831e+000 -2.394123e-003 -6.896476e-005 1.646682e-004 1.219172e-004 6.392702e-005 9.985961e-001 -5.496666e-003
3749310 1.001271e+000 -2.171748e-003 7.235443e-005 -3.369422e-005 -1.731431e-004 9.797303e-005 9.997175e-001 -6.382177e-003
3824295 1.000830e+000 -2.381621e-003 -8.508810e-005 -2.703930e-005 -3.170023e-005 -4.385282e-005 9.992675e-001 -4.962949e-003
3899280 1.000784e+000 -2.865094e-003 3.296622e-005 -1.501547e-005 -1.289805e-004 -1.907562e-004 1.000216e+000 -6.455823e-003
3974265 1.001527e+000 -3.427646e-003 2.452080e-005 3.115830e-005 -1.185463e-004 2.216261e-004 9.998437e-001 -6.226286e-003
4049250 1.001364e+000 -2.853409e-003 2.502215e-006 2.382461e-005 -8.598604e-005 1.626333e-004 9.995306e-001 -6.588778e-003
4124235 1.001547e+000 -3.322938e-003 1.696297e-005 3.455555e-005 1.487935e-005 1.031818e-004 9.987361e-001 -7.467862e-003
4199220 1.000849e+000 -3.441071e-003 -1.350523e-005 -4.376222e-005 1.385385e-004 -7.145542e-005 9.992968e-001 -5.187210e-003
4274205 1.000853e+000 -3.951408e-003 4.697260e-006 9.240585e-005 3.055962e-005 8.453738e-005 9.996463e-001 -5.270637e-003
4349190 1.000896e+000 -2.917442e-003 3.721325e-005 -3.104226e-005 5.944175e-005 4.130060e-005 9.997717e-001 -6.239573e-003
4424175 1.000847e+000 -2.756084e-003 9.842137e-005 4.247293e-005 3.457034e-005 -1.926865e-004 1.000010e+000 -5.198585e-003
4499160 1.000703e+000 -3.202208e-003 1.232408e-004 -4.485933e-006 -1.346541e-004 -1.112415e-004 9.994636e-001 -5.322109e-003
4574145 1.000586e+000 -3.625900e-003 -2.116952e-005 -2.736211e-005 1.419888e-005 -4.173003e-005 9.994499e-001 -6.301428e-003
4649130 1.000729e+000 -3.585540e-003 -2.763425e-005 2.320493e-005 -5.607826e-006 -2.714848e-004 9.988932e-001 -5.945090e-003
4724115 1.000130e+000 -2.923461e-003 5.495483e-005 3.884556e-005 1.885536e-004 -1.026021e-004 9.993387e-001 -5.182267e-003
4799100 1.001049e+000 -2.883765e-003 -1.762855e-005 1.096253e-005 -2.032797e-004 -2.500438e-006 9.992986e-001 -5.603371e-003
4874085 1.000872e+000 -2.828466e-003 -1.576114e-005 -1.073687e-005 1.025476e-004 -2.663493e-004 9.995555e-001 -4.513151e-003
4949070 1.001045e+000 -3.552659e-003 8.264276e-005 -8.464605e-005 1.138509e-004 8.773479e-005 9.996796e-001 -4.969754e-003
5024055 1.001219e+000 -3.256243e-003 -7.760762e-005 3.812462e-005 1.142437e-004 -9.481055e-005 9.998298e-001 -4.359486e-003
5099040 1.001300e+000 -3.494152e-003 1.245096e-005 4.925736e-005 -1.225958e-004 -1.163549e-004 1.000152e+000 -5.577533e-003
5174025 1.001766e+000 -3.061207e-003 -2.926796e-005 5.955024e-006 1.542716e-004 -8.347262e-005 9.990732e-001 -4.795283e-003
5249010 1.001860e+000 -3.058908e-003 -1.832048e-005 6.399911e-005 2.653864e-004 1.219687e-004 1.000418e+000 -4.519245e-003
5323995 1.000728e+000 -2.670872e-003 -1.298593e-004 -9.530813e-005 6.445457e-005 1.613260e-004 9.980615e-001 -6.305098e-003
5398980 1.001278e+000 -3.410489e-003 -1.167110e-004 8.348494e-005 -2.155187e-004 -1.665441e-004 1.000557e+000 -4.060369e-003
5473965 1.001082e+000 -2.813980e-003 -8.013374e-005 -3.998095e-006 -1.184911e-006 -1.801698e-004 1.000626e+000 -5.229152e-003
5548950 1.000489e+000 -3.484459e-003 4.569836e-007 -6.300509e-005 -6.692927e-005 -1.239234e-004 1.000520e+000 -5.029759e-003
5623935 1.000232e+000 -3.213779e-003 -1.607768e-006 3.395698e-005 9.125460e-005 1.054108e-004 9.995733e-001 -5.018425e-003
5698920 1.000832e+000 -3.661672e-003 -3.945651e-005 1.256296e-004 2.121645e-004 -5.607302e-005 1.001687e+000 -4.722083e-003
5773905 1.001007e+000 -3.393641e-003 -1.119269e-005 -1.214505e-005 7.247999e-005 3.490016e-005 1.000322e+000 -7.343014e-003
5848890 1.000883e+000 -3.563477e-003 -2.512198e-005 -6.699886e-005 4.610389e-005 1.342611e-004 1.000834e+000 -6.578243e-003
5923875 1.000934e+000 -3.560886e-003 1.682343e-005 1.012670e-005 -2.082386e-005 -6.612181e-005 9.995306e-001 -5.759296e-003
5998860 1.000876e+000 -3.729331e-003 2.226503e-005 4.332206e-006 2.303591e-004 -1.979391e-004 9.996935e-001 -5.203491e-003
6073845 1.000231e+000 -3.338844e-003 -2.505127e-007 -2.044192e-005 -7.140111e-006 8.056029e-005 1.001435e+000 -5.875012e-003
6148830 1.000808e+000 -4.301180e-003 -9.203378e-005 -8.610356e-006 -6.247540e-005 1.863799e-004 1.000946e+000 -6.795793e-003
6223815 1.001295e+000 -3.250166e-003 2.279177e-005 -4.798057e-005 1.436305e-004 -5.241557e-005 9.992105e-001 -5.671740e-003
6298800 1.000197e+000 -3.569462e-003 4.299367e-005 -4.518311e-006 -4.187865e-005 -1.842357e-004 9.983371e-001 -5.830661e-003
6373785 1.000266e+000 -2.940888e-003 1.873075e-005 -4.564408e-005 -1.355665e-004 -9.451574e-005 9.991884e-001 -6.888935e-003
6448770 1.000581e+000 -3.186188e-003 6.315709e-005 -3.790151e-005 -5.443996e-005 -1.417675e-005 1.000598e+000 -5.635104e-003
6523755 1.001080e+000 -3.355239e-003 -2.093083e-005 -4.504222e-005 5.287697e-005 1.888951e-005 9.991259e-001 -6.633308e-003
6598740 1.000521e+000 -3.181448e-003 6.884373e-005 -6.402242e-005 -1.787180e-004 -2.612821e-004 1.000453e+000 -7.774740e-003
6673725 1.001198e+000 -3.189571e-003 -8.962753e-006 -2.033081e-005 3.484540e-004 7.654923e-005 9.997523e-001 -8.234038e-003
6748710 1.000245e+000 -3.347857e-003 -9.164576e-006 3.737303e-005 -4.015456e-005 2.628831e-005 9.997212e-001 -6.990162e-003
6823695 1.000823e+000 -3.419400e-003 -1.260152e-005 5.436835e-005 5.852969e-005 1.413747e-004 1.000424e+000 -9.309572e-003
6898680 1.000287e+000 -3.801127e-003 -6.960475e-005 -1.187008e-004 -2.566497e-004 1.482315e-004 1.000018e+000 -8.425067e-003
6973665 1.000929e+000 -4.217998e-003 1.417270e-005 -3.567861e-005 -1.178095e-004 -4.812064e-005 1.000697e+000 -8.274607e-003
7048650 1.000862e+000 -3.781067e-003 4.838713e-006 -5.723117e-005 -1.283861e-004 -4.547260e-005 1.000247e+000 -8.521795e-003
7123635 1.000990e+000 -3.793568e-003 -7.450373e-005 -6.866936e-005 -5.395942e-005 -3.144520e-005 1.000146e+000 -8.977802e-003
7198620 1.001367e+000 -4.187894e-003 -3.293415e-005 -1.032793e-005 -9.898396e-006 1.021217e-004 9.986627e-001 -7.911545e-003
7273605 1.001164e+000 -4.216730e-003 2.277925e-005 3.384975e-005 1.230996e-004 -1.942092e-004 1.000492e+000 -8.900072e-003
7348590 1.001324e+000 -4.161167e-003 4.129556e-005 -9.778243e-005 1.591687e-004 -2.109165e-004 9.994195e-001 -8.955751e-003
7423575 1.000693e+000 -3.835787e-003 -3.954498e-005 6.660514e-005 2.448029e-005 -1.752111e-004 1.000594e+000 -7.290966e-003
7498560 1.000417e+000 -3.491224e-003 -4.528117e-005 5.707265e-005 -9.554920e-005 -1.344882e-004 1.000780e+000 -8.345715e-003
7573545 1.000048e+000 -4.110000e-003 -5.120520e-005 -8.262088e-005 3.421301e-004 1.106634e-004 1.000098e+000 -8.600518e-003
7648530 1.000050e+000 -3.418874e-003 5.652161e-006 -1.478884e-005 -5.709709e-005 1.579247e-004 9.991696e-001 -8.087657e-003
7723515 1.001467e+000 -4.126117e-003 -1.108398e-004 1.820879e-005 -9.629629e-005 -3.275307e-004 9.999951e-001 -8.870222e-003
7798500 1.000870e+000 -4.038365e-003 3.896327e-006 -5.419362e-005 4.122669e-005 9.204189e-005 9.991730e-001 -8.643738e-003
7873485 1.001354e+000 -3.731757e-003 5.897585e-005 8.921114e-006 6.396401e-005 -7.969412e-005 9.993277e-001 -8.717233e-003
7948470 1.000736e+000 -3.888902e-003 8.535011e-005 6.510101e-005 -1.183616e-004 -4.708747e-005 9.995359e-001 -7.861062e-003
8023455 1.000903e+000 -3.751653e-003 9.259808e-005 -2.924405e-005 -5.093910e-005 3.477348e-005 9.994753e-001 -6.911269e-003
8098440 1.000849e+000 -4.005885e-003 -3.184927e-005 6.062935e-006 -5.348287e-005 3.480103e-004 1.000135e+000 -7.636074e-003
8173425 1.000219e+000 -4.233327e-003 -3.876558e-005 -1.107436e-005 5.325485e-005 -1.734549e-004 9.991510e-001 -7.815258e-003
8248410 1.000222e+000 -4.436098e-003 3.165233e-005 2.065035e-005 -3.884395e-004 9.029227e-005 1.000262e+000 -6.423058e-003
8323395 1.000873e+000 -4.325162e-003 -4.448524e-005 -8.082680e-005 4.294050e-005 -1.158352e-004 1.000825e+000 -5.262624e-003
8398380 1.000693e+000 -4.479603e-003 -6.947257e-005 6.953800e-006 1.402087e-004 -4.559641e-005 9.998407e-001 -7.618476e-003
8473365 1.000667e+000 -5.152905e-003 -9.031095e-005 5.973135e-005 3.145467e-004 -1.476573e-004 9.995852e-001 -7.466227e-003
8548350 1.001397e+000 -5.039094e-003 -1.206698e-004 -4.293601e-005 1.274688e-004 1.253099e-004 1.000942e+000 -7.229907e-003
8623335 1.000821e+000 -4.578052e-003 -2.563092e-005 4.239987e-005 9.796277e-005 -1.262589e-004 9.993255e-001 -7.900003e-003
8698320 1.000316e+000 -4.690118e-003 5.076505e-006 2.868124e-005 3.783841e-005 4.695365e-005 9.998828e-001 -9.150982e-003
8773305 1.001226e+000 -3.976040e-003 5.448511e-005 -7.803374e-005 2.297919e-004 1.830883e-004 1.000668e+000 -7.707222e-003
8848290 1.001077e+000 -5.304395e-003 4.565438e-006 4.852698e-006 -1.394274e-004 2.896619e-005 1.000517e+000 -9.634376e-003
8923275 1.001145e+000 -5.477980e-003 -6.589726e-005 -3.090214e-006 5.977503e-005 -5.663110e-005 1.001436e+000 -8.792900e-003
8998260 1.000503e+000 -5.096751e-003 -6.820296e-005 -3.340342e-005 1.013619e-004 1.002581e-004 9.999568e-001 -9.658855e-003
9073245 1.000303e+000 -5.022170e-003 1.309246e-004 -4.491614e-005 2.744728e-004 -6.593784e-005 9.989578e-001 -8.737877e-003
9148230 1.000008e+000 -5.217858e-003 6.784406e-005 8.573397e-006 6.054485e-005 -1.495333e-006 9.984261e-001 -7.986102e-003
9223215 9.994394e-001 -5.216864e-003 1.353831e-004 -4.491347e-005 7.010808e-005 -1.200543e-004 1.001666e+000 -8.338478e-003
9298200 1.000956e+000 -6.008926e-003 -9.509289e-005 -1.173030e-004 1.879020e-005 2.437922e-004 1.000283e+000 -9.430409e-003
9373185 1.000724e+000 -6.167349e-003 4.494338e-005 1.301304e-004 1.851945e-004 -2.300332e-004 1.000278e+000 -1.134770e-002
9448170 1.000407e+000 -5.782113e-003 1.474246e-004 -5.049217e-005 -4.363998e-005 -1.119528e-004 1.000065e+000 -8.464389e-003
9523155 1.000803e+000 -5.867375e-003 1.124222e-004 -5.677310e-005 -7.714789e-005 -2.281033e-004 1.001575e+000 -1.176393e-002
9598140 1.000212e+000 -6.126962e-003 2.463616e-005 -7.271237e-005 -1.937372e-005 -1.648105e-004 1.001438e+000 -1.050317e-002
9673125 1.000004e+000 -5.697174e-003 5.427623e-005 8.230232e-005 2.412300e-004 3.767003e-005 1.000189e+000 -1.158421e-002
9748110 1.000848e+000 -6.310772e-003 -5.067145e-005 2.468462e-006 1.027619e-004 -1.092263e-004 1.000577e+000 -1.193710e-002
9823095 1.000303e+000 -6.476898e-003 -9.231127e-005 -6.965100e-005 -4.944102e-005 2.272193e-005 1.000634e+000 -1.173502e-002
9898080 1.000991e+000 -5.899595e-003 2.244867e-005 2.537050e-005 -4.943362e-004 -2.340714e-004 9.996787e-001 -1.349162e-002
9973065 1.000563e+000 -7.351169e-003 -3.443910e-005 -6.476593e-005 -9.873905e-005 -2.589748e-004 1.000231e+000 -1.214350e-002
10048050 1.000001e+000 -6.456209e-003 -3.592571e-005 -1.391810e-004 -1.102861e-004 1.342802e-004 1.002103e+000 -1.274957e-002
10123035 1.000080e+000 -7.551614e-003 6.518130e-005 -1.634005e-004 -2.701982e-004 5.082593e-005 1.000297e+000 -1.220338e-002
10198020 1.001068e+000 -7.817806e-003 -4.054019e-005 -3.063638e-005 -1.991835e-004 1.373054e-005 9.985265e-001 -1.257178e-002
10273005 1.000699e+000 -6.820309e-003 7.958896e-006 -3.146059e-005 -3.531739e-005 -2.092368e-004 1.001081e+000 -1.342593e-002
10347990 1.000376e+000 -7.966097e-003 4.967787e-005 -5.970008e-005 -1.396600e-004 9.389745e-005 1.001859e+000 -1.261716e-002
10422975 1.000272e+000 -6.699821e-003 1.613206e-005 1.548164e-005 -1.569262e-004 -1.247666e-004 1.001669e+000 -1.308634e-002
10497960 1.000898e+000 -7.545055e-003 -8.713459e-005 1.210354e-004 1.301190e-004 2.465714e-004 1.001924e+000 -1.481092e-002
10572945 1.000138e+000 -7.334321e-003 -1.100502e-004 -1.105032e-004 5.760589e-005 2.412564e-004 1.001377e+000 -1.570374e-002
10647930 1.000608e+000 -7.724250e-003 -1.787085e-005 5.363557e-005 1.175734e-004 -1.363321e-004 1.001016e+000 -1.441982e-002
10722915 9.999602e-001 -7.610589e-003 5.164302e-005 6.912206e-005 7.593797e-005 3.039656e-004 1.000598e+000 -1.576878e-002
10797900 9.998105e-001 -7.430017e-003 1.438134e-005 8.254121e-005 -2.449073e-005 -3.204601e-004 1.003291e+000 -1.575648e-002
10872885 1.000134e+000 -6.340757e-003 4.227601e-005 -7.685788e-005 2.209738e-004 1.142976e-004 1.002049e+000 -1.570267e-002
10947870 9.996728e-001 -7.901377e-003 -5.758549e-005 2.858469e-005 -9.623641e-005 2.294032e-004 1.000175e+000 -1.794545e-002
11022855 9.998153e-001 -7.586501e-003 -2.882326e-005 2.195314e-006 -3.134529e-005 -1.730322e-004 1.001565e+000 -1.700414e-002
11097840 9.999837e-001 -6.997835e-003 -1.842506e-005 -1.438440e-004 4.106000e-005 -3.233933e-004 1.002579e+000 -1.710131e-002
11172825 1.000718e+000 -7.507632e-003 -2.798890e-005 -1.358845e-005 9.611547e-005 1.055458e-004 1.001858e+000 -1.702776e-002
11247810 1.000226e+000 -7.997121e-003 -6.100843e-005 4.359016e-005 -1.139666e-004 9.035485e-005 1.001877e+000 -1.704272e-002
11322795 1.001031e+000 -7.249882e-003 -1.099410e-004 -1.044923e-004 -2.782194e-006 5.082167e-005 1.000330e+000 -1.597465e-002
11397780 1.000229e+000 -7.944531e-003 -8.704929e-005 9.509968e-005 1.967416e-004 -9.155956e-005 1.000700e+000 -1.641671e-002
11472765 1.000597e+000 -7.948813e-003 -2.343034e-005 6.999134e-005 3.281418e-005 -1.296658e-004 1.000612e+000 -1.693118e-002
11547750 1.000366e+000 -7.882876e-003 9.236327e-005 5.778589e-005 4.981913e-005 -2.253942e-005 1.001578e+000 -1.616576e-002
11622735 9.992270e-001 -8.483158e-003 -1.874100e-005 9.424574e-005 1.127549e-004 1.043600e-004 1.000210e+000 -1.584337e-002
11697720 1.000140e+000 -8.154937e-003 -6.055968e-005 -1.981966e-005 1.027820e-004 1.959535e-004 1.001327e+000 -1.617788e-002
11772705 1.000137e+000 -7.623617e-003 -6.000920e-005 7.781522e-005 -1.051744e-004 -1.154846e-005 1.000508e+000 -1.647712e-002
11847690 9.991304e-001 -8.057429e-003 -4.032986e-005 4.503362e-005 7.934576e-005 9.373754e-006 1.002370e+000 -1.637892e-002
11922675 9.996757e-001 -8.167543e-003 -1.450927e-004 -2.065228e-005 7.792465e-005 1.506599e-004 1.001735e+000 -1.606066e-002
11997660 1.000362e+000 -7.922185e-003 -4.902076e-005 4.670203e-005 -6.638795e-006 -1.748652e-004 1.001788e+000 -1.618368e-002
