!Agilent Technologies,N5230C,SG49000117,A.08.50.07
!Agilent N5230C: A.08.50.07
!Date: Monday, March 18, 2024 18:44:38
!Correction: S11(Off) 
!S21(Off) 
!S12(Off) 
!S22(Off) 
!S2P File: Measurements: S11, S21, S12, S22:
# Hz S  RI   R 50
300000000 -4.171996e-005 -1.065803e-004 -5.991982e-001 -6.716838e-001 -2.301039e-006 5.274640e-005 -6.012015e-001 -6.745408e-001
300285000 -2.686439e-005 -7.741783e-005 -6.156727e-001 -6.491495e-001 3.163508e-005 -3.795353e-005 -6.178620e-001 -6.510348e-001
300570000 -6.764767e-005 -5.892120e-005 -6.312922e-001 -6.258202e-001 -1.035330e-005 -2.805202e-005 -6.333687e-001 -6.286956e-001
300855000 -6.293658e-006 1.807845e-005 -6.455293e-001 -6.028755e-001 -6.691531e-006 2.587618e-005 -6.479598e-001 -6.051157e-001
301140000 -3.508010e-006 -6.125682e-005 -6.592225e-001 -5.797257e-001 4.371523e-005 5.827852e-005 -6.621142e-001 -5.822230e-001
301425000 6.566659e-005 -1.279995e-005 -6.719300e-001 -5.563055e-001 6.814943e-005 2.273178e-005 -6.747686e-001 -5.581460e-001
301710000 4.559096e-005 -6.495848e-005 -6.841164e-001 -5.328293e-001 1.447970e-004 8.522182e-005 -6.865829e-001 -5.350357e-001
301995000 3.868145e-005 -6.419975e-005 -6.956559e-001 -5.091658e-001 6.507418e-005 5.676469e-007 -6.981934e-001 -5.112836e-001
302280000 5.556680e-005 9.597966e-005 -7.061480e-001 -4.863728e-001 5.042263e-005 9.092514e-006 -7.080995e-001 -4.878205e-001
302565000 3.047633e-005 -8.621297e-005 -7.156476e-001 -4.633349e-001 -2.632461e-005 -4.576939e-006 -7.180836e-001 -4.647850e-001
302850000 9.094732e-005 2.678471e-005 -7.246644e-001 -4.396863e-001 8.116295e-005 -6.282981e-005 -7.270446e-001 -4.414911e-001
303135000 9.777758e-005 -6.743700e-005 -7.327375e-001 -4.164544e-001 -5.620032e-005 -6.825285e-008 -7.351137e-001 -4.176731e-001
303420000 5.002134e-005 1.401644e-005 -7.405016e-001 -3.937171e-001 -4.784840e-005 7.136257e-005 -7.428092e-001 -3.953278e-001
303705000 2.059405e-005 -4.127757e-005 -7.470795e-001 -3.705205e-001 -2.515738e-005 -2.989533e-005 -7.498376e-001 -3.724194e-001
303990000 2.427356e-006 3.925991e-005 -7.534321e-001 -3.477918e-001 -3.740229e-005 -1.263027e-004 -7.564251e-001 -3.489200e-001
304275000 3.879710e-005 3.763748e-005 -7.586819e-001 -3.250017e-001 -1.274406e-004 -4.602970e-005 -7.621887e-001 -3.262932e-001
304560000 -3.616168e-005 -2.412601e-005 -7.637978e-001 -3.029287e-001 3.053159e-005 -4.759702e-005 -7.668495e-001 -3.039551e-001
304845000 -9.157759e-005 2.628163e-005 -7.685968e-001 -2.801892e-001 3.261074e-006 1.231668e-007 -7.717782e-001 -2.808628e-001
305130000 -2.647431e-005 -3.691752e-005 -7.720674e-001 -2.575205e-001 6.083712e-005 -4.617954e-005 -7.751631e-001 -2.591428e-001
305415000 -8.096796e-005 7.680308e-005 -7.758976e-001 -2.353566e-001 1.914890e-006 -2.784152e-005 -7.788630e-001 -2.363663e-001
305700000 3.741637e-005 5.209334e-005 -7.784336e-001 -2.135457e-001 2.954333e-005 -4.953068e-005 -7.817084e-001 -2.142232e-001
305985000 -4.703052e-005 4.875752e-005 -7.812520e-001 -1.917193e-001 9.792889e-006 4.253751e-005 -7.842230e-001 -1.923372e-001
306270000 -5.145176e-005 -3.642517e-005 -7.828131e-001 -1.698887e-001 9.638917e-005 -4.868824e-005 -7.854336e-001 -1.705147e-001
306555000 -2.156906e-005 -5.793248e-005 -7.837283e-001 -1.482861e-001 6.896094e-005 2.716673e-005 -7.875759e-001 -1.487034e-001
306840000 4.452633e-005 -3.254018e-005 -7.849641e-001 -1.268190e-001 1.022531e-004 1.769645e-005 -7.885807e-001 -1.275146e-001
307125000 4.188038e-005 -2.145555e-005 -7.857211e-001 -1.051949e-001 1.556796e-004 -3.777959e-006 -7.882269e-001 -1.057705e-001
307410000 4.510343e-005 6.690760e-005 -7.848721e-001 -8.460579e-002 -1.952145e-005 3.026615e-005 -7.891009e-001 -8.463129e-002
307695000 5.264950e-005 6.175053e-005 -7.855421e-001 -6.325103e-002 -4.146428e-005 3.229541e-005 -7.879009e-001 -6.368627e-002
307980000 -1.468968e-005 6.187801e-006 -7.846731e-001 -4.248901e-002 -6.306726e-005 -3.606265e-005 -7.870995e-001 -4.239487e-002
308265000 3.105626e-005 6.239340e-005 -7.834240e-001 -2.176459e-002 -3.912545e-007 -6.039055e-006 -7.862362e-001 -2.210543e-002
308550000 1.768626e-005 2.597246e-005 -7.820738e-001 -1.592668e-003 -1.402832e-004 3.363531e-005 -7.843251e-001 -1.832009e-003
308835000 6.570551e-005 -4.909084e-005 -7.796165e-001 1.887418e-002 -6.688761e-005 7.073773e-005 -7.830163e-001 1.953541e-002
309120000 5.649372e-005 -9.119906e-006 -7.771928e-001 3.967972e-002 6.598789e-005 -8.498372e-006 -7.803251e-001 3.968095e-002
309405000 3.132581e-005 1.117274e-005 -7.745125e-001 5.960045e-002 -4.649435e-005 5.000614e-005 -7.778057e-001 6.022551e-002
309690000 -2.045068e-005 -2.702663e-005 -7.717355e-001 7.929450e-002 2.525729e-005 -6.213315e-005 -7.744398e-001 8.001140e-002
309975000 -1.095599e-004 -8.545538e-005 -7.682589e-001 9.960265e-002 -4.935513e-005 -1.505707e-005 -7.708814e-001 9.999620e-002
310260000 -1.878463e-005 -3.552571e-005 -7.643760e-001 1.196690e-001 1.265685e-006 -9.484464e-005 -7.674742e-001 1.200434e-001
310545000 -1.271499e-006 -9.328126e-005 -7.600075e-001 1.390795e-001 -4.451890e-005 -4.651115e-005 -7.631525e-001 1.397651e-001
310830000 -1.838266e-005 -4.505113e-005 -7.555955e-001 1.585086e-001 1.287746e-005 -1.777860e-006 -7.586156e-001 1.591363e-001
311115000 4.062003e-006 8.705607e-005 -7.510439e-001 1.782796e-001 3.500302e-005 -4.236054e-005 -7.540970e-001 1.788533e-001
311400000 1.249640e-005 -1.757396e-005 -7.458473e-001 1.974232e-001 1.227382e-005 -1.094407e-004 -7.485171e-001 1.980415e-001
311685000 1.134133e-004 -2.341151e-005 -7.400170e-001 2.167692e-001 -4.236405e-005 -2.773215e-005 -7.425199e-001 2.175875e-001
311970000 8.570847e-006 1.373003e-005 -7.342243e-001 2.359249e-001 -3.480269e-006 5.801223e-005 -7.371572e-001 2.370079e-001
312255000 -3.348478e-005 -4.382511e-005 -7.276645e-001 2.551734e-001 4.301727e-005 -1.572251e-005 -7.309918e-001 2.562236e-001
312540000 1.881051e-005 2.071776e-006 -7.212567e-001 2.735357e-001 -6.560067e-006 1.728028e-005 -7.239162e-001 2.751448e-001
312825000 -7.178911e-005 -5.062263e-005 -7.138061e-001 2.928911e-001 3.999933e-005 -1.867957e-005 -7.172403e-001 2.942139e-001
313110000 5.228929e-005 3.113107e-007 -7.065288e-001 3.116007e-001 6.566152e-005 -3.557294e-005 -7.094853e-001 3.133878e-001
313395000 9.486188e-005 5.341406e-005 -6.988828e-001 3.305545e-001 6.184165e-005 -5.112350e-005 -7.016322e-001 3.316506e-001
313680000 -9.887449e-005 7.474530e-006 -6.903598e-001 3.495184e-001 -4.911098e-005 7.619741e-005 -6.933084e-001 3.507313e-001
313965000 -4.096275e-005 2.563978e-005 -6.821586e-001 3.678823e-001 -5.354538e-005 1.274644e-004 -6.847015e-001 3.692620e-001
314250000 6.698642e-005 6.378974e-005 -6.738182e-001 3.866302e-001 -4.735527e-005 -1.537046e-005 -6.766416e-001 3.877947e-001
314535000 -9.089499e-005 -1.633073e-005 -6.640477e-001 4.050684e-001 -3.694712e-005 6.829830e-005 -6.667064e-001 4.063859e-001
314820000 -1.101572e-004 5.213926e-005 -6.542124e-001 4.229394e-001 -6.929349e-005 1.887492e-005 -6.576267e-001 4.248216e-001
315105000 -1.543067e-005 2.782264e-005 -6.445152e-001 4.410533e-001 -1.419298e-004 -6.679247e-005 -6.470665e-001 4.430693e-001
315390000 -1.003139e-004 1.780186e-004 -6.340369e-001 4.593622e-001 -3.054336e-005 -4.398820e-006 -6.361521e-001 4.614090e-001
315675000 -7.216170e-005 6.353304e-005 -6.228296e-001 4.777164e-001 1.933339e-005 1.085156e-004 -6.255937e-001 4.796066e-001
315960000 2.496951e-005 1.215624e-005 -6.117737e-001 4.956124e-001 -2.317738e-005 -4.680794e-005 -6.138970e-001 4.979228e-001
316245000 3.467618e-006 9.908755e-006 -5.997863e-001 5.136926e-001 7.586769e-005 2.658561e-005 -6.018085e-001 5.152591e-001
316530000 9.246364e-006 -4.060151e-005 -5.873520e-001 5.313357e-001 1.115128e-004 -2.531538e-005 -5.895589e-001 5.332935e-001
316815000 -7.893982e-006 2.941507e-005 -5.744363e-001 5.489169e-001 4.486214e-005 5.780606e-005 -5.771677e-001 5.511589e-001
317100000 4.602329e-005 -6.176249e-005 -5.609466e-001 5.665324e-001 2.692642e-005 5.000639e-005 -5.630267e-001 5.688639e-001
317385000 1.288947e-004 -6.116028e-005 -5.477501e-001 5.839831e-001 -1.918836e-005 9.159572e-005 -5.496820e-001 5.862042e-001
317670000 1.085806e-005 -8.003582e-005 -5.329567e-001 6.016268e-001 1.937810e-005 1.163825e-004 -5.347978e-001 6.038631e-001
317955000 6.058328e-005 1.136826e-005 -5.176798e-001 6.183906e-001 -5.846133e-005 9.533994e-005 -5.200879e-001 6.208802e-001
318240000 6.006501e-005 4.100436e-005 -5.026743e-001 6.349882e-001 -9.874677e-005 -7.450582e-005 -5.045358e-001 6.382632e-001
318525000 -6.207674e-005 -7.108222e-007 -4.861989e-001 6.521410e-001 -6.138472e-006 4.115194e-005 -4.883052e-001 6.551262e-001
318810000 -1.073173e-004 -5.424123e-005 -4.695072e-001 6.688386e-001 5.594181e-005 -1.422560e-005 -4.716839e-001 6.713677e-001
319095000 1.447225e-005 6.256992e-006 -4.529421e-001 6.853825e-001 -4.069915e-005 6.742620e-005 -4.545902e-001 6.879892e-001
319380000 -4.654789e-005 -1.095368e-005 -4.350873e-001 7.017320e-001 -9.066183e-005 7.791832e-005 -4.363467e-001 7.041343e-001
319665000 -9.560582e-005 -3.946568e-006 -4.167140e-001 7.176904e-001 2.369442e-005 -7.779225e-005 -4.178937e-001 7.206624e-001
319950000 -9.209222e-005 7.166945e-005 -3.974382e-001 7.333899e-001 -1.114347e-005 -5.351773e-005 -3.991227e-001 7.356637e-001
320235000 -7.519024e-006 -6.139561e-005 -3.771935e-001 7.481248e-001 4.502345e-005 5.620066e-005 -3.793724e-001 7.515205e-001
320520000 -9.327802e-005 -5.668796e-006 -3.567067e-001 7.634469e-001 -3.961292e-006 -6.694243e-006 -3.588142e-001 7.671210e-001
320805000 -6.673399e-006 -4.008731e-005 -3.357733e-001 7.784207e-001 -6.919608e-005 5.726673e-005 -3.368585e-001 7.813458e-001
321090000 -2.291014e-005 -3.384508e-005 -3.134350e-001 7.928423e-001 -1.010278e-004 -1.097501e-004 -3.152711e-001 7.957889e-001
321375000 -8.675148e-005 -5.338886e-006 -2.915947e-001 8.065262e-001 -5.938869e-005 3.269805e-005 -2.923028e-001 8.097287e-001
321660000 3.389913e-005 3.418337e-005 -2.674884e-001 8.198966e-001 -1.127943e-004 1.617696e-005 -2.686650e-001 8.231805e-001
321945000 7.747779e-005 -5.405343e-006 -2.437382e-001 8.329531e-001 -6.695362e-005 -2.505623e-005 -2.448325e-001 8.360346e-001
322230000 -1.000420e-005 4.908050e-005 -2.190615e-001 8.449582e-001 -1.059451e-005 -8.645817e-005 -2.199481e-001 8.485747e-001
322515000 1.109062e-006 -9.224832e-005 -1.933941e-001 8.568390e-001 9.228440e-005 -1.532625e-004 -1.948695e-001 8.602616e-001
322800000 1.939980e-005 -1.483310e-005 -1.674623e-001 8.680983e-001 -1.362644e-006 3.249690e-005 -1.678783e-001 8.717817e-001
323085000 -6.957327e-005 1.593893e-005 -1.406833e-001 8.783222e-001 3.038958e-005 5.756496e-005 -1.409989e-001 8.819308e-001
323370000 9.480674e-005 1.265447e-004 -1.129771e-001 8.879946e-001 6.199500e-005 -8.642853e-005 -1.130554e-001 8.917736e-001
323655000 -1.470262e-005 7.720010e-005 -8.418657e-002 8.971228e-001 2.042085e-005 -1.460699e-004 -8.455199e-002 9.005513e-001
323940000 2.425267e-006 7.006417e-006 -5.517250e-002 9.048657e-001 9.115562e-005 -7.475647e-005 -5.480102e-002 9.090439e-001
324225000 -3.925814e-005 -1.973773e-005 -2.482344e-002 9.117883e-001 -3.330807e-005 1.011641e-004 -2.454986e-002 9.161409e-001
324510000 -3.884101e-006 3.352673e-006 5.784335e-003 9.182627e-001 -2.202337e-005 5.813623e-005 5.859945e-003 9.223610e-001
324795000 -3.946948e-005 9.376902e-005 3.711554e-002 9.239593e-001 2.331069e-005 7.078249e-005 3.727500e-002 9.270788e-001
325080000 -5.140412e-005 9.436854e-005 6.947915e-002 9.277918e-001 5.770739e-005 -3.208787e-005 6.948707e-002 9.318780e-001
325365000 2.416687e-005 3.386045e-005 1.019396e-001 9.309693e-001 -2.563142e-005 2.162673e-005 1.019427e-001 9.344298e-001
325650000 1.408525e-005 -4.639323e-005 1.347421e-001 9.323868e-001 5.361962e-006 4.108768e-006 1.350294e-001 9.357598e-001
325935000 -2.876942e-006 2.468065e-005 1.688494e-001 9.326752e-001 -4.742731e-005 -6.462835e-006 1.692394e-001 9.360889e-001
326220000 3.284676e-005 -4.652233e-005 2.029258e-001 9.314835e-001 -4.101748e-005 3.614438e-005 2.034399e-001 9.354594e-001
326505000 -8.794011e-006 1.546208e-005 2.368232e-001 9.295539e-001 2.278004e-005 -9.524049e-006 2.387511e-001 9.329894e-001
326790000 3.038477e-005 -1.500900e-006 2.722073e-001 9.254155e-001 -1.076376e-007 -9.042028e-005 2.734728e-001 9.287767e-001
327075000 -7.088427e-005 -7.581488e-006 3.070645e-001 9.199765e-001 -1.276815e-004 -4.229126e-005 3.084089e-001 9.239816e-001
327360000 5.971331e-005 -4.640358e-005 3.427909e-001 9.129578e-001 -5.393901e-005 3.132884e-006 3.437999e-001 9.168849e-001
327645000 4.297447e-005 -6.325865e-005 3.782827e-001 9.047807e-001 5.114785e-005 -4.360234e-005 3.797400e-001 9.081490e-001
327930000 4.954600e-005 1.068280e-005 4.134174e-001 8.939206e-001 2.617317e-005 -4.670100e-005 4.149844e-001 8.979425e-001
328215000 -1.860582e-005 -8.924912e-005 4.489494e-001 8.821485e-001 2.132802e-005 1.410353e-004 4.507338e-001 8.859508e-001
328500000 4.258769e-007 -2.498639e-006 4.845895e-001 8.688806e-001 -5.288939e-005 -5.577799e-005 4.862280e-001 8.727244e-001
328785000 -5.066528e-005 -6.680456e-005 5.192182e-001 8.529857e-001 1.670952e-005 1.252782e-004 5.211174e-001 8.574491e-001
329070000 -2.109804e-005 -1.455943e-005 5.530962e-001 8.363246e-001 -6.785912e-005 7.563754e-006 5.551842e-001 8.401411e-001
329355000 -1.891791e-005 -5.738034e-005 5.878507e-001 8.175241e-001 3.634316e-005 2.315133e-005 5.902761e-001 8.209255e-001
329640000 -5.737874e-005 -5.647948e-006 6.205706e-001 7.972228e-001 2.922118e-005 -6.918375e-007 6.232907e-001 8.000672e-001
329925000 3.875241e-005 5.686848e-005 6.532518e-001 7.749726e-001 3.743745e-005 -7.246921e-005 6.563329e-001 7.785612e-001
330210000 1.672645e-005 -6.158358e-005 6.852251e-001 7.513170e-001 -1.604686e-005 1.455024e-007 6.882197e-001 7.542475e-001
330495000 2.295797e-005 1.594219e-005 7.156014e-001 7.256967e-001 6.705237e-005 1.180175e-004 7.184570e-001 7.284978e-001
330780000 -1.209940e-005 -5.173996e-005 7.447424e-001 6.980584e-001 -1.262912e-005 -1.090972e-006 7.480420e-001 7.007744e-001
331065000 -7.781072e-005 1.618920e-004 7.732329e-001 6.703814e-001 1.261045e-005 8.346418e-005 7.766865e-001 6.724666e-001
331350000 1.068003e-006 1.190869e-004 8.006282e-001 6.396281e-001 5.238691e-005 5.737291e-005 8.041157e-001 6.422784e-001
331635000 3.541519e-005 6.371263e-005 8.257611e-001 6.078357e-001 -2.280838e-005 3.668846e-005 8.299447e-001 6.107985e-001
331920000 -7.562782e-005 2.007217e-005 8.500078e-001 5.760450e-001 -6.865032e-005 2.284291e-005 8.533083e-001 5.781172e-001
332205000 -7.911953e-005 -5.997728e-005 8.726785e-001 5.417545e-001 -3.873239e-006 -3.187773e-005 8.758229e-001 5.437130e-001
332490000 3.598086e-005 -4.720826e-005 8.929111e-001 5.065687e-001 -4.590661e-006 1.888902e-005 8.964752e-001 5.090984e-001
332775000 -2.359375e-005 1.118201e-004 9.115726e-001 4.703696e-001 1.594027e-006 2.795402e-005 9.157381e-001 4.726499e-001
333060000 -3.350071e-005 6.589950e-005 9.290552e-001 4.337199e-001 8.535146e-005 9.687214e-005 9.331684e-001 4.359581e-001
333345000 9.846031e-006 -1.143766e-004 9.445455e-001 3.965772e-001 -2.378752e-005 4.695078e-005 9.483616e-001 3.983161e-001
333630000 2.284527e-005 3.772737e-005 9.572183e-001 3.584064e-001 -1.363440e-004 4.210751e-005 9.620395e-001 3.597527e-001
333915000 -4.327832e-005 3.777280e-006 9.691551e-001 3.201249e-001 -6.376085e-005 -1.077665e-005 9.735535e-001 3.215575e-001
334200000 -1.190158e-004 -1.814644e-005 9.784868e-001 2.815543e-001 -7.672014e-005 -7.097250e-005 9.834129e-001 2.829751e-001
334485000 -1.164309e-004 8.093660e-005 9.861107e-001 2.420671e-001 -6.233346e-005 5.477600e-005 9.905599e-001 2.434243e-001
334770000 -9.480565e-006 5.371956e-005 9.921551e-001 2.037421e-001 -3.844514e-006 -6.548263e-005 9.964253e-001 2.041776e-001
335055000 6.166256e-005 2.678972e-005 9.964147e-001 1.646299e-001 -1.074645e-005 1.672607e-005 1.000932e+000 1.653414e-001
335340000 -5.890978e-006 1.146410e-004 9.983006e-001 1.261678e-001 -1.791833e-005 4.094244e-005 1.002190e+000 1.264198e-001
335625000 -6.843041e-005 8.546999e-005 9.984287e-001 8.733945e-002 4.144530e-005 -7.668797e-005 1.002831e+000 8.775292e-002
335910000 -1.195233e-004 1.939010e-005 9.969999e-001 4.942407e-002 -4.385154e-005 -4.199994e-008 1.001217e+000 4.988742e-002
336195000 7.416654e-006 2.722493e-005 9.935210e-001 1.200064e-002 -5.407905e-005 -1.836565e-005 9.982060e-001 1.228260e-002
336480000 6.030948e-006 6.186616e-005 9.889049e-001 -2.465298e-002 4.871607e-008 -7.100910e-005 9.930993e-001 -2.440954e-002
336765000 2.291625e-005 -7.755330e-005 9.827536e-001 -6.102024e-002 -4.712770e-005 -3.836209e-005 9.869167e-001 -6.123794e-002
337050000 -4.015080e-005 -3.572899e-005 9.746134e-001 -9.628675e-002 4.014168e-005 -7.259050e-005 9.789716e-001 -9.689581e-002
337335000 3.413633e-005 -3.192043e-006 9.658584e-001 -1.315512e-001 5.759358e-005 -4.440414e-005 9.697106e-001 -1.315473e-001
337620000 -3.453564e-005 -4.104238e-006 9.545555e-001 -1.653121e-001 -1.376882e-005 1.162154e-004 9.586178e-001 -1.656522e-001
337905000 -1.013261e-004 -2.713029e-005 9.431916e-001 -1.981119e-001 -7.983276e-005 -2.755647e-005 9.474728e-001 -1.989661e-001
338190000 -1.033892e-004 5.229062e-005 9.302444e-001 -2.300722e-001 1.015225e-004 -5.320582e-005 9.341370e-001 -2.313638e-001
338475000 -7.336536e-005 4.820765e-005 9.159037e-001 -2.612718e-001 5.120832e-005 5.440212e-005 9.200713e-001 -2.620631e-001
338760000 -3.436653e-005 -9.476843e-006 9.008455e-001 -2.909871e-001 5.163899e-005 -6.573532e-005 9.051533e-001 -2.920701e-001
339045000 -1.184700e-004 -9.034300e-005 8.854241e-001 -3.205500e-001 -4.793559e-005 -3.521218e-005 8.893152e-001 -3.219409e-001
339330000 -2.303541e-005 2.710736e-005 8.678379e-001 -3.480234e-001 2.728944e-005 -3.557800e-005 8.720534e-001 -3.496099e-001
339615000 -5.153160e-005 -2.343318e-005 8.505499e-001 -3.753552e-001 -9.225337e-006 -1.542263e-005 8.548033e-001 -3.773365e-001
339900000 -3.202042e-005 1.441620e-006 8.329756e-001 -4.011931e-001 5.405804e-005 3.700659e-006 8.362560e-001 -4.026679e-001
340185000 -7.462905e-005 -4.861357e-005 8.140905e-001 -4.254282e-001 -1.095829e-005 4.641651e-005 8.171135e-001 -4.275733e-001
340470000 -8.115121e-005 -2.099392e-005 7.945491e-001 -4.493984e-001 -3.623988e-005 1.114545e-004 7.974852e-001 -4.511003e-001
340755000 -5.719453e-005 -2.187856e-005 7.744151e-001 -4.721493e-001 -5.637042e-005 1.295681e-005 7.778211e-001 -4.742391e-001
341040000 7.131297e-005 -1.066398e-004 7.542889e-001 -4.940255e-001 3.740807e-005 5.388618e-005 7.569802e-001 -4.959111e-001
341325000 1.124859e-004 -1.261275e-005 7.331418e-001 -5.147946e-001 -3.575681e-005 5.202559e-005 7.366571e-001 -5.164229e-001
341610000 6.728611e-005 5.933603e-005 7.122322e-001 -5.342566e-001 2.078136e-005 1.740390e-005 7.150972e-001 -5.361457e-001
341895000 2.304431e-005 3.046099e-005 6.909460e-001 -5.529606e-001 4.732124e-005 7.369660e-005 6.937886e-001 -5.556211e-001
342180000 -2.401620e-005 1.033086e-004 6.689489e-001 -5.707937e-001 -1.076419e-004 1.291494e-004 6.719130e-001 -5.728506e-001
342465000 -1.190247e-005 -5.298617e-006 6.472559e-001 -5.880778e-001 -9.560648e-005 -5.939533e-005 6.502578e-001 -5.903412e-001
342750000 -2.629984e-005 9.988476e-006 6.252756e-001 -6.036827e-001 -4.812486e-005 1.445060e-005 6.276009e-001 -6.064162e-001
343035000 -9.134971e-005 1.056148e-004 6.026889e-001 -6.186924e-001 -6.368082e-005 -1.066896e-004 6.053289e-001 -6.212888e-001
343320000 3.465880e-005 -6.061533e-005 5.805095e-001 -6.327572e-001 2.876447e-005 -5.860217e-005 5.832567e-001 -6.356171e-001
343605000 4.008666e-005 -1.331474e-005 5.585104e-001 -6.462610e-001 7.289436e-006 -3.208503e-005 5.610390e-001 -6.488088e-001
343890000 -2.862361e-005 -1.355524e-005 5.359350e-001 -6.591743e-001 2.270655e-005 -4.218151e-005 5.379288e-001 -6.617152e-001
