!Agilent Technologies,N5230C,SG49000117,A.08.50.07
!Agilent N5230C: A.08.50.07
!Date: Monday, March 18, 2024 18:45:48
!Correction: S11(Off) 
!S21(Off) 
!S12(Off) 
!S22(Off) 
!S2P File: Measurements: S11, S21, S12, S22:
# Hz S  RI   R 50
300000000 6.161524e-005 -1.013163e-004 -6.056426e-001 -6.675841e-001 -3.698534e-005 -1.000077e-004 -6.083905e-001 -6.696140e-001
300285000 2.951306e-006 -7.517901e-005 -6.218458e-001 -6.443212e-001 -1.779528e-005 -9.790020e-006 -6.242459e-001 -6.471697e-001
300570000 -4.197365e-005 -5.953640e-005 -6.361329e-001 -6.211914e-001 5.148128e-006 -1.286790e-004 -6.391088e-001 -6.235672e-001
300855000 -3.389011e-005 2.389292e-005 -6.512333e-001 -5.978829e-001 2.000928e-005 -2.528802e-005 -6.536806e-001 -5.997812e-001
301140000 6.575803e-005 -6.243400e-005 -6.650852e-001 -5.746058e-001 4.862262e-005 5.317840e-005 -6.668489e-001 -5.762100e-001
301425000 6.900978e-006 -1.504647e-005 -6.777187e-001 -5.512862e-001 -3.226239e-006 3.384564e-005 -6.799825e-001 -5.532703e-001
301710000 1.127226e-004 2.498355e-005 -6.897490e-001 -5.278070e-001 -4.184045e-007 1.344459e-004 -6.919996e-001 -5.294414e-001
301995000 -3.119791e-005 7.371619e-006 -7.005881e-001 -5.046757e-001 -9.215375e-006 7.029444e-005 -7.028832e-001 -5.062137e-001
302280000 3.044302e-006 4.784528e-005 -7.106985e-001 -4.808034e-001 -1.733491e-005 7.769853e-005 -7.133893e-001 -4.825132e-001
302565000 7.332933e-005 1.732565e-005 -7.201170e-001 -4.574425e-001 8.579907e-006 1.500567e-006 -7.228202e-001 -4.587244e-001
302850000 -1.158986e-004 -8.289250e-005 -7.285959e-001 -4.346367e-001 -2.820611e-005 7.201567e-005 -7.313961e-001 -4.359969e-001
303135000 -2.233949e-005 3.161467e-005 -7.364422e-001 -4.108594e-001 -3.475069e-005 4.979282e-005 -7.396454e-001 -4.117821e-001
303420000 -2.137452e-005 3.927347e-005 -7.443869e-001 -3.879634e-001 6.260939e-006 -7.252061e-005 -7.471189e-001 -3.894406e-001
303705000 1.325174e-005 -7.274036e-005 -7.508988e-001 -3.649121e-001 -1.438031e-004 -9.436601e-006 -7.536552e-001 -3.659738e-001
303990000 -4.383252e-005 7.143283e-006 -7.572511e-001 -3.417429e-001 -2.691496e-005 -2.738282e-005 -7.599170e-001 -3.430598e-001
304275000 1.606473e-006 5.783555e-005 -7.624240e-001 -3.192631e-001 -3.764042e-005 1.008821e-004 -7.646607e-001 -3.202563e-001
304560000 5.021366e-005 9.814785e-006 -7.674418e-001 -2.965464e-001 3.151615e-005 -4.316260e-005 -7.700911e-001 -2.974318e-001
304845000 -6.438776e-005 4.909496e-006 -7.718682e-001 -2.742482e-001 3.662291e-005 -3.583059e-005 -7.745879e-001 -2.752551e-001
305130000 1.483741e-006 -4.000876e-005 -7.752698e-001 -2.517831e-001 -8.469419e-006 -2.615148e-005 -7.781093e-001 -2.528469e-001
305415000 -7.108587e-006 -3.860853e-005 -7.788803e-001 -2.301485e-001 9.250494e-006 -4.839751e-005 -7.819416e-001 -2.308362e-001
305700000 -7.064998e-005 4.279822e-005 -7.813151e-001 -2.079190e-001 -9.169265e-005 5.422701e-005 -7.846597e-001 -2.085181e-001
305985000 -7.592246e-006 1.443629e-006 -7.834598e-001 -1.857290e-001 2.908491e-005 6.192974e-005 -7.863067e-001 -1.866463e-001
306270000 4.759875e-006 1.716417e-005 -7.849372e-001 -1.639089e-001 6.299574e-005 -1.028616e-005 -7.879292e-001 -1.647112e-001
306555000 7.147767e-006 -1.844507e-005 -7.862538e-001 -1.421015e-001 4.177096e-005 2.606630e-005 -7.895954e-001 -1.428363e-001
306840000 -2.080946e-005 1.054095e-004 -7.869846e-001 -1.205332e-001 7.165036e-005 -3.911454e-005 -7.901166e-001 -1.211916e-001
307125000 9.468272e-005 3.092997e-006 -7.872410e-001 -9.989793e-002 -2.972110e-005 5.869267e-005 -7.901882e-001 -9.991448e-002
307410000 1.024224e-004 -2.682247e-005 -7.874544e-001 -7.825904e-002 -6.075977e-006 -7.985685e-006 -7.906467e-001 -7.840650e-002
307695000 2.835614e-005 1.694204e-004 -7.873173e-001 -5.769419e-002 1.940898e-005 4.333376e-006 -7.900833e-001 -5.786937e-002
307980000 -1.346142e-005 3.499510e-005 -7.860927e-001 -3.640760e-002 -3.070816e-005 8.085879e-005 -7.886127e-001 -3.673867e-002
308265000 8.251664e-005 5.606357e-005 -7.844251e-001 -1.604493e-002 -2.469221e-008 2.167781e-006 -7.879203e-001 -1.579461e-002
308550000 1.397502e-005 7.086447e-005 -7.834321e-001 4.900827e-003 4.093302e-005 -4.208095e-005 -7.858036e-001 5.006820e-003
308835000 -1.172947e-004 -1.309617e-005 -7.809240e-001 2.487682e-002 -3.378214e-005 -7.261373e-005 -7.838125e-001 2.514167e-002
309120000 5.163693e-006 -2.791392e-005 -7.780400e-001 4.587362e-002 1.094341e-005 -1.727944e-005 -7.811113e-001 4.555001e-002
309405000 -5.282869e-005 -1.085780e-004 -7.754954e-001 6.504032e-002 3.845165e-005 -3.117495e-005 -7.784359e-001 6.607687e-002
309690000 -6.096225e-005 -2.011736e-006 -7.720942e-001 8.546803e-002 -8.055569e-005 -1.474406e-005 -7.753047e-001 8.572491e-002
309975000 5.569130e-005 -1.568919e-005 -7.687613e-001 1.057944e-001 -3.329375e-005 6.167476e-005 -7.716228e-001 1.063097e-001
310260000 -3.835968e-005 -1.023011e-004 -7.647859e-001 1.255333e-001 -1.011601e-005 -2.742881e-005 -7.678015e-001 1.259591e-001
310545000 -2.843208e-005 -1.771187e-005 -7.605957e-001 1.453201e-001 -4.345439e-005 1.849438e-005 -7.634800e-001 1.457230e-001
310830000 6.704676e-005 -1.077963e-005 -7.559842e-001 1.650679e-001 -7.131497e-005 1.376644e-006 -7.588409e-001 1.654575e-001
311115000 1.583060e-004 -5.009682e-006 -7.511377e-001 1.844314e-001 3.115850e-005 6.326755e-005 -7.542773e-001 1.851328e-001
311400000 9.188704e-005 8.668887e-005 -7.456203e-001 2.029144e-001 -8.658601e-006 -2.851231e-006 -7.482011e-001 2.045628e-001
311685000 2.148232e-005 -9.587943e-005 -7.398181e-001 2.229003e-001 -3.019013e-005 4.072192e-005 -7.423705e-001 2.235996e-001
311970000 1.010812e-005 1.112497e-004 -7.337192e-001 2.421780e-001 9.160840e-005 1.988810e-005 -7.366545e-001 2.428211e-001
312255000 -4.586518e-005 2.237902e-005 -7.273839e-001 2.615188e-001 -6.100141e-005 -2.156125e-005 -7.303055e-001 2.625988e-001
312540000 2.569700e-005 -5.130156e-005 -7.207600e-001 2.800280e-001 3.832723e-005 5.365899e-005 -7.227893e-001 2.813691e-001
312825000 -2.363307e-005 -1.225838e-004 -7.134910e-001 2.992114e-001 3.016374e-006 7.473276e-005 -7.157753e-001 3.003614e-001
313110000 -1.233409e-005 4.391657e-005 -7.061524e-001 3.176734e-001 6.103863e-006 -7.026347e-006 -7.087047e-001 3.191142e-001
313395000 7.913213e-005 -1.085467e-004 -6.982417e-001 3.370647e-001 -5.582668e-005 -3.675455e-005 -7.010414e-001 3.380794e-001
313680000 5.640046e-005 -1.204242e-005 -6.897921e-001 3.550715e-001 -1.521704e-004 7.907335e-005 -6.923825e-001 3.567879e-001
313965000 2.486831e-005 -4.580770e-005 -6.814233e-001 3.743253e-001 -8.068473e-006 5.262278e-005 -6.840218e-001 3.751767e-001
314250000 -9.298659e-005 -2.486372e-005 -6.718702e-001 3.923575e-001 -3.561552e-005 2.556336e-005 -6.747030e-001 3.940681e-001
314535000 5.128668e-005 4.013136e-005 -6.624321e-001 4.107276e-001 2.200954e-005 -7.053316e-005 -6.654260e-001 4.122819e-001
314820000 1.641127e-005 6.232323e-006 -6.530063e-001 4.290846e-001 -2.305350e-005 -3.457978e-005 -6.556002e-001 4.309093e-001
315105000 1.561346e-005 6.736181e-005 -6.425987e-001 4.474462e-001 -4.329985e-005 2.530272e-005 -6.450786e-001 4.491481e-001
315390000 6.265446e-005 -7.483873e-005 -6.320236e-001 4.660910e-001 -1.418010e-005 -1.835974e-005 -6.344342e-001 4.676241e-001
315675000 2.506832e-005 3.385934e-005 -6.204072e-001 4.840961e-001 2.327262e-005 -5.203929e-005 -6.233082e-001 4.853860e-001
315960000 -8.643560e-005 -3.159279e-005 -6.096821e-001 5.023039e-001 2.750312e-005 1.157864e-005 -6.116773e-001 5.040624e-001
316245000 3.064390e-005 -1.178185e-005 -5.970520e-001 5.198486e-001 -2.384854e-005 7.540205e-005 -5.994006e-001 5.215392e-001
316530000 -4.917280e-006 4.571455e-005 -5.845606e-001 5.370931e-001 -3.279852e-005 -4.826193e-005 -5.866808e-001 5.394814e-001
316815000 -9.977251e-006 6.827604e-005 -5.715248e-001 5.548155e-001 -7.983694e-005 -1.316653e-004 -5.739043e-001 5.571840e-001
317100000 -6.996389e-006 -4.386506e-005 -5.581123e-001 5.725719e-001 2.536555e-005 2.442693e-006 -5.602072e-001 5.751604e-001
317385000 -8.388846e-005 1.154786e-004 -5.444172e-001 5.901031e-001 -1.957357e-005 -3.773291e-005 -5.461863e-001 5.924256e-001
317670000 6.587098e-005 -5.893726e-005 -5.297523e-001 6.071506e-001 8.270571e-005 1.106945e-004 -5.318682e-001 6.099582e-001
317955000 2.201684e-005 -2.456418e-005 -5.145212e-001 6.242213e-001 1.691209e-004 -1.773985e-005 -5.167686e-001 6.268446e-001
318240000 9.102629e-005 1.635307e-004 -4.986746e-001 6.409889e-001 -7.150297e-005 5.466751e-005 -5.010239e-001 6.441048e-001
318525000 -5.196505e-005 -3.919973e-005 -4.828018e-001 6.584885e-001 -9.728080e-007 6.029800e-005 -4.847486e-001 6.606514e-001
318810000 5.389676e-006 -9.839964e-005 -4.663290e-001 6.750193e-001 3.801130e-005 2.740631e-005 -4.682693e-001 6.778858e-001
319095000 -3.832799e-005 -2.217694e-005 -4.485410e-001 6.911299e-001 -5.333816e-005 -5.138788e-005 -4.499667e-001 6.945950e-001
319380000 -3.420317e-005 3.334462e-005 -4.306387e-001 7.074402e-001 3.622067e-005 1.067829e-005 -4.317676e-001 7.103612e-001
319665000 6.338542e-006 -4.304255e-005 -4.117892e-001 7.234079e-001 8.114002e-005 1.327687e-005 -4.130592e-001 7.266350e-001
319950000 -1.587510e-005 5.405983e-005 -3.922663e-001 7.386897e-001 1.678612e-004 4.232370e-005 -3.939984e-001 7.417611e-001
320235000 -3.009062e-006 -8.511711e-005 -3.725224e-001 7.543068e-001 -3.525850e-005 1.123487e-005 -3.740960e-001 7.572790e-001
320520000 -5.548645e-005 -1.430788e-004 -3.518022e-001 7.693698e-001 2.609185e-005 -7.718268e-005 -3.531517e-001 7.727465e-001
320805000 -4.098148e-005 -7.803957e-005 -3.305429e-001 7.834466e-001 6.927667e-005 -2.088004e-005 -3.315887e-001 7.873073e-001
321090000 -3.428249e-005 -7.889076e-005 -3.082681e-001 7.981469e-001 1.226995e-004 3.680158e-005 -3.089688e-001 8.011362e-001
321375000 -4.641879e-005 -3.533814e-005 -2.852100e-001 8.116688e-001 3.358020e-005 -4.284891e-005 -2.863987e-001 8.150609e-001
321660000 1.324833e-005 -6.851095e-006 -2.617550e-001 8.253409e-001 -5.692621e-005 -1.169035e-004 -2.624070e-001 8.289348e-001
321945000 -1.072240e-005 -1.085738e-005 -2.369588e-001 8.381151e-001 -1.719042e-004 -2.908004e-007 -2.381406e-001 8.417422e-001
322230000 -7.400002e-005 -9.244671e-006 -2.124603e-001 8.501373e-001 5.182710e-005 1.746889e-005 -2.137589e-001 8.537396e-001
322515000 -1.746871e-005 1.042790e-005 -1.865408e-001 8.614021e-001 -6.432603e-005 6.294373e-005 -1.872757e-001 8.653590e-001
322800000 -3.011323e-005 3.467613e-005 -1.601361e-001 8.729338e-001 -3.541540e-005 6.122576e-005 -1.606531e-001 8.765726e-001
323085000 -1.020296e-004 -1.100555e-005 -1.328923e-001 8.833200e-001 -1.097955e-005 -6.150892e-005 -1.337215e-001 8.867211e-001
323370000 -4.306880e-005 -8.775385e-005 -1.044169e-001 8.926466e-001 3.186736e-005 -9.676098e-005 -1.054304e-001 8.957399e-001
323655000 4.721689e-005 -1.235798e-004 -7.596892e-002 9.008823e-001 8.119147e-005 -1.450471e-004 -7.688953e-002 9.048699e-001
323940000 -3.435666e-005 -2.594985e-005 -4.661638e-002 9.093734e-001 3.128998e-005 -6.454065e-005 -4.674008e-002 9.129580e-001
324225000 1.752223e-006 4.603645e-005 -1.637468e-002 9.161977e-001 1.154245e-004 -5.589793e-005 -1.659964e-002 9.196740e-001
324510000 1.002742e-004 -1.302530e-005 1.517211e-002 9.217212e-001 1.143328e-005 2.644829e-005 1.459396e-002 9.255372e-001
324795000 2.744012e-005 -3.430596e-005 4.587122e-002 9.262891e-001 -4.091427e-005 8.217818e-005 4.657156e-002 9.307407e-001
325080000 3.142245e-005 1.634304e-004 7.808438e-002 9.302274e-001 -3.762242e-005 6.658614e-005 7.847451e-002 9.350464e-001
325365000 6.324404e-005 4.412803e-005 1.106958e-001 9.332450e-001 -9.026122e-006 1.038561e-004 1.112961e-001 9.372035e-001
325650000 8.360764e-005 -2.370767e-005 1.441855e-001 9.346620e-001 8.540927e-006 -1.639543e-006 1.450438e-001 9.381548e-001
325935000 -5.111629e-005 4.642221e-005 1.787950e-001 9.342250e-001 1.224348e-005 3.167995e-005 1.792673e-001 9.381933e-001
326220000 4.478343e-005 5.810779e-005 2.128899e-001 9.329598e-001 -9.576442e-005 6.298576e-005 2.137783e-001 9.370092e-001
326505000 -7.719966e-005 9.010729e-005 2.472021e-001 9.302012e-001 -5.846577e-005 6.829170e-005 2.485601e-001 9.344372e-001
326790000 5.605217e-005 -7.074863e-005 2.826683e-001 9.262611e-001 8.940566e-005 -5.087627e-005 2.837395e-001 9.297850e-001
327075000 -9.544395e-005 -2.861540e-005 3.180696e-001 9.200196e-001 -5.363959e-005 -1.335822e-004 3.194930e-001 9.238413e-001
327360000 8.424353e-006 3.877052e-006 3.532383e-001 9.132245e-001 -3.562131e-006 -7.370728e-005 3.547402e-001 9.165215e-001
327645000 -3.095830e-005 3.953075e-005 3.896298e-001 9.042336e-001 5.801835e-005 -7.103671e-005 3.903518e-001 9.081670e-001
327930000 5.030215e-005 -8.834606e-005 4.241882e-001 8.931028e-001 6.988530e-005 1.945758e-005 4.263701e-001 8.969837e-001
328215000 2.584534e-005 -5.780615e-005 4.598320e-001 8.806633e-001 -7.968903e-005 8.005964e-005 4.618866e-001 8.849340e-001
328500000 3.616866e-006 -6.959627e-005 4.951801e-001 8.669963e-001 -2.401732e-005 -8.604750e-005 4.979739e-001 8.708622e-001
328785000 5.252200e-005 -2.251214e-005 5.294776e-001 8.509248e-001 4.200698e-005 2.941512e-005 5.325322e-001 8.548822e-001
329070000 -3.679957e-005 1.032131e-004 5.645366e-001 8.337631e-001 -1.484760e-005 6.096995e-005 5.670491e-001 8.366940e-001
329355000 -1.349626e-005 -1.248088e-005 5.981599e-001 8.144510e-001 2.786294e-005 4.804782e-005 6.013470e-001 8.173715e-001
329640000 4.455039e-005 4.970066e-005 6.323468e-001 7.937405e-001 -3.539106e-005 5.412103e-007 6.342795e-001 7.966146e-001
329925000 -5.294467e-005 3.781256e-006 6.643786e-001 7.709646e-001 2.306255e-005 -8.099664e-005 6.671246e-001 7.735978e-001
330210000 -9.161338e-005 7.329370e-005 6.956349e-001 7.462417e-001 -7.263301e-005 9.901443e-006 6.987240e-001 7.491114e-001
330495000 -4.930489e-005 -1.244735e-004 7.258668e-001 7.200099e-001 6.274495e-005 -3.074676e-005 7.288886e-001 7.225047e-001
330780000 5.464405e-005 -1.874312e-005 7.554703e-001 6.923912e-001 -1.737354e-005 -1.990287e-005 7.583413e-001 6.952385e-001
331065000 1.282133e-005 6.840803e-005 7.836604e-001 6.631719e-001 -9.167987e-006 -6.397290e-005 7.867510e-001 6.661602e-001
331350000 1.263114e-005 1.251631e-004 8.102999e-001 6.322796e-001 5.911156e-005 -4.864723e-005 8.133268e-001 6.353729e-001
331635000 -9.319312e-005 -1.039692e-004 8.350167e-001 5.999461e-001 6.004941e-005 1.252675e-004 8.388305e-001 6.035742e-001
331920000 6.046315e-005 -1.001980e-004 8.590105e-001 5.675396e-001 -3.906528e-005 1.544506e-005 8.626050e-001 5.699742e-001
332205000 -8.593495e-005 3.062744e-005 8.814283e-001 5.334105e-001 -5.874399e-005 1.209688e-004 8.854566e-001 5.352658e-001
332490000 -6.149504e-005 -6.656195e-005 9.012892e-001 4.973744e-001 2.698009e-005 1.142176e-004 9.048597e-001 4.993452e-001
332775000 -8.065707e-005 -4.493474e-006 9.195440e-001 4.609828e-001 -1.624026e-004 -3.837762e-005 9.240158e-001 4.628444e-001
333060000 -5.847799e-005 3.169961e-005 9.371035e-001 4.244769e-001 -5.001360e-005 6.496610e-005 9.406666e-001 4.262197e-001
333345000 2.705112e-005 1.373047e-004 9.507473e-001 3.860439e-001 6.527411e-005 7.438606e-005 9.547512e-001 3.879262e-001
333630000 -1.344236e-004 -1.037131e-005 9.644063e-001 3.481119e-001 1.155106e-004 -7.097761e-005 9.683856e-001 3.501073e-001
333915000 -9.665975e-005 2.388707e-005 9.749783e-001 3.097781e-001 -2.885876e-005 -7.372344e-005 9.793088e-001 3.109650e-001
334200000 -1.252760e-005 3.609794e-005 9.842189e-001 2.707281e-001 -2.108504e-005 1.840336e-005 9.887149e-001 2.721245e-001
334485000 9.427677e-005 1.505030e-004 9.914577e-001 2.316175e-001 -5.988461e-005 7.591860e-005 9.959309e-001 2.327457e-001
334770000 1.683364e-004 8.170347e-006 9.966561e-001 1.928551e-001 5.995678e-005 6.496585e-005 1.001190e+000 1.930924e-001
335055000 3.335293e-005 2.297099e-005 1.000368e+000 1.535665e-001 -2.423502e-005 -3.046228e-005 1.004491e+000 1.539886e-001
335340000 6.899567e-005 -4.144147e-006 1.001049e+000 1.151395e-001 -5.955819e-005 -8.168926e-005 1.005938e+000 1.154533e-001
335625000 -2.970399e-005 -2.057568e-005 1.001162e+000 7.635310e-002 1.596757e-005 -6.979703e-005 1.005668e+000 7.690712e-002
335910000 -2.670675e-005 4.903359e-005 9.987224e-001 3.831196e-002 -5.421961e-005 -5.411584e-005 1.002603e+000 3.836910e-002
336195000 1.598151e-005 1.453459e-004 9.957915e-001 1.136530e-003 5.651878e-005 1.008772e-004 1.000086e+000 4.499923e-004
336480000 -3.726446e-005 -7.319389e-005 9.905093e-001 -3.619180e-002 -1.147894e-004 5.062209e-005 9.940223e-001 -3.572232e-002
336765000 4.117057e-005 6.253982e-005 9.834396e-001 -7.230628e-002 -2.375706e-005 3.045043e-005 9.877113e-001 -7.206603e-002
337050000 -2.120074e-005 -3.605823e-005 9.754452e-001 -1.077246e-001 -8.382429e-005 1.622183e-006 9.795000e-001 -1.083748e-001
337335000 3.575232e-005 -5.107267e-005 9.658108e-001 -1.424401e-001 4.145902e-005 -1.043477e-004 9.693223e-001 -1.431557e-001
337620000 5.226122e-005 -1.162936e-006 9.545893e-001 -1.764170e-001 -8.776262e-005 -7.117358e-005 9.584826e-001 -1.767448e-001
337905000 6.123807e-006 -2.769481e-006 9.424093e-001 -2.090114e-001 -1.857249e-005 3.265293e-005 9.464436e-001 -2.092952e-001
338190000 -1.224746e-005 -4.087333e-005 9.285906e-001 -2.401147e-001 6.087846e-005 -4.239862e-005 9.333167e-001 -2.420939e-001
338475000 -3.596173e-005 -6.504528e-006 9.140797e-001 -2.719293e-001 2.994555e-005 1.336963e-005 9.189230e-001 -2.720147e-001
338760000 -3.501874e-005 -6.786535e-005 8.992347e-001 -3.012590e-001 -2.773785e-005 2.085792e-005 9.028363e-001 -3.023380e-001
339045000 -1.703902e-005 -4.631937e-005 8.825007e-001 -3.304074e-001 4.337512e-005 5.541765e-005 8.868639e-001 -3.315022e-001
339330000 5.060443e-005 -8.554460e-006 8.654174e-001 -3.577718e-001 6.320658e-005 4.610741e-005 8.694641e-001 -3.593287e-001
339615000 -3.163466e-005 1.073476e-004 8.475314e-001 -3.850731e-001 5.050221e-005 -5.320289e-006 8.514963e-001 -3.860701e-001
339900000 7.554596e-005 7.363260e-005 8.290129e-001 -4.101933e-001 -3.725464e-005 -2.437447e-006 8.324046e-001 -4.118257e-001
340185000 -4.245654e-006 1.465481e-005 8.104497e-001 -4.345391e-001 -7.730518e-005 -4.398125e-005 8.132601e-001 -4.361103e-001
340470000 1.825691e-006 -2.390825e-006 7.901654e-001 -4.583292e-001 -7.875907e-006 -1.006655e-004 7.940848e-001 -4.607521e-001
340755000 -2.989241e-005 1.687448e-005 7.700089e-001 -4.807647e-001 1.318375e-005 -3.086113e-005 7.736884e-001 -4.828992e-001
341040000 -3.441181e-005 1.607847e-005 7.495217e-001 -5.019379e-001 -4.913321e-005 -5.141205e-005 7.524297e-001 -5.046136e-001
341325000 3.201047e-005 -1.042952e-005 7.287117e-001 -5.225250e-001 1.133932e-005 -6.301894e-005 7.315661e-001 -5.245634e-001
341610000 -2.851560e-005 1.360322e-005 7.070659e-001 -5.421699e-001 2.567688e-005 -2.342088e-005 7.105312e-001 -5.442979e-001
341895000 -7.349691e-005 -5.729118e-005 6.856078e-001 -5.607977e-001 4.687638e-005 2.060375e-005 6.881641e-001 -5.628338e-001
342180000 -2.794707e-005 -5.441968e-005 6.639829e-001 -5.782477e-001 -1.476536e-005 2.860417e-005 6.662984e-001 -5.803995e-001
342465000 5.211778e-006 -1.961803e-005 6.415405e-001 -5.944770e-001 7.547242e-005 -1.720176e-005 6.449679e-001 -5.969670e-001
342750000 7.521615e-005 -1.119223e-004 6.196027e-001 -6.102865e-001 8.567769e-005 3.115807e-005 6.224427e-001 -6.129097e-001
343035000 5.611803e-005 -1.271675e-004 5.975677e-001 -6.256084e-001 4.576085e-006 -3.742028e-005 5.999653e-001 -6.278760e-001
343320000 5.190979e-005 5.330165e-005 5.746461e-001 -6.393603e-001 1.996528e-005 -2.250684e-005 5.775990e-001 -6.418670e-001
343605000 -8.596885e-005 1.025975e-004 5.528807e-001 -6.524386e-001 3.788877e-005 9.828163e-006 5.545039e-001 -6.554552e-001
343890000 4.545797e-007 -9.200081e-006 5.300015e-001 -6.646188e-001 -1.420757e-004 3.780813e-005 5.323228e-001 -6.676189e-001
