!Agilent Technologies,N5230C,SG49000117,A.08.50.07
!Agilent N5230C: A.08.50.07
!Date: Monday, March 18, 2024 18:12:10
!Correction: S11(Off) 
!S21(Off) 
!S12(Off) 
!S22(Off) 
!S2P File: Measurements: S11, S21, S12, S22:
# Hz S  RI   R 50
300000000 -1.510138e-005 -6.563525e-005 -6.772528e-001 -5.637146e-001 -2.884772e-005 3.717331e-005 -6.794643e-001 -5.656859e-001
300285000 -4.073403e-005 1.112309e-004 -6.899248e-001 -5.400923e-001 -7.219161e-005 2.732451e-005 -6.924706e-001 -5.429511e-001
300570000 1.798653e-005 -7.886902e-005 -7.008433e-001 -5.161996e-001 8.052447e-006 1.493010e-005 -7.044007e-001 -5.183137e-001
300855000 -3.207859e-005 -6.832130e-005 -7.120560e-001 -4.924714e-001 -3.348317e-005 -2.058287e-005 -7.143473e-001 -4.942106e-001
301140000 -2.724781e-005 -1.118553e-004 -7.214462e-001 -4.680551e-001 -4.767083e-005 1.712397e-006 -7.243771e-001 -4.701314e-001
301425000 1.040874e-005 -8.580421e-005 -7.311741e-001 -4.446304e-001 -8.171453e-005 -1.986611e-005 -7.330428e-001 -4.466708e-001
301710000 -1.697522e-005 4.478811e-005 -7.392027e-001 -4.203889e-001 -2.581328e-005 -7.641895e-005 -7.419911e-001 -4.222117e-001
301995000 1.159272e-004 6.197869e-005 -7.471499e-001 -3.971799e-001 -6.328583e-005 4.842494e-005 -7.499920e-001 -3.985250e-001
302280000 -1.033941e-004 1.267001e-004 -7.537750e-001 -3.736208e-001 -3.661066e-005 -2.681929e-005 -7.564512e-001 -3.753515e-001
302565000 3.208245e-005 -9.299816e-005 -7.598633e-001 -3.499633e-001 2.306254e-005 -6.975282e-005 -7.631733e-001 -3.516049e-001
302850000 7.871031e-005 7.482700e-005 -7.650894e-001 -3.271514e-001 1.149641e-005 -5.949930e-005 -7.689025e-001 -3.284315e-001
303135000 3.542381e-005 5.665892e-005 -7.698867e-001 -3.039403e-001 2.498770e-005 1.335142e-005 -7.737820e-001 -3.055492e-001
303420000 1.266491e-006 6.923640e-005 -7.746546e-001 -2.811668e-001 4.989278e-005 6.194343e-005 -7.779582e-001 -2.819238e-001
303705000 -1.166648e-004 -3.661016e-005 -7.791304e-001 -2.583962e-001 1.397056e-004 -3.311450e-005 -7.814254e-001 -2.591508e-001
303990000 1.580678e-006 7.061657e-005 -7.819833e-001 -2.357105e-001 7.375052e-005 -3.698493e-005 -7.849700e-001 -2.366624e-001
304275000 2.919310e-006 4.726181e-005 -7.847067e-001 -2.131915e-001 3.756836e-005 3.038998e-005 -7.878836e-001 -2.139207e-001
304560000 -1.013211e-005 -6.341003e-005 -7.869112e-001 -1.907246e-001 3.501129e-005 2.780008e-005 -7.896898e-001 -1.914471e-001
304845000 -5.096933e-005 -4.475955e-005 -7.888144e-001 -1.687748e-001 4.458354e-005 4.429268e-005 -7.917494e-001 -1.698242e-001
305130000 -1.507214e-004 3.802469e-005 -7.897593e-001 -1.469131e-001 1.521488e-004 -4.392905e-005 -7.932826e-001 -1.473874e-001
305415000 5.322599e-005 2.809735e-005 -7.904333e-001 -1.251769e-001 3.578113e-005 -4.440184e-006 -7.936028e-001 -1.253061e-001
305700000 -4.321970e-006 3.948056e-005 -7.914325e-001 -1.033912e-001 3.511420e-006 1.597606e-005 -7.942839e-001 -1.034082e-001
305985000 9.578393e-005 -5.565590e-005 -7.909561e-001 -8.207662e-002 -5.062472e-005 1.224902e-004 -7.937680e-001 -8.219424e-002
306270000 2.223104e-006 -1.032133e-004 -7.905071e-001 -6.056622e-002 2.940771e-005 -5.663976e-005 -7.927394e-001 -6.086783e-002
306555000 4.531388e-005 1.528629e-006 -7.897719e-001 -3.897348e-002 1.459360e-005 -9.745282e-006 -7.920329e-001 -3.960675e-002
306840000 -1.014575e-004 -5.834461e-006 -7.875621e-001 -1.826318e-002 -2.369792e-005 8.019353e-005 -7.907134e-001 -1.839864e-002
307125000 1.250358e-005 -2.783867e-005 -7.859704e-001 2.512400e-003 -8.361239e-005 1.308540e-004 -7.886750e-001 2.401000e-003
307410000 5.292702e-005 3.570754e-005 -7.836844e-001 2.329949e-002 4.105433e-005 -2.319702e-005 -7.863858e-001 2.287588e-002
307695000 3.253498e-005 -9.266632e-005 -7.809346e-001 4.364485e-002 -1.364035e-005 -2.304525e-005 -7.840437e-001 4.420184e-002
307980000 1.184555e-004 -3.073281e-005 -7.778707e-001 6.400421e-002 2.954675e-005 -9.114729e-005 -7.808818e-001 6.436898e-002
308265000 -1.709171e-005 6.075218e-005 -7.738951e-001 8.439119e-002 -5.574627e-005 -1.062290e-004 -7.773564e-001 8.471442e-002
308550000 6.885987e-005 5.538671e-005 -7.705369e-001 1.041312e-001 -8.225492e-005 -1.232339e-004 -7.736431e-001 1.050327e-001
308835000 7.271067e-005 4.894815e-005 -7.663944e-001 1.244578e-001 -2.821498e-005 -3.895835e-005 -7.693138e-001 1.249941e-001
309120000 -6.024785e-005 -8.740016e-005 -7.622132e-001 1.441711e-001 -5.952438e-005 -7.647617e-005 -7.648188e-001 1.451080e-001
309405000 -9.143502e-005 3.377060e-005 -7.569819e-001 1.638667e-001 7.052070e-006 5.973352e-006 -7.604707e-001 1.645172e-001
309690000 -2.744629e-005 8.682175e-005 -7.517096e-001 1.834536e-001 5.282559e-005 -2.719699e-005 -7.548530e-001 1.845330e-001
309975000 -1.779563e-005 3.174274e-005 -7.463077e-001 2.029217e-001 -9.876959e-005 1.582159e-005 -7.493832e-001 2.036696e-001
310260000 -5.331973e-005 9.267119e-005 -7.399113e-001 2.226811e-001 -7.692853e-005 9.741731e-006 -7.432894e-001 2.231189e-001
310545000 5.548244e-005 1.525443e-005 -7.342699e-001 2.413055e-001 1.128452e-004 2.532798e-005 -7.368082e-001 2.426127e-001
310830000 -1.668660e-005 -8.807337e-005 -7.270991e-001 2.607155e-001 -3.064641e-005 5.892066e-005 -7.297475e-001 2.616355e-001
311115000 -4.030751e-005 -6.799513e-005 -7.202730e-001 2.798800e-001 -4.724558e-005 -1.331303e-006 -7.231510e-001 2.806594e-001
311400000 3.302260e-005 -1.171569e-004 -7.127417e-001 2.992277e-001 4.751285e-005 -2.086398e-005 -7.161067e-001 2.997934e-001
311685000 -1.574593e-004 -1.339099e-004 -7.050375e-001 3.173654e-001 4.615034e-005 -1.978338e-005 -7.083706e-001 3.190518e-001
311970000 4.871267e-005 -7.455539e-005 -6.976551e-001 3.364522e-001 9.569465e-005 6.518893e-005 -6.998472e-001 3.377543e-001
312255000 1.889176e-005 3.494923e-005 -6.890684e-001 3.546920e-001 -2.013776e-005 3.796745e-005 -6.911971e-001 3.561853e-001
312540000 2.462067e-005 -3.339899e-005 -6.800702e-001 3.733326e-001 -8.738935e-006 -2.174995e-005 -6.823775e-001 3.751830e-001
312825000 3.617403e-005 8.320111e-005 -6.707553e-001 3.921646e-001 -2.497721e-005 5.169700e-005 -6.740983e-001 3.929708e-001
313110000 -3.472843e-005 -2.943099e-005 -6.613364e-001 4.098739e-001 8.585294e-006 -3.243770e-005 -6.637554e-001 4.118811e-001
313395000 7.212670e-005 -1.801293e-005 -6.508873e-001 4.286633e-001 -3.692542e-005 9.679130e-005 -6.535593e-001 4.295759e-001
313680000 -4.718315e-005 -7.409416e-005 -6.408528e-001 4.462613e-001 -2.148771e-005 -2.966521e-005 -6.427628e-001 4.480918e-001
313965000 8.907382e-005 8.397644e-005 -6.298267e-001 4.647641e-001 -1.848972e-005 4.998151e-005 -6.317751e-001 4.657965e-001
314250000 7.450820e-005 3.991836e-005 -6.185679e-001 4.824973e-001 1.338666e-005 -1.287564e-005 -6.210737e-001 4.844661e-001
314535000 5.184856e-005 2.453618e-005 -6.068201e-001 4.999539e-001 -1.652751e-005 -3.022864e-005 -6.091496e-001 5.021519e-001
314820000 -5.689589e-005 1.892167e-005 -5.945858e-001 5.174196e-001 -6.255260e-006 -2.048257e-005 -5.968059e-001 5.198619e-001
315105000 5.661619e-005 -2.997688e-005 -5.821033e-001 5.354578e-001 5.373738e-005 -2.615275e-005 -5.842436e-001 5.372356e-001
315390000 5.894986e-005 -3.956919e-005 -5.687081e-001 5.527379e-001 -2.761184e-005 -8.119747e-005 -5.711765e-001 5.551578e-001
315675000 -3.996698e-005 3.018847e-005 -5.555404e-001 5.701860e-001 5.853362e-006 1.533092e-005 -5.573196e-001 5.721694e-001
315960000 -4.732077e-005 5.131811e-005 -5.413531e-001 5.873695e-001 -3.877071e-005 2.320469e-005 -5.432459e-001 5.899675e-001
316245000 -5.915478e-005 4.592627e-005 -5.264667e-001 6.044490e-001 -1.255309e-005 -2.466955e-005 -5.289212e-001 6.070374e-001
316530000 9.294908e-005 -5.289771e-005 -5.113056e-001 6.212748e-001 -1.126272e-004 -5.754000e-005 -5.135153e-001 6.242577e-001
316815000 -2.786524e-005 -8.829281e-006 -4.959326e-001 6.376224e-001 -1.855238e-004 1.019264e-004 -4.975931e-001 6.406078e-001
317100000 -1.235469e-006 -8.417737e-005 -4.798434e-001 6.543242e-001 -8.440633e-005 1.538215e-005 -4.814446e-001 6.570419e-001
317385000 -1.248683e-004 7.861740e-006 -4.628519e-001 6.712861e-001 8.654979e-005 -2.873299e-005 -4.648743e-001 6.735064e-001
317670000 -6.870886e-006 -1.093053e-004 -4.454888e-001 6.869684e-001 4.930150e-005 -5.596931e-005 -4.472104e-001 6.895266e-001
317955000 -2.125438e-005 -2.388458e-005 -4.276255e-001 7.023990e-001 1.492643e-004 -1.316806e-004 -4.292553e-001 7.058179e-001
318240000 -5.576086e-005 -1.168227e-004 -4.090895e-001 7.184602e-001 4.579891e-005 -6.979524e-005 -4.105989e-001 7.212863e-001
318525000 1.337769e-004 6.686462e-005 -3.898257e-001 7.333477e-001 4.284629e-005 9.467809e-006 -3.909876e-001 7.365492e-001
318810000 6.252986e-005 6.179936e-005 -3.699496e-001 7.487513e-001 8.522802e-005 -3.844130e-005 -3.709967e-001 7.517853e-001
319095000 6.211326e-005 1.214855e-004 -3.493702e-001 7.635834e-001 7.949126e-005 -6.011984e-005 -3.510585e-001 7.666068e-001
319380000 -9.781276e-005 3.184125e-005 -3.279708e-001 7.779208e-001 3.085767e-005 -4.577186e-005 -3.294753e-001 7.808769e-001
319665000 5.416056e-005 9.891418e-005 -3.063394e-001 7.919645e-001 2.838006e-005 9.127192e-005 -3.074396e-001 7.948459e-001
319950000 -2.617515e-005 2.470769e-005 -2.836898e-001 8.050712e-001 -4.372686e-006 9.002386e-005 -2.845319e-001 8.085281e-001
320235000 -1.019532e-004 -3.772986e-005 -2.604136e-001 8.186663e-001 -2.308966e-006 4.327902e-005 -2.615503e-001 8.215683e-001
320520000 1.048462e-004 -8.980520e-005 -2.365086e-001 8.307799e-001 5.054406e-005 -3.783255e-005 -2.372592e-001 8.343006e-001
320805000 -1.158508e-004 -6.727181e-005 -2.119925e-001 8.424934e-001 -1.527249e-005 3.133863e-005 -2.128924e-001 8.457962e-001
321090000 7.969911e-006 8.156952e-005 -1.866212e-001 8.540867e-001 -2.012491e-005 1.031694e-004 -1.875954e-001 8.578913e-001
321375000 -1.271281e-004 1.486576e-005 -1.598197e-001 8.647554e-001 -1.081267e-004 9.505180e-005 -1.606086e-001 8.687758e-001
321660000 5.545990e-005 1.552030e-004 -1.332128e-001 8.751855e-001 -7.833765e-005 -1.868624e-005 -1.340585e-001 8.784866e-001
321945000 -4.724304e-005 4.073194e-006 -1.060331e-001 8.843571e-001 -8.840180e-005 3.383954e-005 -1.055936e-001 8.879915e-001
322230000 -1.061944e-004 6.931789e-005 -7.735634e-002 8.933256e-001 -5.006058e-005 2.345621e-005 -7.750936e-002 8.972705e-001
322515000 -6.342048e-005 -1.007264e-005 -4.831836e-002 9.007046e-001 -4.575507e-005 5.172266e-005 -4.867136e-002 9.049345e-001
322800000 7.858637e-005 6.243304e-005 -1.910681e-002 9.079293e-001 -1.548463e-004 6.794029e-005 -1.863854e-002 9.119701e-001
323085000 -2.822630e-005 5.874570e-005 1.197623e-002 9.138862e-001 -3.978103e-005 1.662578e-005 1.214405e-002 9.172537e-001
323370000 -7.370571e-005 1.094667e-005 4.345177e-002 9.191149e-001 -1.953508e-005 2.613450e-005 4.321811e-002 9.224905e-001
323655000 -3.854026e-005 6.299138e-006 7.407451e-002 9.229423e-001 -9.198332e-005 9.178890e-007 7.519774e-002 9.261835e-001
323940000 1.077459e-004 4.751116e-005 1.070183e-001 9.255089e-001 6.812187e-005 -1.899461e-005 1.073256e-001 9.295852e-001
324225000 -4.174377e-005 -6.797244e-005 1.402960e-001 9.266803e-001 5.263318e-005 -8.196994e-005 1.402752e-001 9.305910e-001
324510000 -7.177139e-006 -2.730789e-005 1.733405e-001 9.270320e-001 5.178231e-005 -5.558098e-005 1.740568e-001 9.311348e-001
324795000 3.985469e-005 -2.507941e-005 2.076001e-001 9.261190e-001 2.532812e-005 -4.382732e-005 2.080122e-001 9.300897e-001
325080000 -8.050526e-005 -4.252290e-005 2.415351e-001 9.236660e-001 4.395669e-005 -4.548598e-005 2.423312e-001 9.282594e-001
325365000 -3.707317e-005 2.384595e-005 2.761487e-001 9.198538e-001 3.364628e-006 -5.909519e-005 2.776848e-001 9.240680e-001
325650000 -2.202173e-005 5.000636e-005 3.111936e-001 9.143205e-001 -6.571451e-005 -2.038436e-005 3.125384e-001 9.183176e-001
325935000 1.829189e-005 1.707519e-005 3.470684e-001 9.080436e-001 8.726187e-005 -7.720755e-005 3.471548e-001 9.112365e-001
326220000 -5.723181e-005 8.101916e-005 3.815646e-001 8.993161e-001 7.501477e-005 -7.006186e-006 3.839985e-001 9.023498e-001
326505000 2.221508e-005 4.245752e-005 4.168732e-001 8.886732e-001 9.593627e-005 4.729442e-005 4.181927e-001 8.918614e-001
326790000 -4.140069e-005 5.167464e-005 4.518714e-001 8.772417e-001 -1.278148e-005 1.283718e-004 4.544747e-001 8.810366e-001
327075000 -7.806064e-005 -7.056114e-006 4.870209e-001 8.635195e-001 -2.490914e-005 -4.262157e-005 4.889671e-001 8.673727e-001
327360000 4.867040e-005 -7.444646e-005 5.220026e-001 8.485657e-001 2.204991e-005 -4.804430e-005 5.242003e-001 8.521256e-001
327645000 -1.688597e-005 -5.927205e-005 5.566821e-001 8.315338e-001 6.449779e-006 -6.034931e-005 5.588384e-001 8.352714e-001
327930000 -5.183724e-005 -4.260293e-005 5.903578e-001 8.127258e-001 -1.560972e-005 8.784278e-005 5.923871e-001 8.163865e-001
328215000 -1.246017e-005 1.465250e-005 6.235344e-001 7.928628e-001 6.267584e-005 -2.831844e-005 6.262522e-001 7.958727e-001
328500000 1.468609e-005 -6.887416e-006 6.561002e-001 7.701651e-001 3.109329e-005 1.069211e-004 6.588139e-001 7.732089e-001
328785000 -1.079671e-004 6.385743e-005 6.879961e-001 7.465308e-001 4.886802e-005 -4.297756e-005 6.911290e-001 7.493837e-001
329070000 1.209951e-005 9.297689e-005 7.185127e-001 7.207364e-001 4.504754e-005 -9.407802e-005 7.210457e-001 7.238812e-001
329355000 1.063303e-005 -3.544656e-005 7.480150e-001 6.934117e-001 -7.430448e-005 -8.921231e-007 7.512444e-001 6.965634e-001
329640000 -4.398155e-005 7.554092e-005 7.770374e-001 6.647786e-001 -4.588728e-006 4.322587e-005 7.803528e-001 6.680206e-001
329925000 -1.249971e-006 -3.325206e-005 8.040026e-001 6.350742e-001 7.368574e-005 -6.184797e-005 8.075629e-001 6.379535e-001
330210000 -6.652087e-005 -9.918781e-006 8.297504e-001 6.033887e-001 -3.678695e-005 -6.932770e-005 8.324174e-001 6.060494e-001
330495000 -1.371474e-005 1.952852e-005 8.539870e-001 5.702376e-001 5.287628e-005 -2.244196e-005 8.569264e-001 5.733231e-001
330780000 2.932212e-005 -5.731187e-005 8.762907e-001 5.368108e-001 -9.349409e-006 -1.314667e-005 8.805677e-001 5.387970e-001
331065000 -8.622968e-006 -5.723380e-005 8.970363e-001 5.015174e-001 1.793598e-004 -6.983256e-005 9.012002e-001 5.035263e-001
331350000 3.851012e-005 -1.610631e-005 9.163643e-001 4.653939e-001 4.991652e-005 5.570685e-005 9.199244e-001 4.667045e-001
331635000 5.488817e-005 -5.636927e-006 9.336585e-001 4.287325e-001 -6.560020e-005 -4.340742e-005 9.369574e-001 4.306535e-001
331920000 2.456445e-007 5.441542e-005 9.487508e-001 3.905741e-001 1.037081e-004 3.188023e-005 9.532933e-001 3.924384e-001
332205000 -3.060178e-005 1.078011e-005 9.622842e-001 3.520684e-001 5.180522e-005 1.012096e-004 9.666238e-001 3.542118e-001
332490000 -1.731629e-005 5.653682e-005 9.740854e-001 3.135581e-001 5.338604e-005 -5.181599e-005 9.777178e-001 3.157075e-001
332775000 2.399761e-005 1.131901e-004 9.833243e-001 2.745599e-001 2.674477e-005 -2.569301e-005 9.878843e-001 2.754577e-001
333060000 -5.844669e-005 -9.452683e-006 9.916624e-001 2.354119e-001 7.886312e-005 2.282386e-005 9.961185e-001 2.365075e-001
333345000 -3.381269e-005 7.893572e-005 9.977028e-001 1.955511e-001 -8.014737e-006 -1.019511e-004 1.001949e+000 1.968538e-001
333630000 8.427452e-005 7.697235e-006 1.001118e+000 1.566861e-001 1.415501e-005 3.808855e-005 1.005365e+000 1.573781e-001
333915000 9.808778e-006 4.953229e-005 1.003304e+000 1.169733e-001 7.421869e-005 -6.000691e-005 1.007880e+000 1.173551e-001
334200000 -4.790450e-005 1.887042e-005 1.003362e+000 7.819817e-002 6.666532e-005 8.073975e-006 1.008274e+000 7.837602e-002
334485000 -5.767294e-005 -6.380194e-006 1.001562e+000 3.967878e-002 -4.799247e-005 8.406017e-005 1.006128e+000 3.963554e-002
334770000 8.251947e-005 9.533596e-005 9.985672e-001 2.363551e-003 -3.198417e-005 -4.319928e-005 1.002825e+000 1.904610e-003
335055000 -1.454744e-005 -4.021125e-005 9.933388e-001 -3.582129e-002 -5.519250e-006 4.790323e-005 9.979810e-001 -3.627210e-002
335340000 1.141933e-004 -9.822855e-005 9.868910e-001 -7.259748e-002 1.358402e-004 5.238893e-005 9.906753e-001 -7.263960e-002
335625000 4.588380e-005 -3.162499e-005 9.781846e-001 -1.089987e-001 -1.218755e-004 -5.553998e-005 9.829957e-001 -1.092239e-001
335910000 7.615762e-005 9.677574e-006 9.688548e-001 -1.440030e-001 -8.843093e-006 9.699036e-005 9.724858e-001 -1.439518e-001
336195000 3.922899e-005 -7.649122e-006 9.572204e-001 -1.783930e-001 5.701132e-005 -3.113967e-005 9.617192e-001 -1.789589e-001
336480000 -2.048766e-005 -5.317228e-005 9.451857e-001 -2.116665e-001 2.707331e-005 5.540256e-005 9.495640e-001 -2.125352e-001
336765000 -4.265868e-005 -3.776122e-005 9.324008e-001 -2.443305e-001 3.363481e-005 -3.169790e-006 9.365737e-001 -2.444930e-001
337050000 -1.309254e-005 -1.689193e-005 9.172148e-001 -2.753107e-001 1.952741e-006 1.119482e-004 9.213892e-001 -2.765371e-001
337335000 6.093375e-005 1.657778e-005 9.014419e-001 -3.053082e-001 -7.775971e-006 6.204872e-005 9.056185e-001 -3.073219e-001
337620000 -2.607311e-005 4.567511e-005 8.849339e-001 -3.350474e-001 -1.030618e-004 -6.811580e-005 8.890703e-001 -3.369676e-001
337905000 -2.215182e-005 1.283487e-004 8.676808e-001 -3.630182e-001 -2.848481e-005 -8.012612e-005 8.721743e-001 -3.655735e-001
338190000 -2.955111e-006 7.763252e-005 8.494458e-001 -3.905134e-001 4.100506e-005 -1.449433e-004 8.529755e-001 -3.922101e-001
338475000 -6.621704e-005 5.835015e-005 8.300518e-001 -4.163069e-001 -9.961228e-005 8.440682e-005 8.341601e-001 -4.181866e-001
338760000 5.912954e-005 5.977489e-005 8.109110e-001 -4.409252e-001 -7.494503e-005 6.343912e-005 8.143490e-001 -4.432212e-001
339045000 2.085987e-006 1.281063e-005 7.905968e-001 -4.649460e-001 -1.612517e-005 -1.751644e-005 7.942544e-001 -4.667792e-001
339330000 -1.102337e-004 1.673415e-005 7.702888e-001 -4.877981e-001 3.377252e-005 1.892750e-005 7.732385e-001 -4.902087e-001
339615000 -4.917386e-005 3.082385e-005 7.496234e-001 -5.092645e-001 4.412194e-005 1.666443e-005 7.522158e-001 -5.118403e-001
339900000 -3.076902e-006 -5.269023e-005 7.270246e-001 -5.304815e-001 -2.413419e-005 -4.637090e-005 7.304940e-001 -5.322412e-001
340185000 2.118870e-005 -9.953318e-005 7.056031e-001 -5.495260e-001 -7.303654e-005 -7.932710e-005 7.088275e-001 -5.522112e-001
340470000 -9.959152e-005 -2.337283e-005 6.833467e-001 -5.684686e-001 -2.006628e-005 -1.430859e-004 6.859837e-001 -5.709344e-001
340755000 5.157190e-005 -5.347668e-005 6.608812e-001 -5.859925e-001 1.151922e-004 2.814663e-005 6.642208e-001 -5.888090e-001
341040000 5.495653e-005 5.972536e-005 6.383605e-001 -6.027410e-001 6.891826e-005 -5.680822e-006 6.417162e-001 -6.054677e-001
341325000 -1.200165e-005 -1.933577e-005 6.156073e-001 -6.190156e-001 -3.833975e-005 6.885506e-005 6.183699e-001 -6.207741e-001
341610000 -3.641513e-005 -4.139772e-005 5.928207e-001 -6.334093e-001 1.159212e-004 -4.227679e-005 5.953521e-001 -6.359554e-001
341895000 4.980242e-005 4.782236e-005 5.700203e-001 -6.472592e-001 1.198885e-004 3.164796e-005 5.727064e-001 -6.496081e-001
342180000 -1.756537e-006 4.296886e-005 5.468115e-001 -6.599225e-001 4.452736e-006 7.541586e-005 5.493067e-001 -6.631940e-001
342465000 -3.973102e-005 7.015655e-005 5.245448e-001 -6.729908e-001 -4.296225e-005 4.834945e-005 5.264469e-001 -6.754697e-001
342750000 -7.988857e-005 -3.165684e-005 5.009379e-001 -6.840837e-001 -1.748110e-005 7.635706e-005 5.033744e-001 -6.870312e-001
343035000 -4.454691e-005 -1.070877e-005 4.783090e-001 -6.941690e-001 -9.101410e-005 -6.206348e-005 4.798270e-001 -6.976547e-001
343320000 -2.110613e-005 3.449804e-005 4.552018e-001 -7.046439e-001 -9.329100e-005 -4.081929e-005 4.573920e-001 -7.077164e-001
343605000 -5.705178e-005 1.640477e-005 4.324026e-001 -7.135534e-001 -3.552239e-005 6.219784e-006 4.344034e-001 -7.170898e-001
343890000 -5.320339e-005 -1.340992e-004 4.091580e-001 -7.227239e-001 -1.596698e-004 -5.026345e-005 4.111823e-001 -7.252113e-001
