!Agilent Technologies,N5230C,SG49000117,A.08.50.07
!Agilent N5230C: A.08.50.07
!Date: Monday, March 18, 2024 18:47:19
!Correction: S11(Off) 
!S21(Off) 
!S12(Off) 
!S22(Off) 
!S2P File: Measurements: S11, S21, S12, S22:
# Hz S  RI   R 50
300000000 -2.217925e-005 5.725055e-005 -6.116244e-001 -6.590936e-001 3.668114e-005 -6.649116e-005 -6.135651e-001 -6.614066e-001
300285000 -5.265034e-005 -1.264245e-004 -6.265823e-001 -6.357759e-001 9.670792e-005 -3.060269e-005 -6.293291e-001 -6.381333e-001
300570000 -3.702367e-005 -6.834004e-005 -6.425569e-001 -6.127135e-001 2.402658e-005 3.801416e-005 -6.447781e-001 -6.148354e-001
300855000 1.344715e-005 -4.110883e-005 -6.565295e-001 -5.895044e-001 -1.071954e-004 7.680217e-005 -6.577366e-001 -5.916557e-001
301140000 2.276971e-005 6.716273e-005 -6.693279e-001 -5.661038e-001 9.991841e-006 1.184222e-004 -6.715092e-001 -5.681614e-001
301425000 6.584878e-005 -2.972041e-005 -6.813379e-001 -5.419919e-001 -2.127023e-005 7.267007e-005 -6.839891e-001 -5.444901e-001
301710000 -5.699543e-005 -1.352966e-005 -6.932978e-001 -5.191473e-001 1.807655e-005 1.071793e-005 -6.954122e-001 -5.210584e-001
301995000 8.309876e-005 -3.587272e-005 -7.039489e-001 -4.956175e-001 6.864063e-005 4.314450e-005 -7.059993e-001 -4.974124e-001
302280000 -3.259575e-005 -7.161396e-005 -7.137965e-001 -4.721554e-001 5.274595e-005 1.198933e-005 -7.164197e-001 -4.741876e-001
302565000 1.311363e-004 4.934562e-005 -7.230410e-001 -4.493538e-001 1.023049e-004 -7.025133e-006 -7.257812e-001 -4.509258e-001
302850000 -4.324903e-005 -4.519515e-005 -7.312149e-001 -4.256724e-001 2.654480e-005 3.821859e-005 -7.340810e-001 -4.273270e-001
303135000 6.038747e-006 3.812290e-005 -7.391615e-001 -4.023130e-001 -3.677581e-005 2.085112e-005 -7.420888e-001 -4.039080e-001
303420000 -1.107016e-004 -3.008939e-006 -7.465723e-001 -3.794686e-001 2.263621e-005 -4.199686e-005 -7.493506e-001 -3.812401e-001
303705000 -2.334392e-005 1.344907e-004 -7.527871e-001 -3.568244e-001 -3.692800e-005 -7.344117e-005 -7.557291e-001 -3.575900e-001
303990000 9.755379e-006 -1.681252e-007 -7.584891e-001 -3.334708e-001 -9.142700e-005 3.361416e-005 -7.617340e-001 -3.347508e-001
304275000 1.995192e-005 -9.732183e-005 -7.646677e-001 -3.110962e-001 -2.282807e-005 5.855606e-005 -7.668162e-001 -3.120427e-001
304560000 -5.649121e-005 -1.650708e-004 -7.686948e-001 -2.884354e-001 1.727781e-005 -1.073163e-005 -7.717552e-001 -2.891146e-001
304845000 -6.842096e-006 1.179853e-004 -7.721463e-001 -2.658772e-001 1.244256e-004 4.544593e-006 -7.759588e-001 -2.670137e-001
305130000 -4.850348e-005 1.838398e-005 -7.758175e-001 -2.435042e-001 4.486847e-005 5.365571e-005 -7.797120e-001 -2.445216e-001
305415000 6.326977e-005 -9.684572e-005 -7.795179e-001 -2.219737e-001 6.391214e-005 3.797981e-005 -7.821227e-001 -2.224618e-001
305700000 6.232247e-005 -3.459129e-005 -7.816338e-001 -1.996997e-001 1.555821e-005 -3.775637e-005 -7.845641e-001 -2.004446e-001
305985000 -3.254779e-006 8.916271e-005 -7.838050e-001 -1.777202e-001 8.538360e-005 -4.674132e-005 -7.866971e-001 -1.784032e-001
306270000 5.437530e-005 -5.387710e-005 -7.849608e-001 -1.558316e-001 -3.266946e-005 1.025917e-005 -7.884858e-001 -1.566736e-001
306555000 2.137131e-008 -3.443077e-005 -7.860381e-001 -1.342573e-001 -2.428233e-005 -2.795864e-005 -7.892231e-001 -1.342789e-001
306840000 2.072449e-006 -1.605004e-005 -7.868746e-001 -1.130419e-001 2.658547e-005 5.215103e-006 -7.898378e-001 -1.134238e-001
307125000 8.043119e-005 -3.930600e-005 -7.872604e-001 -9.136382e-002 1.554692e-005 -4.208480e-005 -7.899445e-001 -9.191640e-002
307410000 -5.739716e-005 3.173436e-005 -7.865352e-001 -7.058399e-002 -7.203400e-005 5.114268e-005 -7.899390e-001 -7.064101e-002
307695000 -1.186325e-004 8.673702e-005 -7.856216e-001 -4.944383e-002 8.261151e-005 -6.107716e-005 -7.891904e-001 -4.962651e-002
307980000 -3.494100e-005 -3.612598e-005 -7.854192e-001 -2.885757e-002 2.131841e-005 3.041945e-005 -7.884253e-001 -2.870242e-002
308265000 -8.517876e-005 5.546540e-005 -7.835383e-001 -8.123850e-003 7.162162e-005 5.665741e-005 -7.859850e-001 -7.853384e-003
308550000 -3.555114e-005 2.201667e-005 -7.813469e-001 1.227582e-002 -1.275895e-004 5.707996e-005 -7.845257e-001 1.219406e-002
308835000 4.839158e-007 -5.227160e-005 -7.796898e-001 3.232622e-002 -8.046558e-007 8.059427e-005 -7.822598e-001 3.302005e-002
309120000 2.274201e-005 -5.859894e-005 -7.767467e-001 5.283260e-002 2.033881e-005 1.229882e-004 -7.802132e-001 5.329502e-002
309405000 8.843989e-006 -4.064449e-005 -7.734075e-001 7.308898e-002 6.143402e-005 -5.388079e-005 -7.772997e-001 7.312705e-002
309690000 7.351908e-005 -6.995995e-005 -7.707217e-001 9.373155e-002 -1.689934e-005 -2.343621e-004 -7.733641e-001 9.378526e-002
309975000 5.938901e-005 1.384829e-005 -7.663617e-001 1.130393e-001 3.542666e-005 -3.303185e-005 -7.695276e-001 1.130337e-001
310260000 6.877095e-005 -8.118933e-005 -7.624096e-001 1.325698e-001 3.758533e-005 1.770135e-005 -7.656468e-001 1.334970e-001
310545000 3.681915e-005 -7.460219e-007 -7.582937e-001 1.527228e-001 6.711200e-005 -3.965085e-006 -7.615035e-001 1.531697e-001
310830000 7.579768e-005 7.708132e-006 -7.535324e-001 1.715363e-001 -8.252206e-006 6.992986e-005 -7.562485e-001 1.723056e-001
311115000 6.531135e-005 3.650806e-005 -7.482022e-001 1.916310e-001 -7.966888e-006 2.853428e-005 -7.509713e-001 1.918025e-001
311400000 4.016195e-005 -6.310269e-005 -7.426767e-001 2.110186e-001 6.306615e-005 7.311362e-005 -7.458423e-001 2.114628e-001
311685000 -2.014189e-006 6.547351e-005 -7.369020e-001 2.296866e-001 -2.831170e-005 4.959134e-005 -7.398694e-001 2.308452e-001
311970000 -3.010798e-006 5.604256e-005 -7.301124e-001 2.490755e-001 -5.159392e-005 -2.170901e-005 -7.332145e-001 2.498507e-001
312255000 -2.001696e-005 3.225002e-005 -7.241971e-001 2.676693e-001 -5.282817e-005 1.720193e-005 -7.267354e-001 2.692696e-001
312540000 -6.421663e-005 -9.484645e-005 -7.171661e-001 2.871550e-001 8.987194e-005 -1.480046e-005 -7.203578e-001 2.887919e-001
312825000 9.145972e-005 5.559844e-005 -7.097765e-001 3.063834e-001 1.340880e-005 6.143009e-005 -7.129785e-001 3.073919e-001
313110000 -7.808692e-005 1.057293e-004 -7.022393e-001 3.252162e-001 -5.652109e-005 1.369578e-005 -7.054384e-001 3.262012e-001
313395000 5.157947e-005 -5.703768e-005 -6.942571e-001 3.435116e-001 1.345813e-004 1.426173e-005 -6.967236e-001 3.449153e-001
313680000 -3.313892e-005 3.027678e-006 -6.858822e-001 3.617503e-001 1.686689e-005 -1.837597e-005 -6.885091e-001 3.635775e-001
313965000 -4.526216e-005 -1.117489e-005 -6.768721e-001 3.808794e-001 -3.134622e-005 -1.655914e-005 -6.801319e-001 3.822848e-001
314250000 1.116380e-005 -3.281760e-005 -6.677873e-001 3.988309e-001 -7.263305e-005 7.660477e-005 -6.706746e-001 4.007380e-001
314535000 7.307879e-005 -7.685117e-005 -6.579301e-001 4.175533e-001 5.909712e-005 -5.863827e-006 -6.607150e-001 4.195543e-001
314820000 -6.688094e-005 -5.589837e-005 -6.480612e-001 4.357864e-001 -2.975620e-005 -5.790488e-005 -6.509358e-001 4.380422e-001
315105000 -4.234588e-005 8.518565e-005 -6.375293e-001 4.538980e-001 2.679491e-005 -9.207500e-005 -6.403815e-001 4.556994e-001
315390000 -7.183870e-005 -5.410844e-005 -6.270216e-001 4.722093e-001 3.617142e-005 -4.776381e-005 -6.294456e-001 4.737983e-001
315675000 9.404002e-006 -1.290246e-005 -6.156244e-001 4.903047e-001 3.040719e-005 -8.961457e-005 -6.180996e-001 4.922185e-001
315960000 -3.118213e-005 2.235224e-005 -6.036513e-001 5.081365e-001 6.493940e-005 7.250279e-006 -6.061404e-001 5.099123e-001
316245000 3.910906e-005 6.789239e-005 -5.918669e-001 5.255153e-001 6.841289e-005 -5.454594e-005 -5.942240e-001 5.282593e-001
316530000 3.242133e-005 -2.657769e-005 -5.788361e-001 5.435017e-001 5.669434e-005 7.403186e-005 -5.811058e-001 5.456207e-001
316815000 1.562729e-005 -5.427268e-005 -5.654539e-001 5.606856e-001 -9.350837e-005 -5.892503e-005 -5.683035e-001 5.634595e-001
317100000 -3.124561e-005 -1.646257e-005 -5.518711e-001 5.787471e-001 -7.551491e-005 3.276054e-005 -5.544024e-001 5.808481e-001
317385000 -7.172967e-006 1.401073e-005 -5.378436e-001 5.958520e-001 -2.259383e-006 -2.318450e-005 -5.401430e-001 5.987140e-001
317670000 4.428820e-005 4.097354e-005 -5.231082e-001 6.128132e-001 -1.304909e-004 8.934087e-006 -5.253676e-001 6.154939e-001
317955000 -2.068818e-005 -6.060826e-005 -5.081246e-001 6.302313e-001 -2.590886e-005 -7.246386e-005 -5.098709e-001 6.324271e-001
318240000 9.983841e-005 -1.687912e-005 -4.917838e-001 6.474124e-001 -8.557835e-005 -1.061342e-004 -4.936018e-001 6.502264e-001
318525000 2.252621e-005 -8.257236e-006 -4.753478e-001 6.636673e-001 -1.076204e-004 -1.102613e-004 -4.773990e-001 6.663339e-001
318810000 -4.854185e-005 -7.638072e-006 -4.586703e-001 6.801189e-001 6.800940e-005 -4.895599e-005 -4.609182e-001 6.831759e-001
319095000 -1.466999e-005 1.900579e-006 -4.410905e-001 6.966841e-001 8.021231e-005 -5.506665e-005 -4.429235e-001 6.994939e-001
319380000 -8.044086e-005 2.691949e-005 -4.228137e-001 7.125785e-001 7.462954e-005 -6.579575e-005 -4.241722e-001 7.155597e-001
319665000 -6.488144e-005 7.531476e-006 -4.032180e-001 7.283565e-001 5.356233e-005 -9.738428e-005 -4.053170e-001 7.311669e-001
319950000 -2.925593e-005 -7.788229e-006 -3.842339e-001 7.440740e-001 1.485325e-004 4.041956e-005 -3.853966e-001 7.469761e-001
320235000 7.235310e-005 -4.991856e-005 -3.639178e-001 7.586674e-001 5.227076e-005 -4.148385e-005 -3.654249e-001 7.619437e-001
320520000 -8.270577e-006 1.855406e-005 -3.425047e-001 7.733083e-001 -2.459177e-005 1.343664e-005 -3.444296e-001 7.767225e-001
320805000 -1.051389e-004 -5.227849e-005 -3.208130e-001 7.882754e-001 -3.745954e-005 3.097717e-007 -3.224376e-001 7.916936e-001
321090000 -4.120782e-005 5.530637e-005 -2.989655e-001 8.021291e-001 -5.096608e-005 7.093332e-005 -3.002205e-001 8.050305e-001
321375000 -9.910779e-006 -1.070309e-004 -2.760145e-001 8.157489e-001 6.119064e-005 5.593323e-005 -2.769311e-001 8.186370e-001
321660000 2.272234e-005 1.682713e-004 -2.521519e-001 8.292001e-001 1.461889e-005 1.656459e-005 -2.536393e-001 8.323408e-001
321945000 2.165176e-005 -4.204671e-005 -2.275313e-001 8.412067e-001 -5.099992e-005 1.845906e-005 -2.285028e-001 8.444840e-001
322230000 -3.830219e-005 8.560412e-005 -2.019305e-001 8.534454e-001 -7.307874e-005 2.281761e-005 -2.031673e-001 8.565655e-001
322515000 -6.215396e-005 -5.559625e-005 -1.765729e-001 8.641528e-001 -7.829541e-005 1.272739e-005 -1.771332e-001 8.681813e-001
322800000 1.285486e-005 -1.536697e-005 -1.494665e-001 8.754392e-001 -1.749544e-005 -1.075256e-005 -1.498476e-001 8.793139e-001
323085000 2.006592e-005 -3.073489e-005 -1.216659e-001 8.851939e-001 7.753248e-005 -9.937151e-005 -1.227940e-001 8.889163e-001
323370000 7.835373e-005 6.813633e-005 -9.322319e-002 8.945932e-001 1.099521e-004 -5.792255e-005 -9.418348e-002 8.976824e-001
323655000 2.124849e-005 -4.529570e-005 -6.486939e-002 9.025966e-001 4.271824e-005 -2.265838e-005 -6.474290e-002 9.059169e-001
323940000 4.103978e-005 -2.811174e-005 -3.523946e-002 9.103281e-001 -9.055733e-005 5.067809e-005 -3.583662e-002 9.139549e-001
324225000 4.352668e-006 4.401989e-005 -4.945763e-003 9.170122e-001 2.320219e-005 -7.213456e-006 -4.757760e-003 9.204057e-001
324510000 -4.955649e-005 7.727327e-005 2.633784e-002 9.222578e-001 6.332604e-005 2.901321e-006 2.633651e-002 9.262102e-001
324795000 -1.153378e-004 1.180989e-005 5.797017e-002 9.271343e-001 1.066098e-004 7.705826e-006 5.844090e-002 9.308003e-001
325080000 -6.448852e-005 -2.225072e-005 9.099222e-002 9.303108e-001 -4.630919e-005 -2.141576e-005 9.138598e-002 9.339434e-001
325365000 1.079310e-004 5.388393e-005 1.238303e-001 9.320882e-001 9.557501e-006 -8.950032e-005 1.239889e-001 9.360267e-001
325650000 5.345261e-006 -5.754414e-005 1.571892e-001 9.331580e-001 -1.945878e-005 7.726574e-005 1.575430e-001 9.371173e-001
325935000 3.550978e-005 -5.505743e-005 1.910003e-001 9.321820e-001 -2.599028e-005 -1.191902e-005 1.917452e-001 9.366167e-001
326220000 -9.010379e-006 1.033643e-004 2.256506e-001 9.301904e-001 -2.543623e-005 -1.226692e-004 2.264398e-001 9.347390e-001
326505000 -1.125448e-006 4.554550e-005 2.602289e-001 9.275782e-001 9.445431e-005 -4.937320e-005 2.612530e-001 9.312280e-001
326790000 2.522497e-005 1.339489e-005 2.957993e-001 9.224442e-001 6.654004e-005 3.294391e-005 2.966740e-001 9.264253e-001
327075000 -6.941111e-005 -1.174073e-004 3.306890e-001 9.164810e-001 2.706113e-005 -3.387930e-005 3.319937e-001 9.200479e-001
327360000 -1.021945e-004 -1.157983e-004 3.666534e-001 9.079291e-001 3.830111e-007 -5.820486e-005 3.676153e-001 9.120182e-001
327645000 3.434320e-005 -1.480809e-004 4.022532e-001 8.986312e-001 3.611073e-005 6.898259e-006 4.030578e-001 9.023687e-001
327930000 2.672197e-006 -8.047256e-005 4.367320e-001 8.875889e-001 -1.722437e-005 7.415641e-006 4.391261e-001 8.911984e-001
328215000 7.343647e-005 4.907300e-005 4.727364e-001 8.746484e-001 1.068811e-005 1.283276e-005 4.748650e-001 8.780745e-001
328500000 1.461094e-004 -4.286069e-005 5.075683e-001 8.592871e-001 -5.211339e-006 2.985290e-005 5.100127e-001 8.634493e-001
328785000 1.001794e-004 -5.775253e-005 5.422115e-001 8.429586e-001 -4.415541e-005 9.048101e-005 5.442575e-001 8.472921e-001
329070000 6.150364e-005 8.462075e-005 5.758108e-001 8.253461e-001 -7.973718e-006 1.327837e-005 5.788711e-001 8.283573e-001
329355000 -3.606349e-007 1.654074e-004 6.099190e-001 8.053439e-001 1.867793e-005 8.020798e-007 6.131670e-001 8.090112e-001
329640000 -1.901506e-005 6.295118e-005 6.427797e-001 7.836403e-001 -6.833177e-005 -3.222713e-005 6.460331e-001 7.869800e-001
329925000 -1.755003e-006 1.995536e-005 6.753697e-001 7.601703e-001 -8.840671e-005 1.303347e-004 6.779833e-001 7.631413e-001
330210000 2.536028e-005 -1.501297e-004 7.057181e-001 7.353285e-001 -1.349672e-005 1.144719e-005 7.094929e-001 7.381262e-001
330495000 6.409348e-005 -3.826848e-005 7.364376e-001 7.086920e-001 -5.722350e-005 -4.579942e-005 7.388933e-001 7.113580e-001
330780000 -6.022926e-005 -3.557631e-005 7.642919e-001 6.805062e-001 -1.543128e-005 2.091485e-005 7.681035e-001 6.835707e-001
331065000 9.461065e-005 -7.961084e-005 7.925241e-001 6.507344e-001 -4.452858e-005 -2.036206e-005 7.955177e-001 6.537302e-001
331350000 5.735043e-005 -7.566315e-005 8.185164e-001 6.201748e-001 -1.058106e-004 -4.131523e-005 8.219021e-001 6.227065e-001
331635000 9.821482e-006 4.864973e-005 8.432399e-001 5.873960e-001 8.666102e-006 -1.033318e-004 8.468645e-001 5.898820e-001
331920000 -4.620007e-006 4.445716e-005 8.664201e-001 5.543126e-001 3.062280e-005 -7.083418e-006 8.696159e-001 5.565065e-001
332205000 7.363222e-005 1.668014e-004 8.879011e-001 5.193799e-001 8.636690e-005 -9.286131e-006 8.915882e-001 5.215177e-001
332490000 6.699520e-005 -3.732414e-005 9.069268e-001 4.839797e-001 4.277209e-005 5.403378e-005 9.109467e-001 4.857202e-001
332775000 -7.419973e-006 -2.442730e-005 9.247901e-001 4.470201e-001 -3.242158e-005 6.951675e-005 9.293582e-001 4.489545e-001
333060000 1.146509e-005 2.120836e-005 9.414909e-001 4.094385e-001 3.004645e-005 8.689218e-005 9.449922e-001 4.106535e-001
333345000 2.057197e-005 -4.897156e-005 9.558157e-001 3.715389e-001 5.216005e-005 6.147774e-005 9.593230e-001 3.736385e-001
333630000 6.412548e-005 8.607045e-007 9.672334e-001 3.337151e-001 -6.847394e-005 2.238158e-005 9.719849e-001 3.344459e-001
333915000 1.035651e-005 7.219690e-005 9.779622e-001 2.948105e-001 -7.720361e-005 1.264214e-004 9.821424e-001 2.956263e-001
334200000 1.407506e-006 1.794231e-005 9.864545e-001 2.556126e-001 -2.795597e-005 9.829106e-005 9.900980e-001 2.571877e-001
334485000 -3.777556e-005 5.789624e-005 9.921551e-001 2.173372e-001 5.744255e-005 1.096604e-005 9.969416e-001 2.177628e-001
334770000 1.046892e-004 -4.406527e-005 9.971477e-001 1.780107e-001 -5.701537e-006 8.104825e-005 1.001434e+000 1.786638e-001
335055000 8.211948e-005 -7.706156e-005 9.992905e-001 1.389107e-001 -8.878569e-006 2.995462e-005 1.004368e+000 1.398857e-001
335340000 7.862308e-005 -6.411273e-005 9.999490e-001 1.001521e-001 -5.717048e-005 3.939270e-005 1.005503e+000 1.004324e-001
335625000 1.055409e-004 4.572060e-005 9.990692e-001 6.165555e-002 -3.910974e-005 1.836473e-006 1.004457e+000 6.223940e-002
335910000 1.546562e-006 3.122561e-005 9.968095e-001 2.403324e-002 7.479865e-006 8.120915e-006 1.001112e+000 2.432690e-002
336195000 -3.248181e-005 1.239839e-004 9.922472e-001 -1.369011e-002 5.501564e-005 -6.088502e-006 9.968597e-001 -1.283642e-002
336480000 -1.189651e-004 1.956151e-006 9.868237e-001 -4.961704e-002 -2.979968e-005 -3.888036e-005 9.911782e-001 -5.038875e-002
336765000 -1.552195e-004 1.938126e-005 9.789457e-001 -8.562412e-002 1.796250e-006 5.117548e-005 9.838950e-001 -8.617125e-002
337050000 -7.582266e-005 2.125926e-005 9.706004e-001 -1.208261e-001 -6.922892e-005 2.134979e-005 9.747123e-001 -1.215009e-001
337335000 -5.697090e-005 2.832856e-006 9.605954e-001 -1.554483e-001 -5.844850e-005 -1.443261e-005 9.642756e-001 -1.555111e-001
337620000 -9.699638e-005 -1.145815e-006 9.491503e-001 -1.884630e-001 8.147478e-007 2.305972e-005 9.535450e-001 -1.889395e-001
337905000 -4.082167e-005 6.589190e-005 9.364865e-001 -2.204954e-001 5.856589e-005 5.006066e-005 9.401543e-001 -2.218203e-001
338190000 1.453838e-005 -3.436481e-005 9.224395e-001 -2.526093e-001 -7.054894e-005 1.110230e-004 9.269606e-001 -2.536145e-001
338475000 -1.069986e-004 2.347766e-006 9.078815e-001 -2.826792e-001 -1.311351e-005 5.409123e-005 9.122464e-001 -2.838223e-001
338760000 5.192856e-005 1.282749e-004 8.920801e-001 -3.123217e-001 2.621417e-005 -1.501869e-005 8.957196e-001 -3.137339e-001
339045000 -8.324902e-005 3.768185e-005 8.757237e-001 -3.407099e-001 -1.871970e-005 -6.656317e-005 8.792132e-001 -3.422267e-001
339330000 2.201676e-005 -6.224879e-005 8.580235e-001 -3.679748e-001 -1.377116e-004 1.056900e-005 8.619375e-001 -3.697300e-001
339615000 1.856206e-005 -4.949853e-005 8.395323e-001 -3.939901e-001 -9.066927e-006 -4.695866e-006 8.434559e-001 -3.956786e-001
339900000 -1.406242e-005 -8.237769e-005 8.210954e-001 -4.196034e-001 2.301657e-005 4.649611e-006 8.247719e-001 -4.213054e-001
340185000 3.676078e-005 -1.080278e-004 8.020957e-001 -4.436729e-001 1.506744e-004 5.698355e-007 8.054579e-001 -4.452967e-001
340470000 5.841788e-005 1.961806e-005 7.818227e-001 -4.670949e-001 -9.229848e-005 1.482029e-005 7.853590e-001 -4.690221e-001
340755000 -1.342278e-006 -6.283018e-005 7.615924e-001 -4.887110e-001 2.557012e-005 6.085278e-006 7.651223e-001 -4.909945e-001
341040000 6.990585e-006 9.675126e-006 7.409245e-001 -5.102097e-001 -8.982854e-005 -4.420224e-005 7.442493e-001 -5.120832e-001
341325000 -3.486150e-005 3.501692e-005 7.199090e-001 -5.300784e-001 -7.085983e-005 1.400636e-004 7.227651e-001 -5.320312e-001
341610000 1.214033e-004 -2.351113e-005 6.983613e-001 -5.488947e-001 -6.211575e-005 2.460755e-006 7.011098e-001 -5.519671e-001
341895000 -6.859282e-006 3.167472e-005 6.768436e-001 -5.672594e-001 -4.588926e-005 -2.566939e-005 6.798713e-001 -5.694625e-001
342180000 2.123365e-005 9.393100e-005 6.541467e-001 -5.842661e-001 -7.750262e-006 -9.479550e-006 6.572797e-001 -5.876183e-001
342465000 5.568076e-005 1.009514e-005 6.327799e-001 -6.007034e-001 -5.106955e-006 9.124014e-005 6.360328e-001 -6.028808e-001
342750000 -8.535911e-005 -7.664086e-005 6.101041e-001 -6.159732e-001 8.814968e-006 2.768217e-005 6.128814e-001 -6.188728e-001
343035000 -3.342193e-005 -1.262081e-005 5.881894e-001 -6.304047e-001 3.490000e-005 1.915800e-005 5.907518e-001 -6.334715e-001
343320000 -3.499644e-005 -8.615263e-005 5.654856e-001 -6.440669e-001 3.907057e-005 -4.484674e-009 5.680310e-001 -6.470097e-001
343605000 -8.067580e-006 -8.908675e-005 5.433842e-001 -6.570249e-001 8.332128e-005 6.372807e-005 5.451007e-001 -6.598058e-001
343890000 7.185852e-005 -7.000910e-005 5.209629e-001 -6.691421e-001 7.328649e-005 -5.308737e-005 5.222800e-001 -6.719841e-001
