!Agilent Technologies,N5230C,SG49000117,A.08.50.07
!Agilent N5230C: A.08.50.07
!Date: Monday, March 18, 2024 18:48:23
!Correction: S11(Off) 
!S21(Off) 
!S12(Off) 
!S22(Off) 
!S2P File: Measurements: S11, S21, S12, S22:
# Hz S  RI   R 50
300000000 -2.432558e-005 -2.894963e-005 -6.169974e-001 -6.556374e-001 -9.278790e-006 -1.334124e-004 -6.196706e-001 -6.575518e-001
300285000 -1.908297e-005 -4.540545e-005 -6.329510e-001 -6.320189e-001 -6.422026e-006 -8.669950e-005 -6.350587e-001 -6.346486e-001
300570000 -8.250661e-006 -5.684423e-005 -6.477585e-001 -6.090678e-001 6.570955e-005 -5.674391e-005 -6.500275e-001 -6.117393e-001
300855000 4.894319e-005 2.571841e-005 -6.610347e-001 -5.855731e-001 9.270413e-005 -5.223186e-005 -6.636813e-001 -5.877032e-001
301140000 1.537547e-005 -5.107169e-005 -6.743013e-001 -5.617530e-001 1.119100e-005 -1.223585e-005 -6.766634e-001 -5.642086e-001
301425000 1.309318e-004 8.725385e-006 -6.865666e-001 -5.385133e-001 -2.094367e-005 -8.356813e-005 -6.890441e-001 -5.405171e-001
301710000 -1.359574e-006 -3.696428e-005 -6.978489e-001 -5.154477e-001 1.436569e-004 -1.454371e-005 -7.005364e-001 -5.170647e-001
301995000 3.565285e-005 -2.386047e-005 -7.083374e-001 -4.910560e-001 2.224699e-005 -2.998402e-005 -7.112513e-001 -4.933647e-001
302280000 -6.447191e-005 -3.758360e-005 -7.184390e-001 -4.677766e-001 1.186565e-004 -8.711469e-005 -7.204648e-001 -4.695025e-001
302565000 5.516114e-005 2.466749e-005 -7.277166e-001 -4.444934e-001 1.257658e-006 -2.361584e-005 -7.297608e-001 -4.464639e-001
302850000 1.019055e-004 8.151506e-005 -7.360379e-001 -4.215140e-001 5.711659e-005 8.406605e-006 -7.377067e-001 -4.228912e-001
303135000 -9.871379e-005 8.495572e-005 -7.434037e-001 -3.979241e-001 1.391760e-005 -4.585304e-005 -7.462052e-001 -3.993315e-001
303420000 -3.893848e-005 1.066278e-004 -7.497078e-001 -3.746857e-001 1.680589e-005 -3.523415e-005 -7.531871e-001 -3.761325e-001
303705000 -4.796660e-005 -5.671016e-005 -7.567478e-001 -3.516502e-001 1.410780e-005 2.542064e-005 -7.594151e-001 -3.530764e-001
303990000 -7.190957e-005 -6.399074e-006 -7.618071e-001 -3.290701e-001 4.960362e-007 7.270098e-005 -7.650957e-001 -3.307630e-001
304275000 1.985181e-005 -8.190347e-006 -7.668549e-001 -3.064911e-001 1.550413e-005 -8.309144e-005 -7.700085e-001 -3.074567e-001
304560000 7.970068e-006 -3.524946e-005 -7.720801e-001 -2.833477e-001 -1.425648e-005 3.771596e-005 -7.746423e-001 -2.849610e-001
304845000 4.336580e-005 -4.322882e-005 -7.755731e-001 -2.612167e-001 -1.170208e-005 -4.185034e-005 -7.791304e-001 -2.624111e-001
305130000 7.490266e-005 -5.338402e-005 -7.790738e-001 -2.389887e-001 3.083337e-005 -5.568473e-005 -7.819115e-001 -2.394237e-001
305415000 -9.990868e-007 -3.871790e-005 -7.821169e-001 -2.168294e-001 -3.771044e-005 -5.009752e-005 -7.850150e-001 -2.178006e-001
305700000 4.939607e-005 -3.954497e-005 -7.849337e-001 -1.947726e-001 2.497939e-005 -3.954879e-005 -7.872716e-001 -1.954073e-001
305985000 5.634787e-005 2.039707e-005 -7.861570e-001 -1.728504e-001 8.986190e-006 -6.829198e-005 -7.895961e-001 -1.736716e-001
306270000 2.570405e-005 -5.245693e-005 -7.878195e-001 -1.513544e-001 -7.783979e-005 1.953194e-005 -7.905803e-001 -1.514826e-001
306555000 -1.390084e-005 2.718897e-005 -7.889794e-001 -1.293361e-001 -4.547793e-006 -1.189733e-005 -7.916158e-001 -1.303006e-001
306840000 -7.118198e-005 -1.020811e-004 -7.891555e-001 -1.080112e-001 -3.918929e-005 -3.567173e-005 -7.921828e-001 -1.078449e-001
307125000 1.470538e-005 1.245064e-004 -7.892844e-001 -8.675165e-002 -2.620981e-006 -9.784371e-005 -7.920696e-001 -8.708669e-002
307410000 7.520862e-005 4.493933e-005 -7.887343e-001 -6.593436e-002 1.580984e-005 -8.559661e-005 -7.918654e-001 -6.561593e-002
307695000 -4.274975e-005 -4.873555e-007 -7.879698e-001 -4.475031e-002 1.123231e-004 6.608316e-005 -7.911677e-001 -4.476449e-002
307980000 -1.360089e-005 8.944994e-005 -7.868633e-001 -2.394812e-002 4.909172e-005 -4.988648e-005 -7.896076e-001 -2.435618e-002
308265000 -4.792167e-005 1.125768e-004 -7.850780e-001 -3.145679e-003 -3.914097e-005 -3.010470e-006 -7.881421e-001 -2.773109e-003
308550000 -1.116241e-004 -4.315191e-005 -7.831832e-001 1.737439e-002 -2.473230e-005 -2.100905e-006 -7.861675e-001 1.711935e-002
308835000 6.152917e-006 -5.831242e-005 -7.809489e-001 3.806106e-002 3.820180e-005 -1.409148e-005 -7.838205e-001 3.848979e-002
309120000 -1.259084e-004 1.831494e-005 -7.777310e-001 5.840483e-002 -4.070597e-005 -6.281828e-005 -7.809627e-001 5.838957e-002
309405000 -4.863181e-005 3.429511e-005 -7.748975e-001 7.815844e-002 -4.553665e-005 -5.034370e-005 -7.781962e-001 7.857808e-002
309690000 6.904302e-005 3.590008e-005 -7.713323e-001 9.799410e-002 3.181980e-005 8.842295e-005 -7.748762e-001 9.899624e-002
309975000 -4.473453e-006 3.135625e-005 -7.677643e-001 1.186193e-001 -6.923493e-006 -7.522699e-005 -7.705382e-001 1.184540e-001
310260000 8.984360e-005 -2.866857e-005 -7.635364e-001 1.381561e-001 -4.423915e-005 4.031220e-005 -7.662508e-001 1.385860e-001
310545000 -6.791234e-007 2.606674e-005 -7.586937e-001 1.579767e-001 -7.730477e-005 4.013197e-005 -7.617761e-001 1.583570e-001
310830000 9.721122e-005 -7.672692e-005 -7.536016e-001 1.769343e-001 5.363033e-005 -5.475794e-006 -7.568520e-001 1.779975e-001
311115000 5.604832e-005 -2.830722e-006 -7.486358e-001 1.969654e-001 6.141932e-005 -1.724260e-005 -7.517301e-001 1.976137e-001
311400000 2.854138e-005 -3.202398e-006 -7.429006e-001 2.160624e-001 3.789414e-005 -1.405710e-004 -7.459331e-001 2.168957e-001
311685000 2.178989e-005 1.588186e-004 -7.376400e-001 2.355282e-001 5.340192e-005 -6.386449e-006 -7.404974e-001 2.358588e-001
311970000 3.925362e-005 1.158207e-005 -7.311797e-001 2.545594e-001 1.947286e-005 -1.337854e-004 -7.335647e-001 2.555142e-001
312255000 -1.180194e-005 4.584964e-005 -7.246554e-001 2.735104e-001 6.307489e-005 4.047521e-005 -7.270202e-001 2.746997e-001
312540000 -7.384083e-005 1.967416e-005 -7.176853e-001 2.924302e-001 1.626013e-004 1.005359e-004 -7.199146e-001 2.933572e-001
312825000 2.942730e-006 1.155528e-005 -7.096900e-001 3.116617e-001 4.498591e-005 7.508643e-005 -7.132930e-001 3.130850e-001
313110000 -1.709101e-005 4.941331e-006 -7.023531e-001 3.303255e-001 1.490400e-004 8.217543e-008 -7.049754e-001 3.311190e-001
313395000 -4.582031e-005 -5.621490e-005 -6.943076e-001 3.489119e-001 -6.394191e-005 -7.034447e-005 -6.968827e-001 3.502041e-001
313680000 -2.126443e-005 2.523035e-005 -6.853437e-001 3.670728e-001 -2.109094e-005 4.624632e-005 -6.876776e-001 3.688826e-001
313965000 -3.945377e-005 -8.085890e-005 -6.763960e-001 3.860216e-001 1.222479e-004 -2.413739e-005 -6.790364e-001 3.875134e-001
314250000 -1.797186e-005 5.931547e-005 -6.671113e-001 4.048374e-001 2.399568e-005 -7.119959e-005 -6.698776e-001 4.060133e-001
314535000 4.543960e-005 -8.879138e-006 -6.577876e-001 4.230327e-001 2.301011e-005 -2.017696e-005 -6.599520e-001 4.247459e-001
314820000 -8.095022e-005 -4.966893e-005 -6.467565e-001 4.414941e-001 -1.751529e-005 -3.876166e-005 -6.500206e-001 4.428425e-001
315105000 3.328601e-005 2.023839e-005 -6.370643e-001 4.595093e-001 1.610944e-005 -3.648009e-005 -6.391976e-001 4.609563e-001
315390000 1.917467e-005 7.602514e-005 -6.257941e-001 4.776590e-001 -3.860526e-005 4.515045e-005 -6.283002e-001 4.797923e-001
315675000 -3.205621e-005 4.364564e-005 -6.142436e-001 4.955674e-001 -1.368425e-004 -8.936274e-005 -6.166788e-001 4.976143e-001
315960000 -5.574724e-005 -3.261931e-005 -6.024885e-001 5.139467e-001 2.785841e-005 -1.143742e-005 -6.048647e-001 5.153931e-001
316245000 -5.124351e-007 -2.449029e-005 -5.905745e-001 5.314003e-001 2.863232e-005 8.570153e-005 -5.924824e-001 5.328903e-001
316530000 2.772173e-005 4.700170e-006 -5.772897e-001 5.489743e-001 -3.439153e-005 3.892529e-006 -5.797807e-001 5.515584e-001
316815000 -1.438218e-005 6.818319e-005 -5.641810e-001 5.661646e-001 1.033997e-005 8.321433e-005 -5.663248e-001 5.688506e-001
317100000 8.173621e-005 -3.230373e-005 -5.501379e-001 5.845888e-001 3.445608e-005 1.713682e-005 -5.524918e-001 5.866262e-001
317385000 -1.679283e-005 -5.972021e-005 -5.360796e-001 6.017967e-001 -9.399105e-005 -7.281482e-005 -5.377445e-001 6.039003e-001
317670000 -8.165184e-005 -1.340626e-005 -5.205991e-001 6.184127e-001 -7.770016e-005 3.204400e-005 -5.227808e-001 6.212437e-001
317955000 -7.344496e-005 -5.891525e-006 -5.051870e-001 6.354620e-001 -3.815546e-006 -3.833773e-005 -5.072615e-001 6.383092e-001
318240000 -6.052072e-005 -6.920146e-005 -4.895320e-001 6.525652e-001 -1.400714e-005 -5.416616e-005 -4.913685e-001 6.554582e-001
318525000 -5.049714e-005 -1.373113e-005 -4.725578e-001 6.694397e-001 2.279990e-006 -3.226874e-005 -4.744051e-001 6.724451e-001
318810000 2.875690e-005 9.652283e-005 -4.553134e-001 6.858532e-001 -5.379436e-005 5.162963e-005 -4.573353e-001 6.886322e-001
319095000 5.884984e-005 -1.345617e-005 -4.373751e-001 7.024508e-001 -5.500156e-005 -1.063236e-006 -4.392719e-001 7.052803e-001
319380000 -2.492509e-005 -1.387193e-004 -4.191344e-001 7.180326e-001 -9.017457e-005 -1.494594e-004 -4.208305e-001 7.208366e-001
319665000 4.648930e-005 -6.628117e-005 -3.995389e-001 7.336233e-001 -1.219399e-005 -8.955329e-005 -4.021178e-001 7.363612e-001
319950000 5.745825e-005 -5.797856e-005 -3.802610e-001 7.494473e-001 -1.712556e-005 7.269954e-005 -3.821132e-001 7.518193e-001
320235000 5.215609e-005 -1.775451e-005 -3.595828e-001 7.644863e-001 1.852132e-006 1.613187e-005 -3.615135e-001 7.670947e-001
320520000 1.525280e-006 -2.928947e-005 -3.385576e-001 7.793335e-001 -8.191559e-005 -1.843393e-005 -3.402628e-001 7.826134e-001
320805000 1.332962e-005 -1.676624e-005 -3.171438e-001 7.937762e-001 6.254297e-008 -1.016732e-004 -3.183484e-001 7.966585e-001
321090000 3.464816e-005 3.362523e-005 -2.942055e-001 8.076235e-001 3.499807e-005 1.350433e-005 -2.955233e-001 8.111222e-001
321375000 1.059880e-004 2.846597e-005 -2.713155e-001 8.212043e-001 -4.599071e-005 -1.180599e-004 -2.721301e-001 8.246639e-001
321660000 5.964583e-005 4.544535e-005 -2.471514e-001 8.335306e-001 3.420239e-005 -4.380015e-006 -2.479864e-001 8.374791e-001
321945000 1.018908e-004 -9.651401e-005 -2.225561e-001 8.461840e-001 2.133406e-005 -4.810223e-005 -2.231111e-001 8.499969e-001
322230000 -3.953460e-005 -9.479976e-006 -1.971611e-001 8.577648e-001 -1.483943e-004 4.908224e-005 -1.979457e-001 8.618998e-001
322515000 -5.474593e-005 -4.813534e-005 -1.705898e-001 8.696936e-001 -6.681465e-005 -5.042404e-006 -1.714526e-001 8.733685e-001
322800000 -8.894522e-005 -5.847787e-006 -1.437500e-001 8.800493e-001 -8.254922e-005 -3.326478e-005 -1.441188e-001 8.834996e-001
323085000 -9.874535e-006 1.204032e-004 -1.156878e-001 8.898633e-001 7.419127e-005 9.097084e-005 -1.167227e-001 8.936407e-001
323370000 -1.640138e-004 -4.324375e-005 -8.736862e-002 8.988144e-001 -4.779776e-006 -9.772225e-006 -8.734275e-002 9.026975e-001
323655000 6.020675e-005 1.797726e-005 -5.813110e-002 9.072704e-001 -3.398371e-005 -3.712563e-005 -5.835148e-002 9.113235e-001
323940000 -3.362837e-005 -1.220593e-004 -2.827318e-002 9.140908e-001 -4.222124e-005 3.956029e-005 -2.873924e-002 9.184282e-001
324225000 -6.401458e-006 8.276638e-006 2.414483e-003 9.203583e-001 -9.913608e-005 8.965500e-006 2.794687e-003 9.246021e-001
324510000 2.479945e-005 3.791942e-005 3.390900e-002 9.262582e-001 -4.167695e-005 7.720365e-006 3.370630e-002 9.296873e-001
324795000 -3.230089e-005 -6.412817e-005 6.614345e-002 9.304279e-001 9.977219e-005 -7.838257e-005 6.567999e-002 9.337918e-001
325080000 -6.043313e-005 4.381855e-005 9.831224e-002 9.333003e-001 1.656078e-004 3.701173e-005 9.909346e-002 9.376053e-001
325365000 3.170037e-005 1.023419e-004 1.318019e-001 9.351654e-001 2.560005e-005 -5.590503e-006 1.323133e-001 9.390059e-001
325650000 2.332291e-005 6.104475e-005 1.650417e-001 9.358268e-001 4.397340e-005 -3.805433e-005 1.658928e-001 9.398499e-001
325935000 6.327638e-005 1.213917e-005 1.994790e-001 9.349651e-001 2.541007e-005 1.330814e-004 2.004162e-001 9.391652e-001
326220000 -3.845750e-005 -2.119437e-005 2.340321e-001 9.325570e-001 -5.966589e-005 7.225786e-005 2.351363e-001 9.367567e-001
326505000 -4.959726e-005 -4.470211e-005 2.695619e-001 9.292305e-001 -8.279350e-006 -2.998525e-005 2.703086e-001 9.329018e-001
326790000 -1.322544e-005 -1.983544e-005 3.045079e-001 9.239287e-001 1.976012e-005 -2.699738e-005 3.055809e-001 9.276405e-001
327075000 -3.065599e-005 5.495451e-007 3.400276e-001 9.175247e-001 -1.092430e-005 8.119777e-005 3.410572e-001 9.213085e-001
327360000 -9.212730e-006 -3.005701e-005 3.759202e-001 9.089761e-001 -3.281060e-005 5.417121e-005 3.772067e-001 9.133124e-001
327645000 -1.015911e-004 2.539077e-005 4.117225e-001 8.994972e-001 5.209889e-005 -8.410248e-006 4.125716e-001 9.023945e-001
327930000 -1.282335e-005 2.559705e-005 4.468436e-001 8.877818e-001 -7.276252e-005 -3.911353e-005 4.487684e-001 8.908647e-001
328215000 1.143715e-004 -8.464990e-005 4.818752e-001 8.739183e-001 3.154147e-005 -5.297404e-005 4.845038e-001 8.778228e-001
328500000 7.206253e-005 6.879855e-006 5.176474e-001 8.584498e-001 -8.728139e-005 8.463838e-005 5.195275e-001 8.628716e-001
328785000 -3.217240e-005 -6.969875e-005 5.519448e-001 8.418629e-001 6.183780e-005 3.292000e-006 5.545817e-001 8.453447e-001
329070000 8.532521e-005 9.690240e-005 5.862893e-001 8.237592e-001 -3.080814e-005 5.443517e-005 5.887151e-001 8.272775e-001
329355000 -7.061215e-006 3.984979e-005 6.196772e-001 8.024058e-001 -3.407832e-005 -1.099917e-004 6.225861e-001 8.064340e-001
329640000 7.306214e-005 1.262109e-004 6.530002e-001 7.810037e-001 6.830403e-005 -1.042603e-005 6.558914e-001 7.840171e-001
329925000 4.189728e-005 -1.749605e-005 6.848307e-001 7.570535e-001 1.567969e-005 -5.581109e-005 6.877650e-001 7.604715e-001
330210000 1.428811e-004 -4.643681e-005 7.157202e-001 7.314996e-001 -4.584904e-005 -7.652667e-005 7.186568e-001 7.343380e-001
330495000 -5.496087e-005 7.642006e-005 7.456786e-001 7.048175e-001 -1.559984e-005 -8.960812e-005 7.483131e-001 7.075260e-001
330780000 -5.077982e-005 -2.388305e-005 7.746240e-001 6.761224e-001 -1.426996e-004 1.513458e-005 7.772845e-001 6.790990e-001
331065000 -7.340161e-005 -1.130661e-004 8.014629e-001 6.460500e-001 -2.290358e-005 6.535876e-005 8.045648e-001 6.487067e-001
331350000 -9.184111e-005 1.164879e-005 8.281748e-001 6.147936e-001 -1.120385e-004 -1.324700e-004 8.303952e-001 6.164593e-001
331635000 2.135705e-005 -5.011070e-005 8.515137e-001 5.820806e-001 -6.633712e-005 -1.428260e-005 8.558296e-001 5.835449e-001
331920000 -1.369925e-005 7.506131e-005 8.749969e-001 5.476910e-001 -4.691681e-005 -1.692259e-005 8.786016e-001 5.494733e-001
332205000 -6.297927e-006 6.259532e-006 8.964075e-001 5.125581e-001 -2.990234e-005 2.810520e-005 8.995859e-001 5.143988e-001
332490000 5.609469e-005 2.547507e-005 9.150718e-001 4.764040e-001 -1.402112e-006 -8.505490e-005 9.191766e-001 4.784369e-001
332775000 4.009038e-005 6.415418e-005 9.322861e-001 4.391052e-001 1.661187e-005 -3.560480e-005 9.362132e-001 4.412203e-001
333060000 -7.440045e-005 -4.571077e-005 9.482071e-001 4.019549e-001 5.783964e-005 -2.863462e-005 9.519908e-001 4.043257e-001
333345000 3.955300e-005 -2.886678e-005 9.614250e-001 3.638794e-001 8.718734e-005 4.631660e-005 9.658298e-001 3.656399e-001
333630000 1.362510e-004 5.401553e-006 9.732969e-001 3.248966e-001 2.240111e-005 1.046787e-004 9.779713e-001 3.267524e-001
333915000 1.188466e-004 8.852665e-006 9.835334e-001 2.868490e-001 1.615382e-005 -4.044407e-005 9.877743e-001 2.872849e-001
334200000 4.560826e-005 4.612174e-005 9.910749e-001 2.465582e-001 1.085243e-005 1.289868e-004 9.957307e-001 2.481499e-001
334485000 1.882685e-005 -2.885141e-005 9.973701e-001 2.077760e-001 6.472728e-005 -2.827972e-005 1.002131e+000 2.082968e-001
334770000 -3.536784e-005 -8.381106e-005 1.001609e+000 1.687741e-001 3.350285e-005 1.860705e-005 1.006075e+000 1.690400e-001
335055000 -1.631870e-004 -5.949000e-005 1.003378e+000 1.293696e-001 5.286577e-005 1.369399e-005 1.008501e+000 1.301858e-001
335340000 -5.869844e-005 -5.232423e-005 1.004084e+000 9.032436e-002 6.497793e-005 -3.409685e-005 1.008863e+000 9.086604e-002
335625000 -1.778662e-005 -3.883442e-005 1.002843e+000 5.223630e-002 3.263907e-005 2.102766e-005 1.007184e+000 5.267955e-002
335910000 -4.502578e-005 -4.864534e-005 9.995638e-001 1.395398e-002 -2.183708e-006 -9.668307e-005 1.004063e+000 1.420289e-002
336195000 -5.948136e-005 -4.100464e-005 9.948443e-001 -2.294690e-002 6.545847e-005 5.398386e-005 9.996482e-001 -2.302506e-002
336480000 5.349913e-006 -1.781242e-005 9.887484e-001 -5.920455e-002 9.720445e-005 4.774113e-005 9.928712e-001 -6.003496e-002
336765000 3.279783e-005 -8.472004e-005 9.810439e-001 -9.560355e-002 9.536259e-006 1.497789e-005 9.856116e-001 -9.598710e-002
337050000 -2.461973e-005 -6.068186e-005 9.718828e-001 -1.308051e-001 -1.671323e-006 -7.647336e-005 9.756525e-001 -1.311560e-001
337335000 4.789950e-005 -6.489670e-005 9.615986e-001 -1.645905e-001 3.297942e-005 1.031146e-004 9.651486e-001 -1.656708e-001
337620000 3.033989e-005 -1.131457e-004 9.497532e-001 -1.977942e-001 1.012545e-005 -1.314032e-006 9.534944e-001 -1.987422e-001
337905000 -1.061968e-004 -6.606446e-005 9.370856e-001 -2.302706e-001 -7.044689e-005 -3.517843e-005 9.408378e-001 -2.313004e-001
338190000 8.244869e-005 4.606534e-005 9.222519e-001 -2.618889e-001 4.498271e-005 4.660052e-005 9.266428e-001 -2.630262e-001
338475000 1.725251e-005 -5.695296e-005 9.072710e-001 -2.921500e-001 -1.641111e-004 7.759764e-005 9.105845e-001 -2.932511e-001
338760000 -2.827338e-005 9.421280e-006 8.910440e-001 -3.211835e-001 -1.433731e-005 1.448164e-004 8.946878e-001 -3.224209e-001
339045000 8.717820e-005 -7.936794e-005 8.739789e-001 -3.494327e-001 5.743870e-005 -3.303053e-005 8.774143e-001 -3.504887e-001
339330000 -6.749210e-005 1.955505e-004 8.557570e-001 -3.762005e-001 4.775952e-006 1.984231e-005 8.599083e-001 -3.782249e-001
339615000 7.626546e-006 1.815682e-005 8.377997e-001 -4.026391e-001 7.059224e-005 2.275332e-005 8.413930e-001 -4.043044e-001
339900000 -9.020303e-005 4.191573e-005 8.186531e-001 -4.274651e-001 9.749012e-005 4.079677e-005 8.221140e-001 -4.299589e-001
340185000 8.974342e-006 7.274264e-005 7.994668e-001 -4.519844e-001 5.304138e-005 3.955161e-005 8.023705e-001 -4.537676e-001
340470000 4.619198e-005 -7.392257e-005 7.793409e-001 -4.754051e-001 4.658270e-006 6.901762e-006 7.825836e-001 -4.767362e-001
340755000 -6.171688e-006 -9.755790e-005 7.584609e-001 -4.969519e-001 2.897263e-005 1.051796e-004 7.617903e-001 -4.987653e-001
341040000 -1.946199e-005 -4.497335e-005 7.379264e-001 -5.175382e-001 -3.598340e-005 -1.371809e-005 7.403870e-001 -5.194128e-001
341325000 3.224743e-005 -7.559264e-005 7.166744e-001 -5.373614e-001 2.203723e-005 6.948795e-005 7.193932e-001 -5.400368e-001
341610000 -1.786208e-005 7.868237e-005 6.944482e-001 -5.563643e-001 -7.432410e-005 -2.203039e-005 6.976768e-001 -5.589132e-001
341895000 2.714292e-005 -9.083577e-005 6.725351e-001 -5.739796e-001 4.009358e-005 5.182502e-005 6.753111e-001 -5.766400e-001
342180000 -1.204365e-006 -6.800389e-005 6.504189e-001 -5.910453e-001 2.216702e-005 1.449256e-005 6.530156e-001 -5.936583e-001
342465000 5.726973e-006 5.003497e-005 6.287902e-001 -6.072060e-001 3.680646e-005 2.504038e-005 6.315202e-001 -6.098565e-001
342750000 1.862083e-004 7.671675e-005 6.060408e-001 -6.224276e-001 5.919190e-006 -4.473114e-005 6.082386e-001 -6.248651e-001
343035000 5.360195e-006 4.111688e-005 5.839572e-001 -6.370596e-001 -1.541622e-005 2.628577e-005 5.857661e-001 -6.393675e-001
343320000 -2.070519e-005 4.048801e-005 5.610997e-001 -6.500127e-001 -1.140836e-004 -1.008045e-004 5.633488e-001 -6.527600e-001
343605000 1.129898e-005 -7.279160e-005 5.386618e-001 -6.626838e-001 3.853475e-006 1.401173e-005 5.404105e-001 -6.652551e-001
343890000 -2.531840e-005 -1.995609e-005 5.161939e-001 -6.746401e-001 3.219254e-005 2.081523e-006 5.179564e-001 -6.773813e-001
