!Agilent Technologies,N5230C,SG49000117,A.08.50.07
!Agilent N5230C: A.08.50.07
!Date: Monday, March 18, 2024 18:49:27
!Correction: S11(Off) 
!S21(Off) 
!S12(Off) 
!S22(Off) 
!S2P File: Measurements: S11, S21, S12, S22:
# Hz S  RI   R 50
300000000 7.107791e-005 -5.409757e-005 -6.223999e-001 -6.494737e-001 8.848089e-005 -5.556253e-007 -6.244617e-001 -6.523626e-001
300285000 -1.146044e-004 -2.016741e-005 -6.372491e-001 -6.269447e-001 -1.139453e-005 3.676210e-005 -6.402540e-001 -6.286232e-001
300570000 8.657046e-005 5.659920e-005 -6.522427e-001 -6.027899e-001 1.235205e-006 8.557826e-005 -6.542528e-001 -6.047614e-001
300855000 9.036285e-005 5.663654e-005 -6.663002e-001 -5.792909e-001 -4.520118e-005 -8.086062e-006 -6.682167e-001 -5.817865e-001
301140000 1.339654e-004 5.133164e-005 -6.788682e-001 -5.557042e-001 4.728642e-005 -3.579237e-005 -6.813073e-001 -5.575953e-001
301425000 2.700446e-005 1.882535e-004 -6.902379e-001 -5.320061e-001 2.229075e-005 1.322470e-004 -6.934600e-001 -5.341437e-001
301710000 2.199201e-005 7.055930e-005 -7.018477e-001 -5.080032e-001 -9.435722e-005 -4.432226e-005 -7.045995e-001 -5.110137e-001
301995000 3.085341e-005 -7.391394e-005 -7.120326e-001 -4.849413e-001 2.235278e-005 3.490533e-005 -7.146720e-001 -4.868963e-001
302280000 -1.161973e-004 3.381610e-005 -7.215655e-001 -4.614132e-001 -5.946536e-006 -1.133871e-005 -7.240993e-001 -4.637854e-001
302565000 -2.131951e-005 6.510352e-005 -7.307016e-001 -4.379517e-001 4.820243e-006 -1.630001e-006 -7.333542e-001 -4.402942e-001
302850000 -9.843872e-005 5.113441e-005 -7.387430e-001 -4.150421e-001 -4.036829e-005 -4.205023e-005 -7.412874e-001 -4.160354e-001
303135000 2.920546e-005 3.335857e-005 -7.463462e-001 -3.914957e-001 -9.626687e-005 -1.284866e-005 -7.491921e-001 -3.931839e-001
303420000 -4.429205e-005 -2.560102e-005 -7.529147e-001 -3.682949e-001 1.168368e-006 -6.037033e-006 -7.555196e-001 -3.695975e-001
303705000 -1.363214e-005 -9.996226e-005 -7.590498e-001 -3.451801e-001 -4.018738e-005 -5.931253e-005 -7.616412e-001 -3.465238e-001
303990000 4.233135e-005 2.411790e-005 -7.644234e-001 -3.224232e-001 -5.789248e-005 1.854662e-005 -7.670724e-001 -3.236317e-001
304275000 -4.429736e-005 -5.571635e-005 -7.696709e-001 -2.999455e-001 -3.369822e-005 -5.323332e-005 -7.722123e-001 -3.004260e-001
304560000 -7.110205e-006 -6.349010e-005 -7.732965e-001 -2.770653e-001 -1.476142e-005 -2.227925e-005 -7.771074e-001 -2.784274e-001
304845000 9.756938e-005 1.737804e-005 -7.776656e-001 -2.545183e-001 -2.615228e-006 -1.677119e-006 -7.804058e-001 -2.561678e-001
305130000 1.144192e-004 -3.800499e-006 -7.812696e-001 -2.323231e-001 4.420389e-006 -9.463187e-005 -7.840021e-001 -2.330259e-001
305415000 6.815691e-005 2.320977e-005 -7.836344e-001 -2.101496e-001 -7.335964e-005 7.092006e-005 -7.868780e-001 -2.112810e-001
305700000 8.026462e-005 5.051650e-007 -7.858707e-001 -1.884607e-001 -9.895411e-005 2.857402e-005 -7.889201e-001 -1.887485e-001
305985000 5.713556e-005 -6.469346e-005 -7.876676e-001 -1.659908e-001 1.304992e-005 3.932434e-005 -7.908915e-001 -1.671206e-001
306270000 4.039261e-005 1.256005e-005 -7.886817e-001 -1.444761e-001 -4.246040e-005 -5.480231e-005 -7.918652e-001 -1.452342e-001
306555000 -2.394500e-005 -2.156909e-005 -7.895604e-001 -1.228375e-001 1.613236e-004 -1.760125e-006 -7.927989e-001 -1.237742e-001
306840000 2.998156e-005 -4.495419e-005 -7.901447e-001 -1.017783e-001 8.728103e-005 1.845845e-004 -7.927267e-001 -1.018925e-001
307125000 -1.111333e-004 2.702528e-006 -7.895746e-001 -8.004673e-002 6.116128e-006 6.677883e-005 -7.927120e-001 -8.068167e-002
307410000 3.571629e-005 -1.162994e-005 -7.891209e-001 -5.869765e-002 -7.464181e-005 -6.064028e-006 -7.923091e-001 -5.945678e-002
307695000 -2.717648e-005 6.709373e-005 -7.884414e-001 -3.807826e-002 -6.995100e-006 6.365114e-006 -7.912266e-001 -3.806116e-002
307980000 -4.943694e-005 1.123860e-004 -7.866249e-001 -1.722123e-002 -2.454209e-006 6.359933e-005 -7.902367e-001 -1.768641e-002
308265000 4.427443e-005 4.285302e-005 -7.848819e-001 3.478667e-003 -8.424436e-005 6.936600e-005 -7.883636e-001 3.192094e-003
308550000 4.245386e-005 -2.459389e-005 -7.829462e-001 2.378830e-002 6.626036e-005 -2.191249e-005 -7.860411e-001 2.389632e-002
308835000 2.865877e-005 1.438500e-005 -7.811040e-001 4.432601e-002 -9.702932e-005 -4.763441e-005 -7.838611e-001 4.424690e-002
309120000 2.647168e-005 -1.615427e-005 -7.777370e-001 6.442205e-002 -7.230139e-005 -2.942135e-005 -7.803616e-001 6.496517e-002
309405000 -4.030151e-005 -1.738375e-004 -7.744693e-001 8.486897e-002 2.606290e-005 -1.167372e-004 -7.774834e-001 8.492994e-002
309690000 1.471602e-005 -1.040290e-005 -7.707962e-001 1.045125e-001 9.023191e-005 1.452585e-006 -7.736074e-001 1.051245e-001
309975000 5.766849e-005 -4.598610e-005 -7.669243e-001 1.250396e-001 -4.291242e-005 -7.045769e-005 -7.695934e-001 1.249543e-001
310260000 -7.117946e-005 -4.403519e-005 -7.624697e-001 1.447877e-001 9.328716e-005 -1.180605e-004 -7.655094e-001 1.445870e-001
310545000 -1.493290e-005 9.649783e-005 -7.581897e-001 1.639334e-001 -2.142062e-005 3.464294e-005 -7.608827e-001 1.646712e-001
310830000 1.246061e-004 -8.324906e-005 -7.528817e-001 1.831120e-001 4.151718e-005 7.817083e-005 -7.561083e-001 1.844016e-001
311115000 -3.031066e-005 1.610013e-005 -7.477595e-001 2.027250e-001 6.502630e-005 8.576374e-005 -7.506556e-001 2.035089e-001
311400000 1.372210e-005 -6.529843e-005 -7.415479e-001 2.223985e-001 -5.282349e-006 -5.488778e-005 -7.446759e-001 2.224924e-001
311685000 9.458180e-005 -5.938860e-006 -7.357152e-001 2.410236e-001 5.601545e-005 9.401559e-005 -7.388878e-001 2.425541e-001
311970000 1.370294e-005 -2.769518e-005 -7.291930e-001 2.605761e-001 -8.804390e-005 1.230038e-004 -7.321279e-001 2.617096e-001
312255000 8.694977e-005 5.512901e-005 -7.223279e-001 2.796254e-001 -1.056689e-005 -6.327532e-005 -7.254761e-001 2.810338e-001
312540000 -1.976868e-005 9.576276e-005 -7.157095e-001 2.983709e-001 7.108413e-005 2.613247e-005 -7.183350e-001 2.997577e-001
312825000 2.842817e-005 5.276746e-005 -7.078610e-001 3.172125e-001 7.980337e-007 6.516880e-005 -7.105817e-001 3.188189e-001
313110000 5.657376e-006 1.686874e-005 -6.999246e-001 3.358802e-001 9.745250e-005 1.730509e-005 -7.027997e-001 3.374496e-001
313395000 -2.341704e-005 5.220551e-006 -6.912369e-001 3.551708e-001 -4.741236e-005 3.908991e-005 -6.946782e-001 3.562388e-001
313680000 5.945584e-005 -5.936198e-005 -6.830110e-001 3.737693e-001 -9.004668e-005 4.813097e-005 -6.862153e-001 3.751681e-001
313965000 -5.801005e-005 -2.784252e-005 -6.736343e-001 3.925619e-001 -1.258684e-005 -1.259557e-005 -6.760544e-001 3.935241e-001
314250000 -1.288553e-004 -8.624025e-006 -6.641898e-001 4.108241e-001 7.099395e-005 -3.587483e-005 -6.668189e-001 4.120436e-001
314535000 -7.502658e-005 -7.912257e-005 -6.547076e-001 4.289119e-001 3.567991e-005 -4.359136e-006 -6.568883e-001 4.309905e-001
314820000 1.031664e-004 -1.758796e-005 -6.447240e-001 4.473251e-001 -8.252099e-005 1.112903e-004 -6.467115e-001 4.494112e-001
315105000 -2.084562e-005 7.181482e-005 -6.332629e-001 4.654731e-001 -3.329233e-006 7.453435e-005 -6.360930e-001 4.669998e-001
315390000 1.050722e-004 4.084835e-005 -6.225175e-001 4.832886e-001 -4.690421e-005 -6.582297e-005 -6.246980e-001 4.853937e-001
315675000 -2.131564e-005 -7.420088e-005 -6.111047e-001 5.016776e-001 -5.813894e-005 -1.230115e-004 -6.130611e-001 5.033430e-001
315960000 -7.924993e-006 2.808092e-005 -5.989032e-001 5.192382e-001 -1.149820e-005 -4.778616e-005 -6.013129e-001 5.211322e-001
316245000 7.615265e-005 -1.813067e-005 -5.862461e-001 5.371504e-001 -7.147363e-006 -1.601007e-004 -5.884866e-001 5.394738e-001
316530000 8.830216e-005 4.554068e-005 -5.735965e-001 5.552548e-001 1.750307e-005 -1.163212e-004 -5.753900e-001 5.572065e-001
316815000 4.875942e-006 3.219936e-005 -5.600321e-001 5.719003e-001 9.339007e-005 -1.846147e-007 -5.617578e-001 5.747033e-001
317100000 -2.595780e-005 3.327034e-005 -5.455261e-001 5.900415e-001 -1.677742e-005 -8.885534e-006 -5.481431e-001 5.924874e-001
317385000 -6.716577e-005 8.870359e-005 -5.311596e-001 6.071621e-001 -7.598516e-005 -1.999701e-005 -5.333783e-001 6.094909e-001
317670000 -7.946694e-005 -1.680774e-005 -5.165043e-001 6.241181e-001 -8.802438e-005 -3.978164e-005 -5.181260e-001 6.267741e-001
317955000 -5.319752e-005 8.682854e-005 -5.004262e-001 6.415484e-001 -6.570078e-005 -3.043108e-005 -5.018153e-001 6.440595e-001
318240000 3.505326e-005 1.549612e-004 -4.843649e-001 6.581806e-001 -9.700039e-005 -7.871961e-005 -4.859404e-001 6.606641e-001
318525000 5.890722e-005 1.082640e-005 -4.677699e-001 6.745386e-001 -4.532935e-005 -7.263412e-005 -4.695320e-001 6.772140e-001
318810000 -3.876627e-005 -1.875783e-005 -4.500135e-001 6.912755e-001 -4.818029e-005 -4.811275e-005 -4.518281e-001 6.939527e-001
319095000 7.373826e-005 -3.274395e-005 -4.320525e-001 7.070802e-001 -1.644566e-005 -3.797651e-005 -4.337176e-001 7.102030e-001
319380000 8.688569e-005 -7.976303e-005 -4.136960e-001 7.233494e-001 3.532378e-005 -8.009240e-005 -4.150478e-001 7.259042e-001
319665000 6.848665e-005 1.012690e-004 -3.937584e-001 7.389972e-001 -3.688832e-006 -2.597286e-005 -3.960702e-001 7.415395e-001
319950000 1.552054e-006 -5.833003e-005 -3.742616e-001 7.538405e-001 -4.194856e-005 6.476366e-005 -3.755793e-001 7.569408e-001
320235000 -1.039671e-005 -1.238444e-005 -3.534319e-001 7.690287e-001 -9.600274e-005 1.634273e-005 -3.549704e-001 7.723633e-001
320520000 1.298428e-004 1.549259e-005 -3.320424e-001 7.839165e-001 2.087633e-005 1.515413e-004 -3.336152e-001 7.870537e-001
320805000 -1.795649e-005 -2.853672e-005 -3.098719e-001 7.977833e-001 -1.415984e-004 -9.261269e-006 -3.116865e-001 8.010973e-001
321090000 -1.497843e-004 9.714050e-006 -2.872026e-001 8.117682e-001 -2.600952e-006 7.622490e-006 -2.888336e-001 8.151812e-001
321375000 2.996346e-005 -7.277631e-006 -2.638729e-001 8.252422e-001 -1.094905e-004 2.924152e-005 -2.648678e-001 8.285006e-001
321660000 -1.088373e-005 2.280061e-005 -2.400346e-001 8.378735e-001 -2.783149e-005 6.265969e-005 -2.405695e-001 8.413309e-001
321945000 1.750805e-005 7.459146e-005 -2.147657e-001 8.500636e-001 8.410510e-005 -1.336212e-004 -2.150445e-001 8.537467e-001
322230000 -4.878785e-006 -2.937353e-005 -1.891750e-001 8.618088e-001 -7.814924e-005 1.068337e-004 -1.895984e-001 8.651976e-001
322515000 5.427519e-005 -5.021909e-006 -1.624913e-001 8.733577e-001 1.421757e-005 -6.507481e-005 -1.631958e-001 8.769512e-001
322800000 -2.628724e-005 7.633156e-005 -1.352331e-001 8.836706e-001 1.938695e-005 -9.145900e-005 -1.359325e-001 8.866964e-001
323085000 5.327171e-005 7.549831e-005 -1.069398e-001 8.933021e-001 -1.343724e-005 3.079543e-005 -1.077761e-001 8.965117e-001
323370000 2.907055e-005 3.152484e-005 -7.846507e-002 9.019257e-001 -1.229443e-005 -6.803792e-005 -7.878181e-002 9.057121e-001
323655000 -3.506837e-005 5.094186e-005 -4.895088e-002 9.094123e-001 1.078333e-005 1.284431e-004 -4.946242e-002 9.135116e-001
323940000 -5.033201e-005 1.284226e-004 -1.861484e-002 9.165457e-001 2.846928e-005 2.263692e-005 -1.894777e-002 9.201021e-001
324225000 -3.163203e-005 -1.158520e-005 1.218140e-002 9.231193e-001 9.526523e-005 -6.992034e-005 1.198788e-002 9.263507e-001
324510000 -2.212054e-005 6.945708e-005 4.321305e-002 9.276870e-001 -8.717075e-005 1.219070e-005 4.347951e-002 9.312760e-001
324795000 -3.005622e-005 3.230940e-005 7.589928e-002 9.313574e-001 -5.505623e-005 6.129734e-006 7.640632e-002 9.354678e-001
325080000 4.858239e-005 5.494588e-006 1.082053e-001 9.345827e-001 -1.052404e-004 -2.610413e-005 1.089514e-001 9.383044e-001
325365000 1.563924e-005 -7.974573e-005 1.423342e-001 9.356847e-001 -4.289467e-005 3.030073e-005 1.426350e-001 9.399223e-001
325650000 -6.614104e-005 -9.203234e-006 1.754776e-001 9.362375e-001 3.163013e-006 1.986676e-006 1.768902e-001 9.396921e-001
325935000 -4.040967e-005 -6.121788e-005 2.092900e-001 9.349195e-001 3.734827e-006 -1.349078e-005 2.107113e-001 9.382046e-001
326220000 -4.101387e-005 -9.179287e-005 2.448958e-001 9.321255e-001 1.057749e-004 8.577814e-006 2.459026e-001 9.364181e-001
326505000 -2.121794e-005 8.768864e-005 2.799894e-001 9.281748e-001 5.567400e-006 1.204025e-004 2.814059e-001 9.321454e-001
326790000 -1.790958e-004 -1.051646e-004 3.158547e-001 9.222130e-001 -5.403009e-005 -4.547090e-005 3.172034e-001 9.264332e-001
327075000 2.523092e-005 -8.382495e-005 3.508975e-001 9.153363e-001 -2.481840e-005 1.177791e-005 3.528763e-001 9.188800e-001
327360000 6.497976e-006 -6.878462e-005 3.867052e-001 9.063995e-001 -1.985008e-005 -2.374114e-005 3.885451e-001 9.102420e-001
327645000 6.103956e-005 9.696755e-005 4.223988e-001 8.962048e-001 4.542429e-005 -9.259320e-005 4.241969e-001 9.001873e-001
327930000 -5.887332e-005 8.521923e-005 4.580015e-001 8.841117e-001 1.983191e-005 -1.663434e-007 4.599788e-001 8.875688e-001
328215000 4.207262e-005 1.476311e-004 4.933639e-001 8.699795e-001 2.569742e-005 -3.753306e-005 4.953448e-001 8.733262e-001
328500000 7.199113e-005 -1.164229e-004 5.281352e-001 8.538222e-001 9.720567e-005 6.877242e-006 5.304713e-001 8.582857e-001
328785000 1.078535e-006 5.320436e-005 5.633563e-001 8.369398e-001 -1.533874e-005 4.034201e-005 5.653092e-001 8.405140e-001
329070000 -1.749434e-005 5.205979e-005 5.969186e-001 8.179405e-001 9.383928e-007 4.784216e-006 5.993150e-001 8.209700e-001
329355000 -1.189000e-005 4.048631e-005 6.300727e-001 7.971717e-001 -1.220517e-005 1.499893e-005 6.331052e-001 8.000765e-001
329640000 -4.929685e-005 1.902002e-006 6.626992e-001 7.747289e-001 8.256605e-005 4.988740e-005 6.658463e-001 7.773732e-001
329925000 -5.994581e-005 -2.135072e-005 6.952949e-001 7.500253e-001 -1.524221e-005 -3.394908e-005 6.983919e-001 7.528487e-001
330210000 -1.284878e-004 -1.370836e-004 7.254817e-001 7.234836e-001 7.104659e-005 -2.814019e-005 7.287801e-001 7.271830e-001
330495000 1.309089e-005 -4.071899e-005 7.554390e-001 6.963257e-001 8.341814e-005 1.266808e-005 7.584851e-001 6.992263e-001
330780000 -2.487048e-006 -7.828214e-005 7.835398e-001 6.676485e-001 4.777332e-005 -2.076907e-005 7.866711e-001 6.703174e-001
331065000 6.843336e-005 -4.965693e-005 8.100299e-001 6.363238e-001 -4.574968e-005 1.329152e-004 8.135420e-001 6.396919e-001
331350000 6.535232e-005 5.184430e-005 8.358119e-001 6.051527e-001 -1.588876e-005 2.866495e-005 8.392516e-001 6.075085e-001
331635000 7.125582e-005 -4.437477e-006 8.600165e-001 5.720017e-001 4.868599e-005 4.680957e-005 8.637462e-001 5.747628e-001
331920000 6.169617e-005 -3.418726e-005 8.818501e-001 5.373341e-001 -4.407880e-005 1.346010e-004 8.862746e-001 5.392079e-001
332205000 -5.263854e-005 5.497793e-005 9.023288e-001 5.018172e-001 1.298730e-005 1.090578e-004 9.062768e-001 5.040414e-001
332490000 -7.272290e-005 4.011746e-005 9.215268e-001 4.662629e-001 3.844066e-005 -3.278250e-006 9.257179e-001 4.674132e-001
332775000 4.936714e-005 7.130107e-005 9.383040e-001 4.283395e-001 -5.620585e-005 -8.330613e-005 9.430031e-001 4.300263e-001
333060000 9.884972e-006 -8.199590e-006 9.534920e-001 3.902161e-001 -1.211245e-005 5.475916e-005 9.576316e-001 3.922023e-001
333345000 7.088263e-005 3.346360e-005 9.668267e-001 3.522225e-001 -2.669966e-005 1.368868e-005 9.705992e-001 3.539928e-001
333630000 -2.103734e-005 4.276760e-005 9.777754e-001 3.132027e-001 9.720611e-007 -2.464725e-005 9.824309e-001 3.151329e-001
333915000 4.018243e-006 1.092332e-004 9.872485e-001 2.744667e-001 -8.949930e-005 -5.204598e-005 9.912909e-001 2.748222e-001
334200000 -3.814923e-005 5.350386e-005 9.944246e-001 2.348723e-001 -2.116694e-005 9.087077e-005 9.991086e-001 2.359700e-001
334485000 1.574803e-005 -1.722308e-005 9.999949e-001 1.958176e-001 3.680029e-005 5.012182e-005 1.004262e+000 1.968372e-001
334770000 4.395377e-005 -2.332033e-005 1.003197e+000 1.562383e-001 -8.290287e-005 -6.737080e-005 1.007893e+000 1.570115e-001
335055000 -1.871301e-005 -9.737434e-005 1.005283e+000 1.171870e-001 8.579947e-005 -9.133552e-005 1.009736e+000 1.176019e-001
335340000 -7.687675e-005 -6.301457e-005 1.005270e+000 7.872457e-002 -7.836820e-005 -3.439498e-005 1.009711e+000 7.857008e-002
335625000 5.312870e-006 4.207352e-005 1.003785e+000 3.998331e-002 2.385585e-005 1.202528e-006 1.007506e+000 4.016367e-002
335910000 -7.521847e-005 -3.885239e-005 9.998973e-001 2.337081e-003 -6.341012e-006 3.886013e-005 1.004124e+000 3.253656e-003
336195000 2.573420e-005 -1.021464e-004 9.942667e-001 -3.406790e-002 -1.766829e-005 4.910382e-005 9.983470e-001 -3.452627e-002
336480000 -3.867658e-005 -7.617380e-006 9.877409e-001 -7.082504e-002 1.352197e-005 7.756005e-005 9.920582e-001 -7.133598e-002
336765000 1.574013e-005 -1.213885e-005 9.797065e-001 -1.068475e-001 -3.147559e-005 3.999231e-005 9.837258e-001 -1.075509e-001
337050000 1.232813e-004 1.006077e-005 9.693667e-001 -1.414650e-001 7.273489e-005 -1.944085e-006 9.737239e-001 -1.421693e-001
337335000 6.406212e-005 -1.466013e-005 9.584696e-001 -1.755972e-001 6.235114e-005 -4.608297e-006 9.633336e-001 -1.765027e-001
337620000 9.838049e-005 -4.829633e-005 9.462858e-001 -2.084720e-001 6.261518e-006 1.977197e-005 9.500906e-001 -2.093115e-001
337905000 -1.010569e-005 -9.224622e-005 9.327068e-001 -2.406550e-001 1.336273e-004 1.031879e-005 9.372095e-001 -2.415422e-001
338190000 -3.694145e-006 -7.189043e-005 9.187668e-001 -2.715384e-001 -5.620804e-005 1.589002e-005 9.222664e-001 -2.732122e-001
338475000 -1.939964e-005 4.335337e-005 9.026585e-001 -3.019283e-001 -7.600457e-005 1.201189e-004 9.068782e-001 -3.036963e-001
338760000 1.368480e-005 -5.612027e-005 8.869548e-001 -3.305340e-001 2.678546e-005 -3.423317e-005 8.906738e-001 -3.325348e-001
339045000 8.619087e-005 7.180952e-005 8.691635e-001 -3.592117e-001 -2.434459e-005 3.063371e-005 8.731182e-001 -3.602836e-001
339330000 2.898129e-005 7.504802e-005 8.516430e-001 -3.859164e-001 5.157527e-005 -4.855189e-005 8.548478e-001 -3.871724e-001
339615000 -1.195643e-005 -3.457468e-005 8.324127e-001 -4.110405e-001 -1.263636e-005 -6.362361e-005 8.361309e-001 -4.137093e-001
339900000 -2.024521e-005 1.071754e-004 8.133851e-001 -4.364910e-001 1.007498e-004 1.340553e-005 8.167251e-001 -4.387549e-001
340185000 -6.435934e-005 4.149924e-005 7.936157e-001 -4.596706e-001 5.992671e-005 -8.064154e-005 7.968273e-001 -4.620930e-001
340470000 7.926957e-006 1.802613e-004 7.734224e-001 -4.825764e-001 -6.750962e-005 -4.560090e-005 7.764350e-001 -4.846229e-001
340755000 1.271046e-005 2.519084e-005 7.521811e-001 -5.041611e-001 9.567651e-005 7.033723e-006 7.552980e-001 -5.062895e-001
341040000 1.208492e-004 -4.280670e-005 7.315735e-001 -5.251667e-001 1.289760e-005 5.780612e-006 7.342792e-001 -5.271149e-001
341325000 4.658797e-006 -1.467114e-005 7.092957e-001 -5.445436e-001 -6.176182e-005 -1.234366e-005 7.129521e-001 -5.467720e-001
341610000 -1.151095e-004 -5.484722e-005 6.882476e-001 -5.631099e-001 2.297045e-005 4.447047e-005 6.910831e-001 -5.655543e-001
341895000 -4.326484e-005 -7.790778e-005 6.660262e-001 -5.808870e-001 1.831867e-005 -2.337443e-005 6.688200e-001 -5.828950e-001
342180000 3.439080e-005 -1.311719e-004 6.439434e-001 -5.975106e-001 -7.688087e-005 -1.925197e-006 6.468602e-001 -5.993469e-001
342465000 8.237755e-005 -1.105581e-004 6.212171e-001 -6.132407e-001 -6.396718e-005 -1.810909e-005 6.239571e-001 -6.156997e-001
342750000 -5.011701e-006 -5.650149e-006 5.987354e-001 -6.280637e-001 -4.618699e-005 3.499270e-005 6.015219e-001 -6.309848e-001
343035000 -7.791991e-006 4.298108e-005 5.770838e-001 -6.419811e-001 -7.424605e-005 7.519151e-005 5.785830e-001 -6.451759e-001
343320000 -3.708547e-005 8.648584e-005 5.542355e-001 -6.557312e-001 -7.576947e-005 1.278197e-004 5.564117e-001 -6.578787e-001
343605000 -3.838224e-006 -3.687176e-005 5.308664e-001 -6.677620e-001 3.615836e-006 7.117225e-005 5.337594e-001 -6.702285e-001
343890000 -4.181977e-005 3.120507e-005 5.081908e-001 -6.794575e-001 2.400498e-005 3.280683e-005 5.105835e-001 -6.820214e-001
