!Agilent Technologies,N5230C,SG49000117,A.08.50.07
!Agilent N5230C: A.08.50.07
!Date: Monday, March 18, 2024 18:50:19
!Correction: S11(Off) 
!S21(Off) 
!S12(Off) 
!S22(Off) 
!S2P File: Measurements: S11, S21, S12, S22:
# Hz S  RI   R 50
300000000 -9.214841e-005 1.131011e-004 -6.332273e-001 -6.360539e-001 4.857283e-005 -5.643632e-005 -6.349203e-001 -6.382956e-001
300285000 -5.657173e-005 -3.295171e-006 -6.473699e-001 -6.124411e-001 5.092866e-005 -4.218808e-005 -6.498505e-001 -6.149231e-001
300570000 -9.003542e-005 1.113676e-004 -6.610343e-001 -5.885342e-001 2.922613e-005 1.128261e-004 -6.635811e-001 -5.913833e-001
300855000 -9.384337e-005 5.540367e-005 -6.752078e-001 -5.659329e-001 -1.303567e-005 7.901652e-007 -6.772513e-001 -5.670565e-001
301140000 1.401293e-004 -1.255425e-004 -6.870319e-001 -5.416387e-001 -8.741408e-005 -4.126125e-005 -6.893925e-001 -5.436618e-001
301425000 -1.080084e-004 -1.082247e-004 -6.985438e-001 -5.185158e-001 -8.768262e-005 2.490428e-005 -7.011433e-001 -5.197942e-001
301710000 1.107640e-005 9.718993e-006 -7.093098e-001 -4.946245e-001 3.686127e-005 3.387120e-005 -7.116401e-001 -4.963918e-001
301995000 -5.302193e-005 -3.467503e-005 -7.187889e-001 -4.711660e-001 4.006070e-005 -1.163595e-004 -7.219391e-001 -4.724312e-001
302280000 -3.599688e-005 -3.605481e-005 -7.276670e-001 -4.470631e-001 6.575991e-005 1.807334e-005 -7.307046e-001 -4.491804e-001
302565000 -3.822086e-006 7.390421e-005 -7.367991e-001 -4.238389e-001 8.314242e-005 4.454872e-005 -7.391706e-001 -4.254723e-001
302850000 6.893923e-005 -1.273356e-004 -7.440304e-001 -4.004507e-001 4.255087e-005 4.622636e-005 -7.469537e-001 -4.019782e-001
303135000 -2.543308e-005 -1.260194e-004 -7.513081e-001 -3.771459e-001 4.915232e-006 -1.472067e-005 -7.542106e-001 -3.786290e-001
303420000 1.084593e-004 -2.409744e-005 -7.576633e-001 -3.538533e-001 -1.949426e-005 -6.951705e-005 -7.604322e-001 -3.558308e-001
303705000 -1.274298e-005 -3.051402e-005 -7.632957e-001 -3.310420e-001 7.739364e-005 1.351284e-004 -7.657542e-001 -3.327278e-001
303990000 4.299866e-005 -5.011975e-005 -7.680655e-001 -3.076849e-001 3.910274e-005 1.277266e-004 -7.712856e-001 -3.092646e-001
304275000 9.531776e-005 -6.298945e-005 -7.726901e-001 -2.854894e-001 -1.437934e-004 7.896182e-005 -7.757208e-001 -2.867868e-001
304560000 4.096410e-005 -6.826739e-005 -7.767067e-001 -2.626242e-001 -2.498469e-005 -2.160139e-005 -7.798545e-001 -2.636799e-001
304845000 5.999675e-005 -5.804403e-005 -7.803335e-001 -2.407015e-001 1.040854e-004 -1.081351e-004 -7.835878e-001 -2.415981e-001
305130000 -5.935397e-008 -8.356843e-005 -7.840953e-001 -2.180133e-001 -5.729149e-005 -1.392178e-004 -7.863210e-001 -2.187582e-001
305415000 6.333283e-005 1.129186e-005 -7.855366e-001 -1.961120e-001 7.009980e-005 -1.165056e-004 -7.885714e-001 -1.967473e-001
305700000 6.578564e-005 7.224714e-005 -7.876263e-001 -1.740480e-001 4.447924e-005 -3.004955e-005 -7.905312e-001 -1.750444e-001
305985000 7.610736e-005 -4.943569e-006 -7.884332e-001 -1.527621e-001 -4.077361e-005 -1.188059e-004 -7.922091e-001 -1.530529e-001
306270000 1.536710e-005 1.315614e-004 -7.896869e-001 -1.303562e-001 5.326138e-005 -1.561701e-005 -7.929704e-001 -1.311271e-001
306555000 -1.340710e-004 1.232605e-004 -7.904645e-001 -1.088206e-001 -7.701186e-005 -9.870198e-006 -7.933208e-001 -1.094336e-001
306840000 7.476575e-005 -1.879752e-006 -7.905508e-001 -8.793024e-002 -2.099372e-005 -8.781350e-005 -7.937388e-001 -8.782691e-002
307125000 -9.343684e-005 -8.740462e-006 -7.899932e-001 -6.690755e-002 5.854053e-005 -2.547545e-005 -7.931570e-001 -6.680524e-002
307410000 -2.036605e-005 1.096732e-004 -7.891152e-001 -4.604282e-002 4.848252e-005 7.882965e-005 -7.921622e-001 -4.559071e-002
307695000 -4.974866e-005 3.289016e-005 -7.879958e-001 -2.434548e-002 2.190130e-005 -5.247542e-005 -7.909291e-001 -2.439362e-002
307980000 7.915428e-005 1.479923e-005 -7.861705e-001 -3.342980e-003 1.922976e-004 7.867129e-005 -7.896153e-001 -3.259383e-003
308265000 1.882144e-005 -2.477439e-005 -7.838536e-001 1.668904e-002 2.987656e-005 -2.774412e-005 -7.874457e-001 1.707418e-002
308550000 -2.448215e-005 -7.177833e-005 -7.817272e-001 3.713335e-002 -3.103709e-005 3.346250e-006 -7.850729e-001 3.714034e-002
308835000 -4.339594e-007 8.104585e-006 -7.788637e-001 5.739237e-002 1.352205e-005 -2.235084e-005 -7.821621e-001 5.798525e-002
309120000 -2.686983e-005 4.091266e-006 -7.762774e-001 7.763328e-002 3.599711e-005 -1.563952e-005 -7.792039e-001 7.798476e-002
309405000 2.826068e-005 -2.281749e-005 -7.727284e-001 9.830041e-002 6.078658e-006 6.190284e-005 -7.756174e-001 9.802374e-002
309690000 3.466959e-005 5.788414e-006 -7.686322e-001 1.180510e-001 -8.872300e-006 3.054993e-005 -7.716061e-001 1.182163e-001
309975000 4.605751e-005 1.077626e-004 -7.642041e-001 1.374640e-001 1.998923e-005 7.278392e-005 -7.672905e-001 1.381364e-001
310260000 5.933757e-005 -8.103776e-005 -7.593012e-001 1.576449e-001 -5.483639e-005 4.624344e-005 -7.625046e-001 1.579844e-001
310545000 5.057796e-005 1.371291e-005 -7.551454e-001 1.766762e-001 7.747859e-005 -5.287021e-005 -7.584066e-001 1.778014e-001
310830000 -5.357648e-005 5.828735e-005 -7.492536e-001 1.965508e-001 -1.757915e-004 1.064617e-004 -7.524654e-001 1.973691e-001
311115000 1.249519e-004 8.978127e-006 -7.439533e-001 2.161578e-001 2.874442e-005 -2.942885e-005 -7.468266e-001 2.165804e-001
311400000 3.221963e-005 5.208909e-005 -7.384126e-001 2.351253e-001 2.925039e-005 -2.908499e-005 -7.400861e-001 2.363296e-001
311685000 -9.050679e-005 1.055128e-004 -7.316899e-001 2.542705e-001 -2.409421e-005 -2.833871e-005 -7.340648e-001 2.552523e-001
311970000 9.730088e-005 -3.385104e-005 -7.247095e-001 2.733441e-001 4.136479e-005 -5.380250e-005 -7.276793e-001 2.744454e-001
312255000 3.252534e-005 -4.730163e-005 -7.179395e-001 2.922772e-001 1.510614e-005 1.440070e-004 -7.206062e-001 2.941417e-001
312540000 3.683312e-005 7.005593e-007 -7.103502e-001 3.114310e-001 -3.748839e-005 -2.322899e-005 -7.130610e-001 3.121603e-001
312825000 6.039773e-005 -4.967077e-005 -7.025565e-001 3.303396e-001 8.445034e-006 -2.007275e-005 -7.053525e-001 3.318480e-001
313110000 1.197369e-004 6.290965e-005 -6.941215e-001 3.487569e-001 -4.039078e-005 2.168254e-008 -6.971552e-001 3.503877e-001
313395000 1.558023e-005 2.036381e-005 -6.859873e-001 3.674928e-001 6.838608e-005 -1.183369e-005 -6.881341e-001 3.687142e-001
313680000 -3.268735e-005 8.161998e-005 -6.768557e-001 3.856773e-001 9.583302e-005 -8.663341e-005 -6.793991e-001 3.876525e-001
313965000 -9.891266e-005 -8.195085e-005 -6.675255e-001 4.046091e-001 -4.644977e-006 3.086960e-005 -6.701014e-001 4.060276e-001
314250000 -1.198500e-004 -5.208152e-005 -6.572269e-001 4.228185e-001 -1.295236e-005 -4.047094e-005 -6.601963e-001 4.246299e-001
314535000 -2.532991e-005 -1.008079e-004 -6.471225e-001 4.411362e-001 4.165505e-005 1.195848e-005 -6.499320e-001 4.429327e-001
314820000 -8.299480e-006 3.027308e-006 -6.369640e-001 4.596029e-001 -4.607630e-005 4.499386e-005 -6.396872e-001 4.609826e-001
315105000 -2.857066e-005 -6.295185e-005 -6.259719e-001 4.773162e-001 3.101480e-005 5.155459e-005 -6.288450e-001 4.795609e-001
315390000 8.168803e-005 3.443875e-005 -6.143990e-001 4.954676e-001 4.823272e-005 5.369159e-005 -6.170909e-001 4.972742e-001
315675000 4.721702e-005 -7.909452e-005 -6.023573e-001 5.128318e-001 1.143810e-005 -1.425590e-004 -6.053333e-001 5.151103e-001
315960000 -8.232970e-006 2.707568e-005 -5.901589e-001 5.314993e-001 1.443072e-004 -3.768378e-006 -5.924943e-001 5.335968e-001
316245000 2.659436e-006 6.734711e-005 -5.770237e-001 5.487154e-001 1.181744e-005 -3.213117e-005 -5.792735e-001 5.511774e-001
316530000 -4.226304e-005 -2.814333e-005 -5.634925e-001 5.660141e-001 -5.359445e-005 -8.925949e-005 -5.661051e-001 5.687130e-001
316815000 -3.979400e-005 4.928310e-005 -5.502251e-001 5.837615e-001 -6.344142e-005 -7.320509e-005 -5.523964e-001 5.858840e-001
317100000 -2.216773e-005 9.557905e-005 -5.356672e-001 6.012509e-001 -3.176282e-006 1.154598e-004 -5.379485e-001 6.032611e-001
317385000 3.102764e-005 -5.362880e-005 -5.208856e-001 6.180966e-001 3.310703e-005 1.716109e-005 -5.229144e-001 6.204783e-001
317670000 -1.130108e-005 4.794367e-005 -5.052452e-001 6.351246e-001 -3.658376e-005 8.743717e-006 -5.074424e-001 6.379243e-001
317955000 9.537914e-005 4.698192e-005 -4.892868e-001 6.519395e-001 -7.528569e-005 5.224602e-005 -4.912190e-001 6.547274e-001
318240000 3.090012e-005 5.709613e-006 -4.724297e-001 6.689392e-001 -7.880174e-005 -1.289935e-005 -4.745175e-001 6.713672e-001
318525000 5.255762e-005 7.428448e-005 -4.553954e-001 6.849968e-001 -7.823554e-005 -6.200140e-005 -4.570118e-001 6.878904e-001
318810000 -9.209886e-006 -6.173940e-005 -4.374081e-001 7.015136e-001 5.167375e-005 2.936702e-005 -4.394243e-001 7.040254e-001
319095000 1.101704e-004 4.765434e-005 -4.192154e-001 7.178326e-001 -4.711529e-005 -5.702163e-006 -4.209082e-001 7.203355e-001
319380000 -3.781449e-005 2.259748e-006 -3.999219e-001 7.329554e-001 2.624619e-005 -3.162801e-005 -4.017450e-001 7.363418e-001
319665000 9.011886e-006 8.036808e-005 -3.805243e-001 7.486522e-001 7.360751e-005 -4.005441e-005 -3.820176e-001 7.512659e-001
319950000 1.947236e-005 -6.014104e-006 -3.600605e-001 7.635884e-001 5.062891e-005 -2.727289e-006 -3.613388e-001 7.661148e-001
320235000 -4.019900e-005 -3.300192e-005 -3.389800e-001 7.785335e-001 -3.628974e-007 7.913075e-005 -3.403419e-001 7.817464e-001
320520000 -1.192206e-004 7.560902e-005 -3.173224e-001 7.924721e-001 1.295334e-004 5.716230e-005 -3.183921e-001 7.956615e-001
320805000 4.734126e-005 -1.939377e-005 -2.945900e-001 8.065572e-001 -1.017470e-005 1.901729e-005 -2.958386e-001 8.099601e-001
321090000 -1.211731e-004 -9.743773e-005 -2.715469e-001 8.200509e-001 -7.272638e-005 4.731539e-005 -2.722682e-001 8.236244e-001
321375000 -1.908500e-005 4.382718e-006 -2.474660e-001 8.326676e-001 -2.011961e-005 2.063329e-005 -2.479420e-001 8.362725e-001
321660000 -3.182429e-005 -1.002289e-004 -2.224597e-001 8.452631e-001 7.041333e-006 4.048519e-005 -2.235104e-001 8.488303e-001
321945000 5.743652e-005 -1.580638e-004 -1.974062e-001 8.575016e-001 -1.781633e-005 -2.084381e-005 -1.978950e-001 8.610042e-001
322230000 1.075188e-005 -8.803453e-005 -1.711318e-001 8.684509e-001 -1.462626e-005 5.453228e-005 -1.715062e-001 8.719779e-001
322515000 7.889674e-005 -7.262106e-006 -1.443481e-001 8.791581e-001 -4.645002e-005 -7.521766e-006 -1.446885e-001 8.825274e-001
322800000 -3.413417e-005 -8.646328e-006 -1.169029e-001 8.893133e-001 -9.887331e-005 3.753592e-005 -1.170451e-001 8.919858e-001
323085000 -4.682624e-005 -1.689839e-005 -8.804858e-002 8.980070e-001 -7.350641e-005 3.238953e-005 -8.913731e-002 9.013116e-001
323370000 7.828054e-005 -1.063403e-004 -5.907468e-002 9.059997e-001 -2.890039e-005 1.074603e-005 -5.904866e-002 9.095315e-001
323655000 -1.607880e-005 3.681357e-005 -2.917483e-002 9.133304e-001 1.750889e-005 -1.388404e-005 -2.908696e-002 9.170746e-001
323940000 3.456926e-005 -1.921412e-005 1.094334e-003 9.200596e-001 1.379435e-004 -3.184973e-005 1.426300e-003 9.242380e-001
324225000 -9.959142e-005 6.124543e-007 3.234325e-002 9.246802e-001 1.956477e-005 -8.457181e-006 3.251942e-002 9.286208e-001
324510000 -5.835585e-005 3.462768e-005 6.455782e-002 9.296429e-001 8.769717e-005 -3.017792e-005 6.484506e-002 9.338132e-001
324795000 -1.084030e-004 -1.604248e-005 9.682007e-002 9.325126e-001 5.320219e-005 8.592041e-005 9.762641e-002 9.358422e-001
325080000 -7.179224e-005 -2.064662e-005 1.302170e-001 9.343985e-001 -1.055840e-004 5.045877e-005 1.311749e-001 9.387249e-001
325365000 -5.447289e-005 1.496421e-005 1.640639e-001 9.353391e-001 3.145832e-005 -1.866754e-005 1.648680e-001 9.390492e-001
325650000 1.428936e-005 -1.543357e-005 1.979740e-001 9.346687e-001 -2.083819e-005 -2.447287e-005 1.993121e-001 9.387014e-001
325935000 5.722002e-005 3.802509e-005 2.329633e-001 9.326903e-001 -1.532459e-004 -7.382007e-006 2.332084e-001 9.362941e-001
326220000 6.430703e-005 -1.661473e-005 2.673051e-001 9.295288e-001 -1.732286e-004 1.370898e-005 2.688456e-001 9.332281e-001
326505000 6.191812e-005 7.366981e-005 3.026685e-001 9.234304e-001 7.434926e-005 -1.160195e-004 3.044192e-001 9.280742e-001
326790000 -3.203117e-005 -1.546179e-005 3.382343e-001 9.175470e-001 2.037796e-005 -4.120124e-005 3.392992e-001 9.210896e-001
327075000 -1.572709e-006 4.279469e-005 3.743071e-001 9.096156e-001 -6.653700e-005 -2.649685e-006 3.751829e-001 9.131435e-001
327360000 6.013474e-005 -1.760121e-005 4.099674e-001 8.991125e-001 -7.781282e-005 1.492454e-005 4.113183e-001 9.026599e-001
327645000 -7.779634e-006 1.183061e-004 4.449799e-001 8.875296e-001 -4.374611e-005 -2.752198e-005 4.469500e-001 8.908662e-001
327930000 8.093077e-005 -6.082908e-006 4.808489e-001 8.747056e-001 2.053201e-005 -2.108844e-005 4.824901e-001 8.779044e-001
328215000 5.871596e-006 4.869348e-005 5.157085e-001 8.594096e-001 -2.102022e-005 -7.560552e-005 5.179156e-001 8.626118e-001
328500000 4.749916e-005 4.750268e-005 5.509510e-001 8.427974e-001 2.924700e-005 -1.702499e-005 5.526429e-001 8.462398e-001
328785000 7.001495e-005 8.815394e-005 5.846993e-001 8.243145e-001 -4.718901e-005 -1.208923e-005 5.877151e-001 8.275551e-001
329070000 1.143207e-004 2.378362e-006 6.187969e-001 8.038900e-001 6.025772e-005 6.730569e-005 6.213755e-001 8.083869e-001
329355000 3.125381e-006 -1.442733e-005 6.516998e-001 7.816530e-001 3.460204e-005 7.343082e-005 6.544654e-001 7.851693e-001
329640000 -2.221383e-005 6.095868e-005 6.833551e-001 7.579800e-001 3.414428e-006 -1.405883e-005 6.863189e-001 7.609583e-001
329925000 5.266229e-005 1.232101e-005 7.145940e-001 7.329030e-001 -6.911510e-005 -2.748081e-006 7.173849e-001 7.360649e-001
330210000 9.877879e-005 4.445085e-005 7.447033e-001 7.054978e-001 4.459876e-006 1.691677e-005 7.475446e-001 7.087713e-001
330495000 -7.513166e-005 -1.853125e-005 7.733977e-001 6.775512e-001 3.042057e-005 4.308908e-005 7.763500e-001 6.805884e-001
330780000 8.063248e-005 6.672320e-005 8.007777e-001 6.470590e-001 2.564553e-005 -3.080559e-005 8.038858e-001 6.498270e-001
331065000 2.401304e-005 8.367984e-005 8.264166e-001 6.158220e-001 5.657565e-005 5.023184e-005 8.301786e-001 6.181765e-001
331350000 5.659497e-006 -4.443024e-005 8.510372e-001 5.835705e-001 2.671464e-005 3.997854e-005 8.549969e-001 5.853823e-001
331635000 4.094576e-005 -8.684402e-005 8.744631e-001 5.494227e-001 4.716039e-005 3.888477e-005 8.778485e-001 5.518481e-001
331920000 7.200914e-005 3.684049e-006 8.954153e-001 5.143500e-001 -1.126225e-004 -9.198492e-006 8.990374e-001 5.164673e-001
332205000 -3.757368e-006 -1.107865e-004 9.152510e-001 4.779012e-001 -8.113147e-005 9.335139e-006 9.190698e-001 4.801357e-001
332490000 -2.376327e-005 3.011139e-005 9.327878e-001 4.411664e-001 -1.272899e-004 -8.647174e-005 9.363535e-001 4.432696e-001
332775000 1.260684e-004 -6.267903e-005 9.479808e-001 4.040210e-001 -1.234277e-004 4.279612e-006 9.522358e-001 4.055282e-001
333060000 1.314749e-004 -4.228329e-005 9.626061e-001 3.656198e-001 -4.084234e-005 -2.431534e-005 9.663287e-001 3.672923e-001
333345000 -2.199310e-005 -4.574001e-005 9.739951e-001 3.268668e-001 -1.237132e-004 -4.950435e-005 9.783759e-001 3.280924e-001
333630000 1.403849e-005 3.185870e-005 9.847260e-001 2.875238e-001 3.220844e-005 6.979737e-008 9.886938e-001 2.887443e-001
333915000 -8.932893e-005 5.653202e-005 9.927371e-001 2.485766e-001 -6.667040e-005 -4.235375e-005 9.965091e-001 2.488659e-001
334200000 5.689628e-005 1.040744e-005 9.985327e-001 2.091686e-001 2.021366e-005 3.081719e-005 1.003364e+000 2.095313e-001
334485000 6.798766e-005 1.479204e-004 1.002514e+000 1.698967e-001 -9.435996e-005 -4.108725e-005 1.007466e+000 1.699709e-001
334770000 5.483940e-005 3.483563e-005 1.005267e+000 1.304481e-001 3.693177e-005 1.086149e-004 1.009571e+000 1.312120e-001
335055000 8.551713e-005 4.197222e-005 1.005995e+000 9.181248e-002 2.299515e-005 -3.970683e-005 1.009872e+000 9.173307e-002
335340000 5.460611e-005 2.704269e-005 1.004325e+000 5.275679e-002 -1.054407e-004 3.968109e-005 1.008808e+000 5.329677e-002
335625000 3.105519e-005 -1.007504e-004 1.000925e+000 1.509201e-002 -1.091604e-004 8.905230e-005 1.005707e+000 1.464082e-002
335910000 -4.207438e-005 5.070610e-005 9.965808e-001 -2.200385e-002 -7.113166e-005 2.106152e-005 1.001047e+000 -2.255427e-002
336195000 -5.249215e-005 5.096000e-005 9.902599e-001 -5.931208e-002 -2.089576e-005 -9.274687e-005 9.948536e-001 -5.953898e-002
336480000 1.297789e-004 9.137058e-006 9.823476e-001 -9.487783e-002 -5.355722e-005 -2.529353e-005 9.865006e-001 -9.516669e-002
336765000 -2.304622e-005 4.003986e-005 9.740582e-001 -1.303750e-001 7.127842e-005 -1.229486e-004 9.776080e-001 -1.310162e-001
337050000 -8.677528e-005 9.079320e-005 9.627201e-001 -1.648556e-001 1.002870e-004 3.351363e-006 9.674542e-001 -1.654473e-001
337335000 -1.313899e-004 8.826024e-005 9.514018e-001 -1.979547e-001 -1.662631e-005 3.728040e-005 9.550022e-001 -1.988560e-001
337620000 3.712951e-006 -4.083055e-005 9.383532e-001 -2.303336e-001 2.630612e-005 4.120051e-005 9.422218e-001 -2.319899e-001
337905000 2.652023e-005 -6.432080e-005 9.238926e-001 -2.621656e-001 -3.933554e-005 6.987660e-005 9.281289e-001 -2.635145e-001
338190000 -8.130217e-005 -6.822139e-005 9.087481e-001 -2.923072e-001 5.521922e-005 1.760037e-005 9.128860e-001 -2.942583e-001
338475000 -3.359405e-005 1.206437e-005 8.925474e-001 -3.219605e-001 4.286385e-005 -3.213059e-005 8.963025e-001 -3.236787e-001
338760000 -6.635019e-005 -1.557758e-004 8.757484e-001 -3.508745e-001 7.078841e-005 7.361802e-006 8.792966e-001 -3.523680e-001
339045000 4.039826e-005 -7.971286e-005 8.569487e-001 -3.784078e-001 1.976501e-005 8.405501e-005 8.613408e-001 -3.795762e-001
339330000 -1.395733e-005 -2.313495e-005 8.393953e-001 -4.044507e-001 -1.449870e-004 4.596893e-005 8.429932e-001 -4.060407e-001
339615000 2.153515e-005 9.537818e-006 8.199838e-001 -4.297357e-001 -6.196040e-005 -3.204742e-005 8.235314e-001 -4.310833e-001
339900000 -6.220856e-005 1.909022e-005 8.005541e-001 -4.529895e-001 -1.172119e-004 -6.959185e-005 8.037686e-001 -4.554120e-001
340185000 -3.048279e-005 -8.564883e-005 7.800654e-001 -4.760202e-001 2.127515e-005 5.401123e-005 7.831807e-001 -4.783328e-001
340470000 -2.827244e-005 5.133186e-005 7.592010e-001 -4.983628e-001 -1.505449e-004 -4.982000e-005 7.621381e-001 -5.012497e-001
340755000 -3.653618e-005 -6.580418e-006 7.380256e-001 -5.196317e-001 1.449348e-005 1.045782e-004 7.411420e-001 -5.214667e-001
341040000 4.471282e-005 2.533767e-005 7.168976e-001 -5.389042e-001 4.173325e-006 5.669816e-006 7.195495e-001 -5.415668e-001
341325000 -1.734915e-005 -1.995171e-005 6.948441e-001 -5.579366e-001 4.910834e-005 -7.299500e-006 6.981449e-001 -5.606662e-001
341610000 -1.556833e-006 1.252442e-004 6.732887e-001 -5.759500e-001 -1.160597e-005 -5.536971e-005 6.758088e-001 -5.783421e-001
341895000 1.539404e-005 -7.040833e-006 6.506013e-001 -5.929508e-001 -1.191490e-004 1.292917e-005 6.537680e-001 -5.958174e-001
342180000 -2.815963e-005 -1.612821e-005 6.285349e-001 -6.085911e-001 4.705562e-005 5.708134e-005 6.309206e-001 -6.115653e-001
342465000 -2.396079e-006 3.181295e-005 6.060483e-001 -6.238801e-001 1.145931e-006 5.489287e-006 6.082116e-001 -6.266959e-001
342750000 -2.831212e-005 -5.197098e-005 5.838595e-001 -6.389505e-001 -2.989642e-005 -1.028563e-005 5.857447e-001 -6.408780e-001
343035000 -1.472737e-005 -8.571234e-005 5.605177e-001 -6.521985e-001 7.577759e-005 -2.653027e-005 5.629086e-001 -6.546763e-001
343320000 -3.868750e-005 1.431698e-005 5.383278e-001 -6.645790e-001 -5.565175e-005 4.246160e-005 5.407372e-001 -6.668934e-001
343605000 -9.056561e-005 -6.551276e-005 5.152562e-001 -6.764157e-001 7.010171e-005 7.676166e-006 5.177858e-001 -6.794374e-001
343890000 -3.630864e-005 5.848627e-005 4.927312e-001 -6.877618e-001 -1.249559e-006 7.748002e-005 4.949799e-001 -6.902424e-001
