!Agilent Technologies,N5230C,SG49000117,A.08.50.07
!Agilent N5230C: A.08.50.07
!Date: Monday, March 18, 2024 18:16:49
!Correction: S11(Off) 
!S21(Off) 
!S12(Off) 
!S22(Off) 
!S2P File: Measurements: S11, S21, S12, S22:
# Hz S  RI   R 50
300000000 -1.076695e-004 -4.701501e-005 -6.421624e-001 -6.205604e-001 7.137768e-005 8.453157e-006 -6.440343e-001 -6.228901e-001
300285000 2.141112e-005 2.294493e-005 -6.562683e-001 -5.966166e-001 6.418532e-005 -1.042283e-004 -6.587213e-001 -5.991920e-001
300570000 -1.510109e-005 -5.005886e-005 -6.697785e-001 -5.741543e-001 5.675823e-005 -3.567420e-005 -6.724712e-001 -5.758213e-001
300855000 3.280954e-006 -4.082923e-005 -6.822999e-001 -5.497585e-001 4.194217e-005 -2.224970e-005 -6.846598e-001 -5.515155e-001
301140000 -2.993453e-005 -4.674308e-005 -6.942072e-001 -5.261638e-001 1.118756e-004 -2.342715e-005 -6.970942e-001 -5.280861e-001
301425000 8.724813e-006 1.721705e-005 -7.050728e-001 -5.022684e-001 1.441215e-004 -9.644671e-007 -7.074829e-001 -5.048480e-001
301710000 3.723504e-005 -2.396975e-006 -7.151932e-001 -4.785250e-001 -1.520231e-005 -3.472467e-005 -7.180139e-001 -4.805219e-001
301995000 6.058773e-005 -2.324573e-005 -7.246541e-001 -4.549520e-001 2.138602e-005 -2.371823e-005 -7.273632e-001 -4.570130e-001
302280000 1.410285e-005 6.371272e-005 -7.331837e-001 -4.315256e-001 1.200013e-004 -3.963719e-005 -7.363210e-001 -4.332333e-001
302565000 1.999400e-005 1.411302e-005 -7.413563e-001 -4.082293e-001 8.014491e-005 -6.951061e-006 -7.441249e-001 -4.097440e-001
302850000 5.037751e-005 -4.252731e-005 -7.487723e-001 -3.846441e-001 2.514172e-005 3.514549e-005 -7.519197e-001 -3.862033e-001
303135000 1.248091e-004 3.000387e-005 -7.553660e-001 -3.615264e-001 4.364272e-006 -1.362250e-005 -7.579480e-001 -3.635859e-001
303420000 7.417304e-006 4.205952e-005 -7.609563e-001 -3.389820e-001 -7.244993e-005 1.469786e-005 -7.641073e-001 -3.397060e-001
303705000 6.026463e-005 2.540794e-005 -7.664863e-001 -3.157628e-001 -6.039479e-005 -1.179114e-004 -7.689850e-001 -3.172946e-001
303990000 -2.969332e-005 -4.227127e-005 -7.712105e-001 -2.930917e-001 -8.315150e-005 -1.158016e-004 -7.740394e-001 -2.941811e-001
304275000 -4.206318e-006 2.587460e-005 -7.749951e-001 -2.704978e-001 -5.755659e-005 -1.000101e-005 -7.785419e-001 -2.712155e-001
304560000 6.509035e-005 -1.976896e-006 -7.789242e-001 -2.474980e-001 -5.987338e-005 -9.680224e-005 -7.818076e-001 -2.488044e-001
304845000 1.130744e-004 -1.424256e-005 -7.821923e-001 -2.253401e-001 -1.305979e-004 6.038178e-005 -7.851423e-001 -2.261914e-001
305130000 -5.053432e-005 -8.977629e-005 -7.844240e-001 -2.031258e-001 5.041054e-005 -2.418406e-005 -7.875174e-001 -2.039728e-001
305415000 4.663877e-005 -5.620954e-005 -7.870462e-001 -1.807823e-001 4.182837e-005 2.036354e-005 -7.896684e-001 -1.815156e-001
305700000 8.077099e-005 -4.747223e-005 -7.881761e-001 -1.591481e-001 -6.302645e-005 -8.051030e-006 -7.911158e-001 -1.595144e-001
305985000 8.622212e-005 4.049974e-005 -7.888067e-001 -1.371164e-001 -4.247106e-005 -1.010512e-004 -7.924148e-001 -1.377914e-001
306270000 4.574248e-005 -8.023607e-005 -7.896804e-001 -1.159292e-001 1.258203e-004 -6.053657e-005 -7.927939e-001 -1.163816e-001
306555000 4.148461e-005 -1.076338e-005 -7.899179e-001 -9.477200e-002 7.130395e-005 -1.893162e-005 -7.932786e-001 -9.514169e-002
306840000 1.382247e-004 -5.818466e-005 -7.899035e-001 -7.300733e-002 2.364313e-005 1.457139e-004 -7.929720e-001 -7.295802e-002
307125000 7.130466e-005 -6.553061e-005 -7.889412e-001 -5.198240e-002 -5.988944e-005 -4.726099e-005 -7.920284e-001 -5.258811e-002
307410000 -2.014282e-005 8.457120e-005 -7.870961e-001 -3.116980e-002 -5.333458e-005 -4.920681e-005 -7.907604e-001 -3.103874e-002
307695000 5.373980e-005 -5.323718e-005 -7.865781e-001 -9.797165e-003 5.414991e-005 -8.563707e-005 -7.892585e-001 -1.022323e-002
307980000 9.743908e-005 -4.771225e-005 -7.848145e-001 1.092380e-002 7.218654e-005 7.593937e-005 -7.872211e-001 1.045539e-002
308265000 8.940790e-005 4.790105e-005 -7.825777e-001 3.121574e-002 -5.121958e-005 8.761881e-005 -7.848410e-001 3.144590e-002
308550000 7.244752e-005 -6.209609e-005 -7.792590e-001 5.118114e-002 -9.964937e-006 4.525914e-005 -7.826474e-001 5.195489e-002
308835000 5.085097e-005 9.953080e-005 -7.766168e-001 7.160027e-002 -6.487044e-005 -1.510193e-005 -7.793667e-001 7.188970e-002
309120000 -6.123681e-005 -1.582757e-005 -7.726921e-001 9.207434e-002 9.203537e-005 6.311553e-005 -7.760035e-001 9.263858e-002
309405000 -6.969945e-005 3.140346e-005 -7.691970e-001 1.114704e-001 -2.032404e-005 -8.560836e-005 -7.715775e-001 1.116621e-001
309690000 -1.051969e-004 1.052921e-005 -7.650758e-001 1.315589e-001 -6.030382e-005 6.339262e-005 -7.682229e-001 1.321446e-001
309975000 -3.285130e-005 -1.148492e-004 -7.602963e-001 1.515989e-001 3.277901e-005 -1.606215e-005 -7.635943e-001 1.522049e-001
310260000 -9.123291e-006 -8.616960e-005 -7.556278e-001 1.710513e-001 7.205354e-005 1.489068e-005 -7.585743e-001 1.716679e-001
310545000 -1.962536e-005 -9.930472e-005 -7.504305e-001 1.902756e-001 9.460761e-006 1.030733e-004 -7.525144e-001 1.906329e-001
310830000 3.466912e-005 -3.747155e-005 -7.444888e-001 2.099545e-001 3.886411e-005 -1.247169e-005 -7.477699e-001 2.106537e-001
311115000 -8.113901e-005 -4.673893e-005 -7.390978e-001 2.290088e-001 4.828444e-006 6.600542e-005 -7.418771e-001 2.302306e-001
311400000 6.818779e-005 -5.656431e-005 -7.328426e-001 2.482432e-001 -4.847318e-005 -1.905956e-006 -7.351301e-001 2.495094e-001
311685000 3.921007e-005 -7.728779e-005 -7.255732e-001 2.673634e-001 -1.648208e-005 6.136086e-006 -7.289172e-001 2.685015e-001
311970000 -4.451934e-005 -6.031327e-005 -7.186479e-001 2.861890e-001 3.290617e-005 -9.211722e-006 -7.218900e-001 2.878232e-001
312255000 3.419549e-005 4.203422e-005 -7.114829e-001 3.054103e-001 7.469081e-005 -1.240837e-005 -7.145267e-001 3.065137e-001
312540000 6.186638e-005 2.684075e-005 -7.038256e-001 3.243864e-001 4.379063e-006 7.286279e-005 -7.067869e-001 3.257636e-001
312825000 7.319529e-005 -5.615922e-005 -6.956555e-001 3.427559e-001 -2.104020e-005 3.993238e-005 -6.983527e-001 3.442989e-001
313110000 -4.537962e-006 -7.625039e-005 -6.872948e-001 3.614092e-001 -9.431971e-007 -1.040676e-004 -6.900923e-001 3.633436e-001
313395000 -8.668727e-005 2.482795e-005 -6.782196e-001 3.797811e-001 1.564828e-005 -1.995962e-005 -6.810552e-001 3.814996e-001
313680000 -2.394917e-006 2.674496e-005 -6.693360e-001 3.985260e-001 3.450632e-005 5.216479e-005 -6.714399e-001 4.000497e-001
313965000 -3.068877e-005 6.963862e-005 -6.598149e-001 4.165038e-001 1.018540e-004 -1.864056e-006 -6.621332e-001 4.185814e-001
314250000 -5.229506e-005 7.997354e-005 -6.496148e-001 4.350969e-001 3.224671e-005 2.763817e-005 -6.523803e-001 4.363151e-001
314535000 -4.521692e-005 2.623661e-005 -6.390456e-001 4.535038e-001 3.843146e-005 -1.216397e-004 -6.418115e-001 4.553189e-001
314820000 -2.494134e-005 -6.747741e-006 -6.281185e-001 4.713625e-001 -4.393053e-005 5.875314e-005 -6.303126e-001 4.736283e-001
315105000 1.946373e-005 -2.718637e-006 -6.162754e-001 4.892495e-001 -6.051486e-005 7.316281e-005 -6.190689e-001 4.916281e-001
315390000 -5.159784e-005 3.307058e-005 -6.051576e-001 5.074259e-001 3.669958e-005 -2.277592e-005 -6.070889e-001 5.094277e-001
315675000 -2.371352e-006 -3.525585e-005 -5.926022e-001 5.247267e-001 6.235977e-006 -2.823074e-005 -5.951390e-001 5.274338e-001
315960000 -5.106424e-005 -6.600788e-005 -5.800205e-001 5.429648e-001 4.586977e-005 -2.301774e-005 -5.820705e-001 5.447139e-001
316245000 -1.492096e-004 -1.231669e-005 -5.663190e-001 5.604706e-001 -1.168152e-005 2.848013e-005 -5.689096e-001 5.623993e-001
316530000 6.424544e-005 -1.476154e-006 -5.526757e-001 5.777678e-001 -1.734301e-005 3.283045e-005 -5.549819e-001 5.801702e-001
316815000 -5.933681e-005 -4.864413e-006 -5.387909e-001 5.953103e-001 1.944186e-005 -7.418785e-005 -5.409950e-001 5.972714e-001
317100000 6.514561e-005 -2.660233e-005 -5.236599e-001 6.124876e-001 2.732024e-005 -5.007690e-006 -5.265305e-001 6.149302e-001
317385000 6.933915e-005 -4.753927e-005 -5.083119e-001 6.292114e-001 6.954475e-005 -2.588754e-005 -5.108670e-001 6.319982e-001
317670000 -6.197697e-005 -4.197464e-005 -4.930991e-001 6.461651e-001 1.092365e-005 1.825754e-004 -4.947917e-001 6.486664e-001
317955000 1.704875e-004 -1.654446e-005 -4.766057e-001 6.627948e-001 2.699702e-005 1.642915e-006 -4.783525e-001 6.651317e-001
318240000 3.104980e-005 3.260485e-005 -4.600497e-001 6.793407e-001 3.662040e-005 1.141611e-004 -4.614357e-001 6.816529e-001
318525000 5.384182e-005 9.394454e-005 -4.417130e-001 6.954106e-001 -8.319999e-005 8.782667e-006 -4.436939e-001 6.981544e-001
318810000 1.064315e-005 -2.387972e-005 -4.234047e-001 7.108769e-001 -4.551830e-005 5.332305e-005 -4.252329e-001 7.143307e-001
319095000 3.664660e-006 -6.805365e-005 -4.047028e-001 7.268784e-001 -1.031532e-004 3.146662e-005 -4.061570e-001 7.302445e-001
319380000 -9.562433e-005 5.934410e-005 -3.850935e-001 7.421800e-001 -5.753565e-005 -6.353191e-005 -3.870638e-001 7.456741e-001
319665000 1.381472e-005 1.304911e-005 -3.650594e-001 7.571251e-001 3.313405e-006 7.230126e-005 -3.671368e-001 7.607840e-001
319950000 -1.615314e-005 -5.252738e-005 -3.444835e-001 7.722051e-001 7.453732e-005 7.729145e-007 -3.458398e-001 7.754235e-001
320235000 -7.102476e-005 -3.921110e-005 -3.228061e-001 7.864323e-001 6.634515e-005 4.711143e-005 -3.240583e-001 7.896392e-001
320520000 1.290617e-005 1.061935e-004 -3.006952e-001 8.003326e-001 -1.207933e-004 8.696045e-005 -3.013158e-001 8.040287e-001
320805000 -2.127601e-005 -3.670685e-005 -2.775860e-001 8.142113e-001 7.791048e-005 6.691831e-005 -2.783979e-001 8.172053e-001
321090000 -1.601292e-004 -5.915615e-005 -2.537789e-001 8.280149e-001 -7.850018e-005 3.086957e-006 -2.548192e-001 8.300127e-001
321375000 -2.372194e-005 -4.154364e-005 -2.293431e-001 8.399521e-001 9.345727e-005 -1.135571e-005 -2.309312e-001 8.434587e-001
321660000 -1.065461e-004 -4.063411e-005 -2.045147e-001 8.515399e-001 -1.743274e-005 -3.002001e-005 -2.047125e-001 8.551434e-001
321945000 -4.793936e-005 -1.156539e-005 -1.782028e-001 8.634092e-001 1.005877e-004 -2.251183e-005 -1.793411e-001 8.666440e-001
322230000 5.488259e-005 -4.331299e-005 -1.515069e-001 8.734635e-001 1.201523e-004 -1.642941e-004 -1.522673e-001 8.774579e-001
322515000 -1.436538e-005 2.975222e-005 -1.246880e-001 8.838175e-001 3.379125e-005 7.108187e-006 -1.247459e-001 8.868960e-001
322800000 1.399349e-005 -1.372430e-005 -9.638928e-002 8.928956e-001 4.393633e-005 5.379553e-005 -9.635377e-002 8.962987e-001
323085000 2.598394e-005 -8.574767e-005 -6.828190e-002 9.008917e-001 -5.008442e-005 1.125759e-004 -6.726466e-002 9.046180e-001
323370000 -5.824845e-005 -2.350549e-005 -3.775226e-002 9.087638e-001 -5.980737e-005 2.971805e-005 -3.817883e-002 9.128211e-001
323655000 -3.760678e-005 3.543396e-005 -7.804917e-003 9.159498e-001 -2.466929e-005 4.499666e-005 -7.373932e-003 9.188943e-001
323940000 2.248695e-005 -3.485517e-005 2.283602e-002 9.210787e-001 3.319577e-006 -2.855135e-005 2.347519e-002 9.243168e-001
324225000 1.778909e-005 -6.954688e-005 5.454285e-002 9.260927e-001 -5.454131e-005 3.467051e-005 5.492219e-002 9.292340e-001
324510000 5.965497e-005 -3.428779e-005 8.726243e-002 9.289531e-001 -1.717037e-005 6.767798e-005 8.759847e-002 9.325901e-001
324795000 3.551405e-005 5.755487e-005 1.203127e-001 9.316939e-001 -6.672584e-005 -1.186911e-005 1.204135e-001 9.355366e-001
325080000 5.488751e-005 9.658877e-006 1.532056e-001 9.328639e-001 -1.013411e-004 -9.005695e-005 1.537304e-001 9.363248e-001
325365000 6.381967e-005 8.422612e-006 1.874368e-001 9.319973e-001 -1.296009e-004 -9.595718e-006 1.875614e-001 9.364821e-001
325650000 7.021521e-005 3.988633e-005 2.218925e-001 9.303815e-001 4.008857e-006 -2.811252e-006 2.224991e-001 9.343807e-001
325935000 -5.981731e-005 7.053652e-005 2.562507e-001 9.272074e-001 1.884633e-005 -1.385480e-005 2.572233e-001 9.318573e-001
326220000 -6.728710e-005 1.356443e-004 2.915924e-001 9.227253e-001 -1.778722e-004 -2.957714e-005 2.930038e-001 9.267157e-001
326505000 -3.485172e-005 -2.688581e-005 3.264715e-001 9.167766e-001 -1.402904e-004 -5.089953e-005 3.277724e-001 9.208461e-001
326790000 -7.496312e-005 1.355211e-004 3.617174e-001 9.089126e-001 -2.964422e-005 -4.984203e-005 3.632509e-001 9.130846e-001
327075000 -1.030566e-004 6.463332e-005 3.973718e-001 8.999007e-001 3.564895e-005 -4.358199e-005 3.999909e-001 9.033872e-001
327360000 6.430894e-005 3.293078e-005 4.333378e-001 8.886562e-001 2.556059e-005 2.043430e-005 4.349936e-001 8.918688e-001
327645000 -3.389463e-005 1.867832e-007 4.681106e-001 8.756135e-001 1.552381e-005 -2.350032e-005 4.705520e-001 8.801032e-001
327930000 5.847350e-005 -8.590281e-005 5.038382e-001 8.617621e-001 -5.247333e-005 -2.410073e-005 5.054453e-001 8.656641e-001
328215000 1.431897e-005 3.802285e-005 5.385262e-001 8.460131e-001 6.967172e-006 -4.056772e-005 5.407590e-001 8.490242e-001
328500000 4.796610e-005 -5.190859e-005 5.727009e-001 8.279549e-001 -5.915596e-005 1.509332e-005 5.749682e-001 8.317428e-001
328785000 4.738424e-005 6.218709e-005 6.062968e-001 8.082814e-001 2.208724e-005 -1.911633e-006 6.089727e-001 8.116422e-001
329070000 -8.083947e-005 1.733273e-005 6.393377e-001 7.865818e-001 -1.126640e-004 7.441694e-005 6.423635e-001 7.900252e-001
329355000 1.219174e-004 4.098208e-005 6.717786e-001 7.638755e-001 4.311912e-005 -6.540789e-006 6.748177e-001 7.672520e-001
329640000 5.310683e-005 7.603743e-005 7.032660e-001 7.393312e-001 4.501807e-005 -7.156745e-006 7.062297e-001 7.424154e-001
329925000 -3.742444e-005 1.069735e-004 7.334729e-001 7.128289e-001 4.398158e-005 -7.264146e-006 7.363517e-001 7.161829e-001
330210000 3.094271e-005 2.348050e-005 7.625036e-001 6.847153e-001 5.962504e-005 -1.872393e-005 7.654248e-001 6.877874e-001
330495000 1.418671e-005 4.425202e-005 7.900161e-001 6.558801e-001 1.068229e-004 -3.543582e-005 7.941301e-001 6.580102e-001
330780000 -1.097850e-004 -5.557516e-005 8.176607e-001 6.245869e-001 -6.085143e-005 4.723270e-005 8.204219e-001 6.272244e-001
331065000 -9.672624e-005 -1.599061e-005 8.421017e-001 5.923272e-001 -4.114022e-005 -5.871466e-006 8.457298e-001 5.946710e-001
331350000 -9.160735e-005 -1.081778e-005 8.654838e-001 5.592775e-001 -1.547234e-005 -4.043378e-005 8.699223e-001 5.614756e-001
331635000 7.669313e-005 -6.213889e-005 8.866264e-001 5.244297e-001 1.333708e-005 1.295165e-004 8.907785e-001 5.266639e-001
331920000 -3.056376e-005 -4.763266e-005 9.068581e-001 4.882181e-001 -5.876447e-005 -4.529696e-005 9.109225e-001 4.910010e-001
332205000 -3.129441e-005 -1.501520e-005 9.250396e-001 4.519883e-001 -1.271799e-005 -4.981255e-005 9.298229e-001 4.542049e-001
332490000 -5.210153e-006 3.597246e-005 9.418522e-001 4.140984e-001 1.392531e-005 6.665661e-005 9.460590e-001 4.157887e-001
332775000 -2.442480e-005 3.386339e-005 9.553084e-001 3.763607e-001 -3.194247e-005 -4.666582e-005 9.603494e-001 3.782660e-001
333060000 5.751198e-005 2.994298e-005 9.690665e-001 3.379290e-001 -2.742302e-005 -7.603827e-005 9.728997e-001 3.393433e-001
333345000 1.305110e-004 -2.296811e-005 9.788567e-001 2.991410e-001 4.262313e-005 1.149080e-004 9.840229e-001 3.001497e-001
333630000 1.574743e-005 2.018061e-005 9.883483e-001 2.601557e-001 9.800896e-006 -3.301726e-005 9.929537e-001 2.611316e-001
333915000 -1.445722e-004 -4.189005e-005 9.959268e-001 2.206576e-001 -7.977026e-005 -8.981861e-005 9.994990e-001 2.219365e-001
334200000 6.912227e-005 -3.091802e-005 1.000048e+000 1.813789e-001 1.680457e-005 -6.302675e-005 1.003764e+000 1.818414e-001
334485000 -1.710561e-005 7.824222e-006 1.002905e+000 1.423624e-001 -3.783676e-005 1.809079e-005 1.007174e+000 1.426191e-001
334770000 4.223550e-005 -1.171175e-004 1.003842e+000 1.031938e-001 1.443902e-005 -9.381740e-005 1.008567e+000 1.032612e-001
335055000 5.827161e-005 -6.424726e-006 1.003353e+000 6.435067e-002 -4.635402e-005 -8.420323e-006 1.007161e+000 6.505310e-002
335340000 -7.409652e-005 -2.462564e-005 1.000823e+000 2.598305e-002 3.515755e-005 9.294503e-005 1.005178e+000 2.733623e-002
335625000 -2.369308e-005 -6.399374e-005 9.966016e-001 -1.125272e-002 4.785637e-005 -1.059768e-004 1.001480e+000 -1.161593e-002
335910000 -6.997903e-005 -4.469208e-005 9.913639e-001 -4.795120e-002 9.577770e-006 -2.302008e-005 9.951977e-001 -4.882478e-002
336195000 3.164828e-006 -2.360962e-005 9.836339e-001 -8.434587e-002 7.450245e-005 5.199154e-005 9.877990e-001 -8.478813e-002
336480000 4.330073e-005 -8.293826e-005 9.749407e-001 -1.203044e-001 -3.288545e-005 -1.735508e-004 9.788012e-001 -1.202338e-001
336765000 -4.779185e-005 -5.013500e-005 9.646437e-001 -1.541670e-001 -5.595750e-005 -6.845637e-006 9.688591e-001 -1.560056e-001
337050000 7.125096e-005 -7.507846e-005 9.537967e-001 -1.881226e-001 -4.033588e-005 -4.758469e-005 9.577050e-001 -1.897198e-001
337335000 2.437479e-005 -1.479946e-004 9.411646e-001 -2.212814e-001 7.013494e-005 -1.541012e-004 9.449415e-001 -2.217862e-001
337620000 -1.368591e-005 4.965953e-005 9.267871e-001 -2.525743e-001 3.364802e-005 5.141091e-005 9.309812e-001 -2.544326e-001
337905000 -2.379113e-006 -5.549137e-005 9.119587e-001 -2.839896e-001 1.191002e-004 2.722047e-005 9.157730e-001 -2.849361e-001
338190000 -6.300931e-005 -5.619086e-005 8.963555e-001 -3.141816e-001 -2.775956e-005 -2.389986e-006 8.994935e-001 -3.150513e-001
338475000 -8.028664e-005 2.921502e-005 8.799621e-001 -3.420229e-001 4.982229e-005 8.028364e-005 8.829210e-001 -3.442068e-001
338760000 2.089101e-005 -4.068091e-005 8.620317e-001 -3.694004e-001 5.966102e-005 8.697529e-005 8.657702e-001 -3.719295e-001
339045000 -7.383898e-005 -9.851148e-005 8.437153e-001 -3.968283e-001 -7.281292e-005 -1.840003e-005 8.473505e-001 -3.982578e-001
339330000 -6.595346e-005 -7.607872e-005 8.247362e-001 -4.222622e-001 2.813309e-005 5.628829e-005 8.278626e-001 -4.235327e-001
339615000 -1.357094e-005 -2.706888e-005 8.048006e-001 -4.464732e-001 7.004313e-005 1.341606e-004 8.088458e-001 -4.486058e-001
339900000 7.388022e-005 -7.291375e-005 7.846498e-001 -4.697903e-001 -1.884123e-005 -7.252472e-005 7.882215e-001 -4.712981e-001
340185000 2.113459e-005 -9.750768e-006 7.645906e-001 -4.915421e-001 -3.521812e-005 -6.297818e-005 7.672541e-001 -4.938843e-001
340470000 3.459466e-005 3.423793e-006 7.429996e-001 -5.138465e-001 -2.325369e-005 -2.601548e-005 7.462962e-001 -5.151972e-001
340755000 -2.997352e-005 1.669790e-004 7.219468e-001 -5.331563e-001 6.200399e-005 -4.479448e-006 7.252077e-001 -5.361084e-001
341040000 -8.904086e-006 2.182764e-005 7.002023e-001 -5.526808e-001 2.351678e-005 -9.278661e-005 7.030726e-001 -5.553943e-001
341325000 -1.002746e-004 1.058182e-004 6.780766e-001 -5.704664e-001 1.831122e-005 -4.269863e-005 6.813737e-001 -5.737454e-001
341610000 1.040284e-005 5.177963e-005 6.561181e-001 -5.884950e-001 3.838670e-005 -1.740699e-005 6.583346e-001 -5.905489e-001
341895000 2.162325e-005 -1.163756e-004 6.339716e-001 -6.053429e-001 2.913454e-005 1.081551e-004 6.362138e-001 -6.072633e-001
342180000 -3.914185e-005 -7.784637e-005 6.118051e-001 -6.205184e-001 1.759178e-005 6.588714e-005 6.138572e-001 -6.225899e-001
342465000 -5.248524e-005 -2.713584e-005 5.888087e-001 -6.343729e-001 -2.920536e-006 -8.408627e-005 5.911089e-001 -6.376088e-001
342750000 -2.660369e-005 -4.573728e-005 5.659444e-001 -6.478211e-001 -3.913783e-005 3.334771e-005 5.689992e-001 -6.506449e-001
343035000 4.340606e-005 3.907428e-005 5.430505e-001 -6.612002e-001 4.853272e-005 -2.120492e-005 5.455248e-001 -6.637955e-001
343320000 -1.142103e-006 -1.159089e-005 5.200375e-001 -6.737123e-001 1.462806e-004 8.325914e-005 5.223500e-001 -6.760626e-001
343605000 -1.701887e-005 -3.132918e-005 4.979226e-001 -6.848396e-001 -6.580471e-005 8.553458e-006 4.996722e-001 -6.870592e-001
343890000 2.672244e-005 8.128971e-005 4.751630e-001 -6.955957e-001 4.269913e-006 4.532058e-005 4.771603e-001 -6.982642e-001
