!Agilent Technologies,N5230C,SG49000117,A.08.50.07
!Agilent N5230C: A.08.50.07
!Date: Monday, March 18, 2024 18:15:39
!Correction: S11(Off) 
!S21(Off) 
!S12(Off) 
!S22(Off) 
!S2P File: Measurements: S11, S21, S12, S22:
# Hz S  RI   R 50
300000000 -5.735657e-005 2.686088e-005 -6.512749e-001 -6.060124e-001 -1.255325e-004 3.339626e-005 -6.537762e-001 -6.084296e-001
300285000 -9.907189e-005 -1.691203e-004 -6.649752e-001 -5.830082e-001 6.832982e-005 -3.579674e-005 -6.676271e-001 -5.852706e-001
300570000 -1.120220e-004 -9.478062e-005 -6.782824e-001 -5.585569e-001 9.877941e-006 -6.352145e-005 -6.803109e-001 -5.612862e-001
300855000 -3.128892e-005 2.647774e-005 -6.902527e-001 -5.353414e-001 -7.880060e-005 -9.463041e-005 -6.926128e-001 -5.378553e-001
301140000 2.679567e-005 -4.644669e-007 -7.014841e-001 -5.120810e-001 -3.770117e-005 -4.195801e-006 -7.038725e-001 -5.132474e-001
301425000 9.229032e-006 -1.120992e-004 -7.119290e-001 -4.878756e-001 1.998704e-005 3.898576e-006 -7.146100e-001 -4.896092e-001
301710000 -2.105498e-005 -1.504216e-005 -7.220389e-001 -4.645569e-001 -6.623827e-006 8.882770e-005 -7.242639e-001 -4.654422e-001
301995000 -1.571838e-005 4.352960e-005 -7.304919e-001 -4.404694e-001 -9.591522e-005 7.705784e-005 -7.334922e-001 -4.427252e-001
302280000 8.620651e-005 -1.996307e-005 -7.387412e-001 -4.173740e-001 4.224606e-005 9.508424e-005 -7.415688e-001 -4.185282e-001
302565000 2.618739e-005 -2.536422e-005 -7.462779e-001 -3.937795e-001 -8.270001e-006 -1.820928e-005 -7.488742e-001 -3.947244e-001
302850000 -8.045857e-006 2.614697e-005 -7.534331e-001 -3.699847e-001 1.523688e-004 4.820287e-005 -7.555519e-001 -3.718279e-001
303135000 5.950087e-005 -2.985329e-005 -7.592314e-001 -3.473146e-001 4.545083e-005 -3.234064e-005 -7.619071e-001 -3.484285e-001
303420000 1.128142e-004 -1.256009e-004 -7.649336e-001 -3.240351e-001 -4.776135e-005 -3.607192e-005 -7.677627e-001 -3.251860e-001
303705000 8.677338e-005 -7.893091e-005 -7.697595e-001 -3.009630e-001 1.317861e-005 -7.296389e-005 -7.726060e-001 -3.023708e-001
303990000 1.495721e-004 3.753718e-005 -7.747307e-001 -2.785148e-001 -1.021644e-004 3.990555e-007 -7.773048e-001 -2.794829e-001
304275000 1.179577e-005 5.717255e-005 -7.778920e-001 -2.557533e-001 3.480433e-005 5.883562e-006 -7.811021e-001 -2.567288e-001
304560000 -2.130744e-005 7.584456e-006 -7.814841e-001 -2.334905e-001 1.300315e-004 8.472416e-005 -7.846699e-001 -2.347178e-001
304845000 -7.023078e-005 4.445493e-005 -7.845923e-001 -2.112207e-001 -3.959894e-005 2.650117e-005 -7.866642e-001 -2.117822e-001
305130000 -2.207841e-006 -3.566846e-005 -7.863932e-001 -1.883750e-001 -7.418868e-005 -3.689832e-005 -7.890794e-001 -1.895313e-001
305415000 -6.152414e-005 1.020380e-004 -7.881115e-001 -1.668749e-001 -6.707868e-005 9.311671e-006 -7.909735e-001 -1.669121e-001
305700000 6.246680e-005 6.881449e-005 -7.894742e-001 -1.452392e-001 5.016270e-005 1.050403e-004 -7.921049e-001 -1.459109e-001
305985000 1.761036e-005 2.031501e-006 -7.898296e-001 -1.228926e-001 -1.638287e-005 -9.016044e-005 -7.931042e-001 -1.238922e-001
306270000 5.995159e-006 7.777654e-006 -7.898718e-001 -1.014485e-001 -4.010476e-005 5.004868e-005 -7.930405e-001 -1.025061e-001
306555000 -2.871786e-005 5.667980e-005 -7.900645e-001 -8.005832e-002 8.172813e-005 -1.959170e-005 -7.931760e-001 -8.063996e-002
306840000 6.240178e-005 2.002111e-005 -7.894646e-001 -5.942964e-002 -3.837784e-006 -3.580354e-005 -7.923335e-001 -5.957178e-002
307125000 3.187414e-005 5.392387e-005 -7.881273e-001 -3.835038e-002 -3.725748e-005 -2.135255e-005 -7.908421e-001 -3.807709e-002
307410000 -7.960871e-005 4.080635e-005 -7.868868e-001 -1.736495e-002 3.385541e-006 -9.449291e-005 -7.899452e-001 -1.744046e-002
307695000 -1.513780e-004 8.768251e-005 -7.850817e-001 3.523895e-003 -7.310759e-005 -7.329056e-005 -7.881274e-001 3.312938e-003
307980000 4.373494e-005 5.535596e-005 -7.828698e-001 2.416536e-002 -1.420030e-007 4.188521e-005 -7.858930e-001 2.396598e-002
308265000 -3.778431e-005 -7.312146e-005 -7.805039e-001 4.455871e-002 8.735067e-005 1.179728e-004 -7.829761e-001 4.463323e-002
308550000 -1.148193e-004 6.432575e-006 -7.771578e-001 6.488240e-002 3.775355e-005 -3.500700e-005 -7.808024e-001 6.516161e-002
308835000 -6.802694e-005 -1.803523e-006 -7.742624e-001 8.480423e-002 6.016436e-006 5.124756e-005 -7.770341e-001 8.564211e-002
309120000 -6.754215e-005 8.267281e-005 -7.702850e-001 1.054318e-001 -4.255954e-005 4.128519e-005 -7.733116e-001 1.053207e-001
309405000 1.030451e-004 -3.705963e-005 -7.663924e-001 1.252261e-001 -3.415944e-006 -8.301628e-005 -7.693279e-001 1.255694e-001
309690000 -3.607479e-005 -3.466663e-005 -7.617809e-001 1.449408e-001 -5.728065e-005 3.402439e-006 -7.646012e-001 1.449126e-001
309975000 -1.270804e-005 -8.674104e-005 -7.569749e-001 1.644738e-001 7.606977e-005 8.362345e-005 -7.601337e-001 1.649890e-001
310260000 -9.593279e-005 -7.516205e-006 -7.518559e-001 1.844644e-001 -6.680905e-005 3.929192e-005 -7.549215e-001 1.848961e-001
310545000 -2.914328e-005 -9.016167e-005 -7.465652e-001 2.033196e-001 -4.800202e-005 -8.870814e-006 -7.496337e-001 2.040732e-001
310830000 2.276928e-005 -4.644176e-005 -7.408558e-001 2.228705e-001 1.698059e-005 -7.309396e-005 -7.433098e-001 2.235708e-001
311115000 2.254679e-005 8.832797e-007 -7.344444e-001 2.420513e-001 -1.027237e-004 -5.216603e-005 -7.374164e-001 2.430241e-001
311400000 -3.533000e-005 -2.565678e-005 -7.278299e-001 2.610902e-001 2.022674e-005 9.019556e-005 -7.308080e-001 2.621375e-001
311685000 5.336715e-005 3.483486e-005 -7.210841e-001 2.801582e-001 -6.136866e-005 -5.454155e-005 -7.237888e-001 2.811743e-001
311970000 -3.829721e-006 -7.375905e-005 -7.136423e-001 2.991193e-001 -9.425262e-006 -3.597768e-005 -7.166333e-001 3.006115e-001
312255000 4.123566e-005 4.383910e-005 -7.063672e-001 3.179345e-001 -3.354872e-005 -5.565574e-005 -7.086657e-001 3.194828e-001
312540000 1.016639e-005 8.199987e-005 -6.983575e-001 3.366737e-001 -1.122930e-004 -8.331278e-005 -7.008097e-001 3.381871e-001
312825000 5.692519e-005 -9.523509e-005 -6.899908e-001 3.550887e-001 5.984362e-005 4.045029e-005 -6.925894e-001 3.565808e-001
313110000 9.067579e-005 5.021820e-005 -6.811512e-001 3.739892e-001 1.609296e-005 9.146974e-005 -6.834794e-001 3.756551e-001
313395000 -1.037399e-004 4.874065e-005 -6.718042e-001 3.920877e-001 1.054758e-005 1.042133e-004 -6.747156e-001 3.936354e-001
313680000 -1.309248e-005 7.134783e-005 -6.623101e-001 4.109815e-001 3.229048e-005 1.036448e-004 -6.645523e-001 4.122710e-001
313965000 1.103904e-005 -2.301623e-005 -6.522877e-001 4.287326e-001 -8.389303e-005 4.322701e-005 -6.548464e-001 4.305276e-001
314250000 -2.387515e-005 7.076794e-005 -6.419181e-001 4.473698e-001 6.328638e-005 1.157718e-004 -6.444821e-001 4.489399e-001
314535000 -2.342885e-005 -7.732386e-005 -6.310664e-001 4.655349e-001 7.153905e-005 5.566379e-005 -6.338106e-001 4.669342e-001
314820000 -1.424950e-005 5.000960e-006 -6.196244e-001 4.832530e-001 1.744616e-005 -2.616865e-005 -6.223070e-001 4.853850e-001
315105000 4.911494e-005 3.115420e-005 -6.084105e-001 5.011100e-001 1.053136e-004 3.794005e-005 -6.108303e-001 5.027375e-001
315390000 -3.530863e-005 -6.084696e-005 -5.960705e-001 5.188391e-001 2.333463e-005 -9.386720e-006 -5.988274e-001 5.211220e-001
315675000 4.849930e-005 4.862946e-005 -5.836657e-001 5.368292e-001 2.722511e-005 -4.429794e-005 -5.857314e-001 5.385884e-001
315960000 3.473832e-005 -8.908458e-005 -5.704272e-001 5.542145e-001 -6.916206e-005 -5.232473e-005 -5.728019e-001 5.567722e-001
316245000 -1.927296e-005 -6.146966e-005 -5.568606e-001 5.712357e-001 -4.716954e-006 -1.921131e-006 -5.591913e-001 5.739581e-001
316530000 1.960742e-006 -3.412289e-005 -5.430636e-001 5.887915e-001 -3.840871e-005 4.996761e-005 -5.444386e-001 5.908089e-001
316815000 3.189162e-005 5.332440e-005 -5.282004e-001 6.056026e-001 -1.303434e-004 2.348188e-005 -5.305997e-001 6.091548e-001
317100000 1.855065e-005 -5.076633e-005 -5.138525e-001 6.229768e-001 3.724158e-005 1.088887e-005 -5.154644e-001 6.255189e-001
317385000 4.819418e-005 2.952707e-005 -4.973975e-001 6.398678e-001 2.014345e-005 -5.285448e-005 -4.996417e-001 6.422269e-001
317670000 5.844136e-005 2.765509e-005 -4.809357e-001 6.565706e-001 2.525413e-006 1.548157e-005 -4.831961e-001 6.592083e-001
317955000 1.950319e-005 1.007634e-004 -4.643781e-001 6.728306e-001 3.214365e-005 9.071094e-006 -4.661139e-001 6.758273e-001
318240000 6.158384e-005 9.961562e-005 -4.470744e-001 6.894563e-001 -4.969297e-005 4.030808e-005 -4.486552e-001 6.922540e-001
318525000 5.204073e-005 6.979863e-005 -4.292094e-001 7.050226e-001 -9.954703e-005 -7.250444e-005 -4.307323e-001 7.085075e-001
318810000 2.987942e-005 7.116453e-005 -4.102980e-001 7.206864e-001 -1.612515e-004 -3.486059e-005 -4.119369e-001 7.238522e-001
319095000 -5.506235e-005 -2.138927e-005 -3.908033e-001 7.362105e-001 -5.586800e-006 2.989036e-005 -3.923891e-001 7.396736e-001
319380000 -1.166998e-005 -4.094974e-005 -3.709346e-001 7.517139e-001 -5.466503e-005 -2.029178e-005 -3.729612e-001 7.544888e-001
319665000 4.518295e-005 1.547536e-005 -3.504192e-001 7.669793e-001 2.961283e-005 -2.606495e-005 -3.520795e-001 7.695925e-001
319950000 -1.182803e-005 3.756183e-005 -3.296441e-001 7.807968e-001 5.553913e-005 6.133605e-005 -3.308845e-001 7.838994e-001
320235000 8.079044e-005 6.712040e-005 -3.070965e-001 7.948119e-001 1.304834e-004 1.210737e-005 -3.082607e-001 7.979723e-001
320520000 4.369773e-005 1.858834e-005 -2.847959e-001 8.083203e-001 1.174140e-004 1.342723e-004 -2.857551e-001 8.116775e-001
320805000 -1.068350e-005 -7.979613e-006 -2.611646e-001 8.219641e-001 6.155262e-005 -4.246982e-005 -2.623472e-001 8.250882e-001
321090000 8.031614e-006 -7.987923e-005 -2.367506e-001 8.343747e-001 -5.681003e-005 -8.624031e-005 -2.382666e-001 8.377844e-001
321375000 1.763354e-005 -8.634918e-005 -2.129152e-001 8.464785e-001 1.018646e-005 1.325742e-004 -2.131451e-001 8.501477e-001
321660000 4.978525e-005 -5.297191e-005 -1.863881e-001 8.580284e-001 -7.475528e-005 -4.479064e-006 -1.875898e-001 8.613814e-001
321945000 3.206765e-005 1.308540e-005 -1.601119e-001 8.688301e-001 6.968054e-005 -1.851781e-005 -1.611118e-001 8.726043e-001
322230000 1.188165e-005 5.593995e-005 -1.331037e-001 8.791360e-001 -1.772053e-005 -8.118004e-005 -1.341376e-001 8.826028e-001
322515000 4.736685e-005 5.427911e-005 -1.054895e-001 8.887427e-001 3.301117e-005 6.374474e-005 -1.063010e-001 8.925978e-001
322800000 8.440686e-005 4.275780e-005 -7.651947e-002 8.967013e-001 -2.513666e-005 3.384770e-005 -7.707985e-002 9.014287e-001
323085000 4.975478e-005 -2.858615e-005 -4.777640e-002 9.051293e-001 -7.087765e-005 1.335397e-004 -4.752836e-002 9.092311e-001
323370000 3.638244e-005 1.178996e-005 -1.770128e-002 9.117712e-001 2.437708e-005 2.776903e-005 -1.825914e-002 9.159032e-001
323655000 -2.441856e-005 2.294375e-006 1.293691e-002 9.179161e-001 -7.765955e-005 3.718440e-005 1.308785e-002 9.216611e-001
323940000 1.477833e-006 7.175872e-005 4.423247e-002 9.226672e-001 2.193798e-005 1.067260e-005 4.460285e-002 9.270455e-001
324225000 -7.758931e-005 -3.549151e-005 7.621712e-002 9.265931e-001 -5.457376e-005 8.726741e-005 7.596309e-002 9.304391e-001
324510000 -5.865688e-005 1.353530e-004 1.088943e-001 9.292538e-001 -9.002173e-005 6.717571e-005 1.097161e-001 9.331360e-001
324795000 -3.834424e-005 6.777978e-005 1.419544e-001 9.309761e-001 -1.291321e-004 1.003824e-004 1.426144e-001 9.347110e-001
325080000 -7.084596e-006 -4.446243e-005 1.753738e-001 9.311234e-001 -1.707065e-005 6.436926e-005 1.760413e-001 9.344607e-001
325365000 -1.159522e-004 9.437880e-006 2.096368e-001 9.300396e-001 7.011144e-005 7.512707e-005 2.103500e-001 9.336247e-001
325650000 7.460073e-006 -7.278641e-006 2.446415e-001 9.272711e-001 4.255618e-005 1.260735e-005 2.448020e-001 9.312274e-001
325935000 -3.792975e-005 -6.691686e-005 2.791344e-001 9.232674e-001 -1.153872e-005 3.935647e-005 2.805140e-001 9.267394e-001
326220000 5.308685e-005 -1.475180e-006 3.140355e-001 9.168580e-001 -1.085861e-004 -8.010254e-006 3.152557e-001 9.218732e-001
326505000 -5.822999e-005 4.429943e-006 3.499459e-001 9.106082e-001 -5.038558e-005 8.313939e-006 3.512321e-001 9.146526e-001
326790000 -5.578061e-005 -5.724557e-005 3.854751e-001 9.016586e-001 3.482247e-005 -5.563613e-005 3.863216e-001 9.061076e-001
327075000 -1.385697e-004 3.367773e-005 4.201268e-001 8.917094e-001 -5.436218e-005 8.223890e-006 4.224415e-001 8.954153e-001
327360000 -4.510714e-005 1.816693e-005 4.556794e-001 8.793485e-001 5.966277e-005 2.329219e-005 4.578877e-001 8.835357e-001
327645000 -9.872086e-005 -6.240300e-005 4.907477e-001 8.657284e-001 3.034852e-005 6.673560e-005 4.930767e-001 8.691410e-001
327930000 4.563998e-005 -5.483694e-005 5.256573e-001 8.506715e-001 -2.924100e-005 -5.267605e-005 5.281826e-001 8.542085e-001
328215000 -2.036338e-005 4.217728e-005 5.602724e-001 8.332131e-001 -6.350373e-005 4.167715e-005 5.629642e-001 8.365151e-001
328500000 6.325319e-006 1.146775e-005 5.943087e-001 8.149427e-001 -9.166436e-005 -4.057902e-005 5.965282e-001 8.178893e-001
328785000 -3.301677e-005 2.843493e-005 6.276825e-001 7.930017e-001 -4.569915e-006 -1.257824e-004 6.303948e-001 7.971335e-001
329070000 8.739412e-005 7.530229e-005 6.600649e-001 7.707415e-001 -6.067074e-005 -5.053964e-005 6.628770e-001 7.741916e-001
329355000 -6.066866e-005 -7.557289e-005 6.916465e-001 7.470874e-001 9.472096e-005 -6.036494e-005 6.943294e-001 7.501163e-001
329640000 -7.650458e-005 1.079158e-004 7.230189e-001 7.209401e-001 -3.478493e-005 -2.812804e-005 7.256792e-001 7.244914e-001
329925000 -8.993978e-005 -5.999512e-005 7.521765e-001 6.937568e-001 9.423392e-005 -3.550394e-005 7.551163e-001 6.966887e-001
330210000 -5.031784e-005 8.784314e-005 7.797178e-001 6.645362e-001 1.004077e-004 -1.860808e-005 7.836066e-001 6.679368e-001
330495000 4.228267e-005 -5.922264e-005 8.072523e-001 6.343420e-001 1.926379e-006 8.522407e-005 8.103935e-001 6.378555e-001
330780000 1.436474e-005 -9.973392e-005 8.328944e-001 6.032403e-001 -5.640671e-005 3.747823e-005 8.366790e-001 6.050323e-001
331065000 -4.227624e-005 -9.975077e-005 8.569642e-001 5.701205e-001 -5.494587e-005 -5.310872e-005 8.604910e-001 5.720677e-001
331350000 3.007922e-005 -9.076802e-005 8.792006e-001 5.356475e-001 -5.620160e-005 6.038015e-005 8.828775e-001 5.375834e-001
331635000 6.659132e-005 6.387314e-005 8.999503e-001 4.998545e-001 1.487115e-005 -4.766219e-005 9.042107e-001 5.020888e-001
331920000 3.420416e-005 9.289022e-005 9.182872e-001 4.642448e-001 -1.029677e-004 -3.939443e-005 9.225046e-001 4.660738e-001
332205000 -1.335974e-005 1.816535e-004 9.359592e-001 4.268884e-001 -6.702552e-007 -1.176779e-004 9.404873e-001 4.292497e-001
332490000 3.999314e-005 2.289405e-005 9.510499e-001 3.892707e-001 -5.912503e-005 -1.254579e-005 9.554880e-001 3.914784e-001
332775000 6.773605e-005 1.439476e-004 9.638605e-001 3.506207e-001 -6.686805e-006 2.089303e-005 9.682910e-001 3.524887e-001
333060000 -2.826779e-005 5.374640e-005 9.760293e-001 3.126508e-001 -4.702233e-005 -3.941126e-005 9.797982e-001 3.136391e-001
333345000 -8.510311e-005 9.706806e-005 9.848641e-001 2.728505e-001 3.876782e-005 -1.432894e-005 9.892769e-001 2.743722e-001
333630000 1.619191e-005 9.746900e-005 9.925860e-001 2.341436e-001 7.029885e-005 -4.519185e-005 9.966016e-001 2.350172e-001
333915000 5.949879e-005 2.006144e-005 9.982253e-001 1.940795e-001 1.074450e-004 -6.973415e-005 1.002361e+000 1.950347e-001
334200000 4.872881e-005 7.372826e-005 1.001496e+000 1.548097e-001 -8.906279e-005 -3.450295e-005 1.006677e+000 1.560307e-001
334485000 5.205877e-006 4.665339e-005 1.003767e+000 1.160017e-001 9.154269e-005 1.654191e-005 1.007821e+000 1.166299e-001
334770000 -3.294236e-005 1.727091e-005 1.003334e+000 7.703170e-002 6.620680e-005 3.348071e-005 1.008497e+000 7.743031e-002
335055000 6.264686e-005 1.296205e-004 1.002175e+000 3.848537e-002 -4.645502e-005 -5.266905e-006 1.005612e+000 3.866656e-002
335340000 4.034241e-005 1.490562e-004 9.982762e-001 1.280647e-003 -2.035522e-005 -3.523440e-005 1.002700e+000 1.254771e-003
335625000 5.452220e-005 6.957349e-005 9.930733e-001 -3.585643e-002 -6.397549e-005 -5.145257e-005 9.974846e-001 -3.677745e-002
335910000 -3.023955e-005 5.391536e-005 9.861909e-001 -7.323948e-002 4.726972e-005 -5.248368e-005 9.901141e-001 -7.321418e-002
336195000 -1.728930e-005 7.746895e-005 9.780876e-001 -1.081541e-001 -2.701997e-006 1.771392e-006 9.828180e-001 -1.093509e-001
336480000 -7.741890e-005 5.685816e-005 9.687604e-001 -1.438188e-001 -3.855480e-005 -7.193926e-005 9.723487e-001 -1.445657e-001
336765000 -7.861589e-005 5.814588e-005 9.575453e-001 -1.774275e-001 2.497154e-005 -5.562693e-006 9.614434e-001 -1.784903e-001
337050000 -1.254270e-004 1.049816e-005 9.455298e-001 -2.109530e-001 7.638677e-007 -2.671829e-005 9.490623e-001 -2.115449e-001
337335000 -8.195632e-006 -1.185108e-006 9.313163e-001 -2.432251e-001 -5.221921e-005 7.094406e-005 9.352158e-001 -2.437677e-001
337620000 -5.842779e-005 8.925921e-006 9.169939e-001 -2.742211e-001 6.462643e-005 9.339650e-005 9.212188e-001 -2.755961e-001
337905000 1.596556e-005 -5.747461e-005 9.012718e-001 -3.045560e-001 -3.497723e-006 -1.545631e-005 9.053047e-001 -3.059169e-001
338190000 -5.350196e-005 -6.245776e-005 8.846265e-001 -3.339523e-001 1.917083e-005 6.498463e-005 8.889659e-001 -3.349154e-001
338475000 5.945412e-006 -6.757308e-005 8.673844e-001 -3.615743e-001 8.254968e-007 4.931632e-005 8.711044e-001 -3.628593e-001
338760000 2.339386e-006 -6.232689e-005 8.497751e-001 -3.888019e-001 -2.051273e-005 6.028945e-005 8.534150e-001 -3.900543e-001
339045000 -6.807447e-006 -6.306664e-006 8.306022e-001 -4.146657e-001 -7.422213e-005 5.554167e-006 8.345808e-001 -4.164279e-001
339330000 -3.887053e-005 2.556617e-006 8.103622e-001 -4.389838e-001 -1.029881e-004 6.491936e-006 8.148249e-001 -4.415278e-001
339615000 -2.464285e-005 -1.643290e-005 7.915341e-001 -4.627288e-001 -1.215388e-005 -4.118892e-005 7.946705e-001 -4.650547e-001
339900000 -5.382613e-005 1.776696e-005 7.711076e-001 -4.856470e-001 2.884107e-005 -1.797811e-005 7.737998e-001 -4.879499e-001
340185000 -4.104553e-005 7.881605e-006 7.500120e-001 -5.074192e-001 -2.138931e-005 -6.127546e-006 7.535436e-001 -5.092696e-001
340470000 8.799672e-005 3.840118e-005 7.282870e-001 -5.277951e-001 -7.959668e-005 -3.081683e-005 7.316732e-001 -5.306488e-001
340755000 4.524949e-005 -1.006199e-004 7.070916e-001 -5.476660e-001 8.990085e-006 6.292622e-005 7.100169e-001 -5.498968e-001
341040000 5.369530e-005 5.251008e-005 6.852060e-001 -5.661753e-001 3.831699e-005 8.886203e-005 6.876635e-001 -5.684871e-001
341325000 6.056680e-005 2.129213e-005 6.627924e-001 -5.831261e-001 -1.837955e-005 -5.198344e-005 6.657494e-001 -5.861360e-001
341610000 9.171907e-005 -2.050310e-005 6.403122e-001 -6.004332e-001 -6.644858e-005 5.944683e-005 6.432621e-001 -6.030560e-001
341895000 -7.296980e-006 4.254330e-005 6.174541e-001 -6.160789e-001 -5.406572e-006 -1.070584e-005 6.202732e-001 -6.187128e-001
342180000 5.776691e-005 3.097098e-005 5.949546e-001 -6.306225e-001 -7.344551e-006 -4.035584e-005 5.979425e-001 -6.335663e-001
342465000 -1.363633e-005 9.011205e-005 5.724725e-001 -6.447625e-001 -2.590493e-005 -8.544826e-005 5.752409e-001 -6.476355e-001
342750000 -7.282414e-005 2.326499e-005 5.494810e-001 -6.580261e-001 8.622579e-006 -5.656414e-005 5.518373e-001 -6.604699e-001
343035000 -2.708770e-005 1.878473e-005 5.270457e-001 -6.697283e-001 -7.339122e-005 -2.188711e-005 5.293330e-001 -6.731245e-001
343320000 -1.975784e-004 3.745985e-005 5.040956e-001 -6.814385e-001 9.513854e-005 -4.746912e-005 5.063697e-001 -6.843784e-001
343605000 2.252492e-005 7.635837e-006 4.813008e-001 -6.922855e-001 1.798935e-005 3.653050e-005 4.833914e-001 -6.951215e-001
343890000 9.477813e-006 -3.743452e-006 4.581860e-001 -7.028180e-001 -4.629472e-005 7.130502e-005 4.605623e-001 -7.054951e-001
