!Agilent Technologies,N5230C,SG49000117,A.08.50.07
!Agilent N5230C: A.08.50.07
!Date: Monday, March 18, 2024 18:14:27
!Correction: S11(Off) 
!S21(Off) 
!S12(Off) 
!S22(Off) 
!S2P File: Measurements: S11, S21, S12, S22:
# Hz S  RI   R 50
300000000 -1.261852e-004 -4.892938e-005 -6.604860e-001 -5.917265e-001 7.952089e-005 1.389327e-004 -6.635578e-001 -5.937564e-001
300285000 3.719351e-005 4.674900e-005 -6.732653e-001 -5.687450e-001 8.749624e-005 3.324264e-006 -6.763813e-001 -5.704862e-001
300570000 -4.431789e-005 8.630754e-006 -6.858364e-001 -5.447553e-001 2.147205e-005 -5.331398e-005 -6.889111e-001 -5.466673e-001
300855000 4.419744e-005 -1.012155e-004 -6.977847e-001 -5.209356e-001 -3.481926e-005 -1.980700e-005 -7.002919e-001 -5.234414e-001
301140000 6.080793e-005 -1.544159e-004 -7.086378e-001 -4.972514e-001 6.285965e-005 1.120084e-004 -7.109880e-001 -4.986852e-001
301425000 2.710719e-005 -2.991338e-005 -7.185643e-001 -4.733120e-001 -3.162130e-005 -5.854869e-005 -7.208665e-001 -4.754066e-001
301710000 5.074170e-005 -1.403622e-004 -7.276095e-001 -4.496902e-001 -1.389763e-004 -1.094150e-005 -7.306966e-001 -4.515032e-001
301995000 6.952908e-006 -6.844585e-006 -7.363916e-001 -4.261296e-001 1.403700e-005 -7.780247e-005 -7.392054e-001 -4.274344e-001
302280000 9.165129e-006 3.987537e-005 -7.443472e-001 -4.027646e-001 -4.241548e-005 -4.621450e-005 -7.466925e-001 -4.041718e-001
302565000 1.936613e-005 -8.893202e-006 -7.514074e-001 -3.786469e-001 -1.120566e-004 -9.752457e-005 -7.537744e-001 -3.808312e-001
302850000 -5.454040e-005 6.493094e-005 -7.577184e-001 -3.555272e-001 1.605841e-005 -1.419047e-004 -7.608312e-001 -3.568660e-001
303135000 -5.380984e-005 1.148122e-004 -7.638716e-001 -3.327239e-001 -3.203470e-005 3.407331e-005 -7.663146e-001 -3.341199e-001
303420000 1.681608e-005 -2.970781e-006 -7.687865e-001 -3.094298e-001 1.503398e-006 -8.769026e-005 -7.715115e-001 -3.108000e-001
303705000 -3.622618e-005 3.497419e-005 -7.731057e-001 -2.868977e-001 9.356933e-005 3.556388e-005 -7.766164e-001 -2.880454e-001
303990000 -3.772018e-005 -5.666697e-005 -7.770972e-001 -2.640359e-001 -2.336668e-005 -5.669496e-006 -7.804582e-001 -2.650476e-001
304275000 7.930603e-005 5.318916e-005 -7.803881e-001 -2.413924e-001 -2.381887e-006 -5.847753e-005 -7.836316e-001 -2.423607e-001
304560000 -1.381058e-004 8.657690e-005 -7.834063e-001 -2.189443e-001 1.122116e-004 6.444210e-005 -7.868208e-001 -2.202977e-001
304845000 1.269475e-005 1.422070e-005 -7.861936e-001 -1.969123e-001 2.718033e-005 2.324956e-005 -7.888393e-001 -1.973709e-001
305130000 -9.241875e-005 -1.054450e-004 -7.877315e-001 -1.745011e-001 1.253306e-005 -1.381741e-004 -7.906082e-001 -1.751126e-001
305415000 3.713151e-005 -4.657568e-005 -7.892771e-001 -1.531242e-001 1.029877e-004 -7.951810e-005 -7.922273e-001 -1.536554e-001
305700000 5.417147e-005 2.220950e-005 -7.898005e-001 -1.311012e-001 1.222754e-004 2.366281e-005 -7.932193e-001 -1.318747e-001
305985000 3.187185e-005 -8.461936e-005 -7.904755e-001 -1.095659e-001 -5.191774e-005 -5.516534e-005 -7.938492e-001 -1.095037e-001
306270000 -3.581122e-005 -1.128849e-005 -7.906347e-001 -8.773840e-002 -3.113538e-005 6.180244e-005 -7.934785e-001 -8.851904e-002
306555000 1.147544e-004 1.805067e-005 -7.895539e-001 -6.653402e-002 2.270240e-005 -6.309256e-005 -7.930513e-001 -6.659893e-002
306840000 1.273111e-004 1.073770e-005 -7.891066e-001 -4.555661e-002 -7.801897e-005 -1.984872e-005 -7.920333e-001 -4.592285e-002
307125000 2.041509e-005 -1.138030e-004 -7.876355e-001 -2.432593e-002 -3.120609e-005 6.973825e-005 -7.902929e-001 -2.435728e-002
307410000 -3.226797e-006 -5.299211e-005 -7.864200e-001 -3.564458e-003 -1.086277e-004 -3.493267e-005 -7.891498e-001 -3.519909e-003
307695000 1.030734e-005 -8.576426e-007 -7.839814e-001 1.689690e-002 -1.194684e-005 -1.144525e-004 -7.868766e-001 1.685436e-002
307980000 2.691729e-005 -5.402990e-006 -7.810560e-001 3.774968e-002 -4.611065e-005 2.024429e-005 -7.841457e-001 3.768231e-002
308265000 4.606367e-005 -1.121019e-004 -7.784286e-001 5.779705e-002 1.923672e-005 -1.998949e-005 -7.808993e-001 5.843469e-002
308550000 7.336943e-005 5.222918e-005 -7.756209e-001 7.809149e-002 -6.817776e-005 -7.700847e-005 -7.782987e-001 7.826703e-002
308835000 1.271378e-004 2.153785e-005 -7.714502e-001 9.791382e-002 -6.000180e-005 -2.501683e-005 -7.747126e-001 9.865988e-002
309120000 -2.479323e-005 7.592415e-005 -7.679324e-001 1.182263e-001 -2.642487e-005 -6.155536e-005 -7.706621e-001 1.185852e-001
309405000 -4.646575e-005 3.835461e-005 -7.637070e-001 1.378689e-001 2.273485e-005 1.546780e-006 -7.666803e-001 1.388412e-001
309690000 3.558725e-005 1.321013e-005 -7.583560e-001 1.578405e-001 1.704717e-005 -1.106367e-004 -7.618721e-001 1.583989e-001
309975000 -7.746540e-005 1.122108e-004 -7.536286e-001 1.774723e-001 -6.430628e-005 9.020104e-006 -7.566088e-001 1.783442e-001
310260000 4.594065e-005 -3.073820e-005 -7.483962e-001 1.968255e-001 9.031203e-005 -1.089673e-005 -7.508627e-001 1.976802e-001
310545000 3.560645e-005 4.217438e-005 -7.427859e-001 2.167307e-001 5.442000e-005 2.053984e-005 -7.455372e-001 2.170696e-001
310830000 -1.298528e-004 1.769375e-004 -7.362571e-001 2.358324e-001 -9.864428e-005 -1.662041e-005 -7.391818e-001 2.365918e-001
311115000 1.910839e-005 -4.190244e-005 -7.299338e-001 2.549999e-001 1.856081e-005 -6.050143e-006 -7.327654e-001 2.554284e-001
311400000 -1.093286e-004 -5.895367e-005 -7.227383e-001 2.733805e-001 2.845279e-005 9.904538e-005 -7.259153e-001 2.750656e-001
311685000 -4.912015e-005 -2.944755e-005 -7.154312e-001 2.927690e-001 -1.343079e-005 9.957147e-005 -7.190059e-001 2.940716e-001
311970000 1.245682e-005 9.140652e-005 -7.083904e-001 3.115070e-001 6.409643e-005 -9.901368e-006 -7.116195e-001 3.129771e-001
312255000 -4.292945e-005 -3.453813e-005 -7.005129e-001 3.302674e-001 -1.637163e-005 7.392226e-006 -7.033294e-001 3.315791e-001
312540000 3.482937e-005 4.023604e-005 -6.917883e-001 3.493627e-001 7.880761e-005 -1.914872e-005 -6.952044e-001 3.504509e-001
312825000 6.494126e-005 -6.911204e-005 -6.837723e-001 3.675306e-001 -3.583467e-005 -1.000976e-005 -6.860999e-001 3.692760e-001
313110000 9.914360e-005 2.733770e-005 -6.747001e-001 3.860013e-001 1.603542e-005 4.874104e-005 -6.770653e-001 3.878135e-001
313395000 1.135308e-004 3.405373e-005 -6.647614e-001 4.050650e-001 8.598656e-005 9.869108e-005 -6.676544e-001 4.059034e-001
313680000 4.394531e-005 -4.216790e-005 -6.552751e-001 4.226478e-001 4.392736e-005 -1.385110e-004 -6.576433e-001 4.246208e-001
313965000 7.669067e-005 -1.929519e-005 -6.451484e-001 4.412481e-001 -2.582987e-005 -1.569165e-005 -6.474046e-001 4.425062e-001
314250000 3.465108e-006 -2.923331e-005 -6.344296e-001 4.593037e-001 -9.660986e-007 -1.298666e-004 -6.367847e-001 4.609988e-001
314535000 8.029983e-005 8.969832e-006 -6.228272e-001 4.770877e-001 1.019860e-004 -1.680544e-005 -6.254649e-001 4.788615e-001
314820000 -5.057925e-006 3.271499e-005 -6.114171e-001 4.947307e-001 5.359935e-005 -4.795511e-007 -6.137387e-001 4.971308e-001
315105000 -2.636187e-005 5.906638e-005 -5.991839e-001 5.127163e-001 -7.283233e-006 9.105860e-005 -6.024160e-001 5.149076e-001
315390000 3.578422e-005 1.206139e-004 -5.876139e-001 5.306938e-001 -2.520788e-005 -1.542851e-005 -5.897514e-001 5.327419e-001
315675000 6.433514e-005 1.421691e-004 -5.743337e-001 5.480323e-001 8.824712e-006 2.875222e-005 -5.764882e-001 5.503133e-001
315960000 2.971457e-005 1.325316e-004 -5.607598e-001 5.656593e-001 -1.059081e-004 -5.541683e-007 -5.626398e-001 5.679516e-001
316245000 -4.378385e-005 -9.864879e-005 -5.468107e-001 5.827301e-001 -2.206926e-005 5.366133e-006 -5.492452e-001 5.852104e-001
316530000 -2.390812e-005 5.688483e-005 -5.328614e-001 6.002694e-001 2.315337e-005 3.528711e-005 -5.346003e-001 6.020963e-001
316815000 -6.280011e-005 -1.984640e-005 -5.175708e-001 6.168763e-001 -1.195987e-004 -4.162331e-005 -5.194859e-001 6.193494e-001
317100000 -1.436664e-005 3.210415e-005 -5.022500e-001 6.336324e-001 -4.402467e-005 3.620171e-005 -5.045448e-001 6.360523e-001
317385000 -8.002420e-005 7.011087e-005 -4.864098e-001 6.505113e-001 2.171769e-005 -3.462017e-005 -4.882565e-001 6.530744e-001
317670000 -2.090452e-005 1.576105e-005 -4.696844e-001 6.665207e-001 -5.147580e-005 -3.911950e-006 -4.716248e-001 6.693828e-001
317955000 3.552366e-005 -3.413116e-005 -4.521737e-001 6.829087e-001 -2.116918e-005 -1.332712e-004 -4.542430e-001 6.862644e-001
318240000 -4.237841e-005 3.885684e-005 -4.347948e-001 6.989763e-001 9.121771e-005 6.978492e-006 -4.365884e-001 7.023851e-001
318525000 1.472299e-005 -8.743429e-005 -4.158525e-001 7.147187e-001 -2.450148e-005 4.323715e-005 -4.180282e-001 7.182100e-001
318810000 -5.377735e-005 -3.091433e-005 -3.974496e-001 7.301769e-001 5.104969e-007 6.334119e-005 -3.988266e-001 7.335896e-001
319095000 -5.957820e-005 -1.503668e-004 -3.778847e-001 7.456315e-001 7.572040e-005 -5.430791e-005 -3.789483e-001 7.487544e-001
319380000 -6.578246e-005 -9.256087e-005 -3.574124e-001 7.605228e-001 -2.754854e-005 -4.389249e-005 -3.579512e-001 7.641683e-001
319665000 1.000407e-004 3.068174e-005 -3.360564e-001 7.751168e-001 4.793843e-005 -2.254182e-005 -3.370449e-001 7.781236e-001
319950000 7.372342e-005 -4.169717e-005 -3.138206e-001 7.897017e-001 7.143818e-005 2.478360e-005 -3.154654e-001 7.928314e-001
320235000 1.150220e-004 -1.193242e-004 -2.915252e-001 8.032345e-001 -2.649072e-005 -2.493888e-005 -2.931664e-001 8.067384e-001
320520000 9.909631e-005 3.925364e-005 -2.690964e-001 8.162686e-001 -4.840731e-006 -1.256319e-005 -2.697942e-001 8.195022e-001
320805000 -1.855655e-006 -4.029721e-005 -2.445669e-001 8.290640e-001 1.014789e-004 -6.281805e-005 -2.458513e-001 8.322750e-001
321090000 -2.430653e-005 -7.652366e-005 -2.204538e-001 8.407522e-001 3.106815e-005 -4.701195e-005 -2.212757e-001 8.448171e-001
321375000 8.031435e-005 1.439710e-005 -1.949254e-001 8.521425e-001 4.950212e-005 2.128734e-005 -1.958098e-001 8.569454e-001
321660000 -2.112986e-005 9.694661e-005 -1.690392e-001 8.642250e-001 6.812652e-005 1.187794e-005 -1.698037e-001 8.674541e-001
321945000 1.202881e-004 1.100404e-004 -1.418435e-001 8.743116e-001 4.714567e-005 -5.469680e-005 -1.426727e-001 8.782772e-001
322230000 -2.191009e-005 5.150301e-005 -1.148986e-001 8.839891e-001 -3.170513e-005 -1.266304e-004 -1.152744e-001 8.879137e-001
322515000 -2.060762e-005 -6.589363e-005 -8.658224e-002 8.931641e-001 -4.513728e-005 5.370945e-005 -8.706219e-002 8.964969e-001
322800000 1.423465e-005 -4.577238e-005 -5.765427e-002 9.011592e-001 3.401241e-005 8.354752e-006 -5.807025e-002 9.049751e-001
323085000 -7.954782e-005 -7.471349e-005 -2.780926e-002 9.083573e-001 -7.923777e-005 -8.918306e-005 -2.781603e-002 9.123636e-001
323370000 -1.137906e-005 1.808510e-005 2.768345e-003 9.142302e-001 -5.524566e-005 -2.616775e-005 2.196420e-003 9.181105e-001
323655000 -5.645307e-005 1.247057e-005 3.360361e-002 9.202476e-001 5.868586e-006 -6.809557e-005 3.355683e-002 9.233722e-001
323940000 -1.244469e-004 -4.574774e-005 6.494281e-002 9.239603e-001 6.608890e-006 2.120351e-005 6.556856e-002 9.280342e-001
324225000 -5.027211e-005 4.931457e-005 9.711999e-002 9.270878e-001 -9.681162e-005 2.679346e-005 9.769003e-002 9.312674e-001
324510000 -3.743851e-005 -2.169521e-005 1.300381e-001 9.294464e-001 2.133485e-005 -7.164724e-005 1.306482e-001 9.326907e-001
324795000 6.076174e-005 -4.029244e-005 1.645269e-001 9.295747e-001 -3.434169e-005 4.898965e-005 1.642641e-001 9.334060e-001
325080000 -5.786954e-006 3.262053e-005 1.974503e-001 9.294000e-001 -4.715566e-005 1.439509e-006 1.981919e-001 9.329264e-001
325365000 5.926894e-006 5.360122e-006 2.317629e-001 9.266956e-001 -2.329596e-005 -7.206035e-005 2.326190e-001 9.310024e-001
325650000 5.307091e-005 8.681705e-005 2.666532e-001 9.232800e-001 9.010963e-006 -4.304567e-005 2.672998e-001 9.278345e-001
325935000 1.142843e-004 -6.265799e-005 3.011989e-001 9.187990e-001 -2.468677e-006 -1.936113e-005 3.022608e-001 9.225817e-001
326220000 9.557011e-005 6.974451e-005 3.367928e-001 9.119915e-001 1.481327e-005 -7.639745e-005 3.384984e-001 9.158381e-001
326505000 2.464979e-005 1.511629e-005 3.715611e-001 9.040295e-001 -2.783745e-006 -3.045308e-006 3.735456e-001 9.076692e-001
326790000 6.548610e-005 4.526061e-005 4.082086e-001 8.945078e-001 4.354732e-005 7.660187e-005 4.089794e-001 8.981108e-001
327075000 -6.575080e-006 9.152078e-005 4.431330e-001 8.831367e-001 8.092472e-006 6.052765e-005 4.444385e-001 8.862870e-001
327360000 -9.309586e-005 7.252093e-005 4.783420e-001 8.696446e-001 1.773660e-005 1.128904e-004 4.799297e-001 8.734387e-001
327645000 4.329730e-005 5.345152e-005 5.136557e-001 8.546684e-001 -1.618277e-005 -1.502417e-005 5.152541e-001 8.592461e-001
327930000 -5.292780e-005 1.023902e-005 5.471936e-001 8.383425e-001 8.628816e-005 -6.704436e-005 5.496933e-001 8.423751e-001
328215000 -1.209270e-004 5.396239e-005 5.813532e-001 8.198644e-001 1.626213e-007 -2.972000e-006 5.842330e-001 8.236367e-001
328500000 4.015721e-005 -2.347867e-005 6.154680e-001 8.002014e-001 1.226827e-005 -6.489005e-005 6.172963e-001 8.030893e-001
328785000 6.200650e-005 -1.982731e-005 6.483539e-001 7.788101e-001 -1.187827e-004 -6.779346e-006 6.507453e-001 7.818760e-001
329070000 9.828831e-005 2.045115e-005 6.803418e-001 7.548363e-001 -8.011699e-006 6.442723e-005 6.827036e-001 7.579180e-001
329355000 8.873417e-006 -7.600991e-006 7.112216e-001 7.294094e-001 -1.047429e-004 5.287749e-005 7.139956e-001 7.321345e-001
329640000 1.658932e-005 1.180924e-005 7.412925e-001 7.027024e-001 -2.092851e-005 9.769174e-005 7.446073e-001 7.063588e-001
329925000 4.605678e-005 -2.925623e-005 7.699485e-001 6.742535e-001 -1.325321e-004 1.149342e-004 7.730336e-001 6.773350e-001
330210000 3.847605e-005 1.870182e-005 7.971558e-001 6.445937e-001 5.991853e-005 -7.716371e-005 8.005125e-001 6.473939e-001
330495000 4.055823e-005 6.720464e-005 8.234428e-001 6.135223e-001 7.084476e-006 -4.273913e-006 8.269186e-001 6.158358e-001
330780000 -8.023972e-005 -1.534965e-005 8.480505e-001 5.814881e-001 -1.276413e-004 1.072131e-004 8.514871e-001 5.830868e-001
331065000 -3.427798e-005 7.926829e-005 8.708336e-001 5.475792e-001 3.870593e-005 -9.054748e-005 8.748003e-001 5.495794e-001
331350000 -1.502871e-005 -7.696091e-005 8.924105e-001 5.122119e-001 -4.762723e-005 -2.048268e-005 8.960565e-001 5.149288e-001
331635000 4.713617e-005 -2.149747e-005 9.117370e-001 4.767406e-001 -5.864242e-005 -3.819144e-005 9.153722e-001 4.785782e-001
331920000 -4.543401e-007 -5.165018e-005 9.292868e-001 4.400429e-001 7.109239e-007 -8.276410e-005 9.333454e-001 4.415962e-001
332205000 -8.562831e-005 -6.029397e-005 9.445183e-001 4.018174e-001 5.838165e-005 -4.982922e-005 9.495134e-001 4.037964e-001
332490000 1.658467e-006 -8.198908e-006 9.596572e-001 3.641280e-001 1.014791e-004 4.524498e-006 9.637394e-001 3.655567e-001
332775000 9.263967e-005 3.639844e-005 9.712695e-001 3.256818e-001 7.256159e-005 1.281751e-004 9.760915e-001 3.272388e-001
333060000 2.691209e-005 3.219660e-005 9.815304e-001 2.869157e-001 4.746052e-005 -1.752425e-005 9.865342e-001 2.877195e-001
333345000 4.121742e-005 -5.939624e-005 9.906312e-001 2.469081e-001 1.613281e-005 5.391018e-007 9.941869e-001 2.485425e-001
333630000 -3.216910e-005 -4.141722e-005 9.960036e-001 2.083633e-001 2.973637e-005 -5.385584e-005 1.000509e+000 2.088061e-001
333915000 1.811262e-005 -6.006760e-005 1.000277e+000 1.689873e-001 3.706492e-005 3.545419e-005 1.004573e+000 1.689527e-001
334200000 -4.428704e-005 -1.426476e-004 1.003257e+000 1.290222e-001 8.775400e-005 3.300546e-005 1.007167e+000 1.297279e-001
334485000 -1.875362e-005 -1.017813e-005 1.003910e+000 9.025966e-002 3.375401e-005 9.238822e-005 1.007937e+000 9.097011e-002
334770000 -1.755194e-004 -3.015913e-005 1.002831e+000 5.158652e-002 3.985722e-006 -1.380262e-005 1.007246e+000 5.227057e-002
335055000 4.602767e-005 5.191351e-005 1.000041e+000 1.360641e-002 2.808391e-005 3.320608e-005 1.004078e+000 1.377578e-002
335340000 -6.036366e-005 -1.749783e-005 9.950768e-001 -2.345320e-002 2.911255e-006 -8.192886e-006 9.998361e-001 -2.354932e-002
335625000 -7.959303e-005 -1.334610e-006 9.889120e-001 -6.112886e-002 1.246800e-005 1.671012e-005 9.927425e-001 -6.039162e-002
335910000 3.202026e-005 -4.413567e-005 9.807691e-001 -9.706552e-002 7.531132e-005 2.600786e-005 9.847297e-001 -9.719790e-002
336195000 3.515992e-005 -8.779819e-005 9.717704e-001 -1.320385e-001 1.043767e-004 2.822300e-005 9.759029e-001 -1.327830e-001
336480000 7.076179e-006 1.101119e-005 9.612277e-001 -1.669080e-001 4.979556e-005 1.396016e-004 9.652725e-001 -1.667871e-001
336765000 4.403614e-005 -9.054792e-006 9.493705e-001 -2.006740e-001 1.090890e-004 9.107489e-005 9.535906e-001 -2.008539e-001
337050000 5.404204e-005 -5.500992e-006 9.364288e-001 -2.327774e-001 8.231046e-005 1.577216e-004 9.403924e-001 -2.340122e-001
337335000 3.755254e-005 5.656860e-005 9.215333e-001 -2.641339e-001 -3.035354e-005 5.854075e-005 9.256613e-001 -2.656457e-001
337620000 4.411741e-005 1.592621e-004 9.070170e-001 -2.953401e-001 3.730883e-005 3.697849e-005 9.105688e-001 -2.961796e-001
337905000 -2.543147e-005 -6.102283e-005 8.906530e-001 -3.248162e-001 -8.811872e-006 2.490883e-005 8.939764e-001 -3.259634e-001
338190000 -5.848386e-005 1.535516e-005 8.730373e-001 -3.526424e-001 -7.546216e-005 1.392686e-005 8.775017e-001 -3.546465e-001
338475000 -7.694044e-005 2.547954e-005 8.557050e-001 -3.803345e-001 -1.204463e-004 2.562073e-005 8.588401e-001 -3.823582e-001
338760000 -6.688874e-005 -1.143413e-004 8.367077e-001 -4.063933e-001 -5.564248e-005 -1.449050e-004 8.402132e-001 -4.085290e-001
339045000 3.857367e-005 4.549992e-005 8.175161e-001 -4.317097e-001 -2.581295e-005 -4.241496e-005 8.212448e-001 -4.336736e-001
339330000 -9.324120e-005 -7.910073e-005 7.980070e-001 -4.561283e-001 -5.413472e-005 -5.353605e-005 8.014618e-001 -4.581261e-001
339615000 3.753243e-005 1.096058e-005 7.771798e-001 -4.792201e-001 7.247891e-005 1.532474e-005 7.802556e-001 -4.811647e-001
339900000 2.939327e-005 9.020903e-005 7.568784e-001 -5.008223e-001 -1.267433e-004 -3.275727e-005 7.595540e-001 -5.033724e-001
340185000 -6.679174e-005 -2.749840e-005 7.353866e-001 -5.222265e-001 -1.001750e-005 -2.425061e-005 7.384933e-001 -5.242473e-001
340470000 -9.391434e-006 1.261036e-005 7.142780e-001 -5.419908e-001 -9.300852e-005 -2.475327e-005 7.161970e-001 -5.444193e-001
340755000 8.948264e-005 -1.938918e-006 6.917418e-001 -5.606822e-001 7.846394e-006 -1.985199e-005 6.951194e-001 -5.636138e-001
341040000 -3.058646e-005 6.353667e-005 6.695339e-001 -5.787903e-001 9.352329e-005 -5.615843e-005 6.722715e-001 -5.813963e-001
341325000 5.359735e-006 -2.856227e-005 6.469295e-001 -5.955947e-001 -4.574672e-005 4.404646e-005 6.500926e-001 -5.982705e-001
341610000 2.573795e-005 3.509336e-005 6.245965e-001 -6.114181e-001 -2.323920e-005 7.433749e-005 6.276764e-001 -6.143560e-001
341895000 6.610684e-005 4.524076e-005 6.017678e-001 -6.263748e-001 -7.724452e-005 -5.083289e-005 6.043573e-001 -6.291692e-001
342180000 2.356684e-008 1.426836e-004 5.788668e-001 -6.412508e-001 -3.549773e-005 -6.385442e-005 5.820215e-001 -6.439584e-001
342465000 -8.982257e-005 1.820993e-006 5.560260e-001 -6.548744e-001 -4.206289e-005 -8.490744e-006 5.591189e-001 -6.567748e-001
342750000 -6.721282e-005 -5.433348e-005 5.334981e-001 -6.671253e-001 -5.412462e-005 -4.189769e-005 5.361067e-001 -6.699179e-001
343035000 -2.594902e-005 -5.134467e-005 5.109240e-001 -6.783998e-001 -9.347842e-005 -1.291463e-005 5.127871e-001 -6.812089e-001
343320000 4.402581e-005 -1.048938e-004 4.877042e-001 -6.897953e-001 -9.327962e-005 4.121178e-006 4.898088e-001 -6.929719e-001
343605000 9.130164e-005 -4.057683e-005 4.652533e-001 -6.997246e-001 -8.309762e-005 -2.697569e-005 4.668395e-001 -7.032350e-001
343890000 2.285053e-005 -2.130676e-005 4.425086e-001 -7.089707e-001 1.919468e-005 2.373021e-005 4.439462e-001 -7.124433e-001
