!Agilent Technologies,N5230C,SG49000117,A.08.50.07
!Agilent N5230C: A.08.50.07
!Date: Monday, March 18, 2024 18:13:34
!Correction: S11(Off) 
!S21(Off) 
!S12(Off) 
!S22(Off) 
!S2P File: Measurements: S11, S21, S12, S22:
# Hz S  RI   R 50
300000000 -4.588950e-006 6.973303e-005 -6.689311e-001 -5.771605e-001 2.187258e-006 -3.756453e-005 -6.714818e-001 -5.792239e-001
300285000 -7.240076e-006 9.667588e-005 -6.813926e-001 -5.527720e-001 -8.714418e-005 -4.965008e-005 -6.835430e-001 -5.551735e-001
300570000 -1.525637e-005 4.684397e-005 -6.935824e-001 -5.290608e-001 3.676935e-006 -5.199413e-005 -6.959099e-001 -5.319780e-001
300855000 5.572271e-006 -6.503789e-005 -7.045600e-001 -5.054005e-001 2.440832e-005 -2.847086e-005 -7.072244e-001 -5.074179e-001
301140000 -7.652856e-005 4.097277e-005 -7.148317e-001 -4.817732e-001 -4.129466e-005 2.623277e-005 -7.176124e-001 -4.835914e-001
301425000 -6.348194e-005 -4.554116e-005 -7.244514e-001 -4.580222e-001 4.208697e-005 -9.666484e-005 -7.267085e-001 -4.597209e-001
301710000 -7.372042e-005 5.078660e-006 -7.329258e-001 -4.338751e-001 -4.179351e-005 -1.280132e-005 -7.359616e-001 -4.363309e-001
301995000 5.811422e-005 6.638907e-005 -7.410334e-001 -4.109689e-001 3.859886e-006 -4.352676e-005 -7.437437e-001 -4.124786e-001
302280000 2.527632e-005 2.777854e-005 -7.480744e-001 -3.874919e-001 -4.131317e-005 -4.855979e-005 -7.509961e-001 -3.885225e-001
302565000 8.332733e-005 1.561472e-005 -7.549156e-001 -3.639501e-001 4.039191e-005 -7.444176e-005 -7.578321e-001 -3.654630e-001
302850000 -4.253441e-005 -2.580392e-005 -7.610888e-001 -3.402713e-001 -2.028034e-005 -7.576144e-005 -7.639965e-001 -3.418838e-001
303135000 8.816563e-006 -1.170544e-004 -7.663258e-001 -3.175144e-001 -5.385001e-005 1.705627e-006 -7.694828e-001 -3.187700e-001
303420000 -3.121748e-005 -1.922395e-005 -7.713171e-001 -2.949290e-001 4.908660e-005 -3.193243e-005 -7.742591e-001 -2.964491e-001
303705000 -4.289904e-005 -3.607201e-005 -7.750760e-001 -2.719095e-001 3.214919e-005 -1.082467e-005 -7.781103e-001 -2.726341e-001
303990000 5.992310e-005 -4.560876e-005 -7.789620e-001 -2.490673e-001 3.022928e-007 -1.246044e-005 -7.820672e-001 -2.501988e-001
304275000 -6.748491e-005 -9.678162e-006 -7.822923e-001 -2.266263e-001 2.701800e-005 -5.747507e-005 -7.849272e-001 -2.282978e-001
304560000 1.932459e-005 8.613258e-005 -7.846009e-001 -2.048407e-001 -6.290511e-005 1.880384e-006 -7.877639e-001 -2.048353e-001
304845000 2.704181e-005 2.115927e-005 -7.866983e-001 -1.820221e-001 4.209483e-005 9.012768e-006 -7.894793e-001 -1.828599e-001
305130000 -7.565242e-005 1.083717e-004 -7.880911e-001 -1.602464e-001 -3.221677e-005 3.713043e-006 -7.912865e-001 -1.608570e-001
305415000 1.465364e-004 1.948261e-005 -7.891887e-001 -1.383645e-001 5.700007e-005 -6.581457e-005 -7.925654e-001 -1.388010e-001
305700000 3.530820e-006 -9.708120e-005 -7.898111e-001 -1.166427e-001 -4.903773e-005 -2.261611e-005 -7.929943e-001 -1.170969e-001
305985000 8.187998e-006 6.710290e-006 -7.896588e-001 -9.521177e-002 -3.210255e-005 -4.933620e-005 -7.930306e-001 -9.533007e-002
306270000 -8.512531e-005 5.445609e-005 -7.892590e-001 -7.357588e-002 -3.501795e-005 2.199527e-005 -7.926949e-001 -7.352839e-002
306555000 -7.288659e-005 4.964665e-005 -7.880435e-001 -5.261183e-002 -6.897414e-005 9.998739e-005 -7.917606e-001 -5.267990e-002
306840000 -7.557528e-005 -7.771428e-005 -7.877318e-001 -3.153495e-002 -5.979063e-005 3.119262e-005 -7.906670e-001 -3.141916e-002
307125000 -5.313004e-005 4.313245e-005 -7.865044e-001 -1.003758e-002 5.094138e-005 3.485108e-005 -7.892706e-001 -1.072965e-002
307410000 1.154693e-005 -6.366731e-005 -7.837358e-001 1.036274e-002 3.919004e-005 -1.033781e-004 -7.871121e-001 1.060676e-002
307695000 2.612549e-005 -6.061145e-005 -7.811767e-001 3.079285e-002 3.222565e-005 -4.858210e-006 -7.844654e-001 3.114267e-002
307980000 -1.649790e-004 5.953238e-005 -7.791135e-001 5.154691e-002 -6.241172e-005 8.757094e-005 -7.821237e-001 5.128245e-002
308265000 -3.894292e-005 8.460696e-006 -7.755487e-001 7.139875e-002 3.934813e-005 -8.793063e-006 -7.787311e-001 7.175615e-002
308550000 -4.841319e-005 -1.179330e-004 -7.722387e-001 9.159698e-002 4.124048e-005 1.048813e-004 -7.750629e-001 9.190358e-002
308835000 -7.359139e-005 -6.848910e-005 -7.683531e-001 1.121105e-001 -1.915839e-006 -4.967962e-005 -7.709760e-001 1.120834e-001
309120000 -3.666718e-006 -1.529976e-005 -7.640765e-001 1.316010e-001 5.345448e-005 9.995502e-006 -7.671319e-001 1.329383e-001
309405000 3.062210e-005 -1.291053e-004 -7.592465e-001 1.511200e-001 -3.310101e-005 7.293247e-005 -7.626256e-001 1.518543e-001
309690000 7.630593e-005 -1.021718e-004 -7.543325e-001 1.710337e-001 -8.939393e-005 9.153792e-005 -7.575022e-001 1.720699e-001
309975000 1.150990e-004 -2.790381e-005 -7.496470e-001 1.905703e-001 3.399447e-005 1.222879e-005 -7.519529e-001 1.913184e-001
310260000 9.937226e-006 4.044953e-006 -7.433457e-001 2.099215e-001 2.553709e-005 -7.508456e-005 -7.460798e-001 2.107725e-001
310545000 1.402073e-005 -4.185714e-005 -7.374349e-001 2.292378e-001 -1.351532e-004 6.556832e-005 -7.404565e-001 2.302710e-001
310830000 -7.894033e-005 -6.701324e-005 -7.310047e-001 2.488133e-001 -1.501874e-005 3.543300e-005 -7.333203e-001 2.496599e-001
311115000 4.231778e-005 3.009256e-005 -7.246100e-001 2.673831e-001 -5.578530e-005 -8.545725e-005 -7.274641e-001 2.682616e-001
311400000 1.242972e-004 6.396114e-005 -7.174470e-001 2.861966e-001 1.980664e-005 -5.453838e-005 -7.200838e-001 2.875888e-001
311685000 3.355221e-005 3.575246e-006 -7.097026e-001 3.052829e-001 -5.178725e-005 1.619052e-005 -7.121422e-001 3.066467e-001
311970000 -1.403740e-005 5.308691e-005 -7.019778e-001 3.239351e-001 -3.150410e-005 -5.936407e-006 -7.051116e-001 3.257325e-001
312255000 -6.007546e-005 5.965866e-005 -6.936505e-001 3.429353e-001 -6.956390e-005 -2.658626e-005 -6.960649e-001 3.444595e-001
312540000 1.191709e-004 3.623226e-005 -6.854146e-001 3.610748e-001 8.079479e-005 2.008740e-005 -6.878778e-001 3.627257e-001
312825000 -2.065651e-005 1.037486e-004 -6.760349e-001 3.799786e-001 -9.493552e-006 4.677014e-005 -6.789903e-001 3.817622e-001
313110000 1.773591e-005 -5.203463e-005 -6.669918e-001 3.982005e-001 6.662883e-005 -9.154416e-005 -6.696156e-001 3.998335e-001
313395000 -7.946839e-005 -2.251799e-005 -6.571294e-001 4.160463e-001 3.044319e-005 3.849971e-005 -6.597368e-001 4.186088e-001
313680000 -5.523213e-005 3.156895e-005 -6.468155e-001 4.346552e-001 9.721153e-006 -2.643934e-005 -6.496390e-001 4.361077e-001
313965000 -9.463574e-005 2.170008e-006 -6.363110e-001 4.525551e-001 -4.389803e-005 2.710385e-005 -6.390985e-001 4.541557e-001
314250000 2.955504e-005 -1.990905e-005 -6.257837e-001 4.710236e-001 1.043625e-004 -4.158163e-006 -6.282817e-001 4.722177e-001
314535000 2.718656e-005 -5.307941e-005 -6.143935e-001 4.879834e-001 3.304590e-005 1.171637e-004 -6.162236e-001 4.905261e-001
314820000 1.184046e-004 -6.229258e-005 -6.025366e-001 5.065859e-001 6.840512e-005 4.851637e-005 -6.045617e-001 5.086836e-001
315105000 1.568584e-006 2.756013e-005 -5.899178e-001 5.239785e-001 -8.060302e-005 1.290688e-006 -5.922608e-001 5.264014e-001
315390000 9.468123e-005 -8.789052e-005 -5.771389e-001 5.418172e-001 1.510223e-006 2.617732e-006 -5.793879e-001 5.435210e-001
315675000 6.748745e-005 -1.618674e-006 -5.638959e-001 5.588667e-001 1.111475e-004 -2.368087e-005 -5.659620e-001 5.615792e-001
315960000 3.151155e-005 5.065522e-005 -5.503063e-001 5.763397e-001 -6.252070e-005 1.764758e-005 -5.526319e-001 5.784680e-001
316245000 5.953546e-005 3.819282e-005 -5.354298e-001 5.933974e-001 1.646998e-005 -8.451632e-005 -5.380917e-001 5.960369e-001
316530000 -5.124322e-005 2.969032e-005 -5.211374e-001 6.109132e-001 -3.337016e-005 -6.359133e-005 -5.229501e-001 6.130069e-001
316815000 -2.297032e-005 4.870943e-005 -5.056493e-001 6.272746e-001 -1.970970e-005 5.884511e-005 -5.080190e-001 6.294177e-001
317100000 -5.874647e-005 7.214667e-005 -4.900089e-001 6.442850e-001 -3.642885e-005 3.111578e-005 -4.919263e-001 6.470483e-001
317385000 -1.180659e-004 9.127339e-005 -4.732177e-001 6.600797e-001 8.776071e-005 -4.138140e-005 -4.756715e-001 6.629279e-001
317670000 -3.874426e-005 5.694131e-005 -4.568575e-001 6.768368e-001 -2.168768e-005 -8.611895e-005 -4.581673e-001 6.798021e-001
317955000 -3.111329e-005 8.194552e-005 -4.390943e-001 6.927510e-001 7.247752e-005 -6.273127e-005 -4.408280e-001 6.953523e-001
318240000 -4.347399e-005 -9.340431e-005 -4.208112e-001 7.084746e-001 1.185420e-004 -4.144145e-005 -4.225113e-001 7.112866e-001
318525000 -1.299326e-005 5.907274e-005 -4.019025e-001 7.243990e-001 5.165893e-006 4.079504e-005 -4.034366e-001 7.270501e-001
318810000 4.287454e-005 -1.389759e-004 -3.823293e-001 7.390275e-001 -5.726471e-006 7.640726e-005 -3.838634e-001 7.421138e-001
319095000 5.861448e-005 -4.441041e-005 -3.624507e-001 7.544637e-001 -1.240243e-005 1.116352e-005 -3.639822e-001 7.573267e-001
319380000 7.090165e-005 9.969940e-005 -3.421352e-001 7.690328e-001 -4.154209e-005 2.348629e-005 -3.426648e-001 7.720085e-001
319665000 6.243136e-005 -2.050997e-005 -3.198435e-001 7.828888e-001 -6.395660e-005 -6.943412e-005 -3.213270e-001 7.862448e-001
319950000 3.412288e-005 -3.077991e-005 -2.983567e-001 7.968132e-001 -6.672429e-005 1.290981e-004 -2.993511e-001 8.002287e-001
320235000 -4.521413e-005 -5.043779e-005 -2.748499e-001 8.101282e-001 8.757436e-005 -1.118803e-004 -2.762361e-001 8.131021e-001
320520000 1.438830e-005 -1.063669e-004 -2.515640e-001 8.229647e-001 -2.179556e-005 -1.005578e-004 -2.529537e-001 8.271195e-001
320805000 1.675356e-005 5.383093e-005 -2.277525e-001 8.352271e-001 6.970179e-005 -8.703289e-005 -2.283231e-001 8.389297e-001
321090000 1.307227e-005 2.741822e-006 -2.024128e-001 8.471168e-001 5.666251e-005 1.475141e-004 -2.032640e-001 8.504646e-001
321375000 9.947480e-006 -5.890296e-006 -1.771625e-001 8.585526e-001 4.562638e-006 -9.960967e-005 -1.774928e-001 8.619737e-001
321660000 -1.639028e-005 -5.675095e-005 -1.506064e-001 8.687826e-001 4.457575e-006 3.634397e-006 -1.508811e-001 8.726955e-001
321945000 2.355711e-005 1.857772e-005 -1.230011e-001 8.784649e-001 6.559228e-005 9.703705e-005 -1.233835e-001 8.824063e-001
322230000 -7.088255e-005 2.589707e-005 -9.559441e-002 8.877895e-001 6.302428e-005 8.693020e-005 -9.533775e-002 8.916190e-001
322515000 1.783968e-005 3.364253e-005 -6.653057e-002 8.964109e-001 5.393739e-005 -9.902854e-005 -6.661808e-002 9.003170e-001
322800000 1.403477e-005 9.071761e-005 -3.705524e-002 9.038036e-001 -4.819705e-005 -6.638458e-007 -3.720352e-002 9.073972e-001
323085000 4.938762e-005 9.241143e-005 -7.205108e-003 9.100126e-001 4.821597e-005 1.175671e-004 -7.654189e-003 9.140323e-001
323370000 2.113043e-005 3.724203e-005 2.297548e-002 9.159322e-001 -1.976793e-005 6.157179e-005 2.350412e-002 9.199474e-001
323655000 5.920613e-005 1.993136e-005 5.409775e-002 9.199952e-001 9.421705e-007 9.564248e-005 5.504412e-002 9.247645e-001
323940000 8.739010e-005 5.114424e-005 8.700494e-002 9.234540e-001 -6.486229e-005 4.185847e-005 8.735512e-002 9.274915e-001
324225000 -6.040598e-005 1.009161e-004 1.195446e-001 9.259526e-001 2.975219e-005 7.122922e-005 1.202890e-001 9.301213e-001
324510000 -1.364829e-005 -2.964919e-005 1.524761e-001 9.278070e-001 -1.877399e-005 2.549378e-005 1.533663e-001 9.311747e-001
324795000 5.159151e-005 -2.874774e-005 1.857865e-001 9.272869e-001 -1.440650e-004 -9.980704e-005 1.867999e-001 9.308054e-001
325080000 -8.041074e-005 -9.843630e-005 2.200644e-001 9.252597e-001 -4.994668e-005 -4.544441e-005 2.214189e-001 9.290152e-001
325365000 -9.106563e-006 -9.367413e-005 2.547380e-001 9.221807e-001 2.239224e-006 5.292720e-006 2.553126e-001 9.259159e-001
325650000 3.545361e-005 -4.995759e-005 2.892329e-001 9.178801e-001 -1.673340e-004 5.320154e-005 2.911799e-001 9.218405e-001
325935000 5.674919e-005 -1.381148e-005 3.249345e-001 9.120567e-001 7.062055e-005 7.416089e-005 3.260242e-001 9.159466e-001
326220000 -8.817711e-006 1.450021e-005 3.594553e-001 9.049033e-001 4.251864e-005 -3.515097e-005 3.609403e-001 9.078969e-001
326505000 1.373571e-005 1.542236e-005 3.952542e-001 8.952833e-001 6.569266e-005 2.337956e-005 3.968033e-001 8.994546e-001
326790000 3.451425e-005 5.856013e-005 4.294129e-001 8.847297e-001 -8.597854e-005 4.729489e-005 4.319339e-001 8.881809e-001
327075000 4.421599e-006 1.037042e-005 4.656066e-001 8.720161e-001 4.047215e-006 1.461608e-004 4.676521e-001 8.758978e-001
327360000 -9.818339e-005 1.032358e-004 5.003844e-001 8.581522e-001 -1.200925e-004 -1.165203e-004 5.027065e-001 8.615072e-001
327645000 -3.286433e-005 1.003831e-004 5.347666e-001 8.417009e-001 7.229236e-005 1.055212e-005 5.373769e-001 8.451411e-001
327930000 -1.009559e-004 4.794771e-005 5.687586e-001 8.241763e-001 4.282751e-005 -2.498792e-006 5.713340e-001 8.281156e-001
328215000 1.747806e-005 -5.424717e-005 6.023495e-001 8.048292e-001 8.755688e-005 -2.199891e-005 6.053586e-001 8.082885e-001
328500000 -6.015298e-005 2.161448e-005 6.356662e-001 7.842705e-001 -4.355180e-005 1.409843e-004 6.384233e-001 7.866445e-001
328785000 -8.848675e-005 -9.385010e-005 6.682288e-001 7.607934e-001 -1.058877e-005 4.799675e-005 6.709280e-001 7.637773e-001
329070000 3.888651e-005 -4.844256e-006 6.988719e-001 7.361603e-001 -3.175545e-005 8.450641e-005 7.021386e-001 7.390553e-001
329355000 -1.557702e-005 -6.053253e-005 7.299417e-001 7.103548e-001 -4.371900e-005 -5.095132e-005 7.325556e-001 7.131423e-001
329640000 1.041901e-005 9.832276e-006 7.586442e-001 6.827223e-001 -1.034969e-004 7.320545e-005 7.622532e-001 6.854567e-001
329925000 9.124509e-005 -5.143043e-005 7.866670e-001 6.535274e-001 -9.526738e-005 3.839773e-005 7.900404e-001 6.563359e-001
330210000 -5.159152e-005 4.275398e-005 8.131546e-001 6.224687e-001 -8.430667e-005 -1.322233e-005 8.163749e-001 6.256161e-001
330495000 -4.332545e-005 9.924811e-005 8.377556e-001 5.908237e-001 -5.738522e-005 -1.550228e-005 8.413895e-001 5.934969e-001
330780000 1.767828e-005 5.909881e-005 8.613489e-001 5.573707e-001 1.069947e-004 8.161904e-006 8.648951e-001 5.598651e-001
331065000 9.640215e-005 -1.673365e-006 8.834544e-001 5.230988e-001 1.309907e-004 2.579681e-005 8.876861e-001 5.259456e-001
331350000 -4.787566e-005 4.100205e-005 9.035364e-001 4.876871e-001 7.449312e-005 5.139448e-005 9.071051e-001 4.898983e-001
331635000 -8.381863e-005 -3.501476e-006 9.218054e-001 4.514836e-001 6.149680e-005 9.298651e-005 9.260370e-001 4.533228e-001
331920000 -3.023659e-005 -4.991291e-006 9.384013e-001 4.141748e-001 5.729941e-005 1.529571e-004 9.425224e-001 4.157182e-001
332205000 -5.301384e-006 -7.737468e-005 9.534573e-001 3.760791e-001 1.400926e-005 9.794955e-005 9.575568e-001 3.781260e-001
332490000 -4.850340e-005 2.337698e-005 9.656975e-001 3.372647e-001 2.612482e-005 1.656274e-004 9.702204e-001 3.391147e-001
332775000 -4.940421e-006 2.059664e-005 9.768080e-001 2.989240e-001 5.614221e-005 6.599062e-005 9.814833e-001 2.999832e-001
333060000 -2.375719e-005 4.865659e-006 9.858454e-001 2.597386e-001 1.249466e-005 2.435878e-005 9.895017e-001 2.606045e-001
333345000 -1.526397e-004 -5.996201e-005 9.934617e-001 2.203415e-001 -3.834414e-005 -2.142748e-006 9.966273e-001 2.210647e-001
333630000 -1.079378e-004 -1.932210e-005 9.975095e-001 1.811489e-001 -9.560992e-005 5.172427e-005 1.001544e+000 1.823227e-001
333915000 -1.879394e-005 1.605427e-005 1.000827e+000 1.420511e-001 -2.179278e-005 -2.002462e-005 1.005123e+000 1.420313e-001
334200000 -5.102216e-005 7.253147e-005 1.002426e+000 1.024084e-001 -6.534917e-005 1.316564e-005 1.006508e+000 1.033137e-001
334485000 -1.768992e-004 1.379994e-004 1.001136e+000 6.425693e-002 9.073619e-005 -4.907548e-005 1.006011e+000 6.433367e-002
334770000 -9.674780e-005 -1.426076e-005 9.992613e-001 2.543191e-002 1.542414e-005 2.874528e-005 1.003020e+000 2.604901e-002
335055000 3.564432e-005 -6.789128e-005 9.955847e-001 -1.192659e-002 -2.910324e-005 5.086492e-005 9.992328e-001 -1.270496e-002
335340000 2.525785e-005 1.980236e-005 9.894047e-001 -4.907274e-002 -1.123018e-005 -1.989320e-005 9.940838e-001 -4.945993e-002
335625000 3.633616e-005 2.848868e-005 9.822606e-001 -8.555325e-002 3.714891e-005 1.022269e-004 9.861181e-001 -8.637073e-002
335910000 -7.292295e-006 6.474611e-005 9.736920e-001 -1.214904e-001 -2.419970e-005 -2.049983e-005 9.778259e-001 -1.212618e-001
336195000 -5.346706e-005 -2.879097e-005 9.632691e-001 -1.557327e-001 -9.227968e-005 1.260583e-005 9.675223e-001 -1.561018e-001
336480000 -3.009974e-005 -1.295163e-005 9.518079e-001 -1.890775e-001 -6.756998e-005 4.431183e-005 9.558597e-001 -1.906638e-001
336765000 -1.261939e-004 6.800739e-005 9.396953e-001 -2.227029e-001 -1.972451e-005 1.933557e-005 9.434125e-001 -2.235597e-001
337050000 -5.605428e-005 -9.423358e-005 9.252065e-001 -2.547165e-001 4.449414e-005 -1.586609e-004 9.293085e-001 -2.554826e-001
337335000 -2.492037e-006 7.795486e-005 9.104877e-001 -2.858216e-001 -3.264185e-005 -3.208799e-005 9.142951e-001 -2.867103e-001
337620000 -1.390167e-005 9.196848e-005 8.945756e-001 -3.159266e-001 -5.540761e-005 1.073442e-005 8.984717e-001 -3.165864e-001
337905000 -1.103157e-004 8.982143e-005 8.777685e-001 -3.441282e-001 -2.801860e-005 1.284913e-005 8.813412e-001 -3.462975e-001
338190000 2.121210e-005 -3.891772e-006 8.602602e-001 -3.715737e-001 1.258948e-005 1.079444e-005 8.641706e-001 -3.736361e-001
338475000 -8.928411e-006 -7.579773e-005 8.418509e-001 -3.986650e-001 -7.184112e-005 6.747535e-005 8.452632e-001 -4.002785e-001
338760000 4.359845e-005 -5.179605e-005 8.228365e-001 -4.242318e-001 -1.906492e-005 6.218824e-005 8.259851e-001 -4.259475e-001
339045000 1.452967e-005 -1.664908e-005 8.027472e-001 -4.484162e-001 1.115863e-004 6.818721e-005 8.067919e-001 -4.506952e-001
339330000 5.499793e-005 -9.914272e-005 7.829240e-001 -4.721563e-001 -6.440981e-005 5.909212e-005 7.858220e-001 -4.740140e-001
339615000 8.343263e-005 3.121896e-006 7.618783e-001 -4.942268e-001 9.269437e-006 -3.376795e-005 7.653355e-001 -4.962436e-001
339900000 3.843680e-005 -1.216222e-004 7.410002e-001 -5.156575e-001 -1.666983e-004 2.184136e-005 7.435346e-001 -5.178202e-001
340185000 7.797347e-005 -1.009428e-005 7.194659e-001 -5.356645e-001 -8.656603e-005 -2.888947e-005 7.220561e-001 -5.379131e-001
340470000 3.371434e-006 -2.888133e-005 6.974396e-001 -5.551291e-001 -8.423641e-005 1.060504e-004 7.002559e-001 -5.572570e-001
340755000 -2.076850e-005 -6.984176e-005 6.753648e-001 -5.735657e-001 -3.376672e-005 -4.509429e-005 6.777071e-001 -5.757061e-001
341040000 1.700482e-005 5.996831e-005 6.529839e-001 -5.906164e-001 -2.499907e-006 -4.904676e-005 6.557840e-001 -5.928839e-001
341325000 1.437480e-005 8.049748e-005 6.304119e-001 -6.069559e-001 -5.462105e-005 -4.300441e-005 6.331391e-001 -6.098359e-001
341610000 -1.631010e-005 -2.833443e-006 6.080703e-001 -6.222416e-001 -4.647549e-006 -9.324608e-005 6.102969e-001 -6.248410e-001
341895000 3.081216e-005 6.407624e-005 5.848630e-001 -6.368766e-001 -1.906991e-005 -2.555256e-005 5.874604e-001 -6.395075e-001
342180000 -1.053284e-004 2.677798e-005 5.620692e-001 -6.506066e-001 -1.127761e-005 -4.042594e-005 5.644577e-001 -6.531166e-001
342465000 2.218852e-005 -1.128624e-005 5.392064e-001 -6.633427e-001 1.283105e-004 6.658034e-005 5.412621e-001 -6.659598e-001
342750000 3.559111e-005 -5.456902e-005 5.165653e-001 -6.755165e-001 7.521662e-005 -8.514015e-006 5.187296e-001 -6.778082e-001
343035000 -2.530353e-006 -1.021247e-004 4.934689e-001 -6.863948e-001 1.079957e-004 1.656723e-004 4.958348e-001 -6.889918e-001
343320000 -1.087697e-004 8.068630e-006 4.703743e-001 -6.968253e-001 9.672234e-005 5.470296e-005 4.724619e-001 -6.995317e-001
343605000 8.886462e-005 -1.456842e-004 4.479503e-001 -7.061650e-001 2.028914e-005 7.369924e-005 4.495364e-001 -7.094896e-001
343890000 4.484566e-005 -8.796639e-005 4.251487e-001 -7.154597e-001 1.184771e-004 -6.975322e-006 4.265126e-001 -7.180933e-001
