!Agilent Technologies,N5230C,SG49000117,A.08.50.07
!Agilent N5230C: A.08.50.07
!Date: Thursday, May 16, 2024 21:18:36
!Correction: S11(Full 2 Port(1,2)) 
!S21(Full 2 Port(1,2)) 
!S12(Full 2 Port(1,2)) 
!S22(Full 2 Port(1,2)) 
!S2P File: Measurements: S11, S21, S12, S22:
# Hz S  MA   R 50
300000 1.004833e+000 -2.336650e-001 2.369588e-004 1.435890e+002 1.844997e-004 1.645406e+002 1.013736e+000 -5.053067e-001
599985 9.818603e-001 4.380458e-001 5.759839e-005 1.408757e+002 1.552280e-004 1.768866e+002 9.654813e-001 5.138775e-001
899970 9.977130e-001 7.500580e-003 1.290860e-005 -1.215411e+002 2.140725e-004 1.281376e+002 9.852568e-001 -2.520429e-001
1199955 9.987635e-001 4.447701e-003 9.115232e-005 -3.918680e+001 1.094679e-004 -1.771936e+002 9.957185e-001 -1.168195e-001
1499940 9.943229e-001 1.972502e-001 1.464958e-005 -3.090654e+001 1.721562e-004 -7.271220e+000 9.934967e-001 1.265759e-001
1799925 9.923980e-001 2.277616e-001 6.243498e-005 1.133673e+002 3.907837e-004 1.742798e+002 9.925901e-001 7.304284e-002
2099910 9.991922e-001 3.032286e-002 8.577949e-005 1.462094e+001 1.846382e-004 -1.537562e+002 9.995354e-001 -9.668659e-003
2399895 9.992161e-001 -1.013457e-001 1.098684e-004 5.998615e+001 9.225937e-005 -8.411591e+001 1.002527e+000 -1.147138e-001
2699880 9.993575e-001 -2.261912e-001 9.923807e-005 -1.614171e+002 3.546690e-005 -9.647697e+001 9.959105e-001 -2.402372e-001
2999865 9.998745e-001 -1.217294e-001 8.043536e-005 -1.737240e+002 1.414121e-004 -7.313052e+001 9.987955e-001 -2.081036e-001
3299850 1.000568e+000 -1.026896e-001 2.070370e-005 8.633799e+001 1.608045e-004 8.414697e+001 9.981545e-001 -2.993491e-001
3599835 1.000042e+000 -7.810264e-002 4.499482e-005 1.698348e+002 1.706559e-004 1.437571e+002 9.986082e-001 -2.595932e-001
3899820 9.998741e-001 -1.242366e-001 2.408554e-005 9.857508e+001 4.152111e-005 8.000355e+001 9.989606e-001 -2.493010e-001
4199805 1.000680e+000 -1.802254e-001 4.448298e-005 -1.285850e+002 1.339163e-004 1.662647e+002 9.999127e-001 -2.988518e-001
4499790 1.000781e+000 -1.359303e-001 7.148769e-005 -6.828311e+001 9.081638e-005 -7.849815e+001 1.000322e+000 -3.901623e-001
4799775 1.000626e+000 -1.367238e-001 1.423478e-004 -1.291526e+002 1.785334e-004 -1.247996e+002 9.998924e-001 -2.950865e-001
5099760 1.000898e+000 -1.421412e-001 1.262955e-004 -8.915295e+001 8.403576e-005 1.851656e+001 1.000631e+000 -2.464274e-001
5399745 1.000616e+000 -1.315898e-001 3.552662e-005 -8.452971e+001 1.800848e-004 -1.238771e+002 1.000061e+000 -2.558088e-001
5699730 1.000160e+000 -1.208345e-001 6.153244e-005 9.461361e+001 2.558504e-005 1.492539e+002 1.000312e+000 -2.942412e-001
5999715 9.998264e-001 -1.089856e-001 5.751969e-005 -1.222048e+002 7.390159e-005 1.426598e+002 1.001115e+000 -2.632039e-001
6299700 9.997587e-001 -1.069857e-001 7.056974e-005 1.504331e+000 2.334410e-004 -2.595701e+000 9.990628e-001 -3.583747e-001
6599685 1.000136e+000 -1.165429e-001 3.208091e-005 1.347428e+002 1.817756e-004 -9.574988e+001 1.000782e+000 -3.819896e-001
6899670 9.998861e-001 -1.283018e-001 3.654744e-005 1.710380e+002 2.706889e-004 1.167050e+002 1.000514e+000 -3.830286e-001
7199655 9.997308e-001 -1.363190e-001 2.160577e-005 -1.693509e+002 1.849609e-004 1.165469e+001 1.000364e+000 -3.860462e-001
7499640 1.000118e+000 -1.917108e-001 9.270805e-005 -1.611635e+002 1.926313e-004 4.987070e+001 1.000962e+000 -4.324674e-001
7799625 1.000202e+000 -1.677102e-001 8.489297e-005 -1.520119e+002 1.679929e-004 1.740576e+001 9.989296e-001 -4.353959e-001
8099610 1.000623e+000 -1.509394e-001 3.908805e-005 -1.377812e+002 1.347221e-004 -5.659731e+001 9.979002e-001 -4.757721e-001
8399595 1.000383e+000 -1.341024e-001 8.543986e-005 -1.197725e+002 1.277410e-004 -1.502849e+002 9.995069e-001 -4.649151e-001
8699580 1.000091e+000 -1.551270e-001 1.487452e-005 1.440015e+002 2.303142e-004 -4.580691e+001 9.999335e-001 -4.849713e-001
8999565 1.000606e+000 -1.332501e-001 2.291372e-005 1.725317e+002 7.112038e-005 1.032971e+002 9.999130e-001 -5.212402e-001
9299550 1.000272e+000 -1.640880e-001 5.766829e-005 -1.604597e+002 1.058945e-004 1.672267e+002 9.988982e-001 -4.243777e-001
9599535 9.997442e-001 -1.916931e-001 1.024887e-004 1.363326e+001 2.876997e-005 -3.878763e+001 9.980639e-001 -5.895470e-001
9899520 9.999727e-001 -2.230628e-001 8.712945e-005 -7.480835e+001 1.807311e-004 3.079169e+001 9.967037e-001 -6.735075e-001
10199505 9.994234e-001 -2.280899e-001 3.269712e-005 8.466579e+001 8.925197e-005 1.824329e+001 9.988950e-001 -4.899672e-001
10499490 1.000094e+000 -1.502118e-001 2.095166e-005 1.347416e+001 1.261981e-004 -5.965702e+001 9.994742e-001 -5.199081e-001
10799475 1.000003e+000 -1.307908e-001 9.032804e-005 4.234664e+001 2.001221e-004 -4.814475e+001 9.985944e-001 -4.877436e-001
11099460 1.000002e+000 -1.116986e-001 2.106216e-005 -1.160048e+002 2.172166e-004 1.005424e+002 9.995232e-001 -4.684342e-001
11399445 9.996601e-001 -1.336783e-001 6.683734e-005 1.311676e+002 2.344676e-004 1.033144e+002 9.992139e-001 -4.669045e-001
11699430 1.000063e+000 -1.596685e-001 1.377155e-004 2.712103e+001 1.317397e-004 -6.368602e+001 9.992837e-001 -4.742551e-001
11999415 1.000365e+000 -1.393416e-001 5.259159e-005 6.802928e+001 5.811241e-005 -3.220665e+001 1.000771e+000 -5.378298e-001
12299400 9.999322e-001 -1.415086e-001 1.725336e-004 1.018543e+002 1.070209e-004 -1.011704e+002 1.000692e+000 -5.101498e-001
12599385 9.999323e-001 -2.009888e-001 4.022329e-005 1.485233e+002 2.196806e-004 9.204185e+000 1.000162e+000 -6.052252e-001
12899370 1.000340e+000 -1.949379e-001 5.413504e-005 6.188123e+001 1.285679e-004 -7.618541e+001 9.988711e-001 -6.977349e-001
13199355 9.998010e-001 -1.935327e-001 6.461194e-005 4.536333e+001 7.779857e-005 1.323237e+002 9.992041e-001 -6.161525e-001
13499340 9.999341e-001 -1.890021e-001 6.919977e-005 9.240843e+001 2.991261e-004 -8.437154e+001 9.995930e-001 -6.309922e-001
13799325 1.000091e+000 -1.895414e-001 7.569890e-005 -1.548169e+001 1.942734e-004 6.659656e+001 9.989131e-001 -5.492951e-001
14099310 1.000060e+000 -2.073332e-001 3.816203e-005 1.514397e+002 2.869470e-004 3.162708e+001 9.991531e-001 -6.096008e-001
14399295 1.000492e+000 -1.972842e-001 8.484080e-005 9.938922e+001 1.809332e-004 -1.418955e+002 1.000052e+000 -6.238099e-001
14699280 9.997035e-001 -2.127381e-001 4.699004e-005 -9.761469e+001 1.874980e-004 1.107523e+002 9.990125e-001 -6.503331e-001
14999265 9.997649e-001 -1.923222e-001 4.485525e-005 -1.685290e+002 1.764253e-004 1.798334e+002 9.999678e-001 -6.976846e-001
15299250 9.995826e-001 -2.000300e-001 4.323558e-005 -7.721432e-001 2.625769e-004 1.328488e+002 9.989768e-001 -6.722155e-001
15599235 9.993625e-001 -1.778570e-001 9.659210e-005 8.818721e+000 9.505866e-005 2.513972e+001 1.000701e+000 -6.660354e-001
15899220 1.000868e+000 -1.919741e-001 5.002587e-005 1.061495e+002 1.520735e-004 -3.388721e+001 9.993162e-001 -6.436383e-001
16199205 1.000580e+000 -2.037068e-001 5.289768e-005 1.660242e+001 1.378613e-004 1.434687e+002 1.001078e+000 -6.811017e-001
16499190 1.000388e+000 -1.489408e-001 4.403360e-005 -6.849313e+001 1.788556e-004 7.415211e+001 1.000436e+000 -7.524615e-001
16799175 1.000281e+000 -1.836131e-001 5.099573e-005 9.408225e+001 1.209831e-004 -1.545598e+002 1.001582e+000 -6.382801e-001
17099160 9.997700e-001 -1.814003e-001 8.461293e-005 1.230449e+002 2.558502e-004 -1.432875e+002 1.000569e+000 -6.705473e-001
17399145 1.000025e+000 -2.495872e-001 1.515328e-005 1.709462e+002 1.103608e-004 4.393969e+001 9.994619e-001 -6.576335e-001
17699130 9.999402e-001 -2.511750e-001 1.188367e-004 1.192991e+002 1.973687e-004 -1.268547e+002 1.000112e+000 -6.995058e-001
17999115 9.997295e-001 -2.159018e-001 7.842825e-005 -1.902524e+001 3.202601e-004 1.303953e+002 1.000097e+000 -7.692705e-001
18299100 9.998871e-001 -1.937094e-001 1.067109e-004 -1.743391e+002 1.634118e-004 4.843820e+000 9.982764e-001 -8.096278e-001
18599085 9.999396e-001 -2.223764e-001 1.578226e-004 4.186369e+001 1.714596e-004 -1.565399e+002 9.985397e-001 -8.051147e-001
18899070 9.999688e-001 -2.528446e-001 3.572284e-005 -1.352702e+002 1.544968e-004 1.230016e+002 9.978086e-001 -8.195301e-001
19199055 1.000258e+000 -2.424111e-001 5.196357e-005 1.181877e+002 2.338034e-004 -2.101915e+001 9.994209e-001 -7.672477e-001
19499040 1.000740e+000 -2.387468e-001 6.695680e-005 6.274723e+001 1.150633e-004 1.680992e+002 9.985523e-001 -7.991124e-001
19799025 1.000313e+000 -2.038601e-001 7.179983e-005 -3.926308e+001 2.139253e-004 -3.163038e+001 1.000110e+000 -7.639313e-001
20099010 1.000154e+000 -2.222959e-001 2.334280e-005 1.105299e+002 2.572369e-004 1.778482e+002 9.982964e-001 -7.925678e-001
20398995 9.998907e-001 -2.114076e-001 5.895449e-005 -1.596216e+002 2.225082e-004 -3.935412e+000 9.973735e-001 -7.935701e-001
20698980 1.000026e+000 -2.322316e-001 8.871564e-005 -1.372580e+002 1.980886e-004 1.796138e+002 9.993922e-001 -8.388808e-001
20998965 9.993210e-001 -2.036736e-001 3.291888e-005 8.989773e+001 2.190374e-004 1.257845e+002 9.984971e-001 -7.581377e-001
21298950 9.993999e-001 -2.137887e-001 2.013662e-005 -1.740260e+002 2.603360e-004 1.194841e+002 9.978671e-001 -7.653522e-001
21598935 9.989231e-001 -2.592744e-001 1.471193e-004 1.491312e+002 1.803323e-004 -1.678582e+002 9.986214e-001 -7.296386e-001
21898920 9.998298e-001 -2.193065e-001 5.792048e-005 -1.562258e+001 4.541834e-005 -1.425240e+002 9.978041e-001 -8.645319e-001
22198905 9.994606e-001 -2.515786e-001 1.384411e-004 -1.531648e+002 1.646355e-004 -1.903333e+001 9.979358e-001 -8.081365e-001
22498890 1.000383e+000 -2.134169e-001 9.114624e-005 4.916969e+001 2.084102e-004 -1.554346e+002 9.997671e-001 -8.613312e-001
22798875 1.000628e+000 -2.577914e-001 6.469878e-005 -8.234062e+001 1.804539e-004 -1.831054e+001 1.000217e+000 -9.298383e-001
23098860 1.000089e+000 -2.370059e-001 8.197017e-005 1.149947e+002 1.650261e-004 -8.358871e+001 9.989240e-001 -9.177120e-001
23398845 1.000420e+000 -2.270571e-001 1.141524e-004 1.673360e+002 2.303928e-004 1.211018e+002 9.990499e-001 -9.298860e-001
23698830 1.000612e+000 -2.641281e-001 5.542523e-005 -1.111267e+002 1.090002e-004 -1.195562e+002 9.988066e-001 -9.338391e-001
23998815 1.000011e+000 -2.781987e-001 7.486555e-005 -1.469419e+002 2.768854e-004 1.278394e+002 9.980296e-001 -9.604251e-001
24298800 1.000196e+000 -2.596345e-001 6.208003e-005 -2.570568e+001 1.796749e-004 8.606119e+001 9.982772e-001 -9.565544e-001
24598785 9.998842e-001 -3.261381e-001 7.774433e-005 1.414154e+001 1.411954e-004 1.393177e+002 9.991115e-001 -1.004136e+000
24898770 9.999510e-001 -3.145860e-001 6.074088e-005 -4.062788e+001 1.652914e-004 1.365391e+002 9.991228e-001 -1.017862e+000
25198755 9.994172e-001 -2.778863e-001 1.114670e-004 1.785967e+002 2.096787e-004 -1.169913e+002 9.990377e-001 -9.965796e-001
25498740 1.000214e+000 -2.800924e-001 7.716967e-005 3.043874e+001 1.140972e-004 1.211713e+002 9.983264e-001 -9.989133e-001
25798725 9.998785e-001 -3.077498e-001 6.196483e-005 -1.085704e+002 1.305972e-004 4.798426e+001 9.992593e-001 -1.046805e+000
26098710 9.998484e-001 -2.794398e-001 9.205042e-005 4.544107e+001 9.943119e-005 -7.652881e+001 9.998980e-001 -1.122500e+000
26398695 1.001244e+000 -2.948613e-001 7.241334e-005 -1.449955e+002 2.372735e-004 -7.288709e+001 9.993985e-001 -1.056859e+000
26698680 1.000691e+000 -2.976781e-001 8.218112e-005 5.239026e+001 1.322510e-004 -1.379982e+002 9.997745e-001 -1.061594e+000
26998665 1.000479e+000 -2.857461e-001 1.825530e-005 1.471495e+002 2.921539e-004 1.065276e+002 9.992842e-001 -9.569328e-001
27298650 1.000805e+000 -3.015667e-001 4.377058e-005 7.907268e+001 1.826015e-004 -5.386307e+001 9.991938e-001 -1.121840e+000
27598635 1.000244e+000 -2.654143e-001 5.141257e-005 3.765631e+001 1.370873e-004 1.212216e+002 9.997605e-001 -1.098126e+000
27898620 9.998202e-001 -2.928934e-001 8.248191e-005 1.250846e+002 2.304762e-004 -1.662211e+002 1.001127e+000 -1.072094e+000
28198605 1.000132e+000 -2.749269e-001 6.748152e-005 -1.537262e+002 2.287209e-004 -2.998334e+001 1.000257e+000 -1.088568e+000
28498590 9.995941e-001 -3.001015e-001 2.329334e-005 1.707141e+002 1.331743e-004 1.221316e+002 9.987001e-001 -1.129964e+000
28798575 9.997297e-001 -3.082545e-001 6.751015e-005 1.262756e+002 2.453059e-004 -1.185231e+001 9.987525e-001 -1.179339e+000
29098560 9.995030e-001 -3.028212e-001 7.385186e-005 5.312297e+001 7.215767e-005 1.789501e+002 9.996707e-001 -1.127581e+000
29398545 9.998146e-001 -2.782433e-001 1.414112e-004 -5.173409e+001 3.139263e-004 2.589170e+001 9.998075e-001 -1.051893e+000
29698530 1.000255e+000 -3.061765e-001 3.362452e-005 1.068894e+002 1.614534e-004 -9.123835e+001 1.000389e+000 -1.150650e+000
29998515 9.992964e-001 -2.785499e-001 1.120950e-004 2.660668e+001 1.608668e-004 1.277853e+002 1.001144e+000 -1.191407e+000
30298500 1.000449e+000 -3.243865e-001 2.789317e-005 1.627750e+002 1.519673e-004 1.524811e+001 9.999412e-001 -1.255078e+000
30598485 9.999740e-001 -3.091192e-001 1.279126e-004 3.010130e+001 1.521543e-004 -1.008199e+002 9.999865e-001 -1.192940e+000
30898470 9.998574e-001 -2.857299e-001 4.262585e-005 8.084808e+001 2.626820e-005 5.963623e+001 9.985867e-001 -1.228391e+000
31198455 1.000630e+000 -3.228987e-001 9.716837e-005 -9.501089e+001 1.619423e-004 -4.303047e+001 9.999645e-001 -1.234711e+000
31498440 9.993590e-001 -3.118862e-001 4.864856e-005 1.540419e+002 9.299450e-005 1.309481e+002 9.999554e-001 -1.190097e+000
31798425 9.998327e-001 -3.707074e-001 8.716861e-005 -4.472302e+001 2.014960e-004 1.485974e+001 9.996204e-001 -1.194201e+000
32098410 9.999547e-001 -3.700619e-001 3.992703e-005 7.536799e+001 1.667127e-004 -7.177565e+001 1.000726e+000 -1.213242e+000
32398395 1.000620e+000 -3.062402e-001 1.665571e-004 1.676640e+002 1.824352e-004 1.373366e+002 1.000576e+000 -1.188830e+000
32698380 1.000787e+000 -3.170063e-001 1.509936e-004 -1.293902e+002 4.785513e-005 -4.119918e+001 9.999523e-001 -1.208026e+000
32998365 1.000263e+000 -3.644090e-001 8.775058e-005 6.615022e+001 7.876558e-005 -8.253455e+001 1.000121e+000 -1.252378e+000
33298350 1.000292e+000 -3.402312e-001 5.633649e-005 1.409307e+002 4.452793e-005 -1.251859e+002 9.992161e-001 -1.245879e+000
33598335 1.000338e+000 -3.381435e-001 3.026915e-005 -1.472726e+002 1.919257e-004 -3.235513e+001 1.000202e+000 -1.267043e+000
33898320 1.000036e+000 -3.641984e-001 9.589489e-005 1.101098e+002 1.476840e-004 -1.443578e+002 9.997103e-001 -1.290030e+000
34198305 9.998657e-001 -3.590874e-001 6.950975e-005 -1.023953e+002 1.594197e-004 3.196116e+001 9.996433e-001 -1.311783e+000
34498290 9.994558e-001 -4.047382e-001 1.016329e-004 9.568959e+001 1.259529e-004 -1.681808e+002 9.985409e-001 -1.261707e+000
34798275 9.998582e-001 -3.744170e-001 1.957249e-005 1.752566e+002 2.366625e-004 1.067581e+002 9.989066e-001 -1.369168e+000
35098260 1.000184e+000 -3.768925e-001 9.422762e-005 2.720332e+001 2.738072e-004 4.517842e+001 1.001025e+000 -1.268032e+000
35398245 9.992082e-001 -4.296991e-001 4.748381e-006 1.137877e+002 3.877001e-005 -1.056760e+002 9.997450e-001 -1.334540e+000
35698230 1.000195e+000 -3.927696e-001 5.563756e-005 5.577547e+001 3.155930e-004 1.072834e+002 1.000834e+000 -1.334303e+000
35998215 1.000259e+000 -4.107598e-001 1.291910e-004 -4.068511e+001 1.224878e-004 -5.626247e+001 9.999610e-001 -1.358285e+000
36298200 9.996947e-001 -3.813095e-001 3.305355e-005 -1.028940e+002 1.793520e-004 1.630194e+002 9.995266e-001 -1.412778e+000
36598185 1.000307e+000 -4.033573e-001 1.040691e-004 7.202520e+001 4.236352e-005 1.761980e+002 9.990373e-001 -1.388694e+000
36898170 1.000397e+000 -4.161050e-001 7.434394e-005 2.545508e+001 9.375517e-005 -7.716676e+001 1.000094e+000 -1.343904e+000
37198155 1.000309e+000 -3.672138e-001 6.326166e-005 5.777642e+001 1.503043e-004 3.150409e+001 9.996707e-001 -1.435556e+000
37498140 1.000500e+000 -4.215869e-001 1.366875e-004 -9.087360e+001 1.151246e-004 8.478651e+001 1.000227e+000 -1.416593e+000
37798125 9.999013e-001 -3.868206e-001 7.814514e-005 -7.066080e+001 2.151950e-004 1.445524e+002 1.000326e+000 -1.407226e+000
38098110 1.000142e+000 -3.752447e-001 4.547913e-005 4.954285e+001 1.085601e-004 8.853150e+001 9.998882e-001 -1.447329e+000
38398095 9.996261e-001 -3.516424e-001 1.222128e-004 1.471943e+002 1.405025e-004 7.036565e+001 9.976619e-001 -1.490328e+000
38698080 1.000046e+000 -3.778534e-001 1.607192e-005 -1.736587e+002 7.811467e-005 3.674149e+000 9.988238e-001 -1.531266e+000
38998065 1.000303e+000 -3.806379e-001 1.667377e-004 -1.253731e+002 2.402529e-004 8.436138e+001 9.990662e-001 -1.459166e+000
39298050 1.000788e+000 -3.822460e-001 6.833815e-005 1.048300e+002 2.091405e-004 -5.775806e+001 9.998892e-001 -1.541403e+000
39598035 1.000552e+000 -3.212247e-001 6.302587e-005 -1.647369e+002 7.443594e-005 7.705582e+001 9.998550e-001 -1.450345e+000
39898020 1.001049e+000 -3.861256e-001 9.416573e-005 1.657463e+002 3.948792e-004 7.539831e+000 1.001289e+000 -1.392348e+000
40198005 1.001135e+000 -3.821239e-001 2.873105e-005 -1.278484e+002 2.901361e-004 1.570956e+002 1.001941e+000 -1.669607e+000
40497990 1.000038e+000 -4.591593e-001 7.683125e-005 5.285678e+001 3.218195e-004 4.655414e+000 1.000840e+000 -1.597415e+000
40797975 1.000317e+000 -3.469675e-001 2.139066e-004 -8.404418e+001 1.191016e-004 -3.699375e+001 1.001931e+000 -1.601052e+000
41097960 9.994965e-001 -3.570963e-001 1.040337e-004 -1.671784e+002 1.152845e-004 -6.058893e+001 1.000960e+000 -1.521335e+000
41397945 9.992017e-001 -3.914075e-001 1.148297e-004 1.760472e+002 1.209903e-004 -2.863927e+001 1.001438e+000 -1.466085e+000
41697930 9.986042e-001 -3.831959e-001 3.418054e-005 7.380225e+000 3.080705e-004 4.652282e+001 1.000278e+000 -1.573490e+000
41997915 9.990229e-001 -3.854285e-001 1.354591e-004 -4.171950e+001 2.316060e-004 7.671449e+001 1.000284e+000 -1.598094e+000
42297900 9.997984e-001 -4.089426e-001 1.086769e-004 8.376438e+001 2.787933e-004 7.819789e+001 1.001693e+000 -1.522162e+000
42597885 1.000700e+000 -3.885955e-001 1.837158e-004 -1.166334e+002 6.001417e-005 8.634171e+001 1.001287e+000 -1.636462e+000
42897870 1.000456e+000 -3.483006e-001 2.041499e-004 7.611798e+001 3.540760e-005 4.511118e+000 1.000774e+000 -1.706138e+000
43197855 1.001308e+000 -4.402377e-001 7.568068e-005 -8.893447e+001 3.511947e-004 -3.488187e+001 1.001101e+000 -1.719527e+000
43497840 1.001074e+000 -4.626544e-001 1.147605e-004 -1.675116e+002 3.366492e-004 1.622663e+002 1.001445e+000 -1.805856e+000
43797825 1.000258e+000 -4.559169e-001 3.490664e-005 -8.880733e+001 3.530704e-004 1.484742e+002 1.000189e+000 -1.651400e+000
44097810 1.000264e+000 -4.137833e-001 6.280217e-005 -1.534678e+002 1.693849e-004 1.570663e+002 1.000972e+000 -1.687842e+000
44397795 1.001282e+000 -4.207109e-001 5.689969e-005 -1.556556e+002 8.600475e-005 -1.430889e+002 1.000818e+000 -1.752707e+000
44697780 1.000819e+000 -4.648697e-001 4.740064e-005 -1.674068e+001 2.503154e-004 -1.593377e+002 1.002067e+000 -1.698192e+000
44997765 1.001305e+000 -5.283679e-001 1.225689e-004 -3.004376e+001 2.774497e-004 1.276090e+002 1.001873e+000 -1.778228e+000
45297750 1.001720e+000 -4.928012e-001 1.649545e-004 -1.021891e+002 3.516375e-005 7.434621e+001 1.002826e+000 -1.812209e+000
45597735 1.001747e+000 -4.629911e-001 7.127524e-005 1.367636e+002 1.412845e-004 -1.772118e+002 1.003177e+000 -1.778807e+000
45897720 1.000677e+000 -4.430555e-001 1.172060e-004 1.627143e+002 5.642980e-005 -9.263481e+001 1.003449e+000 -1.704442e+000
46197705 1.001726e+000 -4.585016e-001 1.510143e-004 5.607572e+000 1.496985e-004 -7.568105e+001 1.002270e+000 -1.761122e+000
46497690 1.001825e+000 -4.680566e-001 5.647841e-005 -1.114845e+002 1.161711e-004 1.575622e+001 1.000826e+000 -1.859226e+000
46797675 1.001030e+000 -5.090706e-001 1.513429e-004 7.597200e+000 3.724318e-004 -1.071849e+002 1.003314e+000 -1.826907e+000
47097660 1.000459e+000 -4.902445e-001 7.346665e-005 -1.014424e+002 1.006707e-004 -7.278461e+001 1.001140e+000 -1.855010e+000
47397645 1.000790e+000 -5.164965e-001 4.179266e-005 1.253595e+002 3.992998e-004 1.608975e+002 1.000483e+000 -1.945941e+000
