!Agilent Technologies,N5230C,SG49000117,A.08.50.07
!Agilent N5230C: A.08.50.07
!Date: Thursday, May 16, 2024 21:17:43
!Correction: S11(Full 2 Port(1,2)) 
!S21(Full 2 Port(1,2)) 
!S12(Full 2 Port(1,2)) 
!S22(Full 2 Port(1,2)) 
!S2P File: Measurements: S11, S21, S12, S22:
# Hz S  MA   R 50
300000 1.005355e+000 -3.966157e-001 1.742161e-004 -3.332812e+001 4.212250e-004 -9.404965e+001 1.014911e+000 -5.946978e-001
599985 9.823402e-001 4.655641e-001 5.025661e-005 -1.295547e+002 1.112580e-004 -9.854671e+001 9.652822e-001 6.057776e-001
899970 9.979174e-001 3.087401e-002 2.200491e-005 -4.163445e+001 4.796107e-005 -1.292827e+002 9.856364e-001 -3.229152e-001
1199955 9.984995e-001 1.401994e-002 1.035705e-004 -3.852056e+001 1.210093e-004 1.458970e+002 9.957570e-001 -9.843984e-002
1499940 9.940931e-001 2.077204e-001 1.513166e-004 1.239880e+002 9.472016e-005 1.227552e+002 9.941776e-001 1.260806e-001
1799925 9.924213e-001 2.469123e-001 9.045998e-005 2.686374e-001 2.754195e-004 -8.124208e+001 9.902773e-001 3.252775e-002
2099910 9.996230e-001 1.682767e-002 7.407150e-005 -4.112072e+001 1.916823e-004 -3.017184e+001 9.990851e-001 6.690113e-002
2399895 9.996898e-001 -1.016887e-001 5.724671e-005 5.521609e+001 2.792078e-004 1.279743e+002 1.002793e+000 -4.163461e-002
2699880 9.995643e-001 -2.165572e-001 7.463258e-005 -8.970025e+000 6.861219e-005 1.214993e+002 9.954100e-001 -2.794286e-001
2999865 1.000515e+000 -1.022821e-001 8.868388e-005 -8.452168e+001 3.948047e-005 -1.489007e+002 9.996026e-001 -1.649176e-001
3299850 1.000587e+000 -7.467177e-002 3.546442e-005 5.509039e+001 1.096021e-004 -1.236394e+002 9.989923e-001 -2.779407e-001
3599835 1.000800e+000 -1.085109e-001 5.837490e-005 1.384443e+002 2.904892e-004 1.695741e+002 9.982797e-001 -2.715816e-001
3899820 1.000106e+000 -9.731390e-002 1.283115e-004 -1.706962e+002 1.289874e-004 3.940693e+001 9.992820e-001 -2.270083e-001
4199805 1.000412e+000 -1.767909e-001 4.160510e-005 8.770033e+001 2.092249e-004 9.952773e+001 1.000320e+000 -3.665289e-001
4499790 1.000851e+000 -1.607180e-001 9.087850e-005 -8.677511e+001 1.533207e-005 -5.579626e+001 9.999379e-001 -3.170741e-001
4799775 1.000516e+000 -1.437203e-001 3.248325e-005 9.680043e+001 1.237726e-004 -1.316693e+002 1.000286e+000 -3.609280e-001
5099760 1.000452e+000 -1.062228e-001 3.217768e-005 1.630657e+002 8.628823e-005 -1.478759e+002 1.001233e+000 -2.650121e-001
5399745 1.000137e+000 -1.191286e-001 3.696107e-005 -9.201192e+001 1.097318e-004 -1.192036e+002 9.998972e-001 -2.467449e-001
5699730 1.000278e+000 -6.787971e-002 9.032519e-005 1.473898e+002 1.123844e-004 1.036739e+002 1.001937e+000 -2.689371e-001
5999715 9.998267e-001 -1.052640e-001 6.255041e-005 -8.729417e+001 4.211563e-005 2.707751e+001 1.000863e+000 -3.147834e-001
6299700 9.999254e-001 -1.263786e-001 2.352983e-005 -3.477899e+001 1.864118e-004 6.075589e+001 1.000619e+000 -3.505993e-001
6599685 9.997376e-001 -1.099736e-001 6.496057e-005 -1.408230e+001 3.362062e-004 1.715665e+002 1.000223e+000 -4.150330e-001
6899670 1.000030e+000 -9.677934e-002 9.299124e-006 -1.770725e+001 1.669431e-004 1.652065e+001 9.993389e-001 -4.104641e-001
7199655 9.999123e-001 -1.589674e-001 2.459593e-005 -8.975747e+000 5.378035e-005 5.446029e+001 9.993238e-001 -4.371585e-001
7499640 1.000051e+000 -1.637626e-001 1.603742e-005 -3.836758e+001 1.441424e-004 9.727182e+001 9.997899e-001 -4.305613e-001
7799625 1.001172e+000 -1.399733e-001 4.051234e-005 -7.810970e+001 2.778863e-004 1.212190e+002 9.990835e-001 -4.661101e-001
8099610 1.000380e+000 -1.565915e-001 8.559032e-005 9.746328e+001 2.126800e-004 5.460862e+001 9.992752e-001 -5.124483e-001
8399595 1.000877e+000 -1.525864e-001 5.821944e-005 1.393151e+002 1.345583e-004 1.115436e+002 9.994429e-001 -4.669951e-001
8699580 1.000169e+000 -1.483003e-001 6.382272e-005 7.536001e+000 1.105724e-004 3.020717e+001 9.993832e-001 -5.416024e-001
8999565 9.997984e-001 -1.284768e-001 5.206240e-005 1.040015e+001 1.402678e-004 1.277921e+002 9.994590e-001 -4.721294e-001
9299550 1.000461e+000 -1.375184e-001 2.959062e-005 1.275598e+002 8.274587e-005 6.858482e+001 9.987073e-001 -4.958504e-001
9599535 1.000158e+000 -2.071369e-001 4.251763e-005 -1.604911e+002 1.794776e-004 -3.908784e+000 9.976150e-001 -6.287152e-001
9899520 9.998884e-001 -2.322794e-001 6.988483e-005 -1.566421e+002 8.828868e-005 -1.889997e+001 9.970685e-001 -6.997444e-001
10199505 9.997879e-001 -1.633869e-001 6.693540e-005 -7.252912e+001 8.574177e-005 1.094489e+002 9.985673e-001 -4.744351e-001
10499490 1.000312e+000 -1.042957e-001 4.213370e-005 -1.456034e+002 1.622055e-004 1.154355e+002 9.992934e-001 -5.240580e-001
10799475 9.998229e-001 -1.045282e-001 5.229311e-005 -3.355708e+001 7.019101e-005 5.189853e+001 9.994899e-001 -5.076106e-001
11099460 9.992623e-001 -1.490930e-001 3.292020e-005 -1.021093e+002 2.171994e-004 -1.072420e+002 9.991783e-001 -5.702025e-001
11399445 1.000331e+000 -1.482657e-001 1.383150e-004 5.218756e+000 2.496864e-004 -1.910534e+001 9.987406e-001 -5.820389e-001
11699430 9.999172e-001 -1.387261e-001 3.409378e-005 4.836508e+001 2.282613e-004 1.275250e+002 9.997545e-001 -5.474938e-001
11999415 1.000141e+000 -1.394808e-001 6.048939e-005 1.098474e+002 1.213358e-004 -4.552499e+001 1.000273e+000 -5.432063e-001
12299400 9.999453e-001 -1.397272e-001 4.401475e-005 -6.514351e+001 1.408531e-004 -4.660908e+001 1.000540e+000 -5.086743e-001
12599385 9.999301e-001 -1.636387e-001 4.479077e-005 -6.341888e+001 1.303918e-004 -1.622766e+002 1.000306e+000 -6.573740e-001
12899370 1.000311e+000 -2.010453e-001 6.760423e-005 -5.373224e+001 1.861577e-004 1.092030e+002 9.974723e-001 -7.502677e-001
13199355 9.999510e-001 -1.629951e-001 1.864788e-005 1.469865e+002 6.006707e-005 -7.272358e+000 9.992112e-001 -6.338475e-001
13499340 1.000201e+000 -2.122430e-001 5.893041e-005 -4.713908e+001 2.298805e-004 1.506832e+002 9.989627e-001 -6.390824e-001
13799325 1.000550e+000 -1.980099e-001 3.670999e-005 -1.714236e+001 1.046284e-004 -1.042884e+002 9.980072e-001 -5.651314e-001
14099310 1.000177e+000 -2.120148e-001 4.445906e-005 1.022856e+002 2.427392e-004 -1.449665e+002 9.994816e-001 -6.581219e-001
14399295 1.000202e+000 -2.188425e-001 2.285754e-005 -2.925872e+001 7.562552e-005 1.345739e+002 1.000137e+000 -6.113265e-001
14699280 1.000074e+000 -2.118274e-001 5.778961e-005 -1.356382e+002 3.589433e-005 3.098169e+001 9.996159e-001 -6.510757e-001
14999265 1.000074e+000 -1.958191e-001 9.599257e-005 1.436431e+002 8.724364e-005 -4.375007e+001 9.999190e-001 -7.255006e-001
15299250 9.990694e-001 -2.389530e-001 2.062736e-005 8.902276e+001 1.079975e-004 2.660015e+001 9.980208e-001 -6.619531e-001
15599235 1.000391e+000 -1.869199e-001 9.283733e-005 3.829376e+001 1.873417e-004 -1.410065e+002 9.998596e-001 -8.015029e-001
15899220 9.999838e-001 -2.068822e-001 8.257337e-005 -5.078110e+001 1.943478e-004 -1.798305e+002 1.000395e+000 -7.111033e-001
16199205 1.000588e+000 -2.002706e-001 8.530859e-005 5.589414e+001 3.501517e-004 1.893373e+001 1.001575e+000 -6.665301e-001
16499190 1.000165e+000 -1.744880e-001 2.850322e-005 1.495761e+000 3.469423e-004 -1.331043e+002 1.000288e+000 -6.666840e-001
16799175 9.997147e-001 -1.868913e-001 3.164978e-005 2.802569e+001 1.969841e-004 9.183556e+001 1.001605e+000 -7.375601e-001
17099160 1.000271e+000 -2.161514e-001 6.023719e-005 -1.605891e+002 1.005438e-004 -3.763770e+001 1.000328e+000 -6.983953e-001
17399145 1.000370e+000 -2.109349e-001 4.156937e-005 1.215608e+002 1.595977e-004 -1.356192e+002 1.000134e+000 -7.658249e-001
17699130 9.991400e-001 -2.099962e-001 5.574432e-005 6.270201e+001 8.126737e-005 9.935311e+001 1.000215e+000 -7.240291e-001
17999115 9.997970e-001 -2.147952e-001 3.721336e-005 3.955055e+001 1.293568e-004 2.900739e+001 9.994008e-001 -7.672415e-001
18299100 9.998746e-001 -2.127318e-001 5.788145e-005 1.668101e+002 3.309445e-004 1.343996e+002 9.990801e-001 -7.694961e-001
18599085 1.000075e+000 -2.090351e-001 9.852331e-005 -3.287569e+001 1.343921e-004 6.100131e+001 9.987430e-001 -7.799119e-001
18899070 1.000191e+000 -2.520310e-001 4.055276e-005 4.215812e+001 1.023650e-004 -7.712452e+001 9.983923e-001 -7.891893e-001
19199055 1.000876e+000 -2.439099e-001 3.991356e-005 8.954340e+001 1.799318e-004 1.296472e+002 9.993042e-001 -7.636411e-001
19499040 1.000313e+000 -2.202586e-001 1.199918e-004 4.513540e+001 8.387609e-005 -1.716776e+001 9.988810e-001 -7.593845e-001
19799025 1.000559e+000 -2.027006e-001 5.303091e-005 -4.717286e+001 3.366813e-004 1.355525e+002 9.979045e-001 -8.161835e-001
20099010 9.997516e-001 -2.411327e-001 6.210441e-005 -1.545704e+002 4.823802e-005 1.492279e+002 9.979913e-001 -8.430173e-001
20398995 1.000414e+000 -2.479297e-001 7.784984e-005 5.901182e+001 2.046407e-004 -1.686935e+002 9.990205e-001 -8.101637e-001
20698980 9.991921e-001 -2.489707e-001 4.590593e-005 -5.808018e+001 3.374336e-004 1.353182e+002 9.990603e-001 -8.565477e-001
20998965 9.992236e-001 -2.295861e-001 7.527731e-005 1.501070e+002 1.856403e-004 -5.315335e+001 9.999377e-001 -8.503146e-001
21298950 1.000093e+000 -2.031896e-001 1.365460e-004 1.305025e+002 2.129920e-004 1.395642e+002 9.994049e-001 -8.560555e-001
21598935 9.987317e-001 -2.674599e-001 8.470144e-005 1.415091e+002 1.069291e-004 5.937955e+001 9.974867e-001 -9.249343e-001
21898920 9.997554e-001 -2.480826e-001 5.681922e-005 -4.326999e+001 1.841868e-004 -1.344425e+002 9.989026e-001 -8.653280e-001
22198905 9.996516e-001 -2.332556e-001 1.849244e-005 -1.231445e+002 4.483364e-005 9.259996e+001 9.992654e-001 -8.473031e-001
22498890 1.000280e+000 -2.246088e-001 4.737238e-005 -1.315544e+002 2.273100e-004 -3.722087e+001 1.000396e+000 -9.454325e-001
22798875 1.000192e+000 -2.346637e-001 6.076577e-005 5.062650e+001 3.755876e-004 -7.799416e+001 1.001271e+000 -9.665570e-001
23098860 1.000487e+000 -2.627482e-001 1.567435e-004 -4.490601e+001 2.849668e-004 1.056104e+002 1.000599e+000 -1.007861e+000
23398845 1.000802e+000 -2.578946e-001 1.270405e-004 -1.643221e+002 5.003384e-005 -3.471611e+001 1.000261e+000 -8.544118e-001
23698830 1.000469e+000 -2.512967e-001 1.270599e-004 1.006591e+001 1.847652e-004 -1.139422e+002 9.982046e-001 -1.010652e+000
23998815 1.000204e+000 -2.598424e-001 3.809299e-005 -1.469185e+002 5.663854e-005 9.967386e+001 9.986548e-001 -9.851637e-001
24298800 1.000469e+000 -2.936730e-001 4.640535e-005 -1.851130e+001 3.548090e-004 -2.867354e+001 9.974648e-001 -1.011122e+000
24598785 9.998525e-001 -2.849703e-001 4.969801e-005 -1.774424e+002 2.621604e-004 1.590326e+002 9.988997e-001 -1.026265e+000
24898770 9.998896e-001 -2.996789e-001 4.143211e-005 1.438710e+002 1.678166e-004 6.964529e+001 9.988233e-001 -1.067908e+000
25198755 9.995247e-001 -2.942543e-001 1.803769e-004 9.660590e+001 2.717280e-004 -1.070808e+001 9.987072e-001 -1.039650e+000
25498740 1.000839e+000 -2.816979e-001 7.862192e-005 1.307762e+002 3.527417e-004 1.183458e+002 1.000359e+000 -1.060012e+000
25798725 9.999489e-001 -2.903630e-001 1.059080e-004 1.525546e+002 3.303538e-004 7.243462e+001 9.986356e-001 -1.133336e+000
26098710 1.000152e+000 -2.750759e-001 3.210500e-005 -1.274698e+002 8.415793e-005 -1.532159e+002 1.000604e+000 -1.133355e+000
26398695 1.000798e+000 -3.097324e-001 1.849035e-005 -1.085698e+002 1.687669e-004 1.981165e+001 9.997351e-001 -1.106043e+000
26698680 1.000468e+000 -3.015705e-001 5.004720e-005 -2.276862e+001 1.453957e-004 1.034841e+002 1.000704e+000 -1.097434e+000
26998665 1.000554e+000 -2.490680e-001 3.952986e-005 -9.305991e+001 2.564938e-004 1.778354e+002 9.990029e-001 -1.084742e+000
27298650 1.000697e+000 -2.757340e-001 9.860644e-005 -7.791588e+001 1.595746e-004 7.124200e+001 9.989666e-001 -1.143834e+000
27598635 9.999191e-001 -3.002900e-001 1.096331e-004 1.692511e+002 2.469125e-004 -4.631913e+000 1.000773e+000 -1.142100e+000
27898620 9.996751e-001 -2.803965e-001 9.955298e-005 1.771777e+002 1.097320e-004 -9.064783e+001 1.001652e+000 -1.109052e+000
28198605 9.998368e-001 -3.114401e-001 3.499395e-005 -1.533828e+001 2.494192e-004 7.021298e+001 1.000538e+000 -1.177268e+000
28498590 1.000170e+000 -3.167761e-001 3.534606e-005 -1.346232e+002 4.159719e-005 -4.654939e+001 9.992240e-001 -1.189033e+000
28798575 9.995003e-001 -3.185902e-001 1.281684e-004 -1.119337e+002 2.071975e-004 -1.717225e+002 9.993282e-001 -1.255257e+000
29098560 9.997715e-001 -3.465841e-001 5.849311e-005 -1.418187e+002 1.749646e-004 3.774934e+001 9.992124e-001 -1.233212e+000
29398545 1.000239e+000 -2.885405e-001 6.666598e-005 -8.032507e+001 7.235499e-005 -1.663475e+002 1.001692e+000 -1.170842e+000
29698530 9.999764e-001 -2.970183e-001 7.683310e-005 2.678292e+001 2.464768e-004 1.095317e+002 1.000914e+000 -1.157723e+000
29998515 9.998910e-001 -2.740186e-001 4.207463e-005 -1.561354e+002 1.359614e-004 -9.755856e+001 1.000821e+000 -1.180780e+000
30298500 1.000247e+000 -3.443253e-001 7.298444e-005 5.069547e+001 8.602583e-005 1.389564e+002 1.000215e+000 -1.265261e+000
30598485 1.000042e+000 -2.939263e-001 1.097319e-004 -1.630663e+002 7.708552e-005 3.872041e+001 1.000154e+000 -1.237950e+000
30898470 1.000612e+000 -2.892477e-001 1.198019e-004 1.240730e+002 1.733052e-004 5.283602e+000 9.997154e-001 -1.337370e+000
31198455 9.998521e-001 -3.162450e-001 2.700874e-005 -1.003624e+002 1.428458e-004 -1.146263e+002 9.988170e-001 -1.270268e+000
31498440 1.000378e+000 -3.272644e-001 5.097901e-005 1.108782e+002 1.047523e-004 1.182106e+002 9.999946e-001 -1.267248e+000
31798425 9.997843e-001 -3.671455e-001 4.855288e-005 6.240609e+001 1.181842e-004 4.365418e+001 1.000792e+000 -1.270335e+000
32098410 1.000321e+000 -3.317252e-001 9.374396e-005 -1.629228e+002 2.474980e-004 -1.230835e+002 9.997329e-001 -1.300513e+000
32398395 1.000852e+000 -3.878036e-001 7.694856e-005 -6.502228e+001 3.516481e-004 9.491667e+001 1.000260e+000 -1.334294e+000
32698380 1.000161e+000 -3.362942e-001 1.093037e-004 -1.542355e+002 1.598426e-004 2.023936e+001 9.997788e-001 -1.278286e+000
32998365 1.000420e+000 -3.637666e-001 1.429974e-004 -4.339247e+001 2.406677e-004 1.694610e+002 1.000231e+000 -1.288618e+000
33298350 1.000429e+000 -3.479658e-001 7.870655e-005 -1.598893e+002 2.154364e-004 3.477355e+001 9.995573e-001 -1.332953e+000
33598335 9.998866e-001 -3.632288e-001 6.080570e-005 7.330214e+001 2.261600e-004 -1.338745e+002 1.000710e+000 -1.376138e+000
33898320 1.000060e+000 -3.289330e-001 7.496829e-005 9.733477e+001 4.185482e-005 -1.261521e+002 9.991835e-001 -1.425680e+000
34198305 9.994603e-001 -3.642929e-001 7.475805e-005 1.768935e+002 2.815709e-004 -6.267907e-001 9.995431e-001 -1.380087e+000
34498290 9.994304e-001 -3.825273e-001 1.526399e-004 -7.007381e+001 2.172173e-004 -9.425874e+001 9.984290e-001 -1.355573e+000
34798275 1.000310e+000 -3.791383e-001 1.115288e-004 1.210300e+002 8.700533e-005 -1.570188e+002 9.984112e-001 -1.403532e+000
35098260 9.997006e-001 -3.811556e-001 1.026969e-004 -1.575214e+002 2.278339e-004 -5.583276e+001 1.000347e+000 -1.345132e+000
35398245 1.000359e+000 -4.194931e-001 9.128136e-005 4.378278e+001 9.852623e-005 -1.267555e+002 1.001208e+000 -1.370832e+000
35698230 1.000222e+000 -3.889082e-001 4.082486e-005 -6.022993e+001 2.273252e-004 1.250487e+002 1.001294e+000 -1.398899e+000
35998215 9.991294e-001 -4.178123e-001 3.782049e-005 -1.590970e+002 2.918630e-004 1.664700e+001 1.000627e+000 -1.423962e+000
36298200 9.997890e-001 -3.742734e-001 6.832828e-005 1.137648e+002 1.201735e-004 -1.013960e+002 1.000557e+000 -1.540584e+000
36598185 1.000743e+000 -3.851848e-001 6.105169e-005 1.846357e+001 2.379539e-004 1.343084e+002 1.000643e+000 -1.465304e+000
36898170 1.000530e+000 -4.178958e-001 1.318724e-004 1.083637e+002 2.363239e-004 -1.423776e+001 1.000101e+000 -1.446177e+000
37198155 9.998413e-001 -3.926819e-001 7.142038e-005 -9.539794e+001 2.136231e-004 1.745462e+002 9.995575e-001 -1.509016e+000
37498140 9.998590e-001 -3.926532e-001 5.958656e-005 -3.444860e+001 2.289187e-004 -1.637766e+000 1.000712e+000 -1.449128e+000
37798125 9.999275e-001 -3.742956e-001 3.820240e-005 1.048177e+002 1.872352e-004 -1.523989e+002 9.999924e-001 -1.483765e+000
38098110 1.000028e+000 -3.965510e-001 9.776043e-005 1.591703e+001 4.121552e-004 7.773817e+001 9.993601e-001 -1.535950e+000
38398095 9.993994e-001 -3.819870e-001 1.073746e-004 5.398229e+001 1.533019e-004 8.813051e+000 1.000434e+000 -1.573143e+000
38698080 9.995733e-001 -3.798033e-001 5.584294e-005 -1.350954e+001 1.165440e-004 -1.705473e+002 9.999376e-001 -1.615822e+000
38998065 9.999415e-001 -3.922148e-001 6.509556e-005 1.360638e+002 6.555898e-005 -4.949665e+001 9.997141e-001 -1.591872e+000
39298050 1.000493e+000 -4.045974e-001 1.237473e-004 2.821895e+001 2.843664e-005 1.055458e+002 1.000429e+000 -1.618309e+000
39598035 1.000369e+000 -3.885807e-001 1.276277e-004 -9.380231e+001 2.790728e-005 -1.385270e+002 1.000770e+000 -1.523717e+000
39898020 1.001175e+000 -3.805477e-001 6.016851e-005 4.448864e+001 6.473333e-005 -1.768514e+001 1.001314e+000 -1.514889e+000
40198005 1.000116e+000 -4.108548e-001 1.914779e-004 1.463660e+002 4.589995e-004 -1.279045e+001 1.000515e+000 -1.682844e+000
40497990 1.000443e+000 -3.994831e-001 1.034068e-004 1.378420e+002 1.128619e-004 3.714162e+001 1.001652e+000 -1.657210e+000
40797975 1.000372e+000 -4.042211e-001 1.607301e-004 1.342150e+002 9.465524e-005 -5.027517e+001 1.000809e+000 -1.706495e+000
41097960 1.000749e+000 -3.977664e-001 2.037373e-005 3.656229e+001 1.917821e-004 1.284384e+001 9.995260e-001 -1.707875e+000
41397945 9.994583e-001 -3.466501e-001 6.581641e-005 4.093978e+001 1.867047e-004 7.184315e+001 1.002112e+000 -1.644851e+000
41697930 1.000203e+000 -3.619999e-001 1.318918e-004 1.773577e+002 8.484094e-005 6.970097e+001 9.999473e-001 -1.597973e+000
41997915 1.000479e+000 -3.456946e-001 1.035335e-004 -6.114836e+001 3.057103e-004 1.294740e+001 1.000444e+000 -1.619406e+000
42297900 1.000362e+000 -3.770036e-001 2.082764e-004 2.269940e+001 3.473723e-004 -8.827272e+001 1.000567e+000 -1.616781e+000
42597885 1.000915e+000 -4.060033e-001 3.790660e-005 -3.932515e+001 2.681081e-004 -7.993632e+001 1.001347e+000 -1.700047e+000
42897870 1.000784e+000 -3.640712e-001 4.198612e-005 1.276557e+002 2.653846e-004 -1.545987e+001 1.001638e+000 -1.768420e+000
43197855 1.001406e+000 -4.494351e-001 2.737265e-004 -1.573328e+001 1.352324e-004 -1.594664e+002 1.001439e+000 -1.724206e+000
43497840 1.001257e+000 -3.981732e-001 1.388667e-004 4.752851e+001 2.914703e-004 7.862411e+001 1.001069e+000 -1.706664e+000
43797825 9.999577e-001 -4.488447e-001 1.201118e-004 1.751697e+002 2.173155e-004 -1.235174e+002 9.990588e-001 -1.771485e+000
44097810 1.000154e+000 -4.087398e-001 6.276417e-005 -4.604953e+001 2.036727e-004 1.091798e+002 1.001653e+000 -1.952150e+000
44397795 1.000807e+000 -3.838168e-001 1.054301e-004 -1.092201e+002 1.191537e-004 1.125696e+002 1.002215e+000 -1.918926e+000
44697780 1.000530e+000 -4.551709e-001 6.839480e-005 -1.081365e+002 2.321131e-004 9.945971e+001 1.001802e+000 -1.880866e+000
44997765 1.001772e+000 -4.711024e-001 7.731422e-005 -1.745354e+002 2.007822e-004 8.799889e+001 1.001394e+000 -1.805374e+000
45297750 1.001628e+000 -5.077726e-001 2.676203e-004 -1.476956e+002 2.038878e-004 2.117776e+001 1.001139e+000 -1.907255e+000
45597735 1.001563e+000 -4.341114e-001 6.131265e-005 -1.078816e+002 2.698552e-004 1.525037e+002 1.002095e+000 -1.926870e+000
45897720 1.000808e+000 -4.887683e-001 1.189770e-004 1.027980e+002 3.516678e-004 1.313059e+002 1.002205e+000 -1.906003e+000
46197705 1.001806e+000 -4.526116e-001 8.529742e-005 6.121442e+001 3.984007e-004 1.000445e+002 1.001049e+000 -1.889861e+000
46497690 1.001058e+000 -4.075122e-001 1.301944e-004 3.526295e+001 2.548779e-004 2.974081e+001 1.001973e+000 -1.858855e+000
46797675 1.000531e+000 -4.871946e-001 5.078601e-005 1.303699e+002 3.238936e-004 -1.504571e+001 1.002228e+000 -1.954854e+000
47097660 1.000618e+000 -4.679597e-001 1.335174e-004 -1.523623e+002 3.187230e-004 -1.793352e+001 1.001471e+000 -2.082501e+000
47397645 1.000456e+000 -5.329618e-001 1.326801e-004 -6.423109e+001 6.658455e-005 -1.181337e+002 1.001869e+000 -1.947796e+000
