!Agilent Technologies,N5230C,SG49000117,A.08.50.07
!Agilent N5230C: A.08.50.07
!Date: Thursday, May 16, 2024 21:16:48
!Correction: S11(Full 2 Port(1,2)) 
!S21(Full 2 Port(1,2)) 
!S12(Full 2 Port(1,2)) 
!S22(Full 2 Port(1,2)) 
!S2P File: Measurements: S11, S21, S12, S22:
# Hz S  MA   R 50
300000 1.004252e+000 -4.851208e-001 9.022219e-005 5.281638e+001 6.308148e-004 1.338293e+002 1.006650e+000 -7.893609e-001
599985 9.821081e-001 4.323383e-001 1.111149e-005 -1.279105e+002 4.445145e-004 -1.267109e+002 9.663732e-001 5.337596e-001
899970 9.976684e-001 1.059650e-002 2.343975e-005 1.236346e+002 4.533864e-005 2.421441e+001 9.865723e-001 -2.033345e-001
1199955 9.982554e-001 1.305229e-003 4.391172e-005 -5.893328e+001 1.759732e-004 -8.769521e+001 9.968597e-001 -2.028479e-002
1499940 9.946436e-001 1.767900e-001 1.015191e-004 1.424673e+002 8.037060e-005 -6.943210e+001 9.944651e-001 1.645577e-001
1799925 9.927778e-001 2.566431e-001 8.668610e-005 -5.354441e+000 1.325247e-004 -4.283041e+001 9.908888e-001 4.159467e-002
2099910 9.989684e-001 -2.134462e-003 4.855386e-005 9.261154e+001 1.179201e-004 1.347933e+002 9.987829e-001 3.767405e-002
2399895 9.992998e-001 -8.536511e-002 7.438592e-005 1.033065e+002 1.339835e-004 9.458190e+001 1.003381e+000 -6.814741e-002
2699880 9.997459e-001 -1.925538e-001 4.347689e-005 -1.208037e+000 8.167195e-005 1.158720e+002 9.963598e-001 -2.116831e-001
2999865 1.000188e+000 -9.080607e-002 1.451675e-005 -1.586515e+002 3.064107e-004 1.677988e+002 9.987292e-001 -2.486860e-001
3299850 9.998611e-001 -8.970776e-002 1.004421e-004 -1.222371e+002 2.070776e-004 -1.574877e+002 9.986792e-001 -2.987656e-001
3599835 1.000447e+000 -7.763006e-002 1.087556e-004 1.180135e+002 9.521659e-005 4.643659e+001 9.985999e-001 -3.107243e-001
3899820 9.996564e-001 -1.521951e-001 8.213994e-005 -3.778146e+001 6.213054e-005 3.376085e+001 9.989484e-001 -3.025644e-001
4199805 1.000075e+000 -2.126588e-001 3.426134e-005 -1.512579e+002 1.876225e-004 3.951195e+000 9.991644e-001 -3.716500e-001
4499790 1.000648e+000 -1.653921e-001 3.167349e-005 6.650336e+001 1.692192e-004 -6.507995e+001 9.994347e-001 -2.701892e-001
4799775 1.000681e+000 -1.118599e-001 1.152263e-004 -9.456725e+001 1.840320e-004 -1.289869e+002 1.001374e+000 -3.102187e-001
5099760 1.000468e+000 -1.237096e-001 1.786733e-005 -1.711752e+001 1.043130e-004 -1.681198e+002 1.001184e+000 -3.396131e-001
5399745 1.000788e+000 -1.328593e-001 2.658970e-005 6.271864e+000 3.050146e-005 9.283959e+001 9.991760e-001 -2.898208e-001
5699730 1.000311e+000 -1.113533e-001 6.720395e-005 -5.694676e+000 2.059579e-004 -1.535715e+002 1.001838e+000 -2.852030e-001
5999715 9.994882e-001 -8.072864e-002 1.347456e-005 1.608191e+002 2.361258e-004 1.499222e+002 1.001545e+000 -2.947908e-001
6299700 9.993344e-001 -9.621830e-002 2.488317e-005 5.394310e+000 2.381514e-004 1.036791e+002 1.000413e+000 -3.843322e-001
6599685 9.996541e-001 -8.899663e-002 9.132452e-005 2.438254e+001 1.061366e-004 1.061258e+002 1.001082e+000 -3.952752e-001
6899670 9.998397e-001 -1.186534e-001 1.762366e-005 -1.118853e+002 1.024251e-004 1.576834e+002 1.000962e+000 -3.804732e-001
7199655 1.000291e+000 -1.448776e-001 1.243024e-004 7.193349e+001 1.236159e-004 -9.138698e+001 1.000657e+000 -4.219000e-001
7499640 1.000107e+000 -1.922815e-001 7.785593e-005 1.351064e+002 1.254435e-004 -1.390257e+002 1.000014e+000 -5.178003e-001
7799625 1.000327e+000 -1.508074e-001 5.043133e-005 1.299754e+001 2.637295e-004 3.969460e+001 9.982061e-001 -4.604524e-001
8099610 9.999798e-001 -1.318698e-001 5.605978e-005 -1.495624e+002 1.114097e-004 7.364301e+001 9.994508e-001 -5.034290e-001
8399595 1.000061e+000 -1.250247e-001 2.339946e-005 7.313959e+000 9.807296e-005 -9.627527e+001 9.991093e-001 -4.995786e-001
8699580 9.998613e-001 -1.493147e-001 1.401948e-005 -7.677581e+000 8.363830e-005 1.547678e+002 9.989753e-001 -5.557609e-001
8999565 9.997153e-001 -1.619586e-001 3.114678e-005 1.034529e+001 1.209975e-004 -1.521765e+002 9.989430e-001 -5.104209e-001
9299550 9.999581e-001 -1.516511e-001 8.157666e-005 -4.722810e+001 2.768011e-005 1.429192e+002 9.997485e-001 -5.037214e-001
9599535 9.998072e-001 -2.031179e-001 7.617157e-005 -1.743746e+002 1.634841e-005 -3.831424e+001 9.977984e-001 -6.461030e-001
9899520 1.000309e+000 -2.636276e-001 7.165279e-005 -3.868085e+001 9.747141e-005 1.333525e+002 9.972798e-001 -7.621690e-001
10199505 1.001148e+000 -1.515682e-001 7.360581e-005 1.969124e+001 1.508359e-005 1.748764e+001 9.992695e-001 -5.432813e-001
10499490 9.998757e-001 -1.317418e-001 3.111703e-005 1.216338e+002 8.795260e-005 -6.687408e+001 9.993309e-001 -5.605184e-001
10799475 9.999892e-001 -1.372616e-001 8.962038e-005 -9.593402e+001 1.074577e-004 -5.587606e+000 9.993215e-001 -5.056444e-001
11099460 1.000750e+000 -1.553688e-001 5.741878e-005 1.435048e+002 1.717671e-004 -1.286716e+002 1.000032e+000 -5.051043e-001
11399445 1.000263e+000 -1.487719e-001 1.093991e-004 1.003415e+001 6.819449e-005 1.614237e+002 9.989066e-001 -5.113729e-001
11699430 1.000735e+000 -1.375399e-001 7.645069e-005 -5.965864e+001 6.778754e-005 -1.067218e+002 9.990980e-001 -5.507810e-001
11999415 9.999273e-001 -1.616169e-001 9.819427e-005 -8.060748e+001 1.564405e-004 -1.908837e+001 1.000268e+000 -5.809324e-001
12299400 9.998463e-001 -1.389046e-001 6.871472e-005 -1.744910e+002 1.211434e-004 -1.071141e+002 1.001584e+000 -5.282624e-001
12599385 1.000466e+000 -1.626479e-001 3.112629e-005 1.144580e+002 1.018732e-004 7.988055e+001 9.986710e-001 -6.382678e-001
12899370 1.000232e+000 -1.887324e-001 3.698311e-005 1.565596e+002 9.562534e-005 -7.417443e+001 9.995964e-001 -8.149853e-001
13199355 9.997284e-001 -1.450765e-001 9.202342e-005 -3.845906e+001 1.479525e-004 1.774679e+002 9.978466e-001 -6.208375e-001
13499340 1.000178e+000 -1.985041e-001 9.204669e-005 -2.622460e+001 3.803800e-004 -8.092448e+001 9.986588e-001 -6.394094e-001
13799325 1.000071e+000 -1.944209e-001 2.565560e-005 -3.360017e+001 2.269707e-004 5.882158e+001 9.983031e-001 -6.514775e-001
14099310 1.000056e+000 -1.926311e-001 7.085512e-005 4.261806e+001 3.248715e-004 -1.071994e+002 9.997337e-001 -6.346603e-001
14399295 1.000301e+000 -2.235811e-001 5.095531e-005 -1.086743e+002 2.588807e-004 -1.587701e+002 1.001001e+000 -6.919249e-001
14699280 1.000536e+000 -1.951322e-001 5.541202e-005 -2.105449e+000 2.870022e-004 -1.823650e+001 9.993750e-001 -7.055261e-001
14999265 9.994576e-001 -1.709464e-001 5.026797e-005 -3.833250e+001 1.559556e-004 -1.221565e+002 1.000185e+000 -7.641125e-001
15299250 9.997487e-001 -1.925536e-001 5.126895e-005 -9.186343e+001 2.554033e-004 8.603655e+001 9.982797e-001 -7.201588e-001
15599235 9.999300e-001 -1.721248e-001 8.405987e-005 5.392818e+001 4.943884e-005 -6.382500e+001 9.992165e-001 -7.399727e-001
15899220 9.998043e-001 -1.852527e-001 8.516851e-005 1.821198e+000 1.128650e-004 1.140426e+002 9.999919e-001 -7.344733e-001
16199205 1.000081e+000 -2.078372e-001 8.733577e-005 -7.771767e+001 3.814752e-004 -2.360614e+000 1.001257e+000 -7.339761e-001
16499190 1.000327e+000 -1.574532e-001 6.786174e-005 -2.374149e+001 2.532345e-004 -1.074656e+002 1.001359e+000 -7.498154e-001
16799175 1.000216e+000 -1.640377e-001 1.072999e-004 8.074561e+001 1.987110e-004 7.402217e+001 1.002086e+000 -7.809739e-001
17099160 1.000362e+000 -2.008490e-001 5.890082e-005 -5.705621e+001 2.182141e-004 -8.437979e+001 1.000768e+000 -7.984447e-001
17399145 9.996963e-001 -2.244339e-001 9.720802e-005 2.251397e+001 1.973518e-004 1.667706e+002 9.999372e-001 -7.801330e-001
17699130 1.000339e+000 -2.313602e-001 4.655810e-005 -1.145047e+002 1.026522e-004 1.056822e+002 1.000370e+000 -7.885486e-001
17999115 1.000007e+000 -2.694785e-001 3.078634e-005 2.608556e+001 1.289927e-004 -1.296224e+002 9.999521e-001 -8.833613e-001
18299100 1.000193e+000 -1.914678e-001 6.950451e-005 -6.272392e+001 1.198658e-004 1.585794e+002 1.000285e+000 -8.643135e-001
18599085 1.000445e+000 -2.142171e-001 8.115793e-005 -1.526641e+002 2.079524e-004 5.605566e+000 9.988964e-001 -8.869309e-001
18899070 9.997321e-001 -2.112659e-001 1.854858e-005 7.505820e+001 7.273678e-005 1.293058e+001 9.996452e-001 -8.756880e-001
19199055 9.997080e-001 -2.047996e-001 1.007188e-004 -1.068728e+002 2.069375e-004 1.478164e+002 9.988444e-001 -8.436654e-001
19499040 1.000212e+000 -2.073708e-001 4.759045e-005 -8.693612e+001 4.104806e-005 7.864947e+001 9.994003e-001 -8.447624e-001
19799025 1.000571e+000 -2.177844e-001 2.449043e-005 6.078070e+001 2.007801e-004 -6.645381e+001 9.995788e-001 -8.349497e-001
20099010 1.000851e+000 -2.020272e-001 1.027808e-005 -6.282212e+000 9.605787e-005 8.541490e+001 9.983112e-001 -8.872616e-001
20398995 9.994214e-001 -1.978932e-001 2.900687e-005 -9.656399e+001 1.462276e-004 4.149396e+001 9.985701e-001 -9.429997e-001
20698980 1.000256e+000 -2.289678e-001 4.604702e-005 2.356632e+001 3.445394e-004 -1.704949e+002 9.979150e-001 -1.004219e+000
20998965 9.994536e-001 -2.161955e-001 1.523876e-004 6.050903e+000 2.520004e-004 -5.701566e+001 9.984766e-001 -9.234784e-001
21298950 9.991564e-001 -1.976075e-001 9.500656e-005 -9.245338e+001 1.691882e-004 -1.252998e+002 9.981723e-001 -9.128755e-001
21598935 9.993026e-001 -2.385906e-001 1.317383e-004 -1.650469e+002 2.991878e-004 5.304401e+001 9.987019e-001 -9.375914e-001
21898920 1.000103e+000 -2.498699e-001 1.515068e-004 2.149120e+000 1.739639e-004 -7.131612e+001 9.999205e-001 -9.116054e-001
22198905 1.000114e+000 -2.572652e-001 6.510528e-005 -1.708199e+002 1.754415e-004 -1.971563e+001 1.000230e+000 -9.698914e-001
22498890 1.000467e+000 -2.442442e-001 9.957724e-005 -1.360219e+002 5.761630e-005 5.770872e+001 1.001446e+000 -9.989318e-001
22798875 1.000713e+000 -2.185866e-001 4.780766e-005 -1.746710e+002 3.536988e-004 -1.288638e+002 1.000364e+000 -9.806432e-001
23098860 1.000579e+000 -2.249867e-001 4.383692e-005 -5.481340e+001 3.659945e-004 1.549822e+002 1.000277e+000 -1.029086e+000
23398845 1.000185e+000 -2.721561e-001 7.480069e-005 -2.286978e+001 9.832782e-005 -2.044729e+001 1.000178e+000 -1.050392e+000
23698830 9.995868e-001 -2.455142e-001 2.787969e-005 -6.329300e+001 2.309420e-004 -1.580147e+002 9.977508e-001 -1.075203e+000
23998815 1.000126e+000 -2.694241e-001 5.671076e-005 5.289383e+001 1.655872e-004 5.763961e+001 9.988392e-001 -1.053242e+000
24298800 9.995563e-001 -3.039186e-001 4.795983e-005 -1.392324e+002 1.811829e-004 -6.797146e+001 9.985347e-001 -1.073754e+000
24598785 1.000528e+000 -2.365838e-001 7.142025e-005 -2.428949e+001 2.860939e-004 1.796503e+002 9.984907e-001 -1.057442e+000
24898770 1.000559e+000 -3.016886e-001 8.755113e-005 7.926758e+001 3.172219e-004 4.864375e+001 9.993035e-001 -1.073731e+000
25198755 9.999546e-001 -2.851953e-001 1.031034e-004 7.545588e+001 1.208537e-004 -8.820152e+001 9.992863e-001 -1.112450e+000
25498740 9.999673e-001 -2.840082e-001 8.411922e-005 -6.306818e+001 2.788805e-004 -1.591533e+002 9.988751e-001 -1.149168e+000
25798725 9.995863e-001 -2.740759e-001 6.011163e-005 -1.249006e+002 1.832837e-004 9.909761e+001 9.985120e-001 -1.264178e+000
26098710 1.000079e+000 -2.885223e-001 1.256157e-004 -8.623376e+001 2.461877e-004 -1.644789e+002 1.000236e+000 -1.148625e+000
26398695 1.000247e+000 -2.471115e-001 5.583660e-005 -1.014008e+002 1.376109e-004 -4.117872e+000 1.000532e+000 -1.267899e+000
26698680 1.000949e+000 -3.013721e-001 6.664627e-005 8.427309e+001 1.087765e-004 -1.550836e+001 9.991773e-001 -1.148459e+000
26998665 1.000698e+000 -2.895477e-001 3.445839e-005 8.716081e+000 2.103668e-004 -1.612314e+002 1.000484e+000 -1.133866e+000
27298650 1.000144e+000 -2.587599e-001 1.001614e-004 4.766941e+001 2.026339e-004 3.526779e+001 9.989484e-001 -1.218118e+000
27598635 1.000304e+000 -2.715287e-001 1.468903e-004 -1.693766e+002 2.550339e-004 -8.947341e+001 1.000528e+000 -1.190236e+000
27898620 9.994275e-001 -2.737882e-001 8.982897e-005 1.424079e+002 1.802367e-004 2.028836e+001 1.001022e+000 -1.217942e+000
28198605 9.999667e-001 -2.741020e-001 7.588022e-005 -2.821465e+001 2.053974e-004 -8.821598e+000 1.000571e+000 -1.296808e+000
28498590 9.996137e-001 -3.450247e-001 5.910672e-005 -1.073545e+001 1.337868e-004 -1.555147e+002 9.992880e-001 -1.267515e+000
28798575 1.000291e+000 -3.355618e-001 6.994586e-005 -5.690361e+001 2.227481e-004 6.372832e+001 9.992995e-001 -1.408994e+000
29098560 1.000353e+000 -3.256260e-001 5.517782e-005 -1.482236e+002 8.772431e-005 -7.962158e+001 9.993610e-001 -1.280322e+000
29398545 1.000436e+000 -3.037586e-001 8.049029e-005 8.325277e+001 3.339977e-004 5.422645e+001 1.000835e+000 -1.268023e+000
29698530 1.000236e+000 -3.080291e-001 8.184515e-005 1.424780e+002 1.352059e-004 -2.108274e+001 1.001331e+000 -1.245289e+000
29998515 1.000131e+000 -2.906044e-001 1.053659e-004 1.508167e+002 6.898896e-005 1.984666e+001 1.000191e+000 -1.273560e+000
30298500 1.000142e+000 -2.983119e-001 1.250898e-004 -1.465251e+002 7.744982e-005 7.229728e+001 1.001512e+000 -1.387079e+000
30598485 9.999602e-001 -2.636285e-001 8.186937e-005 -9.254250e+001 2.639534e-004 -3.501406e+001 9.995939e-001 -1.354507e+000
30898470 1.000320e+000 -2.622355e-001 4.036118e-005 -6.193535e+001 2.101164e-004 1.191450e+002 1.000124e+000 -1.300315e+000
31198455 9.997447e-001 -3.032069e-001 1.050398e-004 5.286876e+001 6.516279e-005 -9.525243e+001 9.995956e-001 -1.384108e+000
31498440 9.999832e-001 -3.127953e-001 4.388579e-005 4.422364e+001 1.399828e-004 -8.150172e+001 1.000241e+000 -1.341294e+000
31798425 1.000753e+000 -3.677552e-001 6.530459e-005 -1.422253e+001 1.646212e-004 1.426496e+002 1.001309e+000 -1.343307e+000
32098410 1.000612e+000 -3.690376e-001 1.309609e-004 -5.109988e+001 1.386244e-004 -5.559254e+001 9.999691e-001 -1.353076e+000
32398395 1.000577e+000 -3.538556e-001 5.133935e-005 -1.313059e+002 1.803688e-004 1.539175e+002 1.000662e+000 -1.401834e+000
32698380 1.000206e+000 -3.670356e-001 5.480673e-005 -1.226667e+002 1.502426e-004 1.776694e+002 1.000583e+000 -1.365003e+000
32998365 1.000503e+000 -3.244452e-001 4.988549e-005 -6.342594e+001 2.858313e-004 -4.463382e+001 1.001119e+000 -1.393565e+000
33298350 1.000608e+000 -2.900673e-001 1.557313e-006 1.982294e+001 2.366074e-004 -1.758534e+002 1.000419e+000 -1.435908e+000
33598335 1.000110e+000 -3.494449e-001 9.676719e-005 -1.588850e+002 3.353107e-004 3.952618e+001 1.000527e+000 -1.395211e+000
33898320 9.999568e-001 -3.082999e-001 6.482533e-005 3.484064e+001 1.797816e-004 -1.194835e+002 1.000623e+000 -1.485813e+000
34198305 9.999950e-001 -3.832201e-001 5.071657e-005 1.707514e+002 1.589921e-004 -1.180213e+002 1.000072e+000 -1.406132e+000
34498290 9.998217e-001 -3.810347e-001 1.103468e-004 1.483666e+002 1.989014e-004 2.109784e+001 1.000011e+000 -1.466944e+000
34798275 9.996754e-001 -3.598649e-001 8.379000e-005 -1.680637e+002 1.229094e-004 -1.704199e+002 9.987229e-001 -1.465623e+000
35098260 1.000415e+000 -4.064332e-001 5.088484e-005 1.977365e+001 1.935209e-004 8.886474e+001 1.000340e+000 -1.428190e+000
35398245 9.999651e-001 -3.965581e-001 2.670583e-005 -1.291789e+002 1.337249e-004 1.947585e+001 1.000590e+000 -1.493014e+000
35698230 1.000242e+000 -4.027590e-001 8.622012e-005 -1.195170e+002 6.779438e-005 1.172408e+002 1.001628e+000 -1.489715e+000
35998215 9.999129e-001 -4.108401e-001 1.026251e-004 -1.617771e+002 1.765285e-004 9.221024e+001 1.000647e+000 -1.482010e+000
36298200 1.000218e+000 -4.007981e-001 3.043899e-005 -1.110050e+002 1.321744e-004 -9.124426e-001 9.999449e-001 -1.658792e+000
36598185 1.000445e+000 -4.077593e-001 1.676460e-004 8.382919e+001 2.605665e-004 7.659635e+001 9.998277e-001 -1.592822e+000
36898170 1.000865e+000 -3.834534e-001 8.572135e-005 -1.706355e+002 1.259929e-004 -8.283725e+000 9.998157e-001 -1.621527e+000
37198155 9.999658e-001 -4.065521e-001 1.553276e-004 -1.155275e+002 2.732218e-004 -1.183394e+002 1.000426e+000 -1.701067e+000
37498140 1.000523e+000 -3.845440e-001 5.415035e-005 4.477274e+001 2.407199e-004 9.690718e+001 1.000584e+000 -1.635371e+000
37798125 9.998239e-001 -3.860742e-001 5.861093e-005 -1.786857e+002 2.485708e-004 -3.371827e+001 1.000160e+000 -1.590921e+000
38098110 1.000237e+000 -3.788774e-001 4.860991e-005 1.077469e+002 2.100176e-004 1.496055e+002 1.000274e+000 -1.631077e+000
38398095 1.000032e+000 -4.093747e-001 1.823504e-005 1.763151e+002 8.786324e-005 5.575447e+001 9.997034e-001 -1.703832e+000
38698080 9.989172e-001 -3.981258e-001 9.965272e-005 -1.373419e+002 8.063186e-005 -1.260635e+002 9.994811e-001 -1.716847e+000
38998065 1.000452e+000 -3.901469e-001 4.199712e-005 -5.969839e+001 1.073979e-004 7.631695e+001 9.993356e-001 -1.660127e+000
39298050 1.001042e+000 -3.936647e-001 1.238053e-004 -1.526587e+002 7.907493e-005 -9.813499e+001 9.998487e-001 -1.647370e+000
39598035 1.000044e+000 -4.026507e-001 4.208422e-005 -1.073448e+002 9.045300e-005 -1.181926e+002 1.001017e+000 -1.583237e+000
39898020 1.000561e+000 -3.805528e-001 4.556666e-005 -1.619818e+001 9.557090e-005 4.365765e+001 1.001263e+000 -1.569728e+000
40198005 1.000262e+000 -3.598635e-001 9.550639e-005 -5.633946e+001 1.591821e-004 -1.762826e+002 1.000367e+000 -1.788900e+000
40497990 1.000116e+000 -3.518496e-001 1.428324e-004 5.619286e+001 2.922232e-004 -1.134289e+002 1.000540e+000 -1.775466e+000
40797975 1.000797e+000 -3.794258e-001 1.080222e-004 1.383841e+002 2.109929e-004 -1.267803e+002 1.000663e+000 -1.867445e+000
41097960 1.000009e+000 -3.637070e-001 7.844026e-006 -1.147829e+002 2.344177e-004 -1.701576e+002 1.002661e+000 -1.729656e+000
41397945 9.991945e-001 -3.773752e-001 1.351652e-004 -5.764801e+001 2.335816e-004 -1.589323e+002 1.001350e+000 -1.749892e+000
41697930 9.989760e-001 -4.161849e-001 7.464435e-005 -9.601395e+001 1.901361e-004 8.201146e+001 1.000352e+000 -1.731853e+000
41997915 9.998073e-001 -4.497195e-001 1.366127e-004 3.421302e+001 1.939718e-004 3.290683e+001 1.000604e+000 -1.728616e+000
42297900 9.998617e-001 -4.083839e-001 1.300079e-004 -7.344749e+001 1.388934e-004 8.841235e+001 1.001531e+000 -1.775010e+000
42597885 1.000285e+000 -3.763414e-001 7.764982e-005 -1.044492e+001 1.396101e-004 7.867514e+001 1.001118e+000 -1.825519e+000
42897870 1.000756e+000 -3.779277e-001 7.031940e-005 -9.781930e+001 8.731161e-005 1.994272e+001 1.002291e+000 -1.884092e+000
43197855 1.000683e+000 -3.809174e-001 1.073496e-004 4.707195e+001 7.560895e-005 -1.107407e+002 1.000306e+000 -1.892830e+000
43497840 1.000008e+000 -4.541011e-001 5.993505e-005 3.656584e+001 8.632115e-005 -6.425061e+001 1.000382e+000 -1.866149e+000
43797825 9.999475e-001 -4.216657e-001 1.057284e-004 -1.202018e+002 2.535032e-004 -1.579616e+002 1.000849e+000 -1.851429e+000
44097810 1.000166e+000 -3.900009e-001 1.824816e-004 -2.792262e+001 1.816587e-004 -1.191495e+002 1.000196e+000 -1.928370e+000
44397795 1.001193e+000 -4.268490e-001 9.180450e-005 1.632277e+002 2.683907e-004 -1.011196e+002 1.001117e+000 -1.926180e+000
44697780 1.000846e+000 -3.932973e-001 7.474784e-005 -7.562254e+001 6.935243e-005 1.770732e+002 1.001250e+000 -1.929084e+000
44997765 1.000589e+000 -4.483971e-001 8.896066e-005 1.082949e+002 3.423043e-004 1.107975e+002 1.002028e+000 -1.982512e+000
45297750 1.001920e+000 -4.646676e-001 1.801565e-004 -1.036195e+002 9.296558e-005 -5.548295e+000 1.001848e+000 -2.025849e+000
45597735 1.000993e+000 -4.483084e-001 2.137168e-004 -4.108667e+001 3.992886e-004 4.053213e+001 1.001924e+000 -1.996856e+000
45897720 1.001039e+000 -4.846779e-001 1.978586e-004 -1.054665e+002 2.143863e-004 1.521370e+002 1.002857e+000 -1.909883e+000
46197705 1.000840e+000 -4.633433e-001 1.946453e-004 1.714341e+002 2.624470e-005 -1.605071e+002 1.001395e+000 -2.059067e+000
46497690 1.000910e+000 -4.403066e-001 4.983842e-005 -8.520779e+001 3.971893e-004 -6.293291e+001 1.001970e+000 -2.032228e+000
46797675 1.000815e+000 -4.259115e-001 5.789849e-005 1.310294e+002 3.494058e-004 -5.978721e+001 1.000171e+000 -2.019195e+000
47097660 9.996989e-001 -4.372095e-001 1.180016e-004 -8.139307e+001 7.610409e-005 8.208340e+001 1.001155e+000 -2.093917e+000
