!Agilent Technologies,N5230C,SG49000117,A.08.50.07
!Agilent N5230C: A.08.50.07
!Date: Thursday, May 16, 2024 21:15:51
!Correction: S11(Full 2 Port(1,2)) 
!S21(Full 2 Port(1,2)) 
!S12(Full 2 Port(1,2)) 
!S22(Full 2 Port(1,2)) 
!S2P File: Measurements: S11, S21, S12, S22:
# Hz S  MA   R 50
300000 1.005276e+000 -3.785064e-001 1.692838e-004 8.392632e+001 1.843280e-004 9.419418e+001 1.013210e+000 -4.300517e-001
599985 9.820002e-001 4.684058e-001 5.205226e-005 1.239901e+002 1.297789e-004 -3.289389e+000 9.640053e-001 5.802492e-001
899970 9.971973e-001 2.634682e-002 1.555411e-004 -2.027422e+001 3.191911e-004 1.688013e+002 9.846471e-001 -3.067731e-001
1199955 9.979695e-001 9.409377e-003 2.395094e-005 -7.522132e+000 1.338297e-004 -1.309169e+002 9.961062e-001 -8.708014e-002
1499940 9.936879e-001 1.815985e-001 1.388594e-004 1.087328e+002 3.671418e-004 6.714756e+001 9.942788e-001 1.684261e-001
1799925 9.925548e-001 2.997703e-001 3.061273e-005 -5.735397e+000 2.177150e-004 1.418603e+002 9.907355e-001 7.276557e-002
2099910 9.993570e-001 4.069550e-002 3.344437e-005 1.001857e+002 1.244911e-004 1.270618e+002 9.992777e-001 -2.584921e-002
2399895 9.998549e-001 -9.373315e-002 7.575524e-005 1.026959e+002 1.496735e-004 -1.239143e+002 1.003265e+000 -6.710105e-002
2699880 9.997889e-001 -2.031021e-001 1.100787e-004 -8.650309e+001 3.527088e-005 -1.330769e+002 9.951265e-001 -2.517433e-001
2999865 9.999214e-001 -1.045832e-001 3.982456e-005 -4.673575e+001 6.057634e-005 -4.729834e+001 9.990104e-001 -2.493890e-001
3299850 1.000321e+000 -1.002078e-001 5.044589e-005 9.825816e+001 3.072072e-005 -2.214746e+001 9.986496e-001 -3.011823e-001
3599835 1.000460e+000 -8.640492e-002 4.775171e-005 2.311409e+001 1.059810e-004 8.537926e+000 9.987475e-001 -2.558813e-001
3899820 9.999949e-001 -1.105395e-001 3.475354e-005 1.799163e+002 9.127797e-005 1.099918e+002 9.991060e-001 -2.786444e-001
4199805 1.000432e+000 -1.715114e-001 2.191242e-005 1.053486e+002 3.083779e-005 8.862137e+001 9.994504e-001 -3.154922e-001
4499790 1.000421e+000 -1.557879e-001 7.479732e-005 1.443351e+002 1.623462e-004 1.434938e+002 9.995551e-001 -4.093686e-001
4799775 1.000104e+000 -1.576620e-001 5.970572e-005 1.768492e+002 9.656930e-005 1.384472e+002 1.000085e+000 -3.493426e-001
5099760 1.000697e+000 -8.576810e-002 1.869588e-005 5.558323e+001 2.028624e-004 -1.430053e+002 1.000713e+000 -2.668259e-001
5399745 1.000743e+000 -1.340018e-001 4.623947e-005 -1.733759e+002 2.211963e-004 -1.350089e+002 1.000246e+000 -3.114441e-001
5699730 1.000748e+000 -8.980358e-002 5.913639e-005 7.516990e+001 9.164433e-005 1.628849e+002 1.000861e+000 -3.417383e-001
5999715 9.996249e-001 -8.876234e-002 3.390817e-005 -9.630678e+001 4.886407e-005 1.120536e+002 1.000449e+000 -2.740303e-001
6299700 1.000339e+000 -1.216513e-001 2.034628e-005 5.849464e+001 1.468296e-004 -6.414936e+001 1.000076e+000 -4.302615e-001
6599685 1.000137e+000 -1.251167e-001 8.039811e-005 2.309670e+001 1.797908e-004 -1.655598e+002 9.996571e-001 -3.885728e-001
6899670 1.000142e+000 -1.330480e-001 4.109208e-005 7.791894e+000 7.615876e-005 8.841010e+001 9.998192e-001 -4.782847e-001
7199655 1.000187e+000 -1.359797e-001 9.421455e-005 -1.735368e+002 1.035717e-004 1.340472e+002 9.984520e-001 -4.938595e-001
7499640 1.000776e+000 -1.356360e-001 1.165028e-004 3.216396e+001 6.389414e-005 5.123645e+001 1.000537e+000 -4.592357e-001
7799625 1.000069e+000 -1.452927e-001 4.448922e-005 -2.581945e+001 1.228979e-004 1.031373e+002 9.989231e-001 -4.724827e-001
8099610 1.000026e+000 -1.488227e-001 4.825477e-005 -3.525039e+001 1.364620e-004 4.699575e+000 9.992446e-001 -5.059837e-001
8399595 9.999127e-001 -1.542400e-001 7.589292e-005 -7.256694e+001 8.012259e-005 2.467638e+000 9.995387e-001 -5.308729e-001
8699580 9.999822e-001 -1.457497e-001 5.214671e-005 -6.634661e+001 1.136650e-004 -6.727675e+001 9.991522e-001 -5.511754e-001
8999565 1.000599e+000 -1.486310e-001 3.405461e-005 1.015037e+002 2.822729e-004 1.608672e+002 1.000214e+000 -5.960177e-001
9299550 9.999667e-001 -1.404501e-001 4.804431e-005 -1.467395e+002 9.494855e-005 -2.480190e+001 9.987898e-001 -5.530596e-001
9599535 1.000419e+000 -2.085893e-001 9.075076e-005 1.694662e+002 5.648994e-005 -1.104494e+002 9.979048e-001 -7.176726e-001
9899520 1.000046e+000 -2.378498e-001 1.927330e-005 -1.257814e+002 6.476686e-005 8.616808e+001 9.972848e-001 -8.292755e-001
10199505 1.000651e+000 -1.647877e-001 6.069481e-005 1.515860e+002 2.765644e-005 8.329491e+000 9.981970e-001 -5.933627e-001
10499490 9.999189e-001 -1.229846e-001 3.552179e-005 4.382713e+001 1.994740e-004 -4.256824e+001 9.976475e-001 -6.017486e-001
10799475 1.000374e+000 -1.426468e-001 6.470383e-005 -9.461019e+001 9.446352e-005 -1.227385e+002 9.995745e-001 -5.676092e-001
11099460 1.000219e+000 -1.610931e-001 2.158699e-005 1.199240e+002 2.162555e-005 1.064388e+001 9.989373e-001 -5.635501e-001
11399445 9.998720e-001 -1.211362e-001 9.700683e-005 -7.190780e+001 1.824678e-004 -1.045792e+002 9.989091e-001 -6.210435e-001
11699430 9.997545e-001 -1.242982e-001 9.646001e-005 -8.133585e+001 1.268014e-004 -1.624813e+002 9.991850e-001 -5.590435e-001
11999415 1.000082e+000 -1.247207e-001 2.121036e-005 -4.286076e+001 1.316306e-004 -7.496036e+001 1.000117e+000 -6.773810e-001
12299400 9.996428e-001 -1.653148e-001 6.617695e-005 6.774278e+001 3.117581e-004 -1.341084e+002 1.001096e+000 -6.593331e-001
12599385 1.000179e+000 -1.855524e-001 9.085916e-006 -1.075611e+002 6.281667e-005 9.455540e+001 9.998498e-001 -7.073588e-001
12899370 1.000648e+000 -1.947955e-001 3.143967e-005 2.491507e+001 1.728276e-004 -1.414243e+002 9.994991e-001 -8.133025e-001
13199355 1.000679e+000 -1.827283e-001 4.844741e-005 3.015510e+001 2.698832e-004 1.894000e+001 9.986385e-001 -6.537339e-001
13499340 1.000281e+000 -1.986693e-001 8.118137e-005 -1.246516e+001 1.164923e-004 -6.784653e+001 9.981526e-001 -6.982776e-001
13799325 9.999418e-001 -1.934205e-001 3.144767e-005 -1.590511e+002 1.658228e-004 -1.551838e+002 9.967912e-001 -7.884324e-001
14099310 9.996057e-001 -1.849978e-001 1.405904e-004 -1.785546e+001 1.433150e-004 5.530872e+000 9.991491e-001 -6.949785e-001
14399295 1.000086e+000 -2.080695e-001 4.100539e-005 -5.420050e+001 2.566091e-004 -4.786612e+001 9.994564e-001 -7.175191e-001
14699280 9.997514e-001 -1.659506e-001 1.194906e-004 -1.468764e+002 1.705325e-004 -1.793899e+002 1.000079e+000 -7.461014e-001
14999265 1.000183e+000 -1.707985e-001 9.902857e-005 -1.716110e+002 2.490671e-004 3.575407e+001 9.984943e-001 -7.785667e-001
15299250 9.995335e-001 -1.596367e-001 1.221231e-004 1.354568e+002 1.132524e-004 1.684444e+002 9.994331e-001 -8.307192e-001
15599235 9.997953e-001 -1.732764e-001 3.050512e-005 -9.316774e-001 4.691074e-004 1.639385e+002 9.984556e-001 -8.306038e-001
15899220 1.000317e+000 -1.526405e-001 1.448499e-004 1.591109e+002 7.646246e-005 2.153024e+001 9.992586e-001 -7.518879e-001
16199205 1.000205e+000 -1.760967e-001 1.139112e-004 1.481456e+002 2.311469e-004 -1.766099e+002 1.000299e+000 -8.284316e-001
16499190 9.996792e-001 -2.123446e-001 8.586734e-005 1.450273e+002 3.190460e-004 1.266972e+002 1.000175e+000 -8.378552e-001
16799175 1.000536e+000 -1.674023e-001 6.701495e-005 -5.874562e+001 1.638757e-004 -7.837566e+001 1.000629e+000 -8.075440e-001
17099160 1.000173e+000 -1.965605e-001 6.086559e-005 -4.447735e+001 2.321197e-004 -1.102385e+002 1.001043e+000 -8.954297e-001
17399145 1.000484e+000 -2.540481e-001 2.767871e-005 -3.958871e+001 1.939392e-004 1.110931e+002 1.000371e+000 -8.710880e-001
17699130 1.000286e+000 -2.299576e-001 6.950759e-005 1.650910e+002 2.527884e-004 4.993971e+000 9.994502e-001 -8.071552e-001
17999115 9.999889e-001 -2.350932e-001 1.059838e-004 6.851868e+001 2.212528e-004 -7.997903e+001 9.992324e-001 -9.184691e-001
18299100 9.996471e-001 -2.122373e-001 6.370307e-005 1.755032e+002 2.754625e-004 1.030154e+002 9.997856e-001 -9.782102e-001
18599085 1.000510e+000 -2.219134e-001 6.747606e-005 -5.747404e+001 1.242788e-004 -1.737178e+002 9.991208e-001 -8.995624e-001
18899070 9.998472e-001 -2.389150e-001 1.513042e-005 -7.124328e+001 2.588378e-004 -7.699921e+001 9.991745e-001 -9.334726e-001
19199055 9.998063e-001 -2.473698e-001 5.092587e-005 -1.491051e+002 1.323229e-004 1.059193e+002 9.987788e-001 -8.800891e-001
19499040 1.000978e+000 -2.393828e-001 6.088234e-005 1.527968e+001 2.284621e-004 1.815173e+001 9.991245e-001 -9.057344e-001
19799025 1.000407e+000 -2.239571e-001 6.934404e-005 5.857487e+001 3.102281e-004 -1.288761e+002 9.980953e-001 -8.981900e-001
20099010 9.994811e-001 -1.914959e-001 8.693684e-005 1.347220e+002 3.643926e-004 4.922794e+001 9.969375e-001 -9.144195e-001
20398995 9.993081e-001 -2.074288e-001 3.775379e-005 -9.106824e+001 3.992303e-004 1.493412e+000 9.992332e-001 -9.542542e-001
20698980 9.996544e-001 -2.025158e-001 7.630156e-005 -3.576007e+000 2.193260e-004 1.394539e+002 9.988405e-001 -1.081088e+000
20998965 9.997931e-001 -1.997714e-001 4.792753e-005 -8.077156e+001 2.464342e-004 3.572843e+001 9.978635e-001 -9.776572e-001
21298950 9.997522e-001 -2.220270e-001 1.161309e-004 -1.063280e+001 7.710682e-005 2.111666e+001 9.979479e-001 -9.784842e-001
21598935 9.992771e-001 -2.351232e-001 2.629697e-005 -3.930331e+001 2.501041e-004 1.527711e+002 9.975649e-001 -9.857378e-001
21898920 9.994270e-001 -2.567717e-001 3.646769e-005 -3.518242e+001 3.770203e-005 1.424460e+002 9.981459e-001 -9.859132e-001
22198905 1.000252e+000 -2.389792e-001 4.239372e-005 -1.392513e+002 1.907121e-004 -1.505042e+002 9.987218e-001 -1.003327e+000
22498890 1.000218e+000 -2.168476e-001 1.106729e-004 -4.400092e+001 4.237888e-004 -1.448527e+002 9.993928e-001 -1.129341e+000
22798875 9.998891e-001 -2.236255e-001 5.366954e-005 -1.394337e+002 3.157634e-004 5.479946e+001 1.000183e+000 -1.158905e+000
23098860 1.000685e+000 -2.389794e-001 7.212556e-005 1.052129e+002 3.563053e-004 -6.885490e+001 1.001035e+000 -1.105047e+000
23398845 1.000638e+000 -2.306959e-001 1.648960e-004 -1.749017e+002 2.366163e-004 4.370761e+001 1.000286e+000 -1.158410e+000
23698830 1.000336e+000 -2.356565e-001 7.894407e-005 1.342951e+002 1.926631e-004 7.917226e+000 9.968253e-001 -1.149071e+000
23998815 1.000163e+000 -2.462356e-001 6.069716e-005 8.461493e+000 1.263337e-004 -1.082557e+002 9.968083e-001 -1.065347e+000
24298800 9.995266e-001 -2.425461e-001 5.923630e-005 1.477931e+002 2.553776e-004 7.352372e+001 9.972994e-001 -1.244960e+000
24598785 1.000823e+000 -2.690329e-001 6.144390e-005 4.810550e+000 1.361857e-004 -7.924170e+000 9.981483e-001 -1.203003e+000
24898770 1.000321e+000 -3.027558e-001 3.156907e-005 9.882271e+001 2.747232e-005 3.029475e+001 9.995351e-001 -1.237369e+000
25198755 9.998823e-001 -3.306902e-001 2.544271e-005 -1.496620e+002 9.041989e-005 1.467304e+002 1.000134e+000 -1.149327e+000
25498740 1.000042e+000 -2.840661e-001 5.669127e-005 -7.313067e+001 2.663117e-004 -1.141062e+002 9.988652e-001 -1.227672e+000
25798725 9.998273e-001 -3.097098e-001 7.815752e-005 6.124773e+001 1.980987e-004 -1.406412e+002 9.985716e-001 -1.289173e+000
26098710 1.000886e+000 -2.865270e-001 9.475070e-005 9.061574e+001 9.549659e-005 5.576304e+001 9.996262e-001 -1.226892e+000
26398695 1.000762e+000 -2.911915e-001 6.096062e-005 2.487855e+001 1.372976e-004 -1.462869e+002 9.998905e-001 -1.298064e+000
26698680 1.000274e+000 -2.994273e-001 2.963933e-005 -2.238689e+001 6.075577e-005 -1.784650e+002 9.997786e-001 -1.267130e+000
26998665 1.000638e+000 -2.801403e-001 1.160640e-004 1.790237e+002 8.719668e-005 -1.149472e+002 9.985709e-001 -1.253018e+000
27298650 9.997862e-001 -2.746811e-001 1.565272e-004 -1.031069e+002 1.921940e-004 -1.305715e+002 9.988469e-001 -1.275408e+000
27598635 9.999655e-001 -2.654243e-001 2.115518e-005 -1.790688e+002 1.102523e-004 8.105897e+001 1.000641e+000 -1.331517e+000
27898620 1.000446e+000 -3.007793e-001 1.476684e-004 4.328499e+001 2.137147e-004 3.901816e+001 1.000582e+000 -1.318282e+000
28198605 1.000024e+000 -3.229969e-001 5.862896e-005 5.172072e+001 2.450871e-004 -8.345374e+001 9.995489e-001 -1.328832e+000
28498590 9.999439e-001 -3.082588e-001 1.360413e-004 7.087082e+000 2.661499e-004 1.688188e+002 9.979649e-001 -1.401056e+000
28798575 1.000241e+000 -3.121235e-001 1.671153e-004 -1.531661e+002 2.432528e-004 4.311795e+001 9.996038e-001 -1.384560e+000
29098560 9.999437e-001 -3.422449e-001 8.792226e-005 1.268163e+002 1.371663e-004 -7.158739e+001 9.988340e-001 -1.309327e+000
29398545 1.000161e+000 -2.680401e-001 1.155935e-004 1.343418e+001 1.929125e-004 1.780422e+002 9.995424e-001 -1.360167e+000
29698530 1.000002e+000 -2.675110e-001 7.009591e-005 -2.653317e+001 2.854580e-004 4.077917e+001 1.000814e+000 -1.344341e+000
29998515 9.998528e-001 -2.884209e-001 6.715224e-005 -4.425281e+001 9.911696e-005 -2.741921e+001 1.000190e+000 -1.385645e+000
30298500 9.995134e-001 -2.964164e-001 6.549741e-005 -1.511761e+002 1.512449e-004 -1.309316e+002 1.000139e+000 -1.461725e+000
30598485 1.000098e+000 -3.117540e-001 1.005181e-004 6.714688e+001 1.608747e-004 6.695863e+001 1.000070e+000 -1.424603e+000
30898470 9.995795e-001 -2.971497e-001 4.284319e-005 1.026117e+002 8.843575e-005 -4.744990e+001 9.987655e-001 -1.459478e+000
31198455 1.000207e+000 -2.862864e-001 1.374780e-004 -1.246070e+002 2.849543e-004 3.968327e+001 9.988689e-001 -1.436207e+000
31498440 9.997625e-001 -3.048370e-001 7.826657e-005 -1.641347e+002 7.220125e-005 5.451217e+001 1.000215e+000 -1.449185e+000
31798425 9.999917e-001 -3.273882e-001 8.072326e-005 -2.111202e+001 1.125833e-004 1.656153e+002 9.995485e-001 -1.452741e+000
32098410 1.000721e+000 -3.474812e-001 5.983177e-005 1.374916e+002 1.815237e-004 8.067365e+001 9.995832e-001 -1.445765e+000
32398395 1.001213e+000 -3.436452e-001 1.270211e-004 3.054042e+001 1.604591e-004 8.598647e+001 9.999242e-001 -1.455442e+000
32698380 1.000558e+000 -3.414000e-001 1.175647e-004 -1.842620e+001 2.284241e-004 -1.637416e+002 1.000732e+000 -1.463176e+000
32998365 1.000683e+000 -3.221047e-001 4.907225e-005 1.770752e+002 2.468762e-004 5.747081e+001 1.000894e+000 -1.568622e+000
33298350 1.000593e+000 -3.460367e-001 4.804242e-005 9.305497e+001 2.597545e-004 -1.172243e+002 9.990028e-001 -1.568247e+000
33598335 1.000281e+000 -3.874317e-001 5.988003e-005 -5.283836e+001 1.325606e-004 1.655889e+002 9.997006e-001 -1.466244e+000
33898320 9.995498e-001 -3.543061e-001 1.255204e-004 -2.964427e+000 2.273547e-004 1.664578e+001 9.991529e-001 -1.547912e+000
34198305 9.997523e-001 -3.614804e-001 6.089876e-005 1.436915e+002 1.707842e-004 -1.696455e+002 9.983847e-001 -1.601466e+000
34498290 1.000464e+000 -3.866886e-001 1.315018e-004 -9.431853e+001 1.193433e-004 1.039261e+002 9.976833e-001 -1.619398e+000
34798275 9.996276e-001 -4.001052e-001 1.764562e-005 9.554753e+001 1.167249e-004 3.513238e+000 9.988745e-001 -1.591806e+000
35098260 1.000103e+000 -3.847490e-001 1.429292e-005 1.006280e+002 1.749620e-004 -8.448740e+001 1.000257e+000 -1.597477e+000
35398245 1.000304e+000 -4.197877e-001 1.652628e-004 1.011517e+002 2.464653e-004 1.055325e+002 1.000292e+000 -1.647544e+000
35698230 9.994803e-001 -3.702569e-001 2.737880e-005 -1.775729e+002 1.473776e-004 -2.391998e+001 1.000065e+000 -1.608706e+000
35998215 1.000392e+000 -4.067933e-001 5.192115e-005 4.195697e+001 1.902896e-004 -1.649550e+002 1.001086e+000 -1.649747e+000
36298200 1.000084e+000 -3.638291e-001 4.009232e-005 -6.521176e+001 3.158124e-004 5.039039e+001 1.000107e+000 -1.721563e+000
36598185 1.000508e+000 -3.873571e-001 1.275092e-004 -8.558786e+001 3.786996e-005 -1.301989e+002 9.998227e-001 -1.674187e+000
36898170 1.000794e+000 -3.943137e-001 5.272325e-005 -1.090883e+002 2.088606e-004 -1.120394e+002 9.985246e-001 -1.665926e+000
37198155 1.000253e+000 -4.055319e-001 2.575151e-005 3.663746e+000 2.662097e-005 -8.796695e+001 9.995227e-001 -1.729693e+000
37498140 1.000539e+000 -3.979281e-001 4.360746e-005 -1.641610e+002 1.582417e-004 -3.632628e+001 9.999947e-001 -1.763095e+000
37798125 1.000631e+000 -3.879088e-001 5.198935e-005 6.801900e+001 1.723773e-004 -1.292396e+002 9.996886e-001 -1.721682e+000
38098110 9.999335e-001 -3.715974e-001 6.866797e-005 -5.849119e+001 2.354743e-004 8.712411e+000 9.996639e-001 -1.820153e+000
38398095 9.995313e-001 -3.937173e-001 8.754166e-006 8.145066e+001 8.441191e-005 1.533979e+002 9.987403e-001 -1.827260e+000
38698080 1.000167e+000 -4.034129e-001 2.053964e-005 -1.082511e+002 1.789718e-005 1.653024e+002 9.991469e-001 -1.874737e+000
38998065 9.996667e-001 -3.962839e-001 1.190214e-004 1.367269e+002 1.158713e-004 1.842484e+000 9.992813e-001 -1.775156e+000
39298050 1.000280e+000 -3.798306e-001 9.414434e-005 -7.532240e+001 9.832860e-005 -7.968326e+001 9.989861e-001 -1.812173e+000
39598035 1.000671e+000 -3.751278e-001 4.514779e-005 1.693209e+002 1.397901e-004 7.806096e+001 1.000496e+000 -1.793759e+000
39898020 1.000335e+000 -3.578311e-001 2.843189e-005 -1.597337e+002 9.778147e-005 5.119573e+001 1.001308e+000 -1.777016e+000
40198005 1.000226e+000 -3.541946e-001 8.686596e-005 1.721858e+002 6.230448e-005 -1.247675e+002 1.001693e+000 -1.822421e+000
40497990 1.000765e+000 -4.129518e-001 1.498214e-004 -1.308320e+002 1.938544e-004 -4.868958e+001 1.000926e+000 -1.873144e+000
40797975 1.000495e+000 -3.959934e-001 1.752744e-004 -6.851002e+001 1.874612e-004 -1.084494e+000 1.001693e+000 -2.015991e+000
41097960 9.991755e-001 -3.579214e-001 1.889627e-004 1.614319e+002 2.724443e-004 1.613383e+002 1.000212e+000 -1.862151e+000
41397945 1.000143e+000 -3.224713e-001 2.545270e-005 1.107757e+002 3.186575e-004 7.441786e+000 1.001076e+000 -1.912823e+000
41697930 9.999523e-001 -4.075225e-001 1.110423e-004 1.641123e+002 1.807204e-004 -6.046879e+001 1.001409e+000 -1.904990e+000
41997915 9.998896e-001 -4.214914e-001 1.012199e-004 1.327224e+002 1.457400e-004 -1.759979e+002 9.988595e-001 -1.833843e+000
42297900 1.001007e+000 -4.223894e-001 9.605626e-005 -1.567245e+002 4.967481e-004 1.480110e+002 9.998089e-001 -1.844460e+000
42597885 1.000789e+000 -4.004769e-001 2.763064e-005 -4.387521e+001 1.325516e-004 1.095429e+002 1.000170e+000 -1.932644e+000
42897870 1.000418e+000 -3.648554e-001 1.709529e-004 7.785683e+001 3.191026e-004 1.388856e+002 1.000303e+000 -2.050124e+000
43197855 9.999617e-001 -3.666816e-001 1.182457e-004 -1.543861e+002 1.223537e-004 -5.147204e+001 9.987119e-001 -1.994622e+000
43497840 1.000713e+000 -4.404602e-001 1.413698e-004 1.084911e+002 3.045572e-004 -1.660753e+002 9.995357e-001 -2.076518e+000
43797825 1.000444e+000 -3.368205e-001 1.253071e-004 7.500655e+001 1.637429e-004 -1.304635e+002 1.000242e+000 -2.127961e+000
44097810 1.000564e+000 -4.289554e-001 1.206029e-004 -1.571967e+002 1.345188e-004 8.981206e+001 1.001091e+000 -2.021897e+000
44397795 9.989078e-001 -4.010607e-001 7.949114e-005 4.621412e+001 3.112137e-004 5.100535e+001 1.000373e+000 -2.053924e+000
44697780 1.001026e+000 -4.125029e-001 1.196701e-004 -4.230226e+001 2.595328e-004 -3.850393e+001 1.001770e+000 -2.204543e+000
44997765 1.001448e+000 -4.506903e-001 1.461422e-005 1.040696e+002 1.976650e-004 8.038713e+001 1.002603e+000 -2.149535e+000
45297750 1.000665e+000 -4.405336e-001 5.810922e-005 1.769058e+002 1.361635e-004 8.616095e+001 1.002274e+000 -2.114557e+000
45597735 1.002024e+000 -4.475230e-001 1.284141e-004 -6.276406e+001 3.051657e-004 -6.408357e+001 1.001618e+000 -2.162861e+000
45897720 1.001312e+000 -3.910803e-001 2.078582e-004 -4.156613e+001 3.568162e-004 -5.256137e+001 1.000838e+000 -2.169625e+000
46197705 1.001412e+000 -4.855384e-001 1.169751e-004 1.612013e+002 1.677747e-004 2.657151e+001 1.001747e+000 -2.185747e+000
46497690 1.000892e+000 -4.306552e-001 9.715731e-005 -1.722045e+002 2.218129e-004 -6.866871e+001 1.000330e+000 -2.094151e+000
46797675 1.001018e+000 -4.651060e-001 4.298151e-005 -1.770492e+002 2.553221e-004 -4.462818e+001 1.001772e+000 -2.172054e+000
47097660 1.001258e+000 -4.646028e-001 6.511437e-005 -1.316264e+002 6.876924e-005 2.572731e+001 1.000288e+000 -2.218419e+000
47397645 1.000468e+000 -4.512137e-001 2.116551e-004 9.137788e+001 3.053025e-004 -9.451589e+001 1.000175e+000 -2.326969e+000
