!Agilent Technologies,N5230C,SG49000117,A.08.50.07
!Agilent N5230C: A.08.50.07
!Date: Thursday, May 16, 2024 21:21:46
!Correction: S11(Full 2 Port(1,2)) 
!S21(Full 2 Port(1,2)) 
!S12(Full 2 Port(1,2)) 
!S22(Full 2 Port(1,2)) 
!S2P File: Measurements: S11, S21, S12, S22:
# Hz S  MA   R 50
300000 1.004326e+000 -4.383970e-001 1.028396e-004 -9.716495e+000 3.871028e-004 -8.675217e+001 1.014108e+000 -5.590349e-001
599985 9.826525e-001 4.160128e-001 2.084454e-005 7.169792e+001 1.061351e-004 -8.130872e+001 9.649816e-001 5.709702e-001
899970 9.971403e-001 -8.883051e-002 3.341962e-005 9.869445e+000 2.264296e-004 -7.306431e+001 9.858797e-001 -2.469134e-001
1199955 9.986778e-001 -3.297010e-002 1.879071e-005 -6.279744e+001 2.072322e-004 -1.203458e+002 9.965968e-001 -1.702253e-001
1499940 9.943208e-001 1.991827e-001 1.196677e-004 1.134325e+002 1.763894e-004 9.271535e+001 9.938660e-001 1.310382e-001
1799925 9.925094e-001 2.496355e-001 3.944483e-005 -1.157722e+002 8.935588e-005 -3.008593e+001 9.907919e-001 -9.224636e-003
2099910 9.984094e-001 3.141850e-002 8.087130e-005 -1.275055e+002 1.212952e-004 2.772158e+001 9.993567e-001 2.419236e-002
2399895 9.993737e-001 -1.161869e-001 7.224477e-005 4.338709e+001 1.851723e-004 1.488138e+002 1.004123e+000 -4.880040e-002
2699880 9.996772e-001 -2.076828e-001 9.923977e-005 -5.879895e+001 1.911779e-004 -1.437024e-001 9.951228e-001 -2.102033e-001
2999865 9.999117e-001 -1.389607e-001 5.375735e-005 -1.294612e+002 1.440853e-004 3.367039e+001 9.988515e-001 -1.869675e-001
3299850 1.000601e+000 -1.149660e-001 2.726607e-005 4.339791e+001 1.310893e-004 -1.223647e+002 9.992187e-001 -2.570632e-001
3599835 1.000229e+000 -1.046461e-001 3.508185e-005 -2.271562e+001 4.872483e-005 -1.133881e+002 9.980974e-001 -2.287946e-001
3899820 9.996745e-001 -1.353828e-001 6.454250e-005 -1.581439e+002 2.136159e-004 -1.556736e+002 9.994613e-001 -1.998684e-001
4199805 1.000840e+000 -1.884751e-001 1.121889e-004 1.512076e+002 1.499935e-004 1.312979e+001 9.997516e-001 -2.957660e-001
4499790 1.000462e+000 -1.537558e-001 1.141815e-004 -6.709209e+001 6.578867e-005 1.180589e+002 1.000862e+000 -2.445290e-001
4799775 1.000585e+000 -1.229023e-001 7.745867e-005 -1.085222e+002 1.118838e-004 -7.060621e+001 1.000763e+000 -2.313529e-001
5099760 1.001137e+000 -1.176976e-001 2.664888e-005 -1.603631e+002 1.048734e-004 1.325515e+002 1.001017e+000 -2.207764e-001
5399745 1.000458e+000 -9.796965e-002 1.089004e-004 1.755904e+002 7.752572e-005 3.772050e+000 1.000489e+000 -1.868416e-001
5699730 1.000773e+000 -7.017944e-002 6.513832e-005 1.720196e+002 2.444074e-005 -1.241157e+002 1.001588e+000 -3.005356e-001
5999715 9.993564e-001 -7.196456e-002 3.150299e-006 -5.870456e+001 2.226048e-004 -9.886878e+001 1.000791e+000 -1.945238e-001
6299700 1.000066e+000 -1.119989e-001 2.618976e-005 7.356557e+001 1.217791e-004 5.657912e+001 1.001011e+000 -2.581850e-001
6599685 9.997202e-001 -1.260566e-001 1.167901e-004 -5.051302e+001 1.868663e-004 -5.766925e+001 1.000752e+000 -2.573268e-001
6899670 9.998092e-001 -1.283960e-001 9.279196e-005 -1.712136e+002 5.778280e-005 1.295174e+002 1.000783e+000 -3.718578e-001
7199655 9.999750e-001 -1.239885e-001 2.974679e-005 -8.854292e+001 2.101354e-004 6.338967e+001 9.995013e-001 -3.941546e-001
7499640 9.998316e-001 -1.379492e-001 5.162049e-005 8.927831e+001 4.765104e-005 -1.040511e+002 1.000700e+000 -4.494884e-001
7799625 1.000181e+000 -1.605983e-001 2.167315e-005 -1.626801e+002 7.307417e-005 7.083780e+001 9.980938e-001 -3.313811e-001
8099610 1.000025e+000 -1.477885e-001 5.806404e-005 -1.352618e+002 1.009462e-004 1.510198e+002 9.992789e-001 -3.796149e-001
8399595 1.000075e+000 -1.525108e-001 6.828717e-005 -1.043835e+002 2.343322e-004 -2.623175e+001 9.998696e-001 -4.075431e-001
8699580 1.000158e+000 -1.228882e-001 5.232509e-005 -1.070426e+002 1.164474e-004 1.641203e+002 9.994108e-001 -4.093734e-001
8999565 1.000374e+000 -1.534722e-001 9.560913e-005 8.093545e+001 1.101648e-004 1.323601e+002 9.996415e-001 -4.354075e-001
9299550 1.000613e+000 -1.459206e-001 1.922515e-005 -8.053162e+001 3.153284e-005 1.262576e+002 9.988631e-001 -3.780694e-001
9599535 1.000404e+000 -2.021241e-001 7.923226e-005 -3.975809e+001 3.099165e-005 1.100525e+002 9.983682e-001 -5.861022e-001
9899520 9.999859e-001 -2.535799e-001 5.865248e-005 3.082452e+001 2.209207e-005 -1.243112e+002 9.977160e-001 -6.707560e-001
10199505 9.997742e-001 -1.438486e-001 4.761534e-005 -1.494838e+002 3.055804e-004 6.834447e+001 9.984676e-001 -4.101972e-001
10499490 1.000109e+000 -1.407040e-001 3.736360e-005 -1.129027e+002 1.047051e-005 1.691590e+002 9.993778e-001 -4.080410e-001
10799475 9.999279e-001 -1.511591e-001 2.272143e-005 -1.729404e+002 1.482998e-004 1.468035e+002 9.991502e-001 -3.796399e-001
11099460 9.998864e-001 -1.405106e-001 9.431154e-005 -7.258486e+001 7.656452e-005 -1.286691e+002 9.995770e-001 -3.951896e-001
11399445 1.000077e+000 -1.288968e-001 9.808708e-005 -8.941828e+001 1.364431e-004 5.827226e+001 9.983959e-001 -4.048627e-001
11699430 1.000644e+000 -1.328773e-001 1.122398e-005 1.710499e+002 2.008335e-004 -6.516401e+001 1.000174e+000 -4.382153e-001
11999415 9.999537e-001 -1.252197e-001 4.034246e-005 -5.676323e+001 2.583272e-004 5.374659e+001 1.000726e+000 -4.392255e-001
12299400 1.000265e+000 -1.467589e-001 3.865344e-005 -1.438600e+002 4.479896e-005 1.648642e+002 1.000060e+000 -4.375564e-001
12599385 1.000605e+000 -1.975596e-001 1.003064e-004 -1.612347e+002 1.810424e-004 7.211845e+001 9.997876e-001 -5.118188e-001
12899370 1.000221e+000 -1.838405e-001 4.157278e-005 -6.893134e+001 2.481264e-004 1.357024e+002 9.990833e-001 -6.079472e-001
13199355 1.000165e+000 -1.676547e-001 1.438774e-004 -4.771251e+000 2.217109e-004 -1.426867e+002 9.990248e-001 -4.830524e-001
13499340 1.000228e+000 -1.727358e-001 7.518357e-005 2.727204e+001 7.886511e-005 -1.199868e+002 9.983268e-001 -4.821408e-001
13799325 1.000225e+000 -1.802779e-001 1.925902e-005 -5.710386e+001 1.436319e-004 -7.880177e+000 9.981017e-001 -4.349366e-001
14099310 1.000498e+000 -1.859816e-001 4.988453e-005 -4.713345e+001 2.628652e-004 -7.299989e+001 1.000582e+000 -4.589445e-001
14399295 9.999213e-001 -2.032926e-001 1.205781e-004 -1.141562e+002 1.737544e-004 1.741827e+002 9.990710e-001 -4.580512e-001
14699280 1.000146e+000 -1.850207e-001 7.086422e-005 2.816646e+001 1.800136e-004 6.749278e+001 9.995807e-001 -4.527838e-001
14999265 1.000469e+000 -1.856472e-001 3.459116e-005 1.163168e+002 1.464802e-004 -7.295156e+001 9.994066e-001 -5.909608e-001
15299250 9.994574e-001 -1.873008e-001 1.701351e-004 1.584268e+002 1.623257e-004 4.941209e+001 9.984835e-001 -5.789044e-001
15599235 1.000264e+000 -1.730146e-001 7.053441e-005 1.152247e+002 1.494918e-004 -1.100460e+002 9.994066e-001 -5.699092e-001
15899220 1.000405e+000 -1.955041e-001 4.684137e-005 -1.469888e+002 2.585518e-004 1.068752e+002 1.000427e+000 -5.043240e-001
16199205 1.000039e+000 -1.376508e-001 9.162222e-005 8.121126e+001 2.542634e-004 -7.766029e+001 1.000566e+000 -5.532002e-001
16499190 9.999859e-001 -1.810358e-001 1.521595e-004 1.116571e+002 1.856439e-004 1.320787e+002 1.000480e+000 -5.766406e-001
16799175 9.999833e-001 -1.696836e-001 2.722945e-005 6.993526e+001 2.289037e-004 -1.579829e+001 1.000938e+000 -6.189630e-001
17099160 9.995232e-001 -2.146157e-001 6.461031e-005 1.677169e+002 8.187347e-005 -1.459017e+002 1.000603e+000 -5.499278e-001
17399145 1.000284e+000 -2.556993e-001 4.216909e-005 -1.198665e+002 2.748046e-004 2.445619e+001 1.000253e+000 -5.526752e-001
17699130 1.000026e+000 -2.161732e-001 1.065538e-004 1.367117e+002 7.910858e-005 -1.117332e+002 1.000080e+000 -5.887319e-001
17999115 1.000302e+000 -2.248970e-001 5.539406e-005 -3.628614e+001 3.233352e-004 5.710398e+001 9.992955e-001 -5.800096e-001
18299100 1.000326e+000 -2.036720e-001 3.117745e-005 7.765225e+001 1.245241e-004 1.775972e+002 1.000065e+000 -6.462358e-001
18599085 9.996595e-001 -2.311150e-001 4.935094e-005 1.408217e+002 2.465918e-004 1.215184e+002 9.998289e-001 -6.391965e-001
18899070 9.996638e-001 -2.295236e-001 6.117032e-005 -1.112668e+001 3.037646e-004 -1.155275e+001 9.995213e-001 -6.627166e-001
19199055 1.000609e+000 -2.235474e-001 7.206481e-005 1.345837e+002 1.188874e-004 -1.911727e+001 9.996268e-001 -5.695272e-001
19499040 1.000459e+000 -2.152976e-001 4.307550e-005 -1.540700e+002 4.152738e-004 6.088164e+001 1.000268e+000 -5.555469e-001
19799025 1.000543e+000 -2.165333e-001 1.270229e-004 1.032625e+002 1.115770e-004 -1.857346e+001 9.991708e-001 -6.366436e-001
20099010 1.000154e+000 -2.365013e-001 1.009063e-004 1.556617e+002 1.473635e-004 5.525988e+001 9.990820e-001 -6.685444e-001
20398995 9.996887e-001 -2.604674e-001 1.992887e-005 1.009099e+002 1.058175e-004 1.761933e+002 9.975575e-001 -7.329696e-001
20698980 9.999447e-001 -1.544427e-001 9.040478e-005 6.544963e+001 2.549443e-004 -1.449642e+002 9.991916e-001 -6.950951e-001
20998965 9.999137e-001 -2.343680e-001 3.666081e-005 7.584133e+001 2.839844e-004 2.538627e+001 9.992199e-001 -6.358695e-001
21298950 9.988142e-001 -1.644709e-001 4.810487e-005 1.606615e+002 6.672883e-005 -1.330214e+002 9.977930e-001 -5.918666e-001
21598935 1.000243e+000 -2.465179e-001 4.898023e-005 1.677345e+002 1.216899e-004 -8.402978e+001 9.986571e-001 -6.722884e-001
21898920 9.995567e-001 -2.490703e-001 8.028165e-005 -7.620277e+001 4.067918e-004 -1.468201e+002 9.988385e-001 -6.560352e-001
22198905 1.000226e+000 -2.445027e-001 7.006896e-005 4.353877e+001 1.170940e-004 3.964959e+001 9.989647e-001 -6.650710e-001
22498890 9.998545e-001 -2.552921e-001 1.047663e-004 6.972598e+001 3.017447e-004 6.387507e+000 1.000492e+000 -6.826026e-001
22798875 1.000420e+000 -2.563719e-001 9.686646e-005 1.050154e+001 6.819188e-005 -1.698138e+002 1.000304e+000 -6.911900e-001
23098860 9.998959e-001 -2.496636e-001 7.833365e-005 1.484135e+001 4.329600e-005 -1.385344e+001 9.993277e-001 -6.884167e-001
23398845 1.000566e+000 -3.014783e-001 4.123896e-005 -1.159486e+002 4.271754e-004 -1.004210e+002 1.000332e+000 -7.129470e-001
23698830 9.999701e-001 -2.753547e-001 7.564999e-005 1.356399e+002 1.382283e-004 6.893049e+001 9.978685e-001 -7.033895e-001
23998815 1.000091e+000 -3.134756e-001 3.084249e-005 -7.935629e+001 8.713218e-006 -4.860100e+001 9.981142e-001 -6.698702e-001
24298800 9.998370e-001 -2.591035e-001 6.410895e-005 -4.168127e+000 9.576198e-005 1.250111e+002 9.986301e-001 -7.428483e-001
24598785 9.997552e-001 -2.827493e-001 5.528252e-005 1.157819e+002 8.373519e-005 -2.291531e+001 1.000655e+000 -7.304326e-001
24898770 1.000346e+000 -3.104956e-001 6.724362e-005 -1.367865e+002 1.373427e-004 1.037476e+002 1.000060e+000 -6.476963e-001
25198755 1.000898e+000 -2.664540e-001 5.240308e-005 1.494862e+002 3.427076e-004 -5.004650e+001 1.000053e+000 -8.440781e-001
25498740 9.994310e-001 -2.758994e-001 4.962612e-005 5.186987e+001 1.974133e-004 9.431137e+000 9.995771e-001 -7.745433e-001
25798725 9.994388e-001 -2.700700e-001 9.331008e-005 -2.920720e+001 1.519403e-004 1.342867e+002 9.985644e-001 -8.795418e-001
26098710 1.000049e+000 -2.833646e-001 5.623902e-005 3.759717e+001 8.510075e-005 -6.533882e+001 1.000274e+000 -8.144652e-001
26398695 1.001141e+000 -2.843276e-001 1.358519e-004 1.680742e+002 1.989638e-004 1.273753e+002 1.001055e+000 -8.859833e-001
26698680 1.000716e+000 -2.777657e-001 4.841949e-005 -1.381339e+002 6.904549e-005 1.352151e+002 9.994286e-001 -8.349798e-001
26998665 1.000615e+000 -2.879900e-001 9.348976e-005 -6.257016e+001 2.315439e-004 -1.553394e+002 9.994027e-001 -8.219654e-001
27298650 9.994352e-001 -2.784262e-001 3.112426e-005 1.135481e+002 1.617154e-004 -2.498043e+001 9.995769e-001 -8.696957e-001
27598635 9.998790e-001 -2.680458e-001 1.293050e-005 1.761792e+002 2.998184e-004 5.919379e+001 1.001007e+000 -8.145593e-001
27898620 9.995408e-001 -2.516336e-001 6.972253e-005 4.061692e+001 3.452176e-005 -9.970011e+001 1.001185e+000 -8.913939e-001
28198605 1.000165e+000 -3.135135e-001 5.137111e-005 -8.265704e+001 2.198757e-004 1.607009e+001 1.000301e+000 -9.267275e-001
28498590 1.000159e+000 -2.899778e-001 6.075040e-005 -8.189597e+001 2.043801e-004 1.748728e+002 9.992018e-001 -8.854471e-001
28798575 9.995525e-001 -3.687370e-001 2.807967e-005 -1.081913e+002 3.307509e-004 3.809818e+001 9.981040e-001 -9.817374e-001
29098560 1.000777e+000 -3.055342e-001 9.071107e-005 -7.291801e+001 1.045707e-004 -4.359148e+001 9.988583e-001 -8.087891e-001
29398545 9.998995e-001 -2.788869e-001 1.452370e-005 5.843579e+001 1.164955e-004 1.402936e+002 1.001444e+000 -8.626113e-001
29698530 1.000180e+000 -3.099815e-001 1.441481e-004 -1.343837e+002 2.718280e-004 -6.378058e+001 1.000847e+000 -8.450549e-001
29998515 1.000201e+000 -3.034416e-001 1.154840e-004 6.249773e+001 1.083662e-004 1.359161e+002 1.001670e+000 -8.390784e-001
30298500 1.000525e+000 -3.360195e-001 1.233113e-004 1.226983e+002 2.233089e-004 -3.644333e+001 1.001221e+000 -9.819282e-001
30598485 1.000060e+000 -2.898636e-001 7.464968e-005 8.187536e+001 1.170095e-004 -1.737995e+002 9.996589e-001 -9.235411e-001
30898470 1.000516e+000 -2.612732e-001 3.126446e-005 1.006880e+002 1.866805e-004 6.860838e+001 9.999136e-001 -1.025220e+000
31198455 1.000094e+000 -2.737373e-001 6.772659e-005 3.169681e+001 7.089145e-005 -1.630347e+000 9.992406e-001 -9.836162e-001
31498440 1.000379e+000 -3.437023e-001 8.447277e-005 1.295830e+002 2.363697e-004 1.249696e+002 1.000351e+000 -9.562108e-001
31798425 1.000740e+000 -4.069053e-001 5.908649e-005 7.371063e+001 1.089131e-004 -1.254970e+002 1.001163e+000 -8.725218e-001
32098410 1.000416e+000 -3.823319e-001 1.144744e-004 1.165247e+002 1.450630e-004 -8.800967e+001 1.000259e+000 -9.579683e-001
32398395 1.000153e+000 -3.784262e-001 1.729245e-004 1.728092e+002 1.693519e-004 8.147945e+001 1.000191e+000 -9.261901e-001
32698380 1.000864e+000 -3.221244e-001 2.173746e-005 3.673979e+001 1.846009e-005 -6.695384e+001 1.000454e+000 -9.003354e-001
32998365 1.000800e+000 -3.518126e-001 7.055177e-005 -1.322092e+002 1.495531e-004 1.568316e+002 1.000404e+000 -9.953258e-001
33298350 1.000808e+000 -3.239329e-001 1.150327e-004 -1.480250e+002 7.558330e-005 7.615704e+001 1.000477e+000 -9.789355e-001
33598335 1.000112e+000 -3.575444e-001 3.292202e-005 1.124900e+002 2.287013e-004 -7.666109e+001 1.000498e+000 -1.011283e+000
33898320 1.000297e+000 -3.762780e-001 5.475213e-005 -1.207973e+002 2.333763e-004 1.027984e+002 9.997621e-001 -1.001791e+000
34198305 1.000022e+000 -3.689057e-001 8.460309e-005 -2.791739e+001 5.762185e-005 -8.399675e+000 9.999805e-001 -1.002393e+000
34498290 1.000091e+000 -3.934058e-001 4.693840e-005 1.393375e+002 7.489097e-005 1.090258e+002 9.991928e-001 -9.759459e-001
34798275 9.999464e-001 -3.916886e-001 1.137391e-005 -1.325345e+002 2.172436e-004 2.794215e+001 9.996173e-001 -9.651935e-001
35098260 1.000208e+000 -4.061646e-001 6.834459e-005 -1.161622e+002 4.059770e-005 -3.900362e+001 1.000766e+000 -9.931010e-001
35398245 9.999462e-001 -3.933640e-001 4.119495e-005 2.015907e+001 8.036711e-005 1.665885e+002 1.001552e+000 -1.017828e+000
35698230 1.000289e+000 -4.227909e-001 1.285951e-004 8.756718e+001 1.607425e-004 1.180910e+002 1.001366e+000 -1.016132e+000
35998215 9.996113e-001 -3.969372e-001 8.009672e-006 1.608179e+002 1.933260e-005 1.667079e+002 1.000785e+000 -1.052449e+000
36298200 1.000345e+000 -3.916735e-001 1.082046e-004 -6.644987e+001 8.702989e-005 1.555262e+002 1.000394e+000 -1.139374e+000
36598185 1.000313e+000 -4.099917e-001 1.438907e-004 1.142522e+002 1.208400e-004 -6.163516e+001 9.988602e-001 -1.129640e+000
36898170 1.000665e+000 -3.740289e-001 3.311468e-005 -1.433392e+002 1.594687e-004 -1.376986e+002 9.999198e-001 -1.054741e+000
37198155 1.000579e+000 -3.967975e-001 4.698550e-005 1.431770e+002 8.340904e-005 6.695882e+001 1.000476e+000 -1.047575e+000
37498140 1.000351e+000 -3.587824e-001 7.166024e-005 7.453757e+001 5.744258e-005 -1.561934e+002 1.000914e+000 -1.104444e+000
37798125 9.996222e-001 -3.800206e-001 6.106992e-005 1.765134e+002 2.054508e-004 9.587815e+001 9.993057e-001 -1.098029e+000
38098110 9.998691e-001 -3.797947e-001 7.430970e-005 1.181492e+002 1.502050e-004 -3.952140e+001 1.000091e+000 -1.132915e+000
38398095 9.994208e-001 -3.845838e-001 3.182357e-005 1.795417e+002 9.721467e-005 -1.311109e+002 9.995938e-001 -1.203604e+000
38698080 1.000023e+000 -3.701735e-001 1.510956e-004 -1.498621e+002 4.364721e-005 3.850630e+001 9.989645e-001 -1.148020e+000
38998065 1.000418e+000 -4.281235e-001 4.508603e-005 2.450795e+001 1.249115e-004 -3.665709e+001 9.996831e-001 -1.172254e+000
39298050 1.001248e+000 -3.818137e-001 3.533475e-005 1.748004e+002 1.392177e-004 -4.859785e+001 1.000089e+000 -1.099589e+000
39598035 1.000827e+000 -4.244165e-001 1.999937e-005 -5.434200e+001 1.240375e-004 -8.152982e+001 1.000654e+000 -1.067074e+000
39898020 1.000672e+000 -3.590887e-001 4.426152e-005 -1.578160e+002 9.277733e-005 -1.769090e+002 1.001707e+000 -1.039042e+000
40198005 1.000013e+000 -4.021794e-001 1.250630e-004 -4.422480e+001 2.176883e-004 1.335973e+002 1.001219e+000 -1.192673e+000
40497990 1.001077e+000 -4.507599e-001 9.048126e-005 -4.646715e+001 1.944864e-004 -5.690591e+001 1.001774e+000 -1.319219e+000
40797975 1.000326e+000 -4.433426e-001 9.342153e-006 -9.974158e+001 2.275105e-004 -1.542745e+002 9.991850e-001 -1.210706e+000
41097960 1.000549e+000 -3.718266e-001 7.883189e-005 2.309889e+001 4.440432e-005 -1.455759e+002 1.000510e+000 -1.182995e+000
41397945 9.994175e-001 -4.025455e-001 1.853249e-004 9.862382e+001 1.463206e-004 4.647757e+001 1.002072e+000 -1.164676e+000
41697930 9.999711e-001 -3.313336e-001 2.109020e-004 7.219682e+001 3.491478e-005 -9.029694e+001 1.001195e+000 -1.145714e+000
41997915 1.000993e+000 -4.243890e-001 6.291678e-005 6.843959e+001 1.863413e-004 7.963807e+001 1.001133e+000 -1.176803e+000
42297900 1.001329e+000 -3.889641e-001 1.236368e-004 7.819736e+001 1.106533e-004 1.046670e+002 1.000845e+000 -1.159307e+000
42597885 1.000499e+000 -3.891602e-001 1.604508e-004 -9.038618e+001 3.342478e-004 1.119744e+002 1.000896e+000 -1.247206e+000
42897870 1.000703e+000 -4.144850e-001 2.301926e-004 -1.113411e+002 1.556849e-004 -3.120845e+000 1.001075e+000 -1.207042e+000
43197855 1.000709e+000 -4.413014e-001 9.976974e-005 9.701577e+001 5.888388e-005 -1.261013e+002 1.001026e+000 -1.247808e+000
43497840 1.000730e+000 -4.692437e-001 7.571755e-005 -6.000271e+001 1.703681e-004 1.648136e+001 9.999588e-001 -1.356791e+000
43797825 1.000406e+000 -3.770537e-001 6.179674e-005 7.137465e+001 1.198247e-004 -2.044582e+000 1.001443e+000 -1.259956e+000
44097810 1.000696e+000 -4.061852e-001 1.132101e-004 -4.589040e+001 2.082728e-004 -2.778493e+001 1.000910e+000 -1.322531e+000
44397795 1.001122e+000 -4.210426e-001 3.637393e-005 -1.270895e+002 2.767236e-005 -1.986749e+001 1.002079e+000 -1.436486e+000
44697780 1.001113e+000 -3.974969e-001 1.173502e-004 1.571262e+002 2.108359e-004 -1.356554e+002 1.001942e+000 -1.358772e+000
44997765 1.000974e+000 -4.620703e-001 3.797837e-005 -1.608640e+002 1.483995e-005 1.798888e+002 1.002229e+000 -1.304612e+000
45297750 1.000848e+000 -4.954226e-001 1.411968e-004 -9.472985e+001 4.975963e-004 -6.586776e+001 1.003534e+000 -1.310824e+000
45597735 1.001554e+000 -4.500432e-001 1.476341e-004 1.236628e+002 1.626543e-004 -4.937619e+001 1.002319e+000 -1.293037e+000
45897720 1.001310e+000 -4.923688e-001 4.665317e-005 -6.296428e+001 2.256869e-004 -1.114842e+002 1.001773e+000 -1.270857e+000
46197705 1.001662e+000 -4.484084e-001 5.127583e-005 3.201633e+001 2.690317e-004 -3.212638e+001 1.002100e+000 -1.376501e+000
46497690 1.001124e+000 -4.157642e-001 1.784405e-004 -1.140704e+001 3.122881e-004 -1.716319e+002 1.001650e+000 -1.346612e+000
46797675 1.001607e+000 -3.944905e-001 8.785581e-005 7.191200e+000 1.260608e-004 1.413964e+002 1.001305e+000 -1.284599e+000
47097660 1.000606e+000 -4.283652e-001 5.223061e-005 -1.501929e+002 2.252006e-004 2.743285e+001 1.002411e+000 -1.365829e+000
