!Agilent Technologies,N5230C,SG49000117,A.08.50.07
!Agilent N5230C: A.08.50.07
!Date: Thursday, May 16, 2024 21:20:57
!Correction: S11(Full 2 Port(1,2)) 
!S21(Full 2 Port(1,2)) 
!S12(Full 2 Port(1,2)) 
!S22(Full 2 Port(1,2)) 
!S2P File: Measurements: S11, S21, S12, S22:
# Hz S  MA   R 50
300000 1.008288e+000 -3.634894e-001 2.202381e-004 5.746712e+001 2.873470e-004 -1.272234e+001 1.010295e+000 -3.378752e-001
599985 9.828229e-001 4.226391e-001 8.928937e-005 6.656020e+001 5.036096e-005 2.815244e+001 9.641897e-001 5.293526e-001
899970 9.973524e-001 -3.809907e-002 6.619860e-005 -7.568655e+001 1.459711e-004 -5.323132e+001 9.854887e-001 -3.322855e-001
1199955 9.976231e-001 -4.198126e-003 4.628726e-005 1.060736e+002 1.760013e-004 -1.837736e+000 9.967756e-001 -1.897174e-001
1499940 9.941265e-001 1.628649e-001 1.363155e-004 9.382253e+001 2.225123e-004 7.760808e+001 9.918939e-001 7.504940e-002
1799925 9.927936e-001 2.430108e-001 1.370266e-004 1.396089e+002 1.136426e-004 9.306321e+001 9.905813e-001 2.920848e-002
2099910 9.994518e-001 9.006215e-003 3.886026e-005 1.177067e+002 1.814079e-004 1.380020e+002 9.983374e-001 2.384975e-002
2399895 9.992026e-001 -9.499151e-002 8.298536e-005 9.170029e+001 2.032090e-004 1.315703e+002 1.003151e+000 -6.388972e-002
2699880 1.000353e+000 -2.219267e-001 1.125306e-004 -8.988348e+001 6.854797e-005 4.177570e+001 9.968852e-001 -2.325797e-001
2999865 9.997931e-001 -1.142111e-001 1.008518e-004 -9.738495e+001 1.254880e-004 5.177344e+001 9.991757e-001 -2.135621e-001
3299850 1.000447e+000 -1.116295e-001 6.644694e-005 -5.841934e+001 1.685752e-004 -1.571811e+002 9.993957e-001 -2.515438e-001
3599835 1.000448e+000 -9.418602e-002 3.919913e-005 -1.602118e+002 3.533113e-005 4.012392e+001 9.981980e-001 -2.048046e-001
3899820 9.995673e-001 -1.077907e-001 2.834731e-005 -1.329710e+001 8.060716e-005 3.814487e+001 9.990031e-001 -1.496399e-001
4199805 1.000539e+000 -1.990844e-001 7.882545e-005 1.916346e+001 5.910037e-005 -1.784768e+001 1.000543e+000 -3.151092e-001
4499790 1.000183e+000 -1.538861e-001 5.767270e-005 1.208156e+002 2.500139e-004 -1.261010e+001 1.000771e+000 -2.508796e-001
4799775 1.000590e+000 -1.337117e-001 5.472322e-005 4.892070e+001 1.890161e-004 2.964049e+001 9.991711e-001 -2.498218e-001
5099760 1.000418e+000 -1.306871e-001 3.894283e-005 -1.764596e+002 9.277642e-005 3.077759e+001 1.001235e+000 -2.000312e-001
5399745 1.000390e+000 -1.336086e-001 7.169347e-005 -1.246177e+002 9.775422e-005 -9.166577e+001 9.993767e-001 -1.945062e-001
5699730 1.000091e+000 -1.443422e-001 2.534472e-005 -1.680354e+002 5.286381e-005 6.909497e+001 1.001894e+000 -2.750402e-001
5999715 9.994439e-001 -8.908865e-002 5.888544e-005 1.449764e+002 1.360020e-004 -8.680927e+001 1.000233e+000 -2.071670e-001
6299700 9.996698e-001 -9.999381e-002 7.974602e-005 -1.606127e+002 8.383463e-005 -1.427780e+002 1.000266e+000 -3.265656e-001
6599685 9.998971e-001 -9.451788e-002 3.197389e-005 8.492382e+001 1.128176e-004 1.947164e+000 9.998186e-001 -2.750615e-001
6899670 1.000306e+000 -1.392832e-001 1.078462e-004 -1.134054e+002 5.699130e-005 -1.699996e+002 9.999953e-001 -3.459797e-001
7199655 9.998682e-001 -1.465097e-001 6.697369e-005 1.103286e+002 3.724887e-004 1.724384e+002 1.000546e+000 -3.103784e-001
7499640 9.998404e-001 -1.800467e-001 9.347529e-005 -4.986819e+001 1.228277e-005 -8.684566e+001 1.000751e+000 -4.425053e-001
7799625 1.000377e+000 -1.195969e-001 6.453109e-005 -9.424965e+001 2.339011e-004 1.564242e+002 9.977311e-001 -3.278344e-001
8099610 1.000349e+000 -1.692595e-001 2.047231e-005 -5.212484e+001 7.436103e-005 1.782934e+002 9.986428e-001 -3.733664e-001
8399595 1.000226e+000 -1.337374e-001 9.380650e-005 9.785313e+001 1.056016e-004 1.272124e+002 9.998348e-001 -3.926727e-001
8699580 9.999796e-001 -1.101849e-001 5.714545e-005 -9.148456e+001 1.688283e-004 5.621517e+001 9.994481e-001 -3.965119e-001
8999565 9.999931e-001 -1.514428e-001 5.318339e-005 -1.200189e+002 1.414150e-004 -5.756668e+001 9.994237e-001 -4.630547e-001
9299550 9.999802e-001 -1.308119e-001 3.785829e-005 1.630150e+001 2.498309e-004 -6.731910e+001 9.984173e-001 -3.502197e-001
9599535 9.998338e-001 -1.813710e-001 2.947126e-005 -2.506797e+001 2.072061e-004 5.745144e+001 9.985860e-001 -5.581993e-001
9899520 1.000307e+000 -2.337067e-001 2.102802e-005 2.033874e+001 9.087834e-005 -1.766729e+002 9.969911e-001 -6.755689e-001
10199505 1.000427e+000 -1.265308e-001 4.825847e-005 1.661191e+002 1.443618e-004 1.203920e+002 9.983563e-001 -4.220580e-001
10499490 1.000438e+000 -1.484927e-001 1.283555e-004 -8.921540e+001 1.429269e-004 1.477433e+002 9.989123e-001 -4.264794e-001
10799475 9.998270e-001 -1.659437e-001 1.042675e-005 -5.473357e+001 2.198551e-004 7.015645e+001 9.995788e-001 -4.102441e-001
11099460 1.000389e+000 -1.092395e-001 1.553336e-004 1.602343e+002 1.099645e-004 1.676646e+002 9.992844e-001 -4.585879e-001
11399445 9.999206e-001 -1.486263e-001 8.064303e-005 -1.020229e+002 2.974428e-004 -1.368947e+002 9.991122e-001 -3.876754e-001
11699430 1.000315e+000 -1.671724e-001 4.758112e-005 8.949825e+001 2.145130e-004 -6.702218e+000 9.988532e-001 -4.006961e-001
11999415 1.000097e+000 -1.912007e-001 7.870867e-005 -2.915680e+001 5.847289e-005 1.508006e+002 1.000374e+000 -4.841111e-001
12299400 9.999890e-001 -1.537537e-001 6.563291e-005 1.332735e+002 1.668921e-004 1.764057e+002 1.001154e+000 -4.350164e-001
12599385 1.000477e+000 -1.905965e-001 1.129392e-004 6.825481e+001 1.696101e-004 6.000816e+001 9.995599e-001 -5.021101e-001
12899370 1.000123e+000 -2.079682e-001 2.764472e-005 1.494803e+002 2.926512e-004 1.167102e+001 9.987018e-001 -5.978493e-001
13199355 1.000721e+000 -1.920979e-001 1.016391e-004 7.027103e+001 1.196262e-004 -4.894576e+001 9.986708e-001 -5.139503e-001
13499340 1.000265e+000 -2.212842e-001 7.844386e-005 -1.090631e+002 2.921080e-004 1.475306e+002 9.981303e-001 -5.108085e-001
13799325 1.000615e+000 -2.043334e-001 7.839376e-005 1.785451e+001 1.959350e-004 -7.265459e+001 9.992080e-001 -5.337640e-001
14099310 1.000104e+000 -1.917809e-001 4.617447e-005 1.032876e+002 1.368751e-004 7.209225e+001 9.999191e-001 -5.099787e-001
14399295 1.000384e+000 -1.984305e-001 7.922008e-005 1.462558e+002 1.877662e-004 3.062864e+001 1.000357e+000 -4.909341e-001
14699280 1.000149e+000 -2.115107e-001 5.201650e-005 5.261218e+001 2.290441e-004 1.635443e+002 9.987136e-001 -5.408586e-001
14999265 9.996648e-001 -1.809414e-001 1.077627e-005 -4.617038e+001 1.434498e-004 1.132341e+002 9.995938e-001 -5.096148e-001
15299250 9.994950e-001 -1.787076e-001 4.746069e-005 -1.005078e+002 2.304732e-004 -9.363443e+001 9.984547e-001 -5.887385e-001
15599235 1.000155e+000 -1.775245e-001 6.074915e-005 2.582966e+001 2.339146e-004 7.833742e+001 9.999710e-001 -5.044506e-001
15899220 1.000376e+000 -1.430926e-001 2.528322e-005 1.606075e+002 2.683341e-004 -2.985934e+001 9.992285e-001 -5.145730e-001
16199205 1.000184e+000 -1.480519e-001 1.446726e-004 -1.183054e+002 1.158356e-004 -1.262672e+002 1.000915e+000 -6.203859e-001
16499190 1.000386e+000 -1.874693e-001 9.360861e-005 1.783832e+002 1.357554e-004 -3.333616e+001 1.001490e+000 -5.832565e-001
16799175 9.996734e-001 -1.767089e-001 1.512203e-004 1.223758e+002 4.464503e-004 -1.071684e+002 1.000681e+000 -6.062213e-001
17099160 9.995189e-001 -2.270181e-001 4.722885e-005 7.126435e+001 3.814789e-004 5.920273e+000 1.001698e+000 -5.570780e-001
17399145 1.000469e+000 -2.228036e-001 7.205014e-005 1.226983e+001 3.302901e-004 -1.018291e+002 1.000052e+000 -5.710997e-001
17699130 1.000778e+000 -2.428647e-001 4.491167e-005 1.791982e+002 1.396078e-004 6.306974e+001 9.997143e-001 -6.099067e-001
17999115 1.000193e+000 -2.275631e-001 1.674716e-004 -3.867838e+001 2.827843e-004 -1.106623e+002 9.996191e-001 -6.713520e-001
18299100 1.000043e+000 -1.825045e-001 8.001371e-006 -2.478119e+001 6.067091e-005 1.080463e+002 1.000123e+000 -6.660609e-001
18599085 9.999744e-001 -2.353243e-001 5.645801e-005 -3.706495e+001 2.103939e-004 -3.824978e+000 9.994720e-001 -6.647145e-001
18899070 1.000251e+000 -2.374360e-001 8.935935e-006 1.006115e+002 2.497549e-004 1.137163e+002 9.985462e-001 -6.087305e-001
19199055 1.000616e+000 -2.517516e-001 1.273280e-004 -4.422062e+001 2.490365e-004 -3.546886e+001 9.976697e-001 -5.807421e-001
19499040 1.000317e+000 -2.025780e-001 2.766516e-005 1.330080e+001 1.066844e-004 1.270661e+002 9.976881e-001 -5.884992e-001
19799025 1.000764e+000 -2.468579e-001 6.661473e-005 -1.726208e+002 3.194520e-004 1.145252e+002 9.965613e-001 -6.600786e-001
20099010 1.000064e+000 -2.115775e-001 6.281634e-005 -9.077153e+001 2.301774e-004 -1.157871e+002 9.983552e-001 -6.478989e-001
20398995 9.997257e-001 -2.345347e-001 8.135270e-005 9.966412e+001 2.795965e-004 1.375704e+002 9.982575e-001 -7.103502e-001
20698980 9.991477e-001 -1.980691e-001 8.093581e-005 6.453893e+001 1.747823e-004 2.901731e+001 1.000167e+000 -6.954669e-001
20998965 9.997619e-001 -2.249977e-001 4.282938e-005 -1.315372e+002 6.143205e-005 1.375181e+002 9.980549e-001 -6.754301e-001
21298950 9.988627e-001 -1.982901e-001 5.082507e-005 1.577525e+002 2.149353e-004 4.976859e+001 9.983076e-001 -6.628193e-001
21598935 9.994885e-001 -2.027254e-001 9.841888e-005 9.765469e+001 1.795471e-004 -1.795375e+001 9.976061e-001 -6.442980e-001
21898920 9.995205e-001 -2.503259e-001 1.837645e-005 -7.207388e+001 3.846478e-004 1.298962e+002 9.985278e-001 -7.236756e-001
22198905 9.995953e-001 -2.539302e-001 8.306345e-005 -2.603602e+001 3.530921e-004 -6.138940e+001 9.982197e-001 -6.824876e-001
22498890 9.998645e-001 -2.207753e-001 5.420514e-005 -1.680196e+002 2.231763e-004 -1.595499e+002 9.996054e-001 -6.925161e-001
22798875 1.000631e+000 -2.401688e-001 3.503921e-005 1.248008e+002 1.653015e-004 5.641161e+001 1.000170e+000 -6.670043e-001
23098860 9.995009e-001 -2.564364e-001 7.052210e-005 -1.112045e+002 1.853694e-004 -8.320638e+001 1.000815e+000 -7.572894e-001
23398845 1.000170e+000 -2.502909e-001 1.143421e-004 -3.526585e+001 3.105177e-004 1.019366e+002 1.000165e+000 -7.225248e-001
23698830 1.000584e+000 -3.005243e-001 5.925423e-005 -9.769078e+001 3.884861e-004 5.151667e+001 9.977720e-001 -7.285094e-001
23998815 1.000136e+000 -2.672809e-001 9.946908e-005 6.164305e+000 2.944616e-004 -1.314796e+002 9.982765e-001 -7.404094e-001
24298800 9.997935e-001 -2.880532e-001 1.029918e-004 -5.701542e+001 1.853195e-004 -4.581357e+000 9.972345e-001 -8.219227e-001
24598785 9.998725e-001 -2.880649e-001 1.047060e-004 -4.667443e+001 1.394139e-004 -6.170863e+001 9.984758e-001 -7.880250e-001
24898770 1.000285e+000 -3.150463e-001 1.602962e-004 9.459342e+001 1.278028e-004 4.905596e+001 9.987476e-001 -8.254134e-001
25198755 9.998850e-001 -2.383283e-001 9.748818e-005 -8.862202e+000 9.292523e-005 -7.141409e+000 9.993157e-001 -8.629272e-001
25498740 1.000125e+000 -2.792941e-001 3.353766e-006 -8.038486e+001 1.928838e-004 -1.628064e+002 9.996809e-001 -8.003321e-001
25798725 9.995716e-001 -3.323920e-001 1.113875e-004 -7.916032e+001 8.480460e-005 -1.639049e+001 9.986516e-001 -8.688072e-001
26098710 1.000010e+000 -2.685764e-001 1.252602e-004 -8.435898e+001 1.685881e-004 -8.568810e+001 1.000251e+000 -8.001180e-001
26398695 1.000914e+000 -3.058966e-001 1.750090e-004 -2.232056e+001 1.623134e-004 1.661293e+002 1.000865e+000 -8.553134e-001
26698680 1.000572e+000 -2.791452e-001 4.530304e-005 6.015788e+001 2.955604e-004 -5.445819e+001 9.983561e-001 -8.619449e-001
26998665 1.000139e+000 -2.722872e-001 3.554398e-005 1.265039e+002 1.536075e-004 -1.010418e+002 1.000238e+000 -8.786512e-001
27298650 1.000813e+000 -3.059330e-001 7.203058e-005 -3.742330e+001 1.899005e-004 3.117979e+001 9.990649e-001 -8.841045e-001
27598635 1.000086e+000 -2.638139e-001 1.635083e-004 5.944342e+001 1.287266e-004 -1.169365e+002 9.995318e-001 -8.831043e-001
27898620 9.998978e-001 -2.888069e-001 1.821939e-004 -9.870386e+001 1.262747e-004 9.815919e+001 1.001738e+000 -9.076726e-001
28198605 9.996970e-001 -2.879761e-001 2.272394e-005 -1.489229e+002 2.181262e-004 -1.681439e+002 1.000326e+000 -9.449896e-001
28498590 9.995044e-001 -3.125868e-001 6.861607e-005 4.428200e+001 2.003406e-004 1.538132e+002 9.999821e-001 -9.289430e-001
28798575 1.000248e+000 -3.301283e-001 6.517267e-005 -1.308286e+002 1.803591e-004 3.694733e+001 9.989488e-001 -9.919763e-001
29098560 9.998448e-001 -3.005135e-001 7.405878e-005 8.988326e+001 2.970228e-004 -1.447270e+002 1.000082e+000 -9.320424e-001
29398545 1.000350e+000 -2.895450e-001 2.652985e-005 -1.173077e+002 2.261119e-004 2.555333e+001 1.000508e+000 -8.846282e-001
29698530 1.000384e+000 -2.846074e-001 1.620603e-005 -1.284454e+000 5.930194e-005 -9.834467e+001 1.000460e+000 -9.011246e-001
29998515 1.000525e+000 -3.033080e-001 8.443326e-005 5.022262e+000 2.003964e-004 1.100873e+002 1.000448e+000 -9.557285e-001
30298500 9.995338e-001 -3.498414e-001 3.271064e-005 5.100876e+001 1.323161e-004 -1.023034e+001 1.002474e+000 -1.015820e+000
30598485 9.999620e-001 -3.096222e-001 1.062466e-004 1.374046e+002 1.308614e-004 -6.707010e+001 9.998013e-001 -9.433864e-001
30898470 1.000053e+000 -2.716003e-001 8.010104e-005 -7.391628e+001 1.003104e-004 1.106326e+001 9.994382e-001 -1.021478e+000
31198455 1.000118e+000 -2.910556e-001 3.795530e-005 1.718626e+002 1.320245e-004 -1.496223e+002 9.990244e-001 -9.944041e-001
31498440 1.000546e+000 -3.317438e-001 9.521382e-005 1.150721e+002 2.381334e-004 9.028194e+001 9.991524e-001 -9.737996e-001
31798425 1.000260e+000 -3.450110e-001 4.378791e-005 -4.881063e+001 8.532508e-005 -8.031660e+001 9.992555e-001 -9.405926e-001
32098410 1.000256e+000 -3.581107e-001 4.476716e-005 1.696548e+001 1.126730e-004 5.505649e+000 1.000216e+000 -9.700576e-001
32398395 1.000815e+000 -3.297692e-001 2.345807e-005 -1.400451e+002 1.065052e-004 -1.638964e+002 1.000926e+000 -9.918714e-001
32698380 1.000459e+000 -3.580000e-001 7.281403e-005 -1.226847e+002 3.207965e-005 -1.571950e+002 1.001150e+000 -9.383054e-001
32998365 1.000157e+000 -3.189667e-001 1.379494e-004 -1.091561e+002 5.611479e-005 1.153690e+002 1.000264e+000 -9.903409e-001
33298350 1.000148e+000 -3.351021e-001 9.346794e-005 6.019375e+001 5.021673e-005 -6.522754e+001 9.998704e-001 -1.052338e+000
33598335 9.993557e-001 -3.558470e-001 1.003396e-004 -1.412275e+002 2.006181e-004 5.285392e+001 1.000008e+000 -1.007407e+000
33898320 1.000024e+000 -3.676874e-001 8.116831e-006 3.597273e+001 1.560021e-004 9.132716e+001 9.990385e-001 -1.048197e+000
34198305 9.997814e-001 -3.755375e-001 2.985112e-005 3.700429e+001 2.464176e-004 1.367491e+002 9.995037e-001 -1.073019e+000
34498290 1.000060e+000 -3.842969e-001 6.423252e-005 2.350394e+001 9.416306e-005 1.333292e+002 9.989752e-001 -1.060717e+000
34798275 9.997165e-001 -3.820837e-001 2.500196e-005 -5.301561e+001 1.781980e-004 1.421515e+001 9.984749e-001 -1.092911e+000
35098260 9.999767e-001 -4.196473e-001 1.451993e-004 -1.288342e+002 2.561850e-004 1.798408e+002 1.000203e+000 -1.056396e+000
35398245 1.000536e+000 -3.929095e-001 2.773133e-005 -3.050600e+001 3.167869e-004 7.921843e+000 1.000786e+000 -1.029291e+000
35698230 1.000162e+000 -3.839036e-001 1.188545e-004 9.943859e+001 7.268654e-005 -1.319589e+002 1.001669e+000 -1.102151e+000
35998215 9.998409e-001 -4.337314e-001 3.377469e-005 1.616133e+002 1.718518e-004 6.722977e+001 1.000602e+000 -1.118679e+000
36298200 9.998422e-001 -3.732277e-001 9.485730e-005 -5.346388e+001 2.155717e-005 -9.094992e+001 9.994818e-001 -1.144626e+000
36598185 9.999992e-001 -4.087844e-001 3.024993e-005 1.084779e+002 1.076833e-004 -3.114078e+001 1.000499e+000 -1.121108e+000
36898170 1.001040e+000 -4.080674e-001 4.298992e-005 1.362338e+002 5.915415e-005 1.725532e+002 1.000122e+000 -1.060524e+000
37198155 1.000471e+000 -3.851669e-001 1.063667e-005 -1.057858e+002 1.585003e-004 -4.365515e+001 9.998004e-001 -1.172147e+000
37498140 1.000186e+000 -3.499261e-001 1.481356e-004 1.980005e+001 1.485059e-004 1.777365e+002 9.998152e-001 -1.144060e+000
37798125 1.000248e+000 -3.767236e-001 1.561889e-004 5.797004e+001 1.407926e-004 1.410647e+001 9.994960e-001 -1.107601e+000
38098110 1.000026e+000 -3.768363e-001 5.957173e-005 1.436212e+002 2.242727e-004 -9.613052e+001 9.996662e-001 -1.191884e+000
38398095 9.995626e-001 -4.036030e-001 5.123256e-005 -1.221045e+002 9.989725e-005 -1.455562e+002 9.997329e-001 -1.243031e+000
38698080 1.000476e+000 -4.030226e-001 4.462535e-005 7.280492e+001 9.342363e-005 -1.919762e+001 9.991555e-001 -1.214418e+000
38998065 9.999683e-001 -4.033012e-001 3.749810e-005 1.762507e+002 1.158209e-004 1.274712e+002 9.998037e-001 -1.172967e+000
39298050 1.000268e+000 -3.929732e-001 2.680671e-005 9.764025e+001 1.004039e-004 -2.692519e+000 9.997005e-001 -1.213387e+000
39598035 1.000673e+000 -3.576801e-001 3.672735e-005 9.028132e+001 1.074179e-005 1.396269e+002 1.000170e+000 -1.147234e+000
39898020 1.001001e+000 -3.832241e-001 5.875105e-005 8.634364e+001 1.159306e-004 -3.142323e+001 1.001959e+000 -1.102970e+000
40198005 9.995945e-001 -3.992018e-001 1.303803e-004 -1.364912e+002 1.915832e-004 -1.542785e+002 1.001866e+000 -1.372596e+000
40497990 1.000295e+000 -4.287266e-001 6.099487e-005 5.767030e+001 3.968602e-004 1.495710e+002 1.001827e+000 -1.332334e+000
40797975 1.001700e+000 -4.584792e-001 1.880499e-004 1.366601e+002 2.320582e-004 -1.191134e+002 1.000965e+000 -1.248086e+000
41097960 9.996686e-001 -3.777024e-001 1.174430e-004 -1.025421e+000 4.235985e-005 -5.768458e+001 1.001454e+000 -1.225799e+000
41397945 1.000029e+000 -3.996957e-001 1.230037e-004 3.751822e+001 5.925341e-004 1.729089e+002 9.994760e-001 -1.219393e+000
41697930 1.000776e+000 -2.864524e-001 1.909401e-004 -1.797746e+002 2.679502e-004 -7.546877e+001 1.001438e+000 -1.276045e+000
41997915 9.989308e-001 -4.013945e-001 2.768213e-004 1.433100e+002 8.230822e-005 3.069840e+001 1.000559e+000 -1.222904e+000
42297900 1.000012e+000 -3.964218e-001 1.523462e-004 -1.238715e+002 2.515125e-004 1.775802e+002 1.000555e+000 -1.249407e+000
42597885 1.000320e+000 -4.035034e-001 7.424789e-005 -1.088446e+002 8.664867e-005 1.640913e+002 1.000621e+000 -1.283391e+000
42897870 1.000535e+000 -4.207408e-001 6.517678e-005 1.580157e+002 1.244022e-004 -9.634721e+001 1.002537e+000 -1.321131e+000
43197855 1.000787e+000 -4.273319e-001 4.319858e-005 -1.371189e+002 3.235915e-004 -7.158741e+001 1.001646e+000 -1.463262e+000
43497840 1.000691e+000 -4.487810e-001 2.392232e-004 1.656679e+002 1.097943e-004 1.711369e+002 1.000865e+000 -1.380764e+000
43797825 9.998384e-001 -4.257034e-001 1.387979e-004 9.126038e+001 1.969337e-004 -4.715724e+001 1.000999e+000 -1.375206e+000
44097810 9.999615e-001 -3.742065e-001 2.507831e-004 7.556485e+000 9.836850e-005 1.530632e+001 1.000045e+000 -1.501942e+000
44397795 1.000439e+000 -4.358459e-001 2.042647e-004 -6.504767e+001 3.206430e-004 5.611668e+001 1.001311e+000 -1.491888e+000
44697780 1.001361e+000 -4.328320e-001 7.011296e-005 -3.549207e+001 1.296457e-004 2.143455e+001 1.001480e+000 -1.485418e+000
44997765 1.001541e+000 -5.079063e-001 8.244442e-005 9.622171e+001 1.850972e-004 -1.960699e+001 1.002117e+000 -1.453049e+000
45297750 1.001343e+000 -5.017845e-001 2.734326e-004 -7.012824e+001 3.033303e-004 -5.306326e+001 1.002737e+000 -1.479397e+000
45597735 1.000881e+000 -4.815302e-001 5.441379e-005 -5.659166e+001 1.848505e-004 3.560873e+001 1.002562e+000 -1.490600e+000
45897720 1.001184e+000 -5.135791e-001 8.870984e-005 2.872256e+001 1.283973e-004 -1.409466e+002 1.001498e+000 -1.339098e+000
46197705 1.001528e+000 -4.222364e-001 7.977759e-005 3.786916e+001 2.160010e-004 2.209997e+001 1.000433e+000 -1.416647e+000
46497690 1.001535e+000 -4.837600e-001 1.258419e-004 -1.785807e+002 1.457678e-004 -6.371416e+001 1.001200e+000 -1.566365e+000
46797675 1.001474e+000 -4.145478e-001 1.191028e-004 -5.384264e+001 9.605105e-005 -7.794014e+001 1.000669e+000 -1.389600e+000
47097660 1.000752e+000 -4.348441e-001 1.319985e-004 -9.345796e+001 8.837948e-005 1.642342e+002 1.000046e+000 -1.560327e+000
47397645 1.000890e+000 -5.306057e-001 1.261456e-005 9.923200e+001 1.751847e-004 -1.735964e+002 1.000440e+000 -1.488291e+000
