!Agilent Technologies,N5230C,SG49000117,A.08.50.07
!Agilent N5230C: A.08.50.07
!Date: Thursday, May 16, 2024 21:20:15
!Correction: S11(Full 2 Port(1,2)) 
!S21(Full 2 Port(1,2)) 
!S12(Full 2 Port(1,2)) 
!S22(Full 2 Port(1,2)) 
!S2P File: Measurements: S11, S21, S12, S22:
# Hz S  MA   R 50
300000 1.006620e+000 -4.194391e-001 1.717056e-004 -1.650417e+001 4.593363e-004 -8.159044e+001 1.014343e+000 -4.708972e-001
599985 9.820216e-001 4.345229e-001 3.437577e-005 -2.995311e+001 2.387608e-004 -1.122525e+002 9.637915e-001 4.850080e-001
899970 9.973260e-001 -1.701253e-003 4.951814e-005 -8.068327e+001 1.802675e-004 7.732294e+001 9.835247e-001 -2.337648e-001
1199955 9.975441e-001 3.747023e-002 1.665206e-004 6.978696e+001 2.196805e-004 -1.054870e+002 9.946558e-001 -9.694146e-002
1499940 9.937962e-001 1.760042e-001 5.513359e-005 6.403922e+001 1.777163e-004 7.409264e+001 9.920088e-001 1.042989e-001
1799925 9.925192e-001 2.470862e-001 1.250005e-004 -1.235317e+002 2.259623e-004 1.560997e+002 9.904549e-001 5.423363e-002
2099910 9.990627e-001 2.499002e-002 5.469020e-005 2.946141e+000 7.094501e-005 -7.150353e+001 9.977137e-001 1.872714e-002
2399895 9.995088e-001 -9.450328e-002 1.148247e-004 5.644869e+001 3.640915e-005 -1.217745e+002 1.003449e+000 -5.866460e-002
2699880 9.999178e-001 -2.042216e-001 4.518928e-005 -6.897234e+001 3.390893e-004 -1.091753e+002 9.953408e-001 -2.530597e-001
2999865 1.000115e+000 -1.160595e-001 6.172654e-005 -8.644281e+001 2.235223e-004 1.176633e+002 9.974645e-001 -2.154754e-001
3299850 1.000438e+000 -1.053879e-001 5.248947e-005 -1.463273e+001 9.709626e-005 -1.211143e+002 9.975218e-001 -2.293860e-001
3599835 1.000901e+000 -9.983406e-002 4.005834e-005 3.949560e+001 3.971884e-005 1.792620e+002 9.988986e-001 -2.446563e-001
3899820 9.998364e-001 -1.104675e-001 4.530382e-005 -1.052421e+000 1.094531e-004 1.520369e+002 9.982374e-001 -2.450398e-001
4199805 1.000763e+000 -1.514413e-001 4.864817e-005 -1.435053e+001 1.761978e-004 -1.638589e+002 9.994030e-001 -3.367525e-001
4499790 1.000829e+000 -1.630277e-001 1.180888e-004 1.402216e+002 6.863420e-005 -1.381076e+002 9.992648e-001 -3.202828e-001
4799775 1.000568e+000 -1.431176e-001 1.012140e-004 -9.453663e+001 1.021052e-004 7.216657e+001 9.989641e-001 -2.758950e-001
5099760 1.000985e+000 -1.330308e-001 4.489312e-005 1.344419e+002 1.972920e-004 -1.547889e+002 9.998116e-001 -2.585081e-001
5399745 1.000731e+000 -1.253718e-001 1.438406e-004 1.525733e+002 1.801943e-004 6.732143e+001 9.998733e-001 -1.973936e-001
5699730 1.000491e+000 -1.036395e-001 4.672788e-005 -1.130665e+002 1.428638e-004 -1.580630e+002 1.001227e+000 -2.846780e-001
5999715 9.995226e-001 -1.026953e-001 4.838625e-005 1.690719e+002 2.213824e-004 1.520127e+002 1.000896e+000 -2.239894e-001
6299700 1.000225e+000 -1.241738e-001 2.920709e-005 -5.639170e+001 3.551818e-005 -5.510416e+001 1.000067e+000 -3.039201e-001
6599685 9.996071e-001 -9.141385e-002 5.395212e-005 1.052149e+002 1.500467e-004 1.393890e+002 9.995835e-001 -2.962898e-001
6899670 1.000165e+000 -1.051070e-001 9.031076e-005 -3.282078e+001 4.022286e-005 4.800723e+001 9.998731e-001 -3.303223e-001
7199655 9.999831e-001 -1.244849e-001 7.717788e-005 -3.993937e+001 1.778548e-004 -6.133196e-001 9.993892e-001 -3.871494e-001
7499640 9.998114e-001 -1.655698e-001 3.680017e-005 9.476218e+001 1.302229e-004 -1.768481e+002 9.993788e-001 -4.161354e-001
7799625 1.000211e+000 -1.687931e-001 3.278096e-005 1.620934e+002 2.638020e-004 7.720366e+001 9.977818e-001 -3.338947e-001
8099610 1.000439e+000 -1.556245e-001 7.478355e-005 -7.367599e+001 6.592944e-006 1.094114e+002 9.980498e-001 -3.888731e-001
8399595 1.000190e+000 -1.589191e-001 1.131143e-004 -1.200192e+002 2.122155e-004 5.277214e+001 9.983938e-001 -4.027132e-001
8699580 1.000038e+000 -1.413678e-001 8.978376e-005 8.139937e+001 1.056832e-004 1.370689e+002 9.984369e-001 -4.386030e-001
8999565 1.000006e+000 -1.239459e-001 4.903376e-005 -1.826956e+001 2.387516e-004 -4.545331e+001 9.995452e-001 -4.227011e-001
9299550 1.000181e+000 -1.428682e-001 6.044036e-005 9.156239e+001 1.409674e-004 -1.077513e+002 9.989924e-001 -4.715537e-001
9599535 9.999442e-001 -1.828330e-001 3.515393e-005 9.275243e+001 5.709406e-005 4.450829e+001 9.969527e-001 -5.574981e-001
9899520 1.000214e+000 -2.340921e-001 9.222810e-005 1.433448e+002 1.098153e-004 1.865335e+001 9.964952e-001 -6.997855e-001
10199505 1.000286e+000 -1.398154e-001 5.942810e-005 -9.519624e+001 8.709841e-005 -6.723872e+001 9.992768e-001 -3.908107e-001
10499490 9.998918e-001 -1.238258e-001 2.546470e-005 -4.944699e+001 1.019343e-004 1.084249e+002 9.969651e-001 -4.840966e-001
10799475 9.998438e-001 -1.102146e-001 6.267130e-005 1.260260e+002 9.398674e-005 -6.088585e+001 9.977748e-001 -3.984981e-001
11099460 9.996743e-001 -1.255969e-001 7.511102e-005 -5.651420e+001 2.024461e-004 -2.728812e+001 9.990324e-001 -4.251987e-001
11399445 1.000073e+000 -1.253715e-001 1.105080e-004 -1.200610e+002 2.073028e-004 -4.868451e+001 9.970489e-001 -4.938705e-001
11699430 1.000021e+000 -1.103499e-001 6.745884e-005 -6.551101e+001 2.563335e-004 1.099387e+000 9.992703e-001 -4.378438e-001
11999415 1.000476e+000 -1.388156e-001 5.928874e-005 6.119143e+001 7.093768e-005 1.572946e+002 1.000517e+000 -4.493424e-001
12299400 1.000211e+000 -1.494100e-001 1.350786e-005 1.004743e+002 6.561312e-005 1.604597e+002 9.999957e-001 -4.135267e-001
12599385 1.000628e+000 -1.509151e-001 1.572859e-005 2.250021e+001 7.141548e-005 2.104115e+001 9.983693e-001 -5.685953e-001
12899370 1.000652e+000 -1.608060e-001 5.599561e-005 -2.299753e+001 1.409192e-004 -5.708630e+001 9.984332e-001 -6.564293e-001
13199355 1.000057e+000 -1.914319e-001 4.103863e-005 -4.912738e+001 8.834645e-005 -1.070729e+002 9.973299e-001 -5.185444e-001
13499340 9.997017e-001 -1.511407e-001 6.579191e-005 5.150705e+001 2.593648e-004 9.878920e+001 9.983084e-001 -6.272323e-001
13799325 1.000226e+000 -1.703507e-001 1.613196e-005 -3.434661e+001 1.147048e-004 -7.754704e+001 9.980212e-001 -5.256707e-001
14099310 1.000371e+000 -1.567038e-001 3.162525e-005 6.581528e+001 1.708002e-004 4.083823e+001 9.979004e-001 -5.649114e-001
14399295 1.000331e+000 -2.035194e-001 2.256628e-005 -3.389712e+001 1.040771e-004 -3.965410e+001 9.990765e-001 -5.497795e-001
14699280 1.000278e+000 -1.808455e-001 2.263003e-005 1.317236e+002 1.443030e-004 -1.225777e+001 9.987640e-001 -5.083238e-001
14999265 9.994083e-001 -1.801984e-001 6.552943e-005 -4.423781e-001 1.782659e-004 9.348037e+001 9.978982e-001 -6.279907e-001
15299250 9.998679e-001 -1.940854e-001 7.454403e-005 8.615948e+001 5.181120e-004 -2.334322e+001 9.967300e-001 -5.835712e-001
15599235 9.998231e-001 -1.915454e-001 1.106848e-004 2.612012e+001 2.102959e-004 9.302762e+001 9.991461e-001 -5.555988e-001
15899220 1.000420e+000 -1.724628e-001 5.374444e-005 8.308352e+001 3.411822e-004 -7.148845e+001 9.990805e-001 -5.966504e-001
16199205 1.000036e+000 -1.990407e-001 2.679439e-006 9.699635e+001 2.620353e-004 1.742306e+002 9.995685e-001 -6.376811e-001
16499190 1.000010e+000 -1.876651e-001 7.726971e-006 -8.281456e+000 1.678170e-004 7.756509e+001 9.998875e-001 -6.212880e-001
16799175 1.000012e+000 -1.588769e-001 6.866977e-005 -1.744652e+002 1.895142e-004 -1.101898e+002 1.000084e+000 -6.869704e-001
17099160 1.000035e+000 -2.439474e-001 6.061105e-005 1.127424e+002 4.023931e-004 -1.634031e+002 1.000535e+000 -6.535954e-001
17399145 9.998268e-001 -2.353723e-001 4.738802e-005 1.743829e+001 2.460332e-004 2.810032e+001 1.000739e+000 -6.514994e-001
17699130 1.000599e+000 -2.248551e-001 1.310796e-005 -3.083818e+000 2.658442e-004 1.227271e+002 9.989937e-001 -6.408251e-001
17999115 9.998245e-001 -2.281494e-001 8.349519e-005 -9.234518e+001 2.217181e-005 -9.008940e+001 9.987466e-001 -6.604656e-001
18299100 1.000119e+000 -2.098431e-001 6.983407e-005 4.683096e+001 7.980043e-005 -4.641095e+001 9.994791e-001 -7.117085e-001
18599085 9.995319e-001 -1.876528e-001 8.677750e-005 7.774538e+001 1.608439e-004 9.940556e+001 9.985226e-001 -6.850089e-001
18899070 1.000180e+000 -2.301759e-001 1.597901e-004 4.662969e+001 1.447935e-004 5.272649e+001 9.981982e-001 -6.792839e-001
19199055 1.000396e+000 -2.460530e-001 5.635426e-005 -2.318043e+001 1.995009e-004 -1.346860e+002 9.992227e-001 -6.167565e-001
19499040 1.001066e+000 -2.296397e-001 4.811044e-005 1.670108e+002 2.991712e-005 4.846176e+001 9.993168e-001 -7.061441e-001
19799025 1.000857e+000 -2.154731e-001 5.095205e-005 3.014315e+001 2.940214e-004 -4.704574e+001 9.977443e-001 -5.933222e-001
20099010 1.000080e+000 -2.296068e-001 1.184501e-004 -6.989262e+001 2.489999e-004 1.495844e+002 9.983236e-001 -7.204146e-001
20398995 9.994016e-001 -2.227965e-001 6.642823e-005 1.905588e+001 9.790470e-005 1.262121e+001 9.980865e-001 -8.196422e-001
20698980 1.000110e+000 -2.128048e-001 5.094558e-005 -1.210572e+002 1.956798e-004 -1.177155e+002 9.966267e-001 -7.529323e-001
20998965 9.998376e-001 -1.984550e-001 7.217084e-005 -4.850472e+000 2.240776e-004 9.966126e+001 9.976314e-001 -6.380579e-001
21298950 9.997180e-001 -2.079945e-001 1.081802e-004 9.079317e+001 1.711294e-004 3.189454e+000 9.975662e-001 -6.672996e-001
21598935 9.996229e-001 -2.622735e-001 1.901161e-004 -1.720665e+002 1.778137e-004 -1.092532e+002 9.971179e-001 -6.729781e-001
21898920 9.999415e-001 -2.516814e-001 5.097634e-005 -7.756465e+001 9.566586e-005 3.952589e+001 9.982319e-001 -6.807395e-001
22198905 9.996431e-001 -2.725660e-001 5.768158e-005 1.642701e+002 1.368333e-004 -4.648237e+001 9.990608e-001 -7.346754e-001
22498890 1.000042e+000 -2.254239e-001 1.204733e-004 1.578277e+002 1.631138e-004 -1.637848e+002 9.992881e-001 -7.791720e-001
22798875 1.000021e+000 -2.402175e-001 7.223969e-005 1.650513e+001 2.093949e-004 2.681669e+001 9.995708e-001 -8.233151e-001
23098860 1.000027e+000 -2.443374e-001 2.508453e-005 -1.812234e+001 3.203873e-004 1.609390e+002 1.000161e+000 -8.508046e-001
23398845 1.000350e+000 -2.455352e-001 4.805703e-005 1.727539e+001 1.709756e-004 -1.720397e+002 9.994163e-001 -7.535312e-001
23698830 1.000049e+000 -2.705767e-001 3.101454e-005 1.429096e+002 1.689459e-004 -1.759971e+001 9.979112e-001 -7.930434e-001
23998815 9.993695e-001 -2.949389e-001 2.081911e-005 -1.733640e+002 2.672330e-004 1.684292e+002 9.981841e-001 -7.733098e-001
24298800 1.000496e+000 -2.570508e-001 6.831985e-005 -1.563184e+002 1.696049e-004 1.792890e+001 9.972905e-001 -8.859736e-001
24598785 1.000822e+000 -2.687802e-001 5.500972e-005 7.723905e+001 3.847246e-004 -6.973406e+001 9.986818e-001 -8.049322e-001
24898770 9.998868e-001 -3.257436e-001 6.530211e-005 -1.263557e+002 2.814482e-004 1.482643e+002 9.983882e-001 -8.108887e-001
25198755 9.999351e-001 -2.805960e-001 8.609701e-005 1.220384e+002 1.976383e-004 -1.294574e+001 9.991236e-001 -8.591462e-001
25498740 1.000716e+000 -3.092628e-001 1.472631e-004 -4.686826e+000 6.295064e-005 -1.746378e+002 9.970307e-001 -9.061404e-001
25798725 1.000308e+000 -2.319021e-001 9.115321e-005 1.120843e+002 5.539871e-004 2.257785e+001 9.975649e-001 -9.742201e-001
26098710 9.997223e-001 -2.859707e-001 6.407552e-005 1.436549e+002 2.900305e-004 -1.146271e+002 9.991077e-001 -8.642079e-001
26398695 1.000568e+000 -2.590593e-001 5.023005e-005 6.970210e+000 2.587533e-004 -1.741222e+002 9.999304e-001 -8.568264e-001
26698680 1.000501e+000 -2.600962e-001 1.042049e-004 -2.981063e+001 1.046598e-004 -6.704886e+001 9.999554e-001 -9.327356e-001
26998665 1.000231e+000 -2.914599e-001 1.339558e-004 -4.757558e+001 1.428390e-004 -8.886858e+001 9.998965e-001 -8.542987e-001
27298650 9.999833e-001 -2.575042e-001 7.951893e-005 -1.455961e+002 2.598922e-004 1.055740e+002 9.985854e-001 -9.197530e-001
27598635 1.000546e+000 -2.986318e-001 3.960638e-005 5.263621e+001 1.933056e-004 2.067065e+001 1.000136e+000 -8.190260e-001
27898620 9.997954e-001 -2.608486e-001 6.078801e-005 8.676823e+001 8.247521e-005 -1.001292e+002 1.000779e+000 -1.005651e+000
28198605 1.000455e+000 -3.056114e-001 4.349182e-005 -6.760303e+001 1.177405e-004 -5.096274e+001 1.000611e+000 -8.883286e-001
28498590 1.000300e+000 -3.261326e-001 8.132534e-005 1.480248e+002 4.857072e-005 -9.402391e+001 9.983925e-001 -9.756191e-001
28798575 9.994317e-001 -3.417545e-001 1.471063e-004 -1.062235e+002 2.329543e-004 1.684692e+002 9.980007e-001 -1.093947e+000
29098560 9.998469e-001 -3.108784e-001 1.217603e-004 1.147378e+002 3.383930e-004 4.771316e+001 9.996006e-001 -9.640869e-001
29398545 9.997252e-001 -2.807709e-001 1.544191e-004 -1.763663e+002 1.066260e-004 -1.479558e+002 9.992025e-001 -9.848129e-001
29698530 9.994438e-001 -2.651849e-001 5.514573e-005 1.852959e+001 3.725322e-004 9.607203e+001 9.999110e-001 -9.410706e-001
29998515 1.000358e+000 -3.044257e-001 1.008178e-004 -1.326918e+002 1.855803e-004 -8.551365e+001 9.995534e-001 -1.045685e+000
30298500 1.000340e+000 -3.021263e-001 8.218876e-005 2.424187e+001 1.837202e-004 1.539301e+002 9.999771e-001 -1.043408e+000
30598485 1.000727e+000 -2.961781e-001 7.159114e-005 1.432219e+002 1.865417e-004 2.887418e+001 9.999810e-001 -1.044752e+000
30898470 1.000488e+000 -2.886728e-001 7.723794e-005 -7.462641e+001 2.471797e-004 -1.260886e+002 9.988528e-001 -1.068969e+000
31198455 9.999602e-001 -2.954431e-001 3.468568e-005 -1.134362e+002 1.197533e-004 1.713315e+001 9.985932e-001 -1.010819e+000
31498440 1.000811e+000 -3.432322e-001 6.719679e-005 -3.391613e+001 1.449290e-004 -6.009259e+001 9.992514e-001 -1.033110e+000
31798425 1.000209e+000 -3.851539e-001 3.856413e-005 1.652980e+002 3.753248e-004 1.601725e+002 9.992762e-001 -1.022085e+000
32098410 1.000530e+000 -3.380908e-001 1.100901e-004 -1.247899e+002 1.735046e-004 1.535928e+002 1.000635e+000 -9.585334e-001
32398395 1.000848e+000 -3.213080e-001 2.099192e-005 -1.170262e+002 1.073553e-004 -9.013364e+001 9.992251e-001 -9.729142e-001
32698380 1.001070e+000 -3.659210e-001 9.004058e-005 -4.772277e+001 1.858083e-004 1.392082e+002 9.989421e-001 -1.101491e+000
32998365 1.000271e+000 -3.252087e-001 8.636659e-005 -2.587200e+001 1.127426e-004 7.768122e+001 9.996877e-001 -1.046570e+000
33298350 1.000044e+000 -3.225603e-001 1.235975e-005 1.317988e+002 1.697373e-004 -1.093483e+002 9.988511e-001 -1.113426e+000
33598335 9.990341e-001 -3.528228e-001 1.075212e-004 -1.165919e+002 1.894322e-004 1.354029e+002 9.987308e-001 -1.088907e+000
33898320 9.999968e-001 -3.276919e-001 7.061150e-005 -6.541773e+001 1.883618e-004 -7.022572e+001 9.985131e-001 -1.083329e+000
34198305 9.990512e-001 -3.804799e-001 1.428464e-004 -1.366340e+002 1.962578e-004 1.748663e+002 9.981202e-001 -1.141012e+000
34498290 9.999107e-001 -3.940326e-001 9.591971e-005 1.597732e+002 1.777011e-004 1.519726e+001 9.970806e-001 -1.092349e+000
34798275 1.000766e+000 -3.855589e-001 8.288131e-005 -1.711075e+002 2.682342e-004 -1.108568e+002 9.984181e-001 -1.153355e+000
35098260 9.999293e-001 -4.007841e-001 1.263677e-004 2.374136e+001 1.249958e-004 1.742672e+002 9.991617e-001 -1.126462e+000
35398245 1.000602e+000 -3.936723e-001 1.176216e-004 -1.356151e+002 2.322844e-004 -6.435774e+001 9.998265e-001 -1.168871e+000
35698230 1.000290e+000 -3.730562e-001 4.071636e-005 1.042765e+002 1.463758e-004 -1.721681e+002 9.999214e-001 -1.170358e+000
35998215 9.997172e-001 -4.246265e-001 4.402492e-005 9.688344e+001 1.261759e-004 7.645731e+001 9.992726e-001 -1.192957e+000
36298200 9.995002e-001 -4.036638e-001 5.209570e-005 -1.102845e+002 1.277483e-004 -4.625425e+001 9.988419e-001 -1.237054e+000
36598185 1.000136e+000 -4.148284e-001 1.735340e-004 -1.047868e+002 9.087040e-005 6.760941e+001 9.991677e-001 -1.195997e+000
36898170 1.000671e+000 -3.868571e-001 3.711530e-005 -1.145713e+001 1.660570e-004 -3.540361e+001 9.985474e-001 -1.261923e+000
37198155 1.000523e+000 -3.514298e-001 8.711674e-005 -6.669227e+000 1.111170e-004 1.636741e+002 9.996536e-001 -1.200234e+000
37498140 1.000393e+000 -3.690191e-001 9.021962e-005 -1.015005e+002 2.949993e-004 4.169688e+001 9.989727e-001 -1.217085e+000
37798125 9.996082e-001 -3.739023e-001 8.401187e-005 -3.628545e+001 7.057722e-005 1.527362e+002 1.000213e+000 -1.247383e+000
38098110 9.995717e-001 -3.580150e-001 6.135087e-005 3.789051e+001 1.938336e-004 4.752534e+001 9.989696e-001 -1.258632e+000
38398095 9.999478e-001 -3.845928e-001 5.359191e-005 3.071321e+001 2.866761e-004 -7.178833e+001 9.993805e-001 -1.280426e+000
38698080 1.000241e+000 -3.965227e-001 3.995629e-005 -1.090730e+002 1.257072e-004 -1.296391e+002 9.983951e-001 -1.350290e+000
38998065 1.000492e+000 -3.903612e-001 7.304891e-005 -2.192255e+000 1.329760e-004 -2.046040e+001 9.984545e-001 -1.272120e+000
39298050 1.000103e+000 -3.692221e-001 3.838322e-005 3.874133e+001 2.083702e-004 -1.302891e+002 9.989942e-001 -1.286730e+000
39598035 1.000678e+000 -4.130755e-001 6.298600e-005 -6.442470e+001 8.855854e-005 8.377860e+001 9.998888e-001 -1.201343e+000
39898020 1.000477e+000 -4.010832e-001 1.475243e-005 -1.269185e+002 5.064743e-005 7.983968e+001 1.000879e+000 -1.213331e+000
40198005 9.993544e-001 -4.528160e-001 2.490344e-004 4.618291e+001 4.326770e-004 -4.664086e+001 9.991679e-001 -1.272912e+000
40497990 1.000021e+000 -4.520213e-001 1.663457e-004 -5.517580e+001 2.539925e-004 1.746467e+002 9.982516e-001 -1.381007e+000
40797975 1.000227e+000 -4.419590e-001 9.165196e-005 -9.817485e+001 3.975219e-004 4.971146e+001 9.990438e-001 -1.394543e+000
41097960 1.000978e+000 -3.922723e-001 2.058199e-004 6.561977e+001 3.185918e-005 3.609146e+001 9.996805e-001 -1.379680e+000
41397945 9.998686e-001 -3.894343e-001 1.177903e-004 5.957094e-001 1.955353e-004 1.255032e+002 1.000151e+000 -1.268564e+000
41697930 9.996742e-001 -3.890321e-001 8.074076e-005 1.444035e+002 2.668657e-004 -9.727871e+001 9.989707e-001 -1.266756e+000
41997915 1.000699e+000 -3.553597e-001 8.926697e-005 -2.038283e+000 1.060163e-004 1.533027e+002 9.999672e-001 -1.320722e+000
42297900 1.000454e+000 -3.813128e-001 1.378398e-004 2.503746e+001 9.310264e-005 7.760933e+001 9.993532e-001 -1.333788e+000
42597885 1.000003e+000 -3.715700e-001 1.532717e-004 4.288347e+001 2.009110e-004 1.029925e+002 1.001376e+000 -1.324499e+000
42897870 1.000395e+000 -4.158872e-001 9.238015e-005 4.971007e+001 5.916507e-004 -4.667413e+001 1.000165e+000 -1.490181e+000
43197855 1.000104e+000 -3.746923e-001 5.222654e-005 1.319126e+002 2.515882e-004 -6.062598e+000 9.993804e-001 -1.463122e+000
43497840 1.002502e+000 -4.362686e-001 4.624525e-005 -1.444932e+002 2.872337e-004 3.538455e+001 9.998977e-001 -1.492132e+000
43797825 1.000408e+000 -4.015366e-001 6.928512e-005 -2.328180e+001 4.135631e-004 1.629445e+001 9.991205e-001 -1.465886e+000
44097810 1.000338e+000 -4.581262e-001 1.945108e-004 -1.562377e+002 2.181759e-004 1.503262e+002 1.000151e+000 -1.489810e+000
44397795 1.001248e+000 -3.858803e-001 1.108437e-004 -9.483089e+001 1.461020e-004 1.711095e+002 1.000431e+000 -1.542843e+000
44697780 1.000536e+000 -4.709005e-001 1.435499e-004 1.034762e+001 2.473777e-004 -1.992937e+001 1.000336e+000 -1.549627e+000
44997765 1.000660e+000 -4.558990e-001 1.319710e-004 2.763071e+001 3.067373e-004 1.221954e+002 1.000629e+000 -1.516954e+000
45297750 1.001254e+000 -5.214589e-001 2.960788e-004 7.603175e+001 1.510205e-004 -1.218451e+002 1.001597e+000 -1.500815e+000
45597735 1.002229e+000 -4.893641e-001 1.809019e-004 -1.650061e+002 3.191748e-004 1.787982e+002 1.000655e+000 -1.520308e+000
45897720 1.001405e+000 -4.303779e-001 1.046277e-004 1.114842e+002 3.071589e-004 1.582577e+002 1.001205e+000 -1.541578e+000
46197705 1.001720e+000 -4.211178e-001 4.485284e-005 2.818250e+001 8.410190e-005 -1.110628e+002 1.001988e+000 -1.445860e+000
46497690 1.001079e+000 -4.323267e-001 7.032641e-005 -7.736780e+001 1.635258e-004 1.412025e+002 1.000872e+000 -1.527728e+000
46797675 1.000592e+000 -4.410547e-001 7.359736e-005 -3.952560e+001 2.608190e-004 6.501373e+001 1.000650e+000 -1.642068e+000
47097660 1.001908e+000 -4.394431e-001 3.229586e-005 4.565387e+001 2.631187e-004 2.244018e+001 9.994316e-001 -1.702489e+000
47397645 1.000427e+000 -4.911002e-001 7.087141e-005 -9.894166e+001 9.862725e-005 1.069014e+002 9.993271e-001 -1.666640e+000
