!Agilent Technologies,N5230C,SG49000117,A.08.50.07
!Agilent N5230C: A.08.50.07
!Date: Thursday, May 16, 2024 21:19:19
!Correction: S11(Full 2 Port(1,2)) 
!S21(Full 2 Port(1,2)) 
!S12(Full 2 Port(1,2)) 
!S22(Full 2 Port(1,2)) 
!S2P File: Measurements: S11, S21, S12, S22:
# Hz S  MA   R 50
300000 1.005114e+000 -3.673658e-001 5.941119e-005 -5.799663e+001 6.665783e-004 4.720196e+001 1.006368e+000 -5.085208e-001
599985 9.831338e-001 4.257348e-001 1.408208e-005 1.733845e+002 2.994280e-004 -1.475179e+002 9.648513e-001 4.581852e-001
899970 9.980865e-001 -2.735024e-002 1.183848e-004 3.016446e+001 1.713290e-004 -1.270738e+002 9.838769e-001 -2.651266e-001
1199955 9.976638e-001 -4.259461e-002 7.270827e-005 -5.462252e+001 1.097681e-004 -6.015834e+001 9.948943e-001 -1.167950e-001
1499940 9.942561e-001 1.891619e-001 3.734288e-005 1.046413e+002 3.042526e-004 9.159721e+001 9.926091e-001 1.342210e-001
1799925 9.925807e-001 2.647718e-001 1.692045e-004 1.295475e+001 3.903676e-004 7.595730e+001 9.901741e-001 -1.451043e-002
2099910 9.983346e-001 7.948771e-004 9.763550e-005 8.179015e+001 8.361635e-005 -1.179484e+002 9.997650e-001 2.261811e-002
2399895 9.998996e-001 -1.033041e-001 1.475041e-004 1.042552e+002 6.463256e-005 3.641651e+001 1.004155e+000 -2.974550e-002
2699880 1.000051e+000 -2.267113e-001 2.034510e-005 -3.878278e+001 6.613497e-005 -1.574100e+002 9.966672e-001 -2.587346e-001
2999865 9.999414e-001 -1.105521e-001 2.286740e-005 -3.767006e+001 2.406781e-004 1.328164e+002 9.989266e-001 -2.189040e-001
3299850 1.000977e+000 -8.735909e-002 3.131757e-005 -1.008923e+002 1.575193e-004 -6.698476e+001 9.996319e-001 -2.900668e-001
3599835 1.000322e+000 -1.063513e-001 8.873291e-005 -1.015944e+002 2.101014e-004 1.457134e+002 9.996277e-001 -2.149924e-001
3899820 9.999397e-001 -1.119115e-001 2.962048e-005 9.565358e+001 1.029395e-004 -2.991367e+001 9.988148e-001 -2.106926e-001
4199805 1.001100e+000 -1.649444e-001 8.089255e-005 6.689052e+001 1.947384e-004 -1.751076e+002 1.001216e+000 -3.426850e-001
4499790 1.000252e+000 -1.274347e-001 1.068869e-004 -2.200857e+001 3.891323e-005 1.201273e+002 9.999861e-001 -2.811387e-001
4799775 1.000728e+000 -1.394043e-001 5.776529e-005 2.714555e+001 2.656542e-004 -9.346252e+001 1.000954e+000 -2.773723e-001
5099760 1.000399e+000 -1.402802e-001 1.245598e-004 -1.099703e+002 9.489321e-005 -2.443444e+001 1.000517e+000 -3.204328e-001
5399745 1.000476e+000 -9.535956e-002 7.297658e-005 -2.319129e+001 2.837818e-005 -9.313626e+001 1.000883e+000 -2.650349e-001
5699730 1.000414e+000 -1.135278e-001 5.180225e-005 1.103891e+002 1.395846e-004 -7.340790e+001 1.001232e+000 -2.640021e-001
5999715 9.998161e-001 -9.202793e-002 2.163377e-005 1.672055e+002 1.230640e-004 -1.176938e+002 1.000778e+000 -2.456902e-001
6299700 9.999926e-001 -9.924088e-002 7.056541e-005 -6.132629e+001 1.204942e-004 -1.746794e+000 1.000420e+000 -3.197464e-001
6599685 1.000109e+000 -1.276391e-001 1.770426e-005 -1.359084e+002 8.602057e-005 -1.662247e+002 1.001039e+000 -3.592850e-001
6899670 1.000457e+000 -1.285345e-001 1.300998e-005 1.472409e+002 1.225365e-004 -5.159180e+001 1.000558e+000 -3.505634e-001
7199655 1.000088e+000 -1.415547e-001 1.078926e-004 1.290640e+001 8.747903e-005 -4.036222e+001 1.001312e+000 -4.111345e-001
7499640 1.000237e+000 -1.740493e-001 1.537411e-005 -1.241734e+002 9.377874e-005 1.672487e+001 1.000782e+000 -4.464978e-001
7799625 1.000704e+000 -1.477600e-001 2.779286e-005 -6.309882e+001 9.233910e-005 -3.083080e+001 9.991627e-001 -3.866609e-001
8099610 1.000348e+000 -1.632319e-001 1.681449e-005 -1.731551e+002 1.125666e-004 2.805703e+001 9.990278e-001 -4.251111e-001
8399595 1.000167e+000 -1.213985e-001 1.502022e-005 -5.028483e+001 5.615805e-005 5.744413e+001 9.998554e-001 -4.299928e-001
8699580 9.997548e-001 -1.534175e-001 4.367054e-005 -1.309876e+001 1.259786e-004 2.268546e+001 9.994859e-001 -4.753272e-001
8999565 1.000260e+000 -1.258381e-001 4.911859e-005 -2.794150e+001 8.514555e-005 -5.070561e+001 1.000537e+000 -4.728859e-001
9299550 9.997757e-001 -1.625509e-001 8.440994e-005 -1.508879e+001 6.802854e-005 -1.501407e+002 9.989970e-001 -4.269795e-001
9599535 1.000009e+000 -1.819536e-001 4.580945e-005 7.336979e+001 1.986209e-004 -1.589321e+002 9.985887e-001 -5.585308e-001
9899520 1.000288e+000 -2.568021e-001 4.001984e-005 1.083165e+002 2.750530e-005 1.540241e+002 9.981208e-001 -7.026248e-001
10199505 1.000928e+000 -1.442506e-001 4.692182e-005 -7.436397e+001 5.075574e-005 -7.392793e+001 1.000399e+000 -4.922244e-001
10499490 9.998954e-001 -1.141267e-001 9.302771e-005 6.359291e+000 4.369093e-005 -1.327597e+002 9.987469e-001 -4.370666e-001
10799475 9.998328e-001 -1.218551e-001 5.768245e-005 1.317162e+002 2.181140e-004 1.266340e+001 9.999716e-001 -4.784148e-001
11099460 1.000843e+000 -1.392378e-001 3.013007e-005 5.943506e+001 1.452683e-004 -9.978790e+001 9.994814e-001 -4.856258e-001
11399445 1.000304e+000 -1.173939e-001 7.611921e-005 -2.589565e+001 1.165995e-004 -2.490435e+001 9.990847e-001 -4.720774e-001
11699430 9.999126e-001 -1.293351e-001 1.026609e-004 -3.936882e+001 1.417114e-004 1.017681e+002 9.990150e-001 -4.537571e-001
11999415 1.000136e+000 -1.235038e-001 1.736608e-005 -1.032415e+002 1.125393e-004 5.297353e+001 1.000477e+000 -4.911947e-001
12299400 9.996007e-001 -1.335673e-001 4.633741e-005 1.181981e+002 7.487809e-005 6.121783e+001 1.001436e+000 -5.149679e-001
12599385 1.000533e+000 -1.740209e-001 2.288887e-005 -1.514049e+002 3.743020e-005 -7.427106e+001 1.000225e+000 -5.682459e-001
12899370 1.000575e+000 -2.014379e-001 9.704923e-005 -1.295961e+002 3.369926e-005 5.206306e+001 9.990279e-001 -6.583523e-001
13199355 1.000359e+000 -1.724071e-001 2.875588e-005 7.396756e+001 2.095176e-004 -5.505780e+001 9.977499e-001 -6.172342e-001
13499340 1.000557e+000 -1.810395e-001 1.982791e-005 1.433988e+002 1.583297e-004 1.502894e+002 9.978300e-001 -5.610464e-001
13799325 1.000367e+000 -1.935393e-001 5.036549e-005 -1.781100e+002 1.590376e-004 -5.700755e+000 9.970255e-001 -5.732518e-001
14099310 1.000403e+000 -2.016114e-001 3.238658e-005 -6.138528e+001 1.595500e-004 -1.348049e+002 9.992700e-001 -4.540061e-001
14399295 1.000140e+000 -1.920896e-001 1.003543e-004 1.639870e+002 2.626959e-004 6.372828e+001 1.000298e+000 -5.039870e-001
14699280 1.000683e+000 -2.230394e-001 3.456612e-005 -7.336136e+001 1.127679e-004 5.377005e+000 9.991483e-001 -6.073834e-001
14999265 9.998038e-001 -1.847980e-001 4.790911e-005 8.904242e+001 2.532012e-004 1.196384e+002 9.988044e-001 -6.055014e-001
15299250 9.998658e-001 -1.855334e-001 8.306069e-005 1.650849e+002 6.177263e-005 9.146932e+001 9.994109e-001 -6.557035e-001
15599235 1.000068e+000 -1.695371e-001 4.838410e-005 6.053297e+001 8.691250e-005 1.263877e+002 9.995669e-001 -6.721019e-001
15899220 1.000267e+000 -1.689728e-001 9.386122e-005 2.721038e+001 2.106445e-004 4.959766e+000 9.989485e-001 -6.426104e-001
16199205 1.000109e+000 -1.491492e-001 1.240050e-004 1.146486e+002 2.633771e-004 -1.697644e+002 9.995968e-001 -6.651186e-001
16499190 1.000082e+000 -2.073981e-001 2.951706e-005 1.629834e+001 1.993471e-004 8.917246e+001 1.000759e+000 -7.133449e-001
16799175 9.999986e-001 -1.939592e-001 8.594420e-005 5.447979e+001 2.793932e-004 -8.194809e+001 1.000998e+000 -6.869518e-001
17099160 1.000279e+000 -1.900531e-001 7.688022e-005 2.389741e+001 3.153907e-004 9.905020e+001 1.000983e+000 -6.115573e-001
17399145 9.995095e-001 -2.230346e-001 1.366920e-005 -1.115205e+002 7.855942e-005 6.473502e+000 1.000662e+000 -6.523210e-001
17699130 1.000097e+000 -2.010206e-001 5.154205e-005 -1.592334e+002 2.798819e-004 -1.698102e+002 9.992211e-001 -6.556241e-001
17999115 1.000098e+000 -2.357888e-001 1.408449e-004 1.414651e+002 5.378423e-005 1.093946e+002 1.000454e+000 -6.768646e-001
18299100 9.998876e-001 -2.084906e-001 6.475647e-005 -1.593989e+002 1.450620e-004 -1.062019e+002 9.981210e-001 -8.161585e-001
18599085 9.996971e-001 -2.210110e-001 1.012516e-004 -4.358688e+001 1.160665e-004 8.345057e+001 9.996900e-001 -7.319198e-001
18899070 9.999655e-001 -2.652216e-001 6.750090e-005 -1.606289e+002 1.143920e-004 2.192025e+001 9.994223e-001 -7.100531e-001
19199055 1.000657e+000 -2.418136e-001 8.648293e-005 -1.685950e+002 2.776348e-004 -1.159918e+002 9.995908e-001 -7.332914e-001
19499040 1.000508e+000 -2.395621e-001 3.919968e-005 1.254943e+002 1.357850e-004 8.650629e+001 9.992295e-001 -6.515895e-001
19799025 1.000723e+000 -2.320030e-001 2.888652e-005 1.547737e+002 2.684380e-004 -4.234151e+000 9.983243e-001 -6.358088e-001
20099010 1.000004e+000 -2.129705e-001 6.234252e-005 5.225879e+001 3.142950e-005 -1.661533e+002 9.994189e-001 -7.683387e-001
20398995 9.990641e-001 -1.805525e-001 1.376389e-004 9.972412e+000 2.804685e-005 1.430373e+001 9.979307e-001 -7.859221e-001
20698980 9.993029e-001 -2.309754e-001 7.748471e-005 -1.704259e+002 1.114053e-004 -1.328900e+002 9.976251e-001 -8.184212e-001
20998965 9.994592e-001 -2.253454e-001 5.774518e-005 -7.761990e+001 2.134546e-004 -1.365866e+001 9.978480e-001 -7.266356e-001
21298950 9.997870e-001 -2.303471e-001 1.033396e-004 1.364313e+002 2.193526e-004 -1.178384e+002 9.981402e-001 -7.149338e-001
21598935 9.985735e-001 -2.525144e-001 4.297191e-005 -9.319091e+001 1.900439e-004 7.509155e+001 9.972192e-001 -7.358317e-001
21898920 9.996677e-001 -2.599801e-001 8.492322e-005 5.334859e+001 2.330356e-004 8.595699e+001 9.982287e-001 -7.511001e-001
22198905 9.998632e-001 -2.615980e-001 9.393886e-005 1.142189e+002 1.206740e-004 1.764467e+001 9.985135e-001 -8.022904e-001
22498890 9.997575e-001 -2.471462e-001 4.102697e-005 -1.796911e+002 1.386439e-004 8.914859e+001 9.996918e-001 -8.711252e-001
22798875 1.001027e+000 -2.175466e-001 7.030984e-005 -1.235310e+002 3.076214e-004 -1.264668e+001 9.997745e-001 -8.435874e-001
23098860 9.997864e-001 -2.302363e-001 1.600279e-004 1.051065e+002 2.247273e-004 -1.632235e+002 9.992802e-001 -8.674891e-001
23398845 9.997247e-001 -2.650577e-001 8.437857e-005 6.618309e+001 1.916023e-004 5.550821e+001 9.996335e-001 -8.255577e-001
23698830 1.000338e+000 -2.631187e-001 2.047080e-004 6.574484e+001 1.282000e-004 -9.356425e+001 9.984376e-001 -7.731259e-001
23998815 1.000169e+000 -2.736625e-001 1.019079e-004 9.516624e+001 2.285997e-004 -5.621306e+001 9.980353e-001 -8.123687e-001
24298800 1.000459e+000 -2.992058e-001 4.966871e-005 -5.586120e+001 3.897226e-004 -4.921388e+001 9.985627e-001 -9.468281e-001
24598785 1.000238e+000 -2.534792e-001 1.430625e-004 7.356743e+001 1.691376e-004 -1.412361e+002 9.977300e-001 -8.826007e-001
24898770 1.000740e+000 -2.949060e-001 5.452847e-005 -7.168616e+000 3.561348e-004 7.783561e+001 1.000504e+000 -9.740296e-001
25198755 9.997116e-001 -3.270359e-001 1.064444e-004 -8.082485e+001 1.200029e-004 -4.184424e+000 9.992211e-001 -8.908224e-001
25498740 1.000015e+000 -2.828988e-001 8.097916e-005 -1.742267e+002 2.206629e-004 -1.097755e+002 9.993157e-001 -9.500345e-001
25798725 1.000987e+000 -2.738609e-001 7.163249e-005 1.066591e+002 1.077134e-004 1.322379e+002 9.996250e-001 -9.828166e-001
26098710 1.000049e+000 -2.817053e-001 3.907464e-005 1.882116e+001 2.573551e-004 9.308394e+000 1.000382e+000 -9.953969e-001
26398695 1.000603e+000 -2.673577e-001 2.379602e-005 -8.607497e+001 2.222579e-004 -6.593597e+001 1.000628e+000 -9.296386e-001
26698680 1.000687e+000 -2.504678e-001 1.024225e-004 1.194979e+002 2.457497e-004 7.329076e+001 9.998646e-001 -9.349667e-001
26998665 1.000706e+000 -2.876984e-001 7.130558e-005 1.427771e+002 1.456520e-004 -5.123989e+001 9.987862e-001 -9.528198e-001
27298650 1.000688e+000 -3.089220e-001 9.403723e-005 9.700857e+001 8.055245e-005 3.063519e+001 9.985144e-001 -1.014835e+000
27598635 9.997452e-001 -2.953090e-001 5.785872e-005 1.091671e+002 9.489976e-005 3.582576e+001 1.000337e+000 -9.568962e-001
27898620 9.999090e-001 -2.742728e-001 7.028939e-005 2.243829e+001 3.101629e-004 1.073269e-001 1.000292e+000 -9.972625e-001
28198605 9.995552e-001 -3.140284e-001 2.878416e-005 6.767091e+001 1.268260e-004 -1.749807e+002 1.001350e+000 -1.000806e+000
28498590 9.997754e-001 -2.840224e-001 7.837417e-005 1.529197e+002 1.882403e-004 1.234607e+001 9.991312e-001 -1.059647e+000
28798575 9.997410e-001 -3.272050e-001 1.236181e-004 6.550752e+001 1.653366e-004 -7.811136e+001 9.997559e-001 -1.094357e+000
29098560 1.000087e+000 -3.423672e-001 3.141742e-005 -7.968691e+001 2.936411e-004 1.575690e+002 9.999782e-001 -1.052154e+000
29398545 1.000247e+000 -2.798844e-001 5.281233e-005 -9.605628e+000 1.403792e-004 2.274497e+001 1.000597e+000 -1.045766e+000
29698530 1.000516e+000 -2.925132e-001 8.197771e-005 1.422116e+001 1.485253e-004 -1.722065e+002 1.000412e+000 -9.880156e-001
29998515 9.998628e-001 -2.854305e-001 9.622821e-005 5.844507e+001 3.626773e-004 1.373544e+002 1.000721e+000 -1.044924e+000
30298500 1.000816e+000 -3.097191e-001 1.710339e-004 1.182915e+002 1.135032e-004 -3.338944e+001 1.000779e+000 -1.112962e+000
30598485 9.998372e-001 -3.010336e-001 6.881668e-005 -8.654334e+001 1.485288e-004 1.453415e+002 1.000596e+000 -1.020720e+000
30898470 1.000171e+000 -3.190096e-001 9.481695e-005 -1.677540e+001 1.601729e-004 -1.650414e+001 9.989274e-001 -1.088981e+000
31198455 1.000333e+000 -3.200037e-001 4.470536e-005 -5.075681e+001 9.689113e-005 -4.144309e+001 9.994925e-001 -1.121966e+000
31498440 9.997723e-001 -3.239966e-001 3.134070e-005 3.660325e+001 3.406843e-004 1.394951e+002 9.994706e-001 -1.081333e+000
31798425 9.997071e-001 -3.629442e-001 5.176552e-005 -1.652326e+002 1.256902e-005 1.691833e+002 1.000830e+000 -1.105365e+000
32098410 1.000453e+000 -3.461353e-001 1.279248e-004 -9.569485e+001 1.532793e-004 -1.108646e+002 1.001201e+000 -1.086602e+000
32398395 1.000586e+000 -3.384934e-001 1.606121e-004 3.201972e+001 1.202410e-004 1.929309e+001 1.001318e+000 -1.155547e+000
32698380 1.001099e+000 -3.287566e-001 4.231359e-005 1.748244e+002 5.477804e-005 -3.813489e+001 1.000674e+000 -1.076461e+000
32998365 1.000913e+000 -3.420033e-001 1.123050e-004 2.872941e+000 1.971637e-004 8.132758e+001 9.995908e-001 -1.180481e+000
33298350 1.000541e+000 -3.292263e-001 1.137452e-004 1.446821e+002 1.825994e-004 -1.068008e+002 1.000193e+000 -1.170760e+000
33598335 1.000718e+000 -3.600773e-001 3.995784e-005 8.921880e+001 2.466649e-004 1.773877e+002 9.998303e-001 -1.080419e+000
33898320 9.998170e-001 -3.552310e-001 4.583477e-005 1.192978e+002 1.309851e-004 8.131254e+001 9.998029e-001 -1.198800e+000
34198305 9.999965e-001 -3.643655e-001 4.387295e-005 -1.002199e+001 1.648492e-004 -7.940540e+001 9.995309e-001 -1.238210e+000
34498290 9.995877e-001 -3.842313e-001 5.801487e-005 -3.256793e+001 3.874887e-004 -1.663038e+002 9.997337e-001 -1.219781e+000
34798275 9.999337e-001 -3.813997e-001 1.641063e-005 1.562956e+002 1.831079e-004 3.801187e+001 9.992695e-001 -1.256911e+000
35098260 1.000582e+000 -4.142021e-001 1.280485e-004 -1.098176e+002 1.428775e-004 -1.127572e+002 9.992228e-001 -1.200738e+000
35398245 9.998372e-001 -4.152100e-001 8.094814e-005 1.321760e+002 2.709380e-004 6.881428e+001 1.001218e+000 -1.193905e+000
35698230 1.000404e+000 -4.255910e-001 1.883080e-005 1.786851e+002 5.162711e-005 -1.340761e+002 9.995553e-001 -1.187819e+000
35998215 1.000097e+000 -3.806019e-001 5.541685e-005 8.996089e+001 1.120304e-004 5.474392e+001 1.000512e+000 -1.247480e+000
36298200 1.000014e+000 -3.935736e-001 1.253054e-004 -1.292691e+002 2.944515e-004 -2.402712e+001 9.998775e-001 -1.294552e+000
36598185 9.997603e-001 -3.837498e-001 4.715976e-005 -5.547417e+001 3.055996e-005 7.961045e+001 1.000299e+000 -1.280803e+000
36898170 1.000439e+000 -3.841361e-001 6.596246e-005 1.677472e+002 3.157830e-005 -2.517748e+001 9.986629e-001 -1.242430e+000
37198155 9.999140e-001 -3.882258e-001 1.231077e-004 -1.544057e+002 6.771596e-005 -9.738984e+001 9.997679e-001 -1.260089e+000
37498140 1.000309e+000 -3.874726e-001 2.798165e-005 -1.700195e+002 2.414977e-004 9.058439e+001 1.000661e+000 -1.262650e+000
37798125 9.998113e-001 -3.733863e-001 3.932415e-005 -7.816563e+001 1.764131e-004 4.003543e+001 1.000000e+000 -1.325736e+000
38098110 9.996808e-001 -3.769761e-001 2.156491e-005 1.454102e+001 2.898380e-004 -9.225299e+001 1.000037e+000 -1.308839e+000
38398095 9.989465e-001 -3.450930e-001 5.948675e-005 -7.387167e+001 1.615678e-004 1.412949e+002 9.993977e-001 -1.406741e+000
38698080 1.000243e+000 -3.624301e-001 6.249978e-005 -7.133453e+001 1.959569e-005 1.001819e+002 9.994398e-001 -1.382307e+000
38998065 1.000885e+000 -3.686753e-001 4.176271e-005 -5.640377e+001 9.960999e-005 -1.776205e+002 9.994059e-001 -1.346735e+000
39298050 1.000161e+000 -3.914736e-001 7.173468e-005 1.329090e+002 1.308597e-004 -1.942987e+001 9.993253e-001 -1.356027e+000
39598035 1.000859e+000 -3.730781e-001 7.353479e-005 -1.745005e+002 4.361821e-005 -1.386744e+002 1.001326e+000 -1.323170e+000
39898020 1.001445e+000 -3.512984e-001 8.987010e-005 -1.505642e+002 9.089163e-005 7.971410e+001 1.001020e+000 -1.292572e+000
40198005 1.000544e+000 -3.831415e-001 5.252841e-005 8.651826e+001 2.420135e-004 1.503968e+002 1.001075e+000 -1.559501e+000
40497990 1.000152e+000 -4.364493e-001 1.839296e-004 -1.145643e+002 1.455808e-004 -1.699536e+002 1.000709e+000 -1.412113e+000
40797975 1.001096e+000 -4.177068e-001 7.979151e-005 -4.892739e+001 1.978650e-004 8.355045e+001 1.001068e+000 -1.537762e+000
41097960 1.000110e+000 -4.150360e-001 1.221202e-004 2.266466e+001 4.246200e-004 1.245489e+002 1.000423e+000 -1.346604e+000
41397945 1.000726e+000 -3.823693e-001 1.566030e-004 -1.372062e+002 3.223994e-004 -1.337302e+002 1.000868e+000 -1.335464e+000
41697930 1.000607e+000 -3.281651e-001 1.357319e-004 1.567141e+002 2.483073e-005 -1.645327e+002 1.000863e+000 -1.404696e+000
41997915 9.988528e-001 -3.795646e-001 9.839884e-005 1.300242e+002 8.718122e-005 1.732885e+002 1.000959e+000 -1.320376e+000
42297900 1.000277e+000 -3.972685e-001 1.910989e-004 1.413250e+002 4.162327e-005 -8.365399e+001 1.001358e+000 -1.410561e+000
42597885 1.000609e+000 -3.992413e-001 1.397680e-004 -1.538484e+002 7.140865e-005 6.134600e+001 1.002584e+000 -1.479741e+000
42897870 1.001491e+000 -4.236621e-001 5.638993e-005 1.043633e+002 2.330079e-004 1.714850e+002 1.000581e+000 -1.594976e+000
43197855 1.000766e+000 -3.983085e-001 2.085158e-004 -1.237236e+002 7.310143e-005 -5.627717e+000 1.000995e+000 -1.501878e+000
43497840 1.000153e+000 -4.339980e-001 8.042000e-005 -4.428234e+001 3.539294e-004 9.611236e+001 1.000504e+000 -1.608314e+000
43797825 1.000789e+000 -3.902431e-001 8.868901e-005 6.362681e+001 4.801855e-004 1.397112e+002 9.999942e-001 -1.506057e+000
44097810 1.000386e+000 -4.048367e-001 1.195514e-004 -4.209286e+001 3.507714e-004 -1.320108e+002 9.996080e-001 -1.604134e+000
44397795 1.000662e+000 -3.676188e-001 3.618156e-005 -7.583651e+001 3.915292e-004 1.314219e+002 1.001110e+000 -1.561506e+000
44697780 1.001437e+000 -3.811723e-001 9.134857e-005 1.375556e+002 2.799877e-004 1.401412e+002 1.002612e+000 -1.654968e+000
44997765 1.001143e+000 -4.919030e-001 1.066820e-004 1.727273e+002 1.076223e-004 5.074724e+001 1.000996e+000 -1.763860e+000
45297750 1.001814e+000 -4.869140e-001 1.352394e-004 -5.118446e+001 2.956654e-004 -8.757961e+001 1.002794e+000 -1.597389e+000
45597735 1.001087e+000 -4.967159e-001 1.436310e-004 -1.538400e+002 1.996382e-004 9.565993e+001 1.001111e+000 -1.697260e+000
45897720 1.000057e+000 -4.283510e-001 8.683059e-005 1.559744e+002 8.621290e-005 5.496429e+000 1.003403e+000 -1.546594e+000
46197705 1.001660e+000 -4.075513e-001 1.009890e-004 -1.114597e+002 3.019413e-004 9.770948e+001 1.002001e+000 -1.556126e+000
46497690 1.002324e+000 -4.458311e-001 7.157955e-005 2.556507e+001 1.603486e-004 4.894193e+001 1.000482e+000 -1.684507e+000
46797675 1.000808e+000 -4.543440e-001 1.230069e-004 1.795579e+002 2.663454e-004 -1.351130e+002 1.002055e+000 -1.612950e+000
47097660 1.000717e+000 -4.459550e-001 1.839844e-004 -5.461670e+000 3.605990e-004 1.501297e+002 1.000623e+000 -1.711302e+000
47397645 1.001403e+000 -4.413421e-001 5.073450e-005 -1.619741e+002 2.263383e-004 8.062064e+001 1.000581e+000 -1.769332e+000
