!Agilent Technologies,N5230C,SG49000117,A.08.50.07
!Agilent N5230C: A.08.50.07
!Date: Sunday, March 17, 2024 08:17:42
!Correction: S11(Off) 
!S21(Off) 
!S12(Off) 
!S22(Off) 
!S2P File: Measurements: S11, S21, S12, S22:
# Hz S  RI   R 50
300000000 1.860966e-007 -4.843599e-006 -7.483731e-001 -3.951739e-001 -5.497748e-007 5.053381e-006 -7.512078e-001 -3.966204e-001
300285000 8.239274e-006 2.734429e-006 -7.553204e-001 -3.713068e-001 1.801305e-006 -3.349077e-007 -7.581075e-001 -3.727442e-001
300570000 1.159536e-005 7.051335e-006 -7.614229e-001 -3.475576e-001 3.963870e-005 4.189065e-006 -7.643747e-001 -3.488643e-001
300855000 1.053749e-005 -6.647684e-006 -7.669107e-001 -3.238430e-001 9.683416e-006 8.613411e-006 -7.697532e-001 -3.250839e-001
301140000 9.057654e-007 1.256795e-005 -7.718535e-001 -3.002928e-001 -3.534931e-006 -1.296373e-007 -7.747515e-001 -3.013634e-001
301425000 -5.888310e-006 -1.722811e-006 -7.760788e-001 -2.768795e-001 -1.144431e-005 2.004463e-005 -7.790391e-001 -2.778629e-001
301710000 -1.581812e-006 -7.732424e-007 -7.797460e-001 -2.536005e-001 -1.562727e-005 -1.103925e-006 -7.826067e-001 -2.545327e-001
301995000 2.882988e-005 4.280579e-006 -7.828010e-001 -2.305343e-001 7.792386e-006 2.014829e-006 -7.857428e-001 -2.314477e-001
302280000 1.111075e-005 -2.173804e-007 -7.852306e-001 -2.077505e-001 -9.213835e-006 -7.555554e-006 -7.881494e-001 -2.084986e-001
302565000 -8.488274e-008 -5.969562e-006 -7.871836e-001 -1.849459e-001 1.451641e-005 -3.906815e-006 -7.901500e-001 -1.856839e-001
302850000 -1.437226e-005 -6.147427e-006 -7.884772e-001 -1.624791e-001 1.132447e-005 8.067734e-006 -7.915187e-001 -1.630503e-001
303135000 -8.104021e-006 -1.693172e-006 -7.894266e-001 -1.401000e-001 1.137308e-005 2.855943e-006 -7.924070e-001 -1.407056e-001
303420000 -8.014973e-006 9.718708e-006 -7.897829e-001 -1.180833e-001 1.252279e-005 4.002666e-007 -7.928367e-001 -1.185022e-001
303705000 -1.139467e-005 -1.008496e-005 -7.896937e-001 -9.603461e-002 9.526630e-006 -4.736406e-006 -7.927676e-001 -9.649428e-002
303990000 -3.801199e-006 -6.557555e-006 -7.891541e-001 -7.433045e-002 1.667019e-005 -5.166074e-006 -7.921587e-001 -7.460208e-002
304275000 3.313626e-006 -6.474037e-006 -7.881787e-001 -5.275238e-002 -3.575377e-006 -1.169543e-005 -7.911211e-001 -5.298991e-002
304560000 -1.060916e-005 -4.110779e-007 -7.867244e-001 -3.141043e-002 -9.342161e-006 4.780894e-006 -7.897145e-001 -3.147921e-002
304845000 3.982998e-005 3.437575e-006 -7.848583e-001 -1.025232e-002 7.169975e-007 9.545366e-006 -7.879415e-001 -1.030236e-002
305130000 1.050276e-005 -3.929839e-006 -7.826254e-001 1.076853e-002 -3.252647e-007 5.386963e-006 -7.856242e-001 1.082786e-002
305415000 1.217121e-005 4.650565e-007 -7.799197e-001 3.159650e-002 -1.280601e-005 2.042981e-006 -7.829094e-001 3.173409e-002
305700000 -2.670514e-006 1.994412e-006 -7.768668e-001 5.227363e-002 1.744563e-005 -6.918357e-006 -7.797802e-001 5.246380e-002
305985000 9.156905e-006 8.438210e-006 -7.732245e-001 7.285453e-002 2.757058e-006 -6.176379e-006 -7.761993e-001 7.304333e-002
306270000 -5.443279e-006 -8.766857e-006 -7.693946e-001 9.307576e-002 4.252474e-006 -8.409848e-006 -7.723355e-001 9.348696e-002
306555000 -3.183923e-007 -6.911799e-006 -7.650688e-001 1.133767e-001 5.176872e-006 1.851449e-005 -7.680138e-001 1.137836e-001
306840000 -2.496370e-006 1.024929e-006 -7.603667e-001 1.332790e-001 -7.039125e-006 5.095911e-006 -7.633379e-001 1.337980e-001
307125000 -9.196948e-006 -3.745279e-006 -7.554049e-001 1.531346e-001 -8.944417e-006 -1.240367e-005 -7.583367e-001 1.537544e-001
307410000 7.875251e-006 -2.313212e-006 -7.500306e-001 1.728137e-001 1.124950e-005 -1.193276e-005 -7.528924e-001 1.735415e-001
307695000 1.016186e-006 5.424277e-006 -7.443238e-001 1.924184e-001 8.395105e-006 4.676951e-006 -7.471476e-001 1.931100e-001
307980000 1.337330e-005 -5.411327e-006 -7.381605e-001 2.118442e-001 4.219575e-006 -9.459348e-006 -7.410462e-001 2.125874e-001
308265000 2.003928e-006 7.199314e-006 -7.317319e-001 2.310577e-001 -7.916957e-006 9.459721e-006 -7.345833e-001 2.319585e-001
308550000 -7.312796e-006 6.802591e-006 -7.249138e-001 2.501748e-001 -1.881048e-006 -5.388156e-006 -7.277399e-001 2.511229e-001
308835000 1.780669e-005 -2.186247e-006 -7.177556e-001 2.691945e-001 -1.965166e-006 -1.243608e-005 -7.204863e-001 2.702117e-001
309120000 4.377819e-006 -2.747559e-006 -7.101508e-001 2.879810e-001 -1.615902e-006 6.597827e-006 -7.129588e-001 2.890919e-001
309405000 8.377437e-006 3.253299e-006 -7.023519e-001 3.067249e-001 -6.638699e-007 -1.108846e-005 -7.051200e-001 3.079091e-001
309690000 4.152988e-006 9.516284e-006 -6.940311e-001 3.253027e-001 -2.949284e-007 4.809588e-006 -6.967115e-001 3.265521e-001
309975000 1.247986e-005 5.859269e-006 -6.854188e-001 3.437697e-001 6.150929e-008 3.488921e-006 -6.881416e-001 3.450524e-001
310260000 -1.365255e-005 -2.091998e-006 -6.765234e-001 3.620510e-001 -5.480274e-006 6.228453e-006 -6.791618e-001 3.635029e-001
310545000 2.019705e-006 6.317503e-006 -6.671302e-001 3.802700e-001 -1.326338e-005 -1.586135e-006 -6.697657e-001 3.817908e-001
310830000 -6.581462e-006 -9.807814e-006 -6.573414e-001 3.983678e-001 -1.222886e-006 8.544685e-006 -6.599843e-001 4.000037e-001
311115000 -1.762342e-005 1.188217e-005 -6.471822e-001 4.163080e-001 -1.225292e-005 -1.181728e-005 -6.498398e-001 4.179284e-001
311400000 -7.734500e-006 1.087620e-006 -6.368125e-001 4.341241e-001 1.326171e-005 7.421547e-006 -6.392967e-001 4.358171e-001
311685000 -6.449040e-006 2.524479e-007 -6.258336e-001 4.518264e-001 -5.372628e-006 -1.812214e-006 -6.283557e-001 4.535952e-001
311970000 -1.721756e-005 -1.035446e-005 -6.145868e-001 4.694526e-001 6.876029e-006 -9.180102e-006 -6.169715e-001 4.712605e-001
312255000 -1.729402e-005 -8.395484e-006 -6.028743e-001 4.868453e-001 4.005160e-006 -9.560663e-007 -6.053224e-001 4.888298e-001
312540000 2.166671e-007 -1.500937e-005 -5.907115e-001 5.041372e-001 1.601444e-005 -6.017914e-006 -5.930191e-001 5.062117e-001
312825000 -7.633579e-006 -8.628588e-006 -5.781329e-001 5.213072e-001 7.306565e-006 7.265978e-006 -5.804287e-001 5.233726e-001
313110000 2.214230e-005 9.908278e-006 -5.650944e-001 5.384020e-001 6.707284e-006 -4.208194e-006 -5.673895e-001 5.405256e-001
313395000 7.861413e-006 5.599659e-007 -5.516273e-001 5.552298e-001 -2.024573e-006 -5.646266e-006 -5.538931e-001 5.574644e-001
313680000 -4.680294e-007 -2.778396e-006 -5.377045e-001 5.719817e-001 -1.407561e-005 6.687890e-006 -5.398242e-001 5.742821e-001
313965000 -9.962876e-006 2.663146e-005 -5.232940e-001 5.886236e-001 -1.171851e-005 -6.727709e-006 -5.253465e-001 5.909991e-001
314250000 -6.273966e-006 1.085750e-005 -5.083639e-001 6.049767e-001 7.074078e-006 3.223382e-006 -5.104460e-001 6.074074e-001
314535000 -3.606568e-006 1.706701e-006 -4.929549e-001 6.211459e-001 -2.035326e-005 4.548437e-006 -4.949646e-001 6.236172e-001
314820000 -3.472219e-006 1.524012e-005 -4.770805e-001 6.371869e-001 4.155984e-006 3.497998e-006 -4.789749e-001 6.397745e-001
315105000 3.939421e-006 -3.185743e-006 -4.605977e-001 6.530141e-001 -3.110041e-006 1.286439e-006 -4.624666e-001 6.556694e-001
315390000 2.753183e-005 -7.134588e-007 -4.436350e-001 6.685959e-001 -1.171053e-005 -7.251366e-006 -4.454415e-001 6.713409e-001
315675000 -5.550377e-006 -3.682529e-006 -4.260673e-001 6.839606e-001 4.211658e-007 -1.096238e-006 -4.277814e-001 6.867471e-001
315960000 1.219908e-005 8.551166e-006 -4.079297e-001 6.991106e-001 8.230099e-006 -3.832507e-006 -4.095968e-001 7.019474e-001
316245000 1.470484e-005 1.904940e-006 -3.892399e-001 7.139574e-001 -1.076713e-005 -2.678793e-006 -3.908303e-001 7.168306e-001
316530000 -6.837432e-006 4.905421e-006 -3.699436e-001 7.284530e-001 -1.159514e-006 -3.017049e-006 -3.714986e-001 7.314145e-001
316815000 -3.843173e-006 -1.090067e-005 -3.500679e-001 7.426945e-001 -3.948852e-007 3.038931e-006 -3.515389e-001 7.456481e-001
317100000 2.179133e-005 1.662493e-006 -3.296319e-001 7.565947e-001 -1.050660e-005 1.891052e-005 -3.308876e-001 7.595697e-001
317385000 3.645706e-006 1.352051e-006 -3.084000e-001 7.700429e-001 5.308269e-006 -6.262550e-006 -3.096235e-001 7.731574e-001
317670000 2.344052e-006 -1.460220e-006 -2.866264e-001 7.830777e-001 3.155707e-006 -9.840097e-006 -2.877939e-001 7.863650e-001
317955000 -1.001613e-005 4.307464e-006 -2.641655e-001 7.957309e-001 7.605617e-007 -9.137938e-006 -2.652418e-001 7.990196e-001
318240000 3.109483e-006 2.003693e-006 -2.410816e-001 8.079834e-001 -1.816945e-007 -7.532155e-006 -2.420871e-001 8.112641e-001
318525000 -8.159144e-006 4.745989e-006 -2.172641e-001 8.196699e-001 -1.516041e-005 -2.807769e-006 -2.181625e-001 8.230323e-001
318810000 1.801311e-005 1.796413e-005 -1.928457e-001 8.308728e-001 7.885471e-006 -2.047318e-005 -1.936696e-001 8.342260e-001
319095000 -7.690000e-006 -9.423079e-006 -1.676648e-001 8.414791e-001 -4.531417e-006 -1.765136e-005 -1.683643e-001 8.448946e-001
319380000 1.761451e-006 1.678673e-005 -1.418134e-001 8.514377e-001 -1.093049e-005 -1.545895e-005 -1.424323e-001 8.550048e-001
319665000 -1.135335e-005 1.400737e-006 -1.153486e-001 8.607194e-001 1.198612e-006 -1.527072e-005 -1.158350e-001 8.642733e-001
319950000 -6.615428e-006 -7.783560e-007 -8.819108e-002 8.693952e-001 1.345510e-006 1.591034e-005 -8.856985e-002 8.729151e-001
320235000 -8.379006e-006 -9.246808e-006 -6.022005e-002 8.771507e-001 -1.728946e-006 1.040970e-005 -6.062124e-002 8.807386e-001
320520000 -6.215135e-007 -1.125661e-005 -3.185605e-002 8.842131e-001 5.721856e-007 -5.037452e-006 -3.193472e-002 8.877622e-001
320805000 -3.756778e-006 -2.003550e-006 -2.622834e-003 8.902247e-001 3.262814e-006 3.096014e-006 -2.662422e-003 8.939437e-001
321090000 -1.594663e-005 -3.410639e-007 2.720764e-002 8.954521e-001 -1.189475e-005 7.911286e-006 2.731286e-002 8.992421e-001
321375000 -5.622450e-006 -9.437804e-006 5.766822e-002 8.997257e-001 -2.390574e-006 1.541845e-005 5.792538e-002 9.034981e-001
321660000 -1.393260e-005 -2.247086e-006 8.871533e-002 9.029213e-001 -1.733121e-005 -2.577988e-006 8.906838e-002 9.066735e-001
321945000 -8.384836e-007 -1.812769e-006 1.202429e-001 9.050714e-001 -1.368697e-005 -4.445881e-007 1.206683e-001 9.088067e-001
322230000 4.813678e-006 3.574166e-008 1.523146e-001 9.059618e-001 2.625706e-006 1.304577e-005 1.529753e-001 9.097157e-001
322515000 -4.014970e-006 2.248544e-006 1.849602e-001 9.057684e-001 -1.886392e-005 7.701845e-006 1.857499e-001 9.095134e-001
322800000 -1.350782e-005 1.183343e-005 2.180429e-001 9.041573e-001 -7.086833e-006 -6.754506e-006 2.189147e-001 9.079469e-001
323085000 -8.323957e-006 -9.553032e-006 2.514198e-001 9.012929e-001 2.106077e-006 2.061031e-006 2.525395e-001 9.050564e-001
323370000 -6.150717e-006 -9.382808e-006 2.852376e-001 8.970731e-001 -1.946114e-007 1.043243e-006 2.864721e-001 9.008031e-001
323655000 6.079317e-007 -6.670157e-006 3.192754e-001 8.913565e-001 5.592422e-006 -3.618373e-007 3.206368e-001 8.950025e-001
323940000 2.636692e-006 1.492221e-005 3.535417e-001 8.841566e-001 -1.052544e-005 2.082850e-006 3.550124e-001 8.878840e-001
324225000 -2.041466e-006 7.203631e-006 3.878034e-001 8.754514e-001 -2.845688e-006 -1.108256e-005 3.894480e-001 8.791660e-001
324510000 2.680378e-005 2.022671e-006 4.222037e-001 8.651503e-001 6.434857e-006 6.632127e-006 4.239688e-001 8.687932e-001
324795000 -2.380978e-006 2.107887e-006 4.565316e-001 8.532255e-001 1.190667e-005 -1.634740e-006 4.584033e-001 8.568407e-001
325080000 9.852957e-006 1.349974e-005 4.906562e-001 8.396033e-001 -3.570237e-006 3.261520e-006 4.926925e-001 8.432317e-001
325365000 -1.996367e-006 -8.321704e-007 5.245432e-001 8.244461e-001 -1.897608e-005 8.979549e-006 5.268067e-001 8.279240e-001
325650000 -1.308536e-005 5.156657e-006 5.580529e-001 8.074913e-001 -2.140094e-006 -7.741427e-006 5.603141e-001 8.109401e-001
325935000 1.397953e-005 7.443045e-007 5.911536e-001 7.888959e-001 -1.721068e-005 2.564784e-006 5.935221e-001 7.923056e-001
326220000 1.397071e-006 6.867387e-006 6.235623e-001 7.685643e-001 9.365065e-007 1.060291e-005 6.262028e-001 7.719486e-001
326505000 -1.156869e-006 -1.904103e-005 6.553532e-001 7.466062e-001 4.565156e-006 -1.678871e-005 6.580824e-001 7.497600e-001
326790000 -4.993378e-006 1.073590e-005 6.863043e-001 7.229979e-001 3.265895e-006 4.731397e-006 6.891315e-001 7.260789e-001
327075000 9.760696e-006 -1.758746e-005 7.163242e-001 6.977955e-001 -1.959856e-005 -5.930912e-006 7.192922e-001 7.007539e-001
327360000 5.683627e-006 5.586304e-006 7.452498e-001 6.708402e-001 1.632739e-005 -2.884769e-006 7.483535e-001 6.737074e-001
327645000 2.840047e-006 2.127677e-006 7.729901e-001 6.425127e-001 -1.728557e-005 1.386147e-005 7.762799e-001 6.453676e-001
327930000 -3.940112e-007 9.230770e-006 7.994677e-001 6.126296e-001 -2.608281e-006 -9.025026e-006 8.028772e-001 6.153454e-001
328215000 8.538428e-006 6.567450e-007 8.246067e-001 5.815452e-001 -1.622300e-005 -1.208479e-005 8.281267e-001 5.839180e-001
328500000 1.281047e-006 -1.450389e-006 8.483228e-001 5.489408e-001 -1.520362e-005 4.350281e-006 8.519780e-001 5.514243e-001
328785000 7.754741e-006 4.348281e-006 8.703438e-001 5.153423e-001 -8.969221e-006 -2.818266e-006 8.740436e-001 5.175242e-001
329070000 -7.145083e-006 2.069486e-006 8.907866e-001 4.804866e-001 6.477429e-007 -1.588015e-006 8.945720e-001 4.826325e-001
329355000 -3.376508e-006 1.392289e-007 9.095114e-001 4.445946e-001 -1.853356e-005 -7.353679e-006 9.135624e-001 4.465525e-001
329640000 -4.204452e-006 1.118027e-005 9.263092e-001 4.079218e-001 -1.284509e-006 -1.048545e-005 9.304149e-001 4.097528e-001
329925000 -4.843376e-006 -8.472572e-006 9.415097e-001 3.705914e-001 1.086605e-005 8.446942e-006 9.456050e-001 3.721986e-001
330210000 -6.736676e-006 -2.032390e-006 9.547322e-001 3.325402e-001 -7.791090e-006 9.469366e-006 9.587951e-001 3.338912e-001
330495000 -6.126902e-006 1.300749e-005 9.659644e-001 2.939706e-001 -8.444104e-006 1.853213e-005 9.700823e-001 2.951908e-001
330780000 -1.480098e-006 -1.343032e-006 9.753709e-001 2.550537e-001 -1.148298e-005 1.131413e-005 9.795294e-001 2.561104e-001
331065000 -7.253590e-006 7.806482e-007 9.826825e-001 2.158465e-001 1.152917e-006 1.296209e-005 9.869400e-001 2.168037e-001
331350000 -9.093896e-006 3.129264e-006 9.881524e-001 1.765879e-001 -2.829785e-005 5.839141e-006 9.923938e-001 1.773200e-001
331635000 -6.867164e-006 4.454997e-006 9.916382e-001 1.373009e-001 -1.422658e-005 -1.256908e-005 9.959567e-001 1.379225e-001
331920000 -3.697376e-006 2.146088e-006 9.933687e-001 9.818528e-002 6.088344e-006 2.386072e-006 9.976962e-001 9.862787e-002
332205000 9.787406e-007 -4.011202e-006 9.931650e-001 5.933353e-002 -1.198969e-005 -6.784636e-006 9.974952e-001 5.966300e-002
332490000 3.618539e-006 -4.150694e-006 9.911591e-001 2.093332e-002 -3.235583e-006 5.228420e-006 9.955290e-001 2.094560e-002
332775000 -5.597903e-006 2.686166e-006 9.874012e-001 -1.720681e-002 1.108282e-005 1.315773e-005 9.917236e-001 -1.718379e-002
333060000 4.214118e-006 -1.975112e-006 9.819106e-001 -5.454804e-002 1.124051e-005 1.524324e-006 9.862713e-001 -5.476522e-002
333345000 -3.180614e-007 2.116100e-005 9.749359e-001 -9.133573e-002 3.795298e-006 9.359409e-006 9.791398e-001 -9.170530e-002
333630000 -5.206306e-006 9.930090e-006 9.661845e-001 -1.273822e-001 -5.610678e-006 1.227514e-005 9.704701e-001 -1.278380e-001
333915000 1.309199e-005 -1.964710e-006 9.561333e-001 -1.625912e-001 -1.902632e-006 3.381994e-006 9.602838e-001 -1.632554e-001
334200000 3.013261e-006 -1.873592e-006 9.445763e-001 -1.967421e-001 1.024849e-005 -1.575255e-006 9.486987e-001 -1.977742e-001
334485000 -9.887694e-006 1.686135e-007 9.318160e-001 -2.302809e-001 5.085530e-006 -5.726736e-006 9.359238e-001 -2.312881e-001
334770000 1.304973e-005 -3.745376e-007 9.177297e-001 -2.625510e-001 1.481652e-005 -5.113581e-006 9.218771e-001 -2.637810e-001
335055000 -1.202353e-005 -7.029433e-007 9.026175e-001 -2.939164e-001 1.088479e-005 7.490991e-006 9.066353e-001 -2.952715e-001
335340000 -1.059862e-005 1.245199e-005 8.864449e-001 -3.241382e-001 -3.628615e-006 1.329855e-006 8.902593e-001 -3.256298e-001
335625000 -6.373495e-006 2.123216e-005 8.691341e-001 -3.532039e-001 1.608068e-005 2.607762e-006 8.730581e-001 -3.548144e-001
335910000 1.980363e-006 9.399716e-007 8.510571e-001 -3.811682e-001 3.834909e-007 1.301382e-005 8.547692e-001 -3.829269e-001
336195000 -3.537613e-006 -5.118295e-006 8.321559e-001 -4.080440e-001 1.121072e-006 4.858499e-007 8.359000e-001 -4.097936e-001
336480000 8.177539e-006 8.289294e-006 8.125499e-001 -4.338312e-001 2.579079e-006 2.687873e-005 8.161150e-001 -4.357306e-001
336765000 -3.614239e-006 -1.369313e-005 7.922467e-001 -4.583885e-001 -1.905148e-005 4.571473e-006 7.957520e-001 -4.604647e-001
337050000 5.723178e-006 7.695523e-007 7.714671e-001 -4.819627e-001 -1.444557e-006 1.964675e-006 7.748184e-001 -4.840897e-001
337335000 1.408026e-005 -1.334291e-005 7.500562e-001 -5.043179e-001 -9.651127e-007 -4.061460e-006 7.533762e-001 -5.065962e-001
337620000 -5.009342e-006 -1.060307e-005 7.282839e-001 -5.255727e-001 -2.163368e-005 -1.970517e-005 7.315428e-001 -5.279473e-001
337905000 8.365621e-006 -3.724012e-006 7.061042e-001 -5.457832e-001 2.242125e-006 7.314533e-006 7.092688e-001 -5.480597e-001
338190000 -1.830747e-005 6.132443e-006 6.835840e-001 -5.649505e-001 -1.294093e-005 3.561563e-007 6.866186e-001 -5.673846e-001
338475000 1.282876e-005 -3.845146e-006 6.609084e-001 -5.829983e-001 -2.547529e-006 -1.659312e-005 6.636695e-001 -5.856131e-001
338760000 6.518165e-006 -8.943511e-007 6.378431e-001 -6.000024e-001 6.987566e-006 -3.648089e-006 6.406938e-001 -6.026300e-001
339045000 7.227491e-007 -8.075611e-008 6.147164e-001 -6.161310e-001 2.938695e-006 2.547538e-006 6.174605e-001 -6.187867e-001
339330000 -1.266754e-005 -8.832430e-006 5.914146e-001 -6.312388e-001 5.788801e-006 6.061757e-006 5.939413e-001 -6.340084e-001
339615000 -4.543014e-006 9.312194e-006 5.679889e-001 -6.453735e-001 9.534629e-006 1.547473e-005 5.704355e-001 -6.481885e-001
339900000 3.483959e-006 3.925518e-006 5.445386e-001 -6.586441e-001 -2.718419e-007 1.186635e-006 5.468409e-001 -6.615264e-001
340185000 -1.613067e-006 4.977667e-006 5.210767e-001 -6.710478e-001 -3.586980e-007 7.820827e-006 5.232162e-001 -6.739503e-001
340470000 -2.970996e-006 -2.697639e-006 4.975307e-001 -6.825688e-001 1.313296e-006 1.486109e-005 4.997009e-001 -6.855001e-001
340755000 5.841908e-006 1.650440e-007 4.739994e-001 -6.932098e-001 -6.176501e-006 6.318298e-006 4.760377e-001 -6.962696e-001
341040000 -9.213398e-006 -7.535773e-006 4.506323e-001 -7.031475e-001 -1.161900e-005 2.481285e-006 4.525780e-001 -7.060813e-001
341325000 -1.075281e-005 2.990755e-006 4.272211e-001 -7.122288e-001 -9.235157e-006 3.491681e-006 4.290426e-001 -7.153025e-001
341610000 5.779432e-006 -3.115267e-006 4.039714e-001 -7.206648e-001 9.194459e-006 2.687811e-007 4.055945e-001 -7.237061e-001
341895000 5.681081e-006 9.364397e-006 3.807341e-001 -7.282660e-001 -5.496913e-006 2.287847e-006 3.823570e-001 -7.314295e-001
342180000 1.148608e-006 1.305934e-005 3.576694e-001 -7.352757e-001 1.304530e-005 -6.282124e-006 3.591645e-001 -7.384256e-001
342465000 1.124037e-005 1.137587e-005 3.347338e-001 -7.415951e-001 1.835684e-005 6.700789e-006 3.361676e-001 -7.447479e-001
342750000 1.143186e-005 -4.895303e-006 3.119057e-001 -7.472816e-001 -9.438087e-006 5.582081e-006 3.132184e-001 -7.504788e-001
343035000 -9.300586e-006 2.573194e-006 2.892612e-001 -7.523343e-001 -1.760318e-006 2.050086e-006 2.904466e-001 -7.556800e-001
343320000 8.046279e-006 4.595029e-006 2.666737e-001 -7.568561e-001 4.011245e-006 1.072322e-005 2.677764e-001 -7.600526e-001
343605000 -1.176185e-006 8.579296e-006 2.443023e-001 -7.607651e-001 8.045639e-006 2.310913e-006 2.453760e-001 -7.639865e-001
343890000 1.400966e-006 4.596358e-006 2.220349e-001 -7.641084e-001 -7.974938e-006 8.455452e-006 2.230767e-001 -7.672698e-001
