!Agilent Technologies,N5230C,SG49000117,A.08.50.07
!Agilent N5230C: A.08.50.07
!Date: Sunday, March 17, 2024 08:32:10
!Correction: S11(Off) 
!S21(Off) 
!S12(Off) 
!S22(Full 1 Port(2)) 
!S2P File: Measurements: S11, S21, S12, S22:
# Hz S  RI   R 50
300000000 -1.170028e-004 7.535637e-005 -7.495725e-001 -3.965846e-001 -1.040536e-005 7.351511e-005 6.812297e-001 -7.370213e-001
300285000 -2.297847e-005 -6.876172e-005 -7.564225e-001 -3.719880e-001 2.721808e-005 -1.874755e-006 6.813196e-001 -7.378798e-001
300570000 2.733469e-005 -8.731204e-005 -7.624999e-001 -3.483551e-001 8.039656e-005 3.457167e-005 6.810545e-001 -7.387101e-001
300855000 -3.129423e-005 -7.903605e-005 -7.684937e-001 -3.243297e-001 -3.554366e-005 1.655212e-004 6.825364e-001 -7.386257e-001
301140000 -2.558261e-005 -3.203738e-005 -7.734229e-001 -3.010439e-001 -6.887639e-005 2.083337e-007 6.798506e-001 -7.376578e-001
301425000 3.856966e-005 -3.333982e-006 -7.774472e-001 -2.775299e-001 -1.668130e-004 8.561341e-005 6.799830e-001 -7.405804e-001
301710000 -8.678159e-006 1.499279e-005 -7.808526e-001 -2.542613e-001 -6.568425e-005 1.101859e-004 6.783335e-001 -7.416940e-001
301995000 -3.704720e-006 -2.011211e-005 -7.840316e-001 -2.314021e-001 -7.927864e-006 1.223396e-004 6.786734e-001 -7.415671e-001
302280000 9.023290e-005 3.963248e-005 -7.866991e-001 -2.084239e-001 -4.651230e-005 -4.595620e-005 6.775985e-001 -7.414129e-001
302565000 -4.782445e-005 1.101684e-004 -7.887409e-001 -1.854637e-001 -1.256531e-004 -6.570436e-005 6.778492e-001 -7.425221e-001
302850000 1.141272e-004 4.683693e-005 -7.901602e-001 -1.628954e-001 -2.870116e-005 2.308721e-006 6.773760e-001 -7.418713e-001
303135000 -9.277942e-005 6.584687e-005 -7.906231e-001 -1.406393e-001 2.026275e-005 1.979690e-005 6.761218e-001 -7.425976e-001
303420000 -3.573899e-005 8.591740e-005 -7.910275e-001 -1.182420e-001 2.917910e-005 6.196141e-005 6.744111e-001 -7.434896e-001
303705000 -1.941745e-004 -5.088128e-006 -7.909688e-001 -9.662402e-002 2.901324e-005 -1.335707e-004 6.754828e-001 -7.447442e-001
303990000 -4.936124e-005 -4.666043e-005 -7.907155e-001 -7.445489e-002 -8.216052e-006 -8.308982e-005 6.753030e-001 -7.437487e-001
304275000 -4.728369e-005 -7.686561e-006 -7.897461e-001 -5.332551e-002 6.078563e-005 -3.618063e-005 6.743661e-001 -7.445934e-001
304560000 -5.114937e-005 -6.683726e-005 -7.879471e-001 -3.174866e-002 -4.609770e-005 -1.171098e-004 6.738517e-001 -7.451202e-001
304845000 6.898596e-006 -1.762390e-005 -7.863989e-001 -1.053457e-002 -5.032090e-005 5.534375e-005 6.727473e-001 -7.448068e-001
305130000 2.710461e-005 -5.641176e-005 -7.838712e-001 1.067082e-002 -1.922382e-005 -1.754057e-005 6.733683e-001 -7.455552e-001
305415000 -6.893919e-005 3.887106e-005 -7.815002e-001 3.120731e-002 3.755975e-005 -1.118431e-004 6.712813e-001 -7.456014e-001
305700000 -1.008460e-004 3.298565e-005 -7.779403e-001 5.238858e-002 -8.755403e-005 2.267641e-006 6.725393e-001 -7.466688e-001
305985000 1.680006e-005 3.789144e-005 -7.745617e-001 7.253040e-002 -1.225396e-004 -1.511304e-005 6.709148e-001 -7.480428e-001
306270000 4.977562e-005 2.338444e-005 -7.707046e-001 9.291988e-002 7.651082e-006 -5.016858e-005 6.727870e-001 -7.483382e-001
306555000 6.018813e-005 8.737818e-005 -7.666841e-001 1.135498e-001 1.642750e-005 -6.225242e-005 6.697419e-001 -7.499403e-001
306840000 -4.261467e-005 1.240918e-005 -7.617532e-001 1.332157e-001 1.645789e-005 -7.353965e-005 6.694355e-001 -7.476045e-001
307125000 -1.276510e-004 1.179834e-004 -7.570999e-001 1.530868e-001 1.902792e-005 4.581605e-005 6.692635e-001 -7.495556e-001
307410000 9.875492e-005 -2.364758e-005 -7.511122e-001 1.728582e-001 7.439675e-005 7.344422e-006 6.683308e-001 -7.499532e-001
307695000 -1.172056e-004 2.616136e-005 -7.453532e-001 1.924981e-001 -2.310437e-006 1.970360e-005 6.676599e-001 -7.507977e-001
307980000 -7.956532e-005 8.288297e-005 -7.395917e-001 2.118545e-001 5.594966e-005 1.656451e-004 6.678398e-001 -7.489331e-001
308265000 1.804994e-006 -1.219968e-004 -7.330426e-001 2.310870e-001 -1.568857e-004 1.509752e-004 6.667026e-001 -7.514446e-001
308550000 4.574387e-006 -1.664598e-005 -7.262101e-001 2.505768e-001 1.052469e-004 1.121774e-004 6.662328e-001 -7.492971e-001
308835000 -8.112114e-005 4.432548e-005 -7.185660e-001 2.691458e-001 -7.327637e-005 1.640440e-005 6.653616e-001 -7.515871e-001
309120000 -1.638343e-006 -2.160599e-004 -7.112446e-001 2.885972e-001 -3.834641e-005 9.162064e-005 6.652442e-001 -7.528152e-001
309405000 3.420735e-005 2.227313e-005 -7.040186e-001 3.067513e-001 -6.465716e-006 -5.621041e-005 6.651063e-001 -7.544470e-001
309690000 -3.561603e-005 -2.708561e-005 -6.954688e-001 3.254887e-001 -1.479662e-005 -1.550084e-004 6.644889e-001 -7.539541e-001
309975000 7.944721e-005 -5.373387e-005 -6.867434e-001 3.442628e-001 2.101022e-005 -1.683157e-004 6.635273e-001 -7.530324e-001
310260000 -2.045696e-005 6.096638e-005 -6.777824e-001 3.621515e-001 5.434995e-005 1.444475e-006 6.636407e-001 -7.553828e-001
310545000 4.911507e-005 -6.212470e-005 -6.682962e-001 3.805739e-001 9.022492e-005 1.900455e-005 6.619688e-001 -7.547666e-001
310830000 1.397679e-004 3.966275e-005 -6.590758e-001 3.982510e-001 -4.437731e-005 -1.966271e-006 6.627330e-001 -7.572175e-001
311115000 -1.242258e-005 4.738979e-006 -6.486948e-001 4.164618e-001 -1.841415e-005 6.639741e-007 6.614824e-001 -7.551361e-001
311400000 -3.645512e-005 -1.503567e-005 -6.375505e-001 4.348603e-001 9.506971e-005 -1.150843e-004 6.595579e-001 -7.557787e-001
311685000 -3.421673e-005 3.531566e-005 -6.276443e-001 4.525272e-001 1.743467e-005 -1.352862e-005 6.613528e-001 -7.566842e-001
311970000 -4.327148e-005 5.342301e-005 -6.159777e-001 4.699259e-001 3.523613e-005 3.009111e-005 6.600308e-001 -7.562287e-001
312255000 -3.485178e-005 -1.130259e-005 -6.041053e-001 4.876386e-001 2.154782e-005 7.598041e-007 6.596148e-001 -7.565776e-001
312540000 3.876515e-005 -3.957519e-005 -5.919282e-001 5.048151e-001 8.216890e-005 -5.162560e-005 6.576115e-001 -7.572935e-001
312825000 -1.316420e-004 1.654957e-005 -5.790358e-001 5.221826e-001 -1.723200e-005 1.370638e-004 6.575425e-001 -7.581050e-001
313110000 -7.634819e-005 -3.215967e-005 -5.663128e-001 5.389085e-001 3.383818e-005 -1.158373e-006 6.565868e-001 -7.589758e-001
313395000 -2.018519e-005 7.518061e-005 -5.527694e-001 5.560170e-001 2.294044e-005 1.007369e-004 6.580043e-001 -7.584218e-001
313680000 4.775164e-005 2.164790e-006 -5.391643e-001 5.729665e-001 -6.643448e-005 -4.021977e-005 6.578718e-001 -7.611068e-001
313965000 -1.801003e-005 9.713429e-005 -5.244117e-001 5.894843e-001 -1.089901e-004 -5.782011e-005 6.563488e-001 -7.597501e-001
314250000 -8.987160e-005 8.564276e-005 -5.097050e-001 6.058779e-001 6.748865e-005 -5.488079e-005 6.537120e-001 -7.599939e-001
314535000 -2.596911e-005 5.332124e-005 -4.943406e-001 6.224353e-001 -7.659291e-005 7.605194e-005 6.554663e-001 -7.604519e-001
314820000 8.265071e-005 1.295776e-004 -4.780428e-001 6.378646e-001 -6.079454e-005 -3.039581e-005 6.539293e-001 -7.618188e-001
315105000 1.573788e-005 7.485886e-005 -4.615648e-001 6.541873e-001 1.035356e-004 1.863307e-005 6.517609e-001 -7.604369e-001
315390000 8.509242e-005 -2.713466e-005 -4.445874e-001 6.695830e-001 1.503789e-004 -7.008258e-005 6.530036e-001 -7.628517e-001
315675000 -1.268740e-004 -3.126085e-005 -4.274820e-001 6.846718e-001 4.239923e-005 4.455765e-006 6.507301e-001 -7.613707e-001
315960000 1.558138e-005 -7.441257e-005 -4.091723e-001 6.999186e-001 -1.003339e-005 6.519059e-005 6.519192e-001 -7.620627e-001
316245000 2.442782e-005 -3.780388e-005 -3.906052e-001 7.153438e-001 3.518096e-005 2.436908e-005 6.513320e-001 -7.627594e-001
316530000 -6.818407e-005 4.855081e-005 -3.715226e-001 7.296293e-001 3.588928e-007 -2.541979e-006 6.514075e-001 -7.637602e-001
316815000 -9.724434e-005 -3.950077e-005 -3.514290e-001 7.435991e-001 1.157543e-005 5.113184e-005 6.519040e-001 -7.640759e-001
317100000 3.708452e-005 -6.770280e-005 -3.307287e-001 7.575270e-001 2.076785e-005 1.098127e-004 6.491191e-001 -7.640572e-001
317385000 4.702303e-005 -1.110117e-005 -3.095744e-001 7.708084e-001 1.208605e-004 6.904940e-005 6.508052e-001 -7.655684e-001
317670000 5.391899e-005 -2.636012e-005 -2.879016e-001 7.839974e-001 -7.027695e-005 1.580851e-005 6.484866e-001 -7.655606e-001
317955000 1.318456e-004 -9.926093e-006 -2.650107e-001 7.973006e-001 4.620710e-005 5.235965e-006 6.486616e-001 -7.666483e-001
318240000 -1.610360e-004 -1.288461e-005 -2.422397e-001 8.092641e-001 -3.814654e-005 4.205257e-007 6.479313e-001 -7.663707e-001
318525000 1.010792e-005 -8.182088e-005 -2.185725e-001 8.209456e-001 -1.560550e-005 -8.508784e-005 6.480903e-001 -7.656525e-001
318810000 -9.603890e-006 -3.497974e-005 -1.935553e-001 8.327435e-001 -8.618801e-005 9.349372e-005 6.459894e-001 -7.663909e-001
319095000 1.330966e-005 1.877031e-005 -1.688233e-001 8.433246e-001 -2.411591e-005 8.055872e-006 6.460469e-001 -7.664071e-001
319380000 -1.067193e-005 3.559247e-005 -1.430406e-001 8.531668e-001 1.487747e-005 -3.305971e-006 6.451017e-001 -7.691391e-001
319665000 -3.642627e-005 5.433813e-005 -1.158774e-001 8.622355e-001 -3.028473e-005 -7.316386e-005 6.463363e-001 -7.682592e-001
319950000 -7.387723e-005 -4.768233e-005 -8.923123e-002 8.705360e-001 -2.637578e-007 1.011692e-004 6.445501e-001 -7.694846e-001
320235000 -8.630899e-005 -4.470715e-005 -6.099173e-002 8.788840e-001 9.524454e-005 1.644256e-005 6.436799e-001 -7.708559e-001
320520000 4.265937e-005 7.904656e-005 -3.241771e-002 8.856094e-001 1.197607e-004 7.958634e-005 6.432130e-001 -7.707542e-001
320805000 3.845324e-005 5.426173e-005 -3.896102e-003 8.919314e-001 8.515288e-005 7.996953e-005 6.428100e-001 -7.691646e-001
321090000 8.745220e-006 1.524148e-005 2.681673e-002 8.971218e-001 8.092589e-005 8.341478e-005 6.411707e-001 -7.697451e-001
321375000 1.256775e-004 -5.328735e-005 5.640702e-002 9.019746e-001 3.346443e-005 1.361073e-004 6.426670e-001 -7.711113e-001
321660000 8.615407e-005 -1.346540e-005 8.823188e-002 9.049392e-001 -2.356829e-004 8.471163e-005 6.415834e-001 -7.728590e-001
321945000 9.674117e-006 2.602422e-005 1.197736e-001 9.067826e-001 -6.943181e-005 2.084479e-005 6.392800e-001 -7.726725e-001
322230000 1.825915e-004 2.802654e-005 1.524291e-001 9.084620e-001 1.156384e-004 3.547779e-005 6.393527e-001 -7.720090e-001
322515000 -8.032753e-005 1.274820e-004 1.848111e-001 9.074281e-001 -1.245553e-004 -8.421273e-006 6.378685e-001 -7.720110e-001
322800000 -3.625127e-005 -6.500867e-005 2.179272e-001 9.058087e-001 1.204701e-004 -1.516287e-005 6.395713e-001 -7.747974e-001
323085000 2.826968e-005 -3.168450e-005 2.509069e-001 9.028404e-001 5.118356e-005 -1.952979e-005 6.389050e-001 -7.737983e-001
323370000 7.068915e-005 1.137816e-004 2.852473e-001 8.994448e-001 -1.151044e-005 2.091938e-005 6.386504e-001 -7.758294e-001
323655000 -7.854488e-005 -1.165984e-005 3.191915e-001 8.929740e-001 -9.037879e-006 -1.576691e-005 6.365587e-001 -7.741511e-001
323940000 -4.392057e-005 -5.844955e-005 3.535753e-001 8.867398e-001 1.629510e-005 2.836535e-005 6.349423e-001 -7.750965e-001
324225000 -1.586089e-004 6.158485e-005 3.887026e-001 8.773448e-001 1.189863e-005 -2.875407e-005 6.347175e-001 -7.744560e-001
324510000 2.728681e-005 1.933827e-005 4.223173e-001 8.671740e-001 -7.793309e-005 9.026340e-005 6.346062e-001 -7.782325e-001
324795000 -1.314824e-006 2.166431e-005 4.570236e-001 8.550168e-001 5.550552e-005 2.568538e-005 6.346136e-001 -7.767707e-001
325080000 2.477240e-005 -3.376997e-005 4.914010e-001 8.421440e-001 1.335798e-005 2.576801e-005 6.339834e-001 -7.768086e-001
325365000 1.065873e-004 6.641996e-007 5.248529e-001 8.265584e-001 -1.909234e-005 1.760525e-005 6.330561e-001 -7.782589e-001
325650000 4.797025e-005 -5.759651e-005 5.592901e-001 8.096476e-001 -2.153064e-005 1.110944e-005 6.333306e-001 -7.777047e-001
325935000 7.194411e-005 5.020902e-006 5.919677e-001 7.909933e-001 7.495331e-005 -1.093378e-004 6.325894e-001 -7.791657e-001
326220000 9.289922e-006 8.809307e-005 6.238716e-001 7.706595e-001 3.734076e-006 -8.780447e-005 6.316950e-001 -7.794916e-001
326505000 -3.778399e-005 8.371068e-005 6.564834e-001 7.482054e-001 1.667441e-005 -5.769863e-007 6.304428e-001 -7.791252e-001
326790000 9.691868e-006 9.836281e-006 6.876318e-001 7.249448e-001 3.881706e-005 2.242849e-005 6.308465e-001 -7.780559e-001
327075000 -3.706057e-005 1.537787e-004 7.175693e-001 6.996341e-001 1.334854e-004 2.022593e-005 6.289072e-001 -7.807429e-001
327360000 -2.168677e-005 6.540968e-005 7.465039e-001 6.730889e-001 4.672341e-005 5.799891e-006 6.290885e-001 -7.819200e-001
327645000 -6.292955e-005 4.690378e-005 7.744544e-001 6.444178e-001 7.717718e-005 8.807614e-005 6.290743e-001 -7.812951e-001
327930000 -1.377686e-004 -5.538161e-005 8.014659e-001 6.145450e-001 1.191414e-004 1.058421e-004 6.277602e-001 -7.813473e-001
328215000 -4.900305e-005 -1.026103e-004 8.259931e-001 5.831625e-001 -4.728506e-005 3.009671e-005 6.270065e-001 -7.821389e-001
328500000 -2.954409e-007 2.888540e-005 8.500680e-001 5.504826e-001 8.074752e-005 -1.113536e-005 6.256895e-001 -7.824684e-001
328785000 1.928831e-005 -2.614884e-005 8.719720e-001 5.173239e-001 -2.728541e-005 -1.358371e-004 6.262594e-001 -7.822367e-001
329070000 -1.230378e-005 3.615541e-005 8.924404e-001 4.819481e-001 8.547626e-005 1.127262e-005 6.256179e-001 -7.827398e-001
329355000 -5.316602e-005 -3.270249e-006 9.118729e-001 4.461492e-001 4.468225e-005 -4.287345e-005 6.246295e-001 -7.834857e-001
329640000 -6.327435e-005 -2.189314e-006 9.286212e-001 4.090336e-001 -6.295433e-005 -1.355673e-005 6.249550e-001 -7.837998e-001
329925000 -9.135807e-005 -7.819580e-006 9.435675e-001 3.716052e-001 3.058433e-005 -6.105151e-005 6.240543e-001 -7.841267e-001
330210000 2.844273e-005 7.964849e-005 9.567629e-001 3.338533e-001 6.690912e-005 7.823824e-006 6.218275e-001 -7.840589e-001
330495000 1.200546e-006 9.972329e-006 9.690872e-001 2.944360e-001 2.011572e-005 -1.416287e-005 6.234390e-001 -7.845389e-001
330780000 -6.427227e-005 -2.448672e-005 9.776465e-001 2.559041e-001 1.029292e-004 -2.248801e-006 6.213371e-001 -7.869133e-001
331065000 6.308578e-005 2.054250e-006 9.852589e-001 2.171125e-001 -4.732294e-005 7.132316e-005 6.222550e-001 -7.838757e-001
331350000 -5.590687e-005 5.812398e-005 9.903396e-001 1.774244e-001 -7.373447e-005 7.094810e-005 6.204949e-001 -7.861272e-001
331635000 -8.269258e-005 -4.196325e-005 9.939985e-001 1.384180e-001 2.418237e-006 2.381387e-005 6.211912e-001 -7.866651e-001
331920000 1.563466e-005 5.453179e-005 9.956839e-001 9.888375e-002 -3.363291e-005 -3.613181e-005 6.202067e-001 -7.880144e-001
332205000 -4.195278e-005 2.070241e-005 9.956033e-001 5.971529e-002 4.943058e-005 4.022039e-005 6.186875e-001 -7.875443e-001
332490000 2.576506e-005 1.354443e-005 9.930122e-001 2.078305e-002 1.273750e-005 -1.270915e-004 6.201818e-001 -7.884726e-001
332775000 -7.794992e-005 2.432799e-005 9.898180e-001 -1.720667e-002 -2.645568e-005 9.084903e-005 6.177303e-001 -7.892120e-001
333060000 7.941968e-005 9.192627e-005 9.839956e-001 -5.509753e-002 9.522205e-005 1.986646e-005 6.176678e-001 -7.899747e-001
333345000 1.150304e-005 -6.178993e-006 9.769109e-001 -9.170123e-002 2.784521e-005 -5.404656e-005 6.175216e-001 -7.893170e-001
333630000 -1.063467e-004 5.480384e-005 9.686830e-001 -1.277177e-001 -3.460269e-006 -8.741260e-005 6.154402e-001 -7.904339e-001
333915000 1.875345e-004 8.711657e-006 9.580336e-001 -1.625492e-001 4.124359e-005 -2.409700e-006 6.161694e-001 -7.908803e-001
334200000 -9.896043e-006 3.172231e-006 9.472448e-001 -1.969087e-001 3.779756e-005 -1.083560e-004 6.154053e-001 -7.917418e-001
334485000 -6.384726e-007 9.298273e-005 9.336581e-001 -2.307833e-001 1.014850e-004 -1.836882e-005 6.152056e-001 -7.910612e-001
334770000 2.044381e-006 5.989559e-005 9.196067e-001 -2.631134e-001 3.798127e-005 4.759665e-006 6.150051e-001 -7.925104e-001
335055000 1.110966e-004 7.057309e-006 9.046385e-001 -2.945332e-001 3.767355e-005 -1.447141e-005 6.146993e-001 -7.927608e-001
335340000 4.824263e-005 -1.913318e-005 8.883573e-001 -3.246814e-001 6.764985e-006 -7.024485e-005 6.124854e-001 -7.947395e-001
335625000 9.846266e-006 4.036427e-005 8.709865e-001 -3.534556e-001 1.683345e-004 -1.067534e-005 6.122689e-001 -7.930053e-001
335910000 -3.407389e-005 7.085782e-005 8.530816e-001 -3.824203e-001 2.789630e-005 1.260576e-006 6.123759e-001 -7.934476e-001
336195000 -9.766516e-005 -4.330171e-005 8.340633e-001 -4.088757e-001 -2.985582e-005 3.392583e-006 6.119930e-001 -7.925817e-001
336480000 -3.718383e-005 1.627568e-007 8.145179e-001 -4.348556e-001 7.375690e-005 6.754368e-005 6.114992e-001 -7.936140e-001
336765000 1.613537e-006 3.515021e-005 7.941005e-001 -4.591154e-001 2.386768e-005 3.520196e-005 6.099148e-001 -7.950695e-001
337050000 -1.747443e-005 -1.886026e-004 7.735220e-001 -4.828899e-001 -6.238164e-005 -1.652267e-005 6.105217e-001 -7.956989e-001
337335000 2.577126e-004 -5.080338e-005 7.515954e-001 -5.058555e-001 1.137905e-005 -7.284831e-006 6.081267e-001 -7.959806e-001
337620000 -3.653745e-005 -3.062558e-005 7.298626e-001 -5.271476e-001 -1.236948e-004 -6.680479e-005 6.081774e-001 -7.953456e-001
337905000 -7.913661e-007 1.458095e-005 7.076194e-001 -5.467320e-001 -1.401648e-004 -6.624019e-006 6.080148e-001 -7.948915e-001
338190000 1.046505e-004 2.512739e-005 6.856253e-001 -5.662703e-001 -9.368101e-005 -1.111589e-005 6.079111e-001 -7.968303e-001
338475000 8.620916e-005 -7.170518e-005 6.622028e-001 -5.839239e-001 -3.524507e-005 -2.343304e-005 6.085647e-001 -7.964531e-001
338760000 7.432816e-005 3.839652e-005 6.390855e-001 -6.016666e-001 4.372178e-006 7.709394e-006 6.067296e-001 -7.970019e-001
339045000 6.008462e-005 8.241106e-006 6.156438e-001 -6.173401e-001 -5.399800e-005 -3.512758e-005 6.055154e-001 -7.979290e-001
339330000 6.843078e-005 -5.771658e-005 5.927984e-001 -6.327521e-001 2.080771e-005 2.434740e-005 6.073537e-001 -7.987099e-001
339615000 8.997187e-005 -6.189605e-005 5.693038e-001 -6.468276e-001 -8.246555e-005 -1.504318e-004 6.059846e-001 -7.989309e-001
339900000 3.063213e-006 3.597661e-006 5.451101e-001 -6.601150e-001 4.016267e-005 -4.172779e-005 6.039543e-001 -7.978241e-001
340185000 4.391809e-005 6.722980e-005 5.228109e-001 -6.730670e-001 -6.577571e-005 -9.246551e-005 6.048455e-001 -8.001369e-001
340470000 -1.488158e-005 8.437597e-005 4.988410e-001 -6.837284e-001 3.919625e-005 -8.107538e-005 6.041185e-001 -7.987580e-001
340755000 -1.019828e-004 1.035709e-005 4.750504e-001 -6.946496e-001 5.617664e-005 1.974844e-005 6.017409e-001 -8.000653e-001
341040000 -4.627924e-005 -8.612626e-005 4.516447e-001 -7.049941e-001 2.140240e-005 -3.696289e-005 6.018484e-001 -7.999831e-001
341325000 3.091838e-005 -1.096814e-004 4.279267e-001 -7.135505e-001 6.622539e-005 -3.700467e-005 6.031381e-001 -8.009759e-001
341610000 1.079223e-004 6.273332e-005 4.047971e-001 -7.218786e-001 -3.450390e-005 5.251611e-006 6.032315e-001 -8.025427e-001
341895000 1.022061e-004 -4.483710e-005 3.810843e-001 -7.296702e-001 -1.261157e-004 6.110737e-005 6.005405e-001 -8.025952e-001
342180000 1.117171e-004 -3.003573e-005 3.578989e-001 -7.367513e-001 -1.055356e-004 -7.293476e-005 6.000981e-001 -8.034669e-001
342465000 9.556373e-005 -3.315953e-005 3.352393e-001 -7.431505e-001 -4.240403e-005 -6.551110e-005 5.996140e-001 -8.030456e-001
342750000 3.271523e-005 -7.351237e-005 3.126006e-001 -7.490421e-001 2.845676e-005 3.713579e-006 6.005420e-001 -8.039617e-001
343035000 8.721167e-005 3.020742e-006 2.904023e-001 -7.535204e-001 5.309973e-005 -2.484022e-005 5.973580e-001 -8.036270e-001
343320000 -1.734828e-005 5.815292e-007 2.673635e-001 -7.583945e-001 7.939828e-006 1.373057e-005 5.969194e-001 -8.033667e-001
343605000 -2.349586e-006 1.273435e-004 2.447087e-001 -7.621225e-001 -4.059407e-005 3.257123e-005 5.967020e-001 -8.037038e-001
343890000 -8.634032e-005 9.148230e-005 2.228693e-001 -7.655370e-001 1.604976e-004 6.170995e-006 5.967883e-001 -8.046575e-001
