!Agilent Technologies,N5230C,SG49000117,A.08.50.07
!Agilent N5230C: A.08.50.07
!Date: Sunday, March 17, 2024 08:31:42
!Correction: S11(Off) 
!S21(Off) 
!S12(Off) 
!S22(Full 1 Port(2)) 
!S2P File: Measurements: S11, S21, S12, S22:
# Hz S  RI   R 50
300000000 1.329761e-005 -5.943739e-006 -7.496110e-001 -3.960498e-001 1.401526e-006 -1.041462e-005 6.815567e-001 -7.368858e-001
300285000 5.011821e-006 5.942127e-006 -7.565947e-001 -3.721745e-001 -7.600257e-006 -4.651805e-006 6.814414e-001 -7.375654e-001
300570000 -3.615544e-006 4.316014e-006 -7.627541e-001 -3.483252e-001 2.397107e-006 -1.016659e-005 6.809396e-001 -7.384361e-001
300855000 7.107271e-006 -7.696718e-006 -7.682437e-001 -3.246199e-001 -1.091203e-005 -4.962269e-006 6.813678e-001 -7.388713e-001
301140000 -8.889820e-006 9.090209e-006 -7.731190e-001 -3.009214e-001 1.437588e-005 -6.201940e-006 6.797964e-001 -7.393100e-001
301425000 -9.196016e-007 -1.925453e-005 -7.774265e-001 -2.775311e-001 3.081094e-006 4.873307e-007 6.797842e-001 -7.402062e-001
301710000 -4.052930e-006 6.975547e-006 -7.810256e-001 -2.542897e-001 8.691777e-006 1.272243e-005 6.784673e-001 -7.421339e-001
301995000 -1.566484e-006 -5.078806e-006 -7.840352e-001 -2.310847e-001 6.567983e-006 8.248588e-006 6.787519e-001 -7.405612e-001
302280000 1.086753e-007 -1.392839e-005 -7.865730e-001 -2.082421e-001 3.707480e-006 1.234396e-006 6.782713e-001 -7.416033e-001
302565000 -1.022048e-005 -1.016845e-005 -7.884628e-001 -1.855109e-001 -2.181529e-006 -6.605692e-006 6.776960e-001 -7.428962e-001
302850000 -7.734767e-006 -9.360099e-006 -7.898810e-001 -1.629758e-001 6.462099e-006 -2.535536e-006 6.776665e-001 -7.415133e-001
303135000 6.542509e-006 1.124679e-005 -7.907340e-001 -1.406557e-001 -1.797082e-005 -1.229267e-005 6.762288e-001 -7.424024e-001
303420000 1.245048e-005 -3.913890e-006 -7.911231e-001 -1.184472e-001 4.892391e-006 -3.608297e-008 6.746085e-001 -7.433727e-001
303705000 -1.213632e-005 5.079365e-006 -7.910250e-001 -9.648712e-002 5.709172e-006 -9.251926e-006 6.754196e-001 -7.447730e-001
303990000 2.069900e-005 7.829580e-006 -7.905420e-001 -7.470898e-002 2.027434e-006 -1.575947e-005 6.750111e-001 -7.431096e-001
304275000 -1.373122e-005 -4.803846e-006 -7.895146e-001 -5.313604e-002 -8.641437e-006 -1.150210e-005 6.744256e-001 -7.447267e-001
304560000 -2.893280e-006 7.107267e-006 -7.880791e-001 -3.167615e-002 -8.990740e-006 -1.571861e-006 6.739824e-001 -7.452523e-001
304845000 -3.270549e-006 -3.141590e-006 -7.862118e-001 -1.050729e-002 9.300859e-006 -1.259224e-005 6.729422e-001 -7.449735e-001
305130000 -1.607320e-005 -3.564807e-006 -7.838826e-001 1.059608e-002 9.972710e-006 -2.140436e-006 6.727799e-001 -7.451205e-001
305415000 -7.781373e-006 -9.544085e-007 -7.812018e-001 3.138387e-002 5.201860e-006 -8.870505e-006 6.720526e-001 -7.461130e-001
305700000 7.666216e-006 -8.459400e-006 -7.781106e-001 5.215157e-002 1.246474e-005 -1.067253e-005 6.722326e-001 -7.466501e-001
305985000 -1.074060e-005 -1.038064e-005 -7.745782e-001 7.268667e-002 5.680756e-006 6.672311e-006 6.709648e-001 -7.477718e-001
306270000 9.172233e-006 -5.493362e-006 -7.706342e-001 9.301436e-002 -4.523857e-007 2.130720e-006 6.720519e-001 -7.486085e-001
306555000 4.120862e-006 -1.938027e-005 -7.663742e-001 1.131795e-001 1.074468e-005 -3.914712e-006 6.698636e-001 -7.497993e-001
306840000 4.117665e-006 -2.671585e-006 -7.617213e-001 1.332330e-001 5.208747e-007 1.115370e-006 6.703008e-001 -7.479962e-001
307125000 1.226302e-005 4.257327e-006 -7.567425e-001 1.531742e-001 -1.903861e-006 6.797937e-006 6.685902e-001 -7.491806e-001
307410000 1.382127e-005 -4.238656e-006 -7.513204e-001 1.728487e-001 8.990967e-006 -5.673125e-006 6.684250e-001 -7.500442e-001
307695000 7.768647e-006 1.071153e-005 -7.455681e-001 1.924039e-001 -1.882958e-006 1.028711e-005 6.678802e-001 -7.510001e-001
307980000 1.209122e-005 1.572614e-005 -7.395179e-001 2.118258e-001 -1.022794e-005 5.208059e-006 6.668000e-001 -7.501364e-001
308265000 1.509482e-005 2.407625e-006 -7.330142e-001 2.310738e-001 3.736761e-007 -1.862023e-006 6.666511e-001 -7.504103e-001
308550000 6.908995e-006 1.019435e-005 -7.261800e-001 2.502303e-001 -2.203075e-005 -4.301494e-007 6.662776e-001 -7.498716e-001
308835000 -3.344321e-007 5.688204e-006 -7.190333e-001 2.692747e-001 -2.531766e-007 -1.640959e-005 6.651298e-001 -7.515211e-001
309120000 -8.858383e-006 6.289868e-006 -7.114918e-001 2.882104e-001 -2.412160e-006 -1.256051e-005 6.648647e-001 -7.532629e-001
309405000 1.029151e-005 4.518110e-006 -7.035770e-001 3.069115e-001 -2.473069e-006 -9.808970e-006 6.650462e-001 -7.543948e-001
309690000 -2.773634e-006 -4.663689e-006 -6.953802e-001 3.254761e-001 3.315986e-006 2.795285e-006 6.643687e-001 -7.539586e-001
309975000 1.124995e-005 9.204379e-006 -6.867915e-001 3.440076e-001 9.929549e-007 -1.192255e-005 6.634707e-001 -7.535874e-001
310260000 -2.292695e-006 -1.042294e-007 -6.778017e-001 3.623522e-001 9.122002e-006 -5.186515e-006 6.642554e-001 -7.553269e-001
310545000 -7.631936e-006 -7.493414e-006 -6.684496e-001 3.805906e-001 1.117403e-005 2.963956e-006 6.621212e-001 -7.549043e-001
310830000 9.386251e-006 -1.646900e-005 -6.586648e-001 3.986779e-001 2.573810e-006 4.594959e-006 6.624664e-001 -7.569228e-001
311115000 -8.584178e-006 -9.137973e-006 -6.485646e-001 4.166846e-001 2.693592e-006 1.136899e-005 6.613172e-001 -7.553141e-001
311400000 -1.426352e-005 -7.285523e-006 -6.380486e-001 4.344860e-001 -1.746736e-005 1.534969e-006 6.609233e-001 -7.562428e-001
311685000 1.394407e-005 -1.482950e-005 -6.271506e-001 4.522298e-001 -1.297009e-005 5.194663e-006 6.608260e-001 -7.566835e-001
311970000 -9.398103e-006 -1.720683e-006 -6.158509e-001 4.698228e-001 -1.951968e-005 1.451716e-005 6.597525e-001 -7.563162e-001
312255000 -2.144102e-006 3.302819e-007 -6.040941e-001 4.873176e-001 -2.716735e-006 5.328835e-006 6.593809e-001 -7.572181e-001
312540000 1.020648e-005 5.303198e-006 -5.919827e-001 5.047420e-001 -7.848177e-006 -3.075463e-006 6.584272e-001 -7.577080e-001
312825000 8.813849e-006 2.255055e-005 -5.794107e-001 5.218685e-001 2.715540e-008 -1.255780e-005 6.578974e-001 -7.582146e-001
313110000 -1.117049e-005 1.689212e-005 -5.664367e-001 5.389637e-001 -1.156443e-006 -7.434161e-006 6.567336e-001 -7.592731e-001
313395000 -8.018638e-006 -8.907561e-008 -5.529262e-001 5.557960e-001 6.598682e-006 -2.229261e-006 6.575698e-001 -7.590058e-001
313680000 1.811904e-006 3.093699e-006 -5.389863e-001 5.726622e-001 -3.667978e-006 -4.935728e-006 6.571867e-001 -7.599642e-001
313965000 -1.492628e-006 -2.283457e-006 -5.245786e-001 5.892655e-001 4.678463e-006 -7.128955e-007 6.561804e-001 -7.598920e-001
314250000 -6.319788e-006 -1.373293e-006 -5.095705e-001 6.056824e-001 3.529156e-006 -1.020925e-005 6.549137e-001 -7.598537e-001
314535000 -4.067663e-006 -1.464681e-005 -4.943139e-001 6.219482e-001 8.498908e-006 -6.984816e-007 6.549716e-001 -7.603149e-001
314820000 -5.310666e-006 -5.007874e-006 -4.782920e-001 6.380302e-001 7.971704e-006 5.400938e-007 6.537619e-001 -7.613209e-001
315105000 -3.920188e-006 -1.449577e-005 -4.618201e-001 6.538778e-001 2.597723e-006 5.493178e-006 6.524442e-001 -7.596996e-001
315390000 4.744774e-006 -2.209696e-005 -4.447850e-001 6.694697e-001 6.342610e-006 -2.916970e-006 6.525522e-001 -7.627795e-001
315675000 8.422027e-006 -1.267647e-005 -4.272783e-001 6.849193e-001 2.496487e-007 -2.402947e-006 6.529203e-001 -7.613948e-001
315960000 -2.119139e-006 1.533554e-005 -4.091032e-001 7.000452e-001 6.982835e-006 3.554868e-006 6.515910e-001 -7.621245e-001
316245000 -7.692599e-006 -1.998789e-006 -3.904240e-001 7.149364e-001 2.748125e-006 -1.005698e-005 6.513737e-001 -7.624255e-001
316530000 -6.343948e-006 -4.207938e-006 -3.710908e-001 7.294679e-001 -6.299130e-006 7.694594e-006 6.508073e-001 -7.640741e-001
316815000 -1.087257e-005 1.762347e-005 -3.512009e-001 7.437527e-001 3.756618e-006 -7.488721e-006 6.513900e-001 -7.642820e-001
317100000 3.940573e-007 8.824373e-006 -3.306805e-001 7.576797e-001 -1.079562e-005 -3.109692e-006 6.499445e-001 -7.637004e-001
317385000 4.905182e-007 -1.561682e-006 -3.095061e-001 7.712133e-001 -1.681617e-006 -4.048336e-006 6.508231e-001 -7.653162e-001
317670000 2.816032e-006 1.043749e-005 -2.876503e-001 7.843180e-001 -6.277423e-006 -3.294696e-006 6.490823e-001 -7.658027e-001
317955000 -1.625976e-005 4.008291e-006 -2.652286e-001 7.970526e-001 6.387332e-006 -8.310983e-006 6.486216e-001 -7.665971e-001
318240000 1.772761e-006 -1.135261e-005 -2.421068e-001 8.093203e-001 1.358000e-005 -6.590869e-006 6.480875e-001 -7.663230e-001
318525000 -5.151069e-006 -9.499900e-006 -2.183026e-001 8.210885e-001 3.389665e-006 -6.598852e-006 6.475645e-001 -7.667051e-001
318810000 1.282365e-005 -9.950257e-006 -1.937961e-001 8.322718e-001 6.722527e-006 -1.648440e-006 6.465784e-001 -7.670082e-001
319095000 6.925240e-006 -2.533947e-005 -1.686684e-001 8.429394e-001 -5.022456e-006 6.480017e-006 6.463779e-001 -7.665045e-001
319380000 9.385739e-006 -7.922787e-006 -1.427809e-001 8.529146e-001 3.739616e-006 -3.734434e-006 6.449520e-001 -7.688441e-001
319665000 4.695418e-006 -1.189923e-005 -1.162075e-001 8.622209e-001 -1.536102e-006 -1.782218e-006 6.458104e-001 -7.686800e-001
319950000 9.365017e-006 -4.795597e-006 -8.903064e-002 8.709742e-001 1.248819e-005 -4.892182e-006 6.434427e-001 -7.695593e-001
320235000 8.510591e-006 4.461899e-006 -6.110844e-002 8.787565e-001 -8.362081e-006 1.433424e-005 6.433622e-001 -7.702848e-001
320520000 -1.424622e-006 4.372542e-007 -3.254435e-002 8.857670e-001 8.345766e-008 -1.585112e-005 6.428353e-001 -7.701939e-001
320805000 2.668562e-006 6.370763e-006 -3.342266e-003 8.919868e-001 -3.373777e-006 3.337643e-006 6.425104e-001 -7.695152e-001
321090000 -7.658651e-006 2.187259e-005 2.652480e-002 8.972688e-001 -6.331486e-007 -5.352014e-006 6.417603e-001 -7.701235e-001
321375000 -5.145358e-006 3.593855e-006 5.708460e-002 9.015518e-001 4.254129e-006 6.378831e-006 6.417993e-001 -7.708914e-001
321660000 -1.382611e-005 1.575895e-006 8.809781e-002 9.048240e-001 7.891806e-006 3.938081e-007 6.408160e-001 -7.720486e-001
321945000 -4.093530e-006 2.596842e-006 1.198086e-001 9.068896e-001 -2.437837e-006 -1.934235e-005 6.394994e-001 -7.725813e-001
322230000 1.292124e-006 -2.206119e-005 1.519773e-001 9.079497e-001 -1.159173e-005 -5.585918e-006 6.388647e-001 -7.722883e-001
322515000 -2.413072e-006 -5.311110e-006 1.846787e-001 9.077193e-001 6.602768e-006 -2.198450e-006 6.376232e-001 -7.724498e-001
322800000 6.349802e-006 -1.132183e-005 2.178429e-001 9.062099e-001 -4.343035e-006 4.778075e-006 6.392149e-001 -7.743338e-001
323085000 -7.846844e-006 -4.109195e-006 2.513431e-001 9.033843e-001 2.438362e-006 9.114058e-006 6.380213e-001 -7.739561e-001
323370000 7.989567e-006 -6.216619e-006 2.851841e-001 8.991386e-001 -9.013984e-006 -5.986094e-006 6.374944e-001 -7.749579e-001
323655000 6.058332e-006 -2.482829e-006 3.192710e-001 8.934574e-001 -7.629216e-006 3.613442e-006 6.363690e-001 -7.748936e-001
323940000 -1.100033e-006 9.168508e-006 3.536501e-001 8.862751e-001 4.631358e-006 3.324902e-006 6.349972e-001 -7.752523e-001
324225000 -1.323381e-005 8.063353e-006 3.880153e-001 8.775923e-001 -9.765506e-006 1.094378e-005 6.345262e-001 -7.743877e-001
324510000 -1.481955e-007 2.379795e-007 4.224885e-001 8.673381e-001 8.175804e-006 1.288708e-005 6.342499e-001 -7.773945e-001
324795000 7.108270e-006 4.308204e-006 4.569274e-001 8.554099e-001 -1.253231e-005 2.080370e-006 6.340764e-001 -7.766781e-001
325080000 -1.920545e-005 -1.082391e-005 4.911691e-001 8.419108e-001 -2.505015e-006 -6.024609e-006 6.335238e-001 -7.767035e-001
325365000 -2.696712e-006 -6.180770e-006 5.251383e-001 8.266262e-001 1.411449e-006 -1.060624e-005 6.332695e-001 -7.779668e-001
325650000 -2.186978e-005 -1.054703e-005 5.587854e-001 8.096242e-001 -1.060601e-005 -8.915339e-006 6.328953e-001 -7.776158e-001
325935000 -4.580737e-006 1.197164e-006 5.919519e-001 7.910489e-001 -2.389368e-006 1.141988e-005 6.315560e-001 -7.786224e-001
326220000 -1.450724e-005 -1.087109e-005 6.244482e-001 7.706956e-001 9.429917e-006 9.604268e-006 6.310720e-001 -7.794947e-001
326505000 -2.086440e-007 -2.562638e-006 6.563688e-001 7.486751e-001 1.327960e-005 -1.261922e-006 6.304314e-001 -7.793199e-001
326790000 -3.438236e-006 -3.208887e-006 6.874517e-001 7.251221e-001 6.848462e-006 1.291921e-005 6.302511e-001 -7.785882e-001
327075000 -1.763826e-005 -2.137692e-006 7.174724e-001 6.998062e-001 -8.977706e-006 4.251985e-006 6.286107e-001 -7.802343e-001
327360000 -3.350512e-006 -9.983582e-006 7.466448e-001 6.728398e-001 -4.839060e-006 2.990723e-006 6.293609e-001 -7.812992e-001
327645000 -1.876653e-006 1.156458e-006 7.744301e-001 6.444467e-001 1.229896e-005 1.755931e-006 6.285640e-001 -7.811970e-001
327930000 -9.774266e-006 4.080341e-006 8.010609e-001 6.145226e-001 -2.144350e-006 -7.607436e-006 6.282441e-001 -7.809656e-001
328215000 -6.514614e-006 -1.912874e-005 8.263322e-001 5.832686e-001 -9.474256e-006 8.403445e-006 6.271696e-001 -7.821978e-001
328500000 -7.211434e-006 -3.087236e-006 8.500361e-001 5.506989e-001 -2.195779e-006 4.144558e-006 6.258149e-001 -7.821708e-001
328785000 -1.858509e-006 -9.000786e-006 8.721970e-001 5.169328e-001 -2.324451e-006 4.918828e-006 6.263975e-001 -7.823115e-001
329070000 1.240146e-006 -8.122545e-006 8.927007e-001 4.820398e-001 -1.743189e-005 -2.426196e-006 6.255866e-001 -7.828523e-001
329355000 -6.712308e-006 -5.118864e-006 9.114936e-001 4.460585e-001 6.050067e-006 8.690095e-006 6.244540e-001 -7.836729e-001
329640000 -9.017009e-006 -3.617604e-006 9.285066e-001 4.092990e-001 1.752871e-006 -8.546946e-006 6.243902e-001 -7.840327e-001
329925000 -1.824262e-005 8.383628e-006 9.436789e-001 3.717996e-001 3.480641e-006 5.210791e-007 6.238011e-001 -7.841411e-001
330210000 -1.521109e-005 -1.201858e-005 9.568073e-001 3.336257e-001 1.796459e-005 -3.522395e-006 6.224326e-001 -7.842781e-001
330495000 -4.261562e-006 2.975527e-006 9.681839e-001 2.949246e-001 -7.839889e-007 1.978643e-006 6.226059e-001 -7.846548e-001
330780000 -9.241858e-006 -2.191604e-006 9.775271e-001 2.560228e-001 5.785057e-006 5.979505e-006 6.214772e-001 -7.863512e-001
331065000 1.977827e-006 -2.567548e-006 9.849573e-001 2.166780e-001 -7.908240e-006 1.592094e-005 6.216700e-001 -7.847471e-001
331350000 -8.779984e-006 3.610927e-008 9.903913e-001 1.772906e-001 -1.555479e-005 1.903805e-006 6.204922e-001 -7.857299e-001
331635000 -2.498480e-005 -1.353896e-006 9.939974e-001 1.379140e-001 -1.014881e-005 -1.151884e-006 6.207370e-001 -7.869160e-001
331920000 2.724611e-007 -3.254717e-007 9.956859e-001 9.865659e-002 -7.468917e-006 9.013650e-007 6.200352e-001 -7.874086e-001
332205000 4.252310e-006 1.417139e-007 9.954763e-001 5.977382e-002 -6.927395e-007 -5.453160e-006 6.189140e-001 -7.876860e-001
332490000 -1.066451e-005 -4.423596e-006 9.934781e-001 2.117284e-002 3.710098e-006 -1.208889e-005 6.195515e-001 -7.881883e-001
332775000 4.864741e-006 8.095613e-006 9.897480e-001 -1.691883e-002 2.903226e-007 1.189909e-006 6.179091e-001 -7.887731e-001
333060000 4.216881e-006 -2.225004e-006 9.842765e-001 -5.448281e-002 -2.113663e-006 -1.187239e-006 6.176016e-001 -7.894157e-001
333345000 3.560588e-006 -3.945481e-006 9.771736e-001 -9.142000e-002 -4.767706e-006 -1.833158e-005 6.178648e-001 -7.896400e-001
333630000 -1.375289e-005 6.422235e-007 9.685274e-001 -1.274657e-001 8.630529e-006 1.191410e-005 6.157827e-001 -7.906454e-001
333915000 -7.408226e-006 -1.556358e-006 9.583443e-001 -1.628168e-001 2.610665e-006 1.007638e-005 6.160111e-001 -7.900767e-001
334200000 8.909908e-006 5.169835e-006 9.469174e-001 -1.971784e-001 -1.153963e-005 -1.511089e-006 6.153096e-001 -7.915068e-001
334485000 -1.340454e-006 9.599742e-006 9.339563e-001 -2.306976e-001 2.981673e-006 -4.495639e-006 6.154045e-001 -7.908027e-001
334770000 -9.574482e-007 9.706248e-007 9.199408e-001 -2.630999e-001 -4.817411e-007 1.858740e-006 6.145758e-001 -7.920561e-001
335055000 -6.041439e-006 3.865285e-006 9.047450e-001 -2.945322e-001 -3.037460e-006 -3.986833e-006 6.143478e-001 -7.925779e-001
335340000 -8.612353e-007 3.171970e-006 8.883897e-001 -3.247906e-001 -3.235653e-006 -7.148988e-006 6.126943e-001 -7.933515e-001
335625000 5.063896e-007 9.008331e-006 8.712083e-001 -3.540275e-001 -5.649601e-006 8.785779e-007 6.127276e-001 -7.933021e-001
335910000 8.786649e-006 1.809280e-005 8.530283e-001 -3.820147e-001 3.512993e-006 6.845821e-007 6.123207e-001 -7.933884e-001
336195000 5.137369e-006 4.098919e-006 8.341640e-001 -4.089251e-001 -1.064058e-005 5.403588e-006 6.116551e-001 -7.928324e-001
336480000 6.900324e-006 9.327407e-007 8.144360e-001 -4.347697e-001 -4.800219e-007 -7.200221e-006 6.118679e-001 -7.945244e-001
336765000 -8.630793e-006 -8.049989e-006 7.941432e-001 -4.595085e-001 -5.974156e-006 2.820160e-006 6.104587e-001 -7.946453e-001
337050000 6.100176e-006 -1.007374e-005 7.732998e-001 -4.829527e-001 -1.487303e-005 1.330424e-005 6.105139e-001 -7.956372e-001
337335000 -7.550103e-006 5.577476e-006 7.518105e-001 -5.054379e-001 1.577336e-006 -2.049255e-006 6.082546e-001 -7.960247e-001
337620000 1.301556e-006 -2.051691e-007 7.300038e-001 -5.267243e-001 4.247971e-006 -3.567775e-006 6.083520e-001 -7.958949e-001
337905000 -1.403799e-006 2.687824e-006 7.077523e-001 -5.469486e-001 -1.216996e-005 3.916888e-006 6.083761e-001 -7.947235e-001
338190000 4.852755e-008 1.381567e-006 6.852008e-001 -5.661514e-001 6.932727e-006 1.187641e-005 6.072985e-001 -7.965804e-001
338475000 -6.484620e-006 -1.397284e-005 6.623803e-001 -5.842145e-001 -4.043579e-006 -5.284381e-006 6.084546e-001 -7.970554e-001
338760000 -1.578255e-006 -1.351716e-005 6.393881e-001 -6.013108e-001 -6.934792e-006 5.333724e-006 6.069173e-001 -7.972749e-001
339045000 -1.309127e-006 1.362871e-005 6.160853e-001 -6.174439e-001 -1.797738e-006 3.202596e-006 6.063983e-001 -7.978832e-001
339330000 1.061488e-006 -1.302005e-005 5.927081e-001 -6.325910e-001 -1.193655e-005 6.091054e-006 6.072781e-001 -7.981830e-001
339615000 1.102936e-005 1.123019e-006 5.692760e-001 -6.467533e-001 4.024605e-006 4.799690e-006 6.051769e-001 -7.987418e-001
339900000 4.984017e-006 1.286423e-006 5.456638e-001 -6.600859e-001 -3.778370e-006 1.167541e-005 6.037095e-001 -7.991670e-001
340185000 1.847754e-005 1.010722e-005 5.221641e-001 -6.723819e-001 -8.620521e-006 4.066212e-006 6.036221e-001 -7.997665e-001
340470000 -5.343941e-006 2.234596e-005 4.985523e-001 -6.839387e-001 4.093087e-006 7.742916e-006 6.040000e-001 -7.991857e-001
340755000 -1.003732e-005 5.606531e-006 4.750787e-001 -6.947102e-001 -5.841826e-006 8.718910e-006 6.023331e-001 -8.007020e-001
341040000 -1.006914e-005 3.017594e-006 4.516311e-001 -7.045713e-001 1.378763e-005 -2.598909e-006 6.017391e-001 -8.006309e-001
341325000 -5.744473e-006 -4.330143e-006 4.282142e-001 -7.136992e-001 -1.919908e-005 2.952151e-006 6.035138e-001 -8.009540e-001
341610000 1.181236e-006 -7.935526e-006 4.048089e-001 -7.221144e-001 7.353902e-006 6.078315e-006 6.023624e-001 -8.020504e-001
341895000 -6.894966e-006 -4.927662e-006 3.816357e-001 -7.297691e-001 -7.401282e-006 7.886228e-006 6.000184e-001 -8.018818e-001
342180000 1.440543e-005 -1.317189e-005 3.584460e-001 -7.367521e-001 5.971571e-006 6.328199e-006 6.002147e-001 -8.031279e-001
342465000 -5.403743e-006 1.443014e-005 3.354638e-001 -7.431001e-001 -5.614498e-006 1.117616e-005 5.993081e-001 -8.028486e-001
342750000 -6.035075e-006 -1.690926e-005 3.126350e-001 -7.488191e-001 -7.045112e-006 7.017571e-006 6.001794e-001 -8.042103e-001
343035000 8.155392e-007 4.145913e-006 2.899566e-001 -7.538005e-001 -1.004724e-005 2.047235e-006 5.975950e-001 -8.038021e-001
343320000 -1.429279e-005 8.126754e-006 2.673710e-001 -7.583592e-001 -2.296422e-005 8.893338e-006 5.975157e-001 -8.034976e-001
343605000 -6.141658e-006 1.111338e-005 2.449116e-001 -7.622651e-001 2.470807e-006 1.369071e-006 5.972868e-001 -8.037798e-001
343890000 -9.975625e-006 9.435112e-007 2.226655e-001 -7.656025e-001 2.528930e-008 -3.031839e-006 5.965276e-001 -8.048644e-001
