!Agilent Technologies,N5230C,SG49000117,A.08.50.07
!Agilent N5230C: A.08.50.07
!Date: Sunday, March 17, 2024 08:46:17
!Correction: S11(Off) 
!S21(Off) 
!S12(Off) 
!S22(Full 1 Port(2)) 
!S2P File: Measurements: S11, S21, S12, S22:
# Hz S  RI   R 50
300000000 2.918416e-005 -9.086833e-005 -6.943986e-001 -5.333710e-001 1.173422e-005 6.117164e-005 9.005004e-001 -4.702675e-001
300285000 -4.035647e-006 7.720538e-006 -7.055549e-001 -5.094072e-001 -3.646864e-005 -3.803307e-005 9.006645e-001 -4.711288e-001
300570000 3.786504e-005 -1.657076e-005 -7.161984e-001 -4.852404e-001 7.599836e-005 9.137630e-006 8.999223e-001 -4.737524e-001
300855000 9.444281e-005 1.773743e-004 -7.257733e-001 -4.613359e-001 2.680111e-005 -6.913016e-005 8.995234e-001 -4.738529e-001
301140000 1.391499e-005 5.210990e-005 -7.346608e-001 -4.375591e-001 -4.318071e-005 4.130893e-005 9.003432e-001 -4.735762e-001
301425000 2.119060e-005 -2.438879e-005 -7.423702e-001 -4.137234e-001 2.168532e-005 7.136036e-005 8.997181e-001 -4.756207e-001
301710000 -1.002695e-004 1.557723e-004 -7.500036e-001 -3.895585e-001 1.265466e-004 -6.695501e-005 8.990343e-001 -4.762008e-001
301995000 2.508711e-006 -6.527783e-005 -7.569395e-001 -3.666726e-001 3.799015e-005 -2.728846e-005 8.995634e-001 -4.750671e-001
302280000 1.505017e-005 -3.113162e-005 -7.631936e-001 -3.428274e-001 2.292599e-005 6.647642e-005 8.988841e-001 -4.754945e-001
302565000 -1.155275e-004 2.879170e-005 -7.684112e-001 -3.196258e-001 6.476884e-005 4.280624e-005 8.997777e-001 -4.776799e-001
302850000 1.522832e-006 -6.953072e-005 -7.734953e-001 -2.966497e-001 3.368802e-005 6.142648e-005 8.991482e-001 -4.752127e-001
303135000 -1.148638e-004 3.299712e-005 -7.772995e-001 -2.731927e-001 -1.993396e-005 -1.170958e-005 8.972375e-001 -4.766214e-001
303420000 -1.823504e-005 8.649875e-006 -7.807547e-001 -2.508268e-001 3.047141e-005 -4.268559e-005 8.968904e-001 -4.783789e-001
303705000 3.137053e-005 1.172373e-005 -7.842690e-001 -2.280186e-001 1.242991e-006 5.408386e-006 8.992047e-001 -4.783702e-001
303990000 -3.911329e-005 -1.324758e-005 -7.869490e-001 -2.052023e-001 -6.940396e-005 5.989543e-005 8.963412e-001 -4.769570e-001
304275000 -6.872993e-005 8.707704e-005 -7.883594e-001 -1.831756e-001 4.968230e-005 -5.867981e-005 8.984179e-001 -4.783108e-001
304560000 -8.323092e-005 -3.505848e-005 -7.899243e-001 -1.611785e-001 4.109857e-005 -4.973255e-005 8.971475e-001 -4.791421e-001
304845000 9.899486e-006 -1.309637e-004 -7.910242e-001 -1.386968e-001 8.828028e-005 -6.384720e-005 8.978558e-001 -4.788256e-001
305130000 -2.735728e-005 -9.455185e-005 -7.914079e-001 -1.173243e-001 -6.024064e-005 -4.538624e-005 8.974407e-001 -4.777629e-001
305415000 -5.656421e-005 4.941221e-005 -7.914137e-001 -9.577467e-002 1.126947e-004 -2.809752e-005 8.977374e-001 -4.792835e-001
305700000 6.462679e-005 -3.242954e-006 -7.913490e-001 -7.388939e-002 3.776978e-005 -1.472780e-005 8.982630e-001 -4.793770e-001
305985000 -1.400204e-005 4.262058e-005 -7.904932e-001 -5.287674e-002 2.467876e-005 2.846801e-005 8.960009e-001 -4.801574e-001
306270000 8.772815e-005 -4.941446e-005 -7.890890e-001 -3.119069e-002 1.702319e-005 -1.294863e-005 8.983692e-001 -4.821196e-001
306555000 4.273720e-005 6.133022e-005 -7.873330e-001 -1.078983e-002 5.798779e-005 9.019584e-006 8.962827e-001 -4.816444e-001
306840000 7.407734e-005 -7.709106e-006 -7.851185e-001 1.061366e-002 6.840734e-005 2.913892e-005 8.972548e-001 -4.793052e-001
307125000 -4.604659e-005 1.352539e-004 -7.826619e-001 3.130694e-002 -1.355609e-004 3.350083e-005 8.959591e-001 -4.819573e-001
307410000 4.368559e-006 9.885396e-005 -7.799297e-001 5.165704e-002 8.397686e-005 1.596087e-005 8.950502e-001 -4.821101e-001
307695000 -8.260118e-005 -5.178309e-005 -7.765423e-001 7.223975e-002 -4.474332e-005 -4.881254e-006 8.948978e-001 -4.843953e-001
307980000 8.397149e-005 1.128555e-004 -7.726988e-001 9.225141e-002 -4.104617e-005 9.371641e-005 8.951252e-001 -4.831972e-001
308265000 -2.456408e-005 3.939142e-005 -7.690749e-001 1.120491e-001 6.264967e-005 2.681287e-005 8.943527e-001 -4.822991e-001
308550000 -2.637464e-005 9.639038e-005 -7.644207e-001 1.322421e-001 -5.208742e-005 5.058719e-005 8.944521e-001 -4.817654e-001
308835000 -2.466725e-005 3.411315e-005 -7.599587e-001 1.520526e-001 3.043537e-005 8.897083e-005 8.945993e-001 -4.848812e-001
309120000 -1.324664e-005 -1.075180e-005 -7.551315e-001 1.718062e-001 -7.646404e-005 3.882853e-005 8.936970e-001 -4.853442e-001
309405000 3.373772e-005 8.144512e-005 -7.492239e-001 1.908819e-001 -8.574449e-005 -2.952661e-007 8.947906e-001 -4.862395e-001
309690000 -4.230448e-005 3.877113e-005 -7.434566e-001 2.106530e-001 -1.166493e-004 1.118884e-005 8.950495e-001 -4.854871e-001
309975000 1.445563e-005 3.615718e-005 -7.374691e-001 2.303319e-001 3.025205e-005 -1.136060e-004 8.928802e-001 -4.858175e-001
310260000 -2.991195e-005 -1.220848e-005 -7.308377e-001 2.492314e-001 3.895837e-005 5.077402e-006 8.931893e-001 -4.868907e-001
310545000 -4.444497e-005 -9.560955e-005 -7.242085e-001 2.682517e-001 9.599059e-006 -6.035998e-005 8.938032e-001 -4.878896e-001
310830000 5.697857e-005 7.423385e-005 -7.172343e-001 2.869428e-001 -5.985099e-005 1.744797e-005 8.954517e-001 -4.899462e-001
311115000 6.143046e-005 -7.621478e-005 -7.093540e-001 3.065430e-001 -1.205862e-005 8.307528e-005 8.934157e-001 -4.881729e-001
311400000 -3.630246e-005 -1.480273e-005 -7.014052e-001 3.249650e-001 -1.160097e-004 4.323959e-005 8.926420e-001 -4.882905e-001
311685000 -1.690446e-006 -6.471965e-005 -6.934154e-001 3.434699e-001 -1.151099e-004 2.269616e-005 8.933292e-001 -4.885807e-001
311970000 -7.606114e-006 3.620124e-006 -6.843121e-001 3.618413e-001 -1.106825e-004 -3.848425e-006 8.912639e-001 -4.891081e-001
312255000 -6.879441e-006 -6.089243e-006 -6.753936e-001 3.805255e-001 -9.942397e-005 4.802935e-005 8.919612e-001 -4.892894e-001
312540000 2.729454e-006 -2.455812e-005 -6.659155e-001 3.989114e-001 -3.276466e-005 4.566201e-005 8.906679e-001 -4.889977e-001
312825000 8.177410e-005 3.832194e-005 -6.561781e-001 4.172715e-001 -7.747109e-005 -6.666753e-005 8.920507e-001 -4.903214e-001
313110000 4.093105e-005 -6.881287e-006 -6.461033e-001 4.351843e-001 1.052403e-004 4.697992e-005 8.919631e-001 -4.922695e-001
313395000 2.940916e-005 6.283551e-005 -6.353694e-001 4.530123e-001 -1.958573e-005 1.171526e-006 8.913183e-001 -4.908793e-001
313680000 7.455670e-005 -2.240761e-005 -6.239845e-001 4.712013e-001 -5.760927e-005 -6.954810e-005 8.923430e-001 -4.917417e-001
313965000 6.686062e-005 -5.333299e-005 -6.126744e-001 4.891558e-001 -1.296016e-004 -2.461636e-005 8.912624e-001 -4.907561e-001
314250000 4.718735e-005 -7.199591e-006 -6.004889e-001 5.067309e-001 -2.480868e-005 -4.016989e-005 8.904877e-001 -4.917824e-001
314535000 4.817487e-005 9.370337e-005 -5.882072e-001 5.244842e-001 1.093737e-004 5.040199e-005 8.898447e-001 -4.919316e-001
314820000 5.628775e-006 4.833566e-005 -5.756921e-001 5.416884e-001 1.384905e-004 -6.863651e-005 8.891594e-001 -4.932501e-001
315105000 4.411391e-005 8.925514e-006 -5.621950e-001 5.589873e-001 4.464675e-005 1.169443e-005 8.874645e-001 -4.926381e-001
315390000 -3.838208e-005 9.812853e-005 -5.485948e-001 5.761795e-001 4.786240e-005 2.136443e-005 8.901634e-001 -4.948167e-001
315675000 -7.547087e-005 -3.816732e-005 -5.343708e-001 5.932394e-001 1.357431e-004 1.081735e-004 8.889319e-001 -4.924329e-001
315960000 3.187585e-005 -6.142405e-005 -5.192556e-001 6.106461e-001 -9.680332e-006 9.575410e-005 8.886992e-001 -4.951308e-001
316245000 -5.936716e-005 1.474912e-005 -5.037276e-001 6.269096e-001 2.061587e-005 2.823302e-005 8.878925e-001 -4.943195e-001
316530000 3.462924e-005 -3.276283e-005 -4.878897e-001 6.433653e-001 1.045960e-004 6.557213e-006 8.901613e-001 -4.958461e-001
316815000 7.653432e-005 -1.192614e-004 -4.715085e-001 6.596673e-001 -2.470734e-005 -3.682135e-006 8.890713e-001 -4.963157e-001
317100000 -3.432705e-005 4.685829e-005 -4.549206e-001 6.759836e-001 3.755127e-006 -8.886553e-005 8.880576e-001 -4.948620e-001
317385000 -1.332826e-005 -9.627686e-006 -4.375335e-001 6.919051e-001 -5.986466e-005 -9.227506e-005 8.897066e-001 -4.952116e-001
317670000 1.788367e-006 -1.297106e-004 -4.188724e-001 7.074782e-001 -3.995188e-005 -7.886712e-005 8.887687e-001 -4.978310e-001
317955000 -2.271701e-005 1.341677e-005 -3.999110e-001 7.231327e-001 -6.198890e-005 1.290244e-004 8.876806e-001 -4.976258e-001
318240000 7.053881e-006 5.899366e-005 -3.807968e-001 7.380956e-001 -5.436443e-005 -8.226011e-005 8.869830e-001 -4.976498e-001
318525000 -4.082416e-005 -4.437461e-005 -3.610242e-001 7.526715e-001 -2.465715e-005 7.427367e-005 8.879140e-001 -4.973519e-001
318810000 9.764420e-005 5.517315e-005 -3.400077e-001 7.672199e-001 4.098756e-006 -1.857577e-004 8.880288e-001 -4.976682e-001
319095000 -8.582452e-005 6.967553e-005 -3.182407e-001 7.808677e-001 6.571541e-005 -2.584704e-005 8.873755e-001 -4.981762e-001
319380000 -1.065257e-005 5.548626e-005 -2.964047e-001 7.947971e-001 -2.954816e-005 -1.285111e-005 8.865955e-001 -5.000457e-001
319665000 -3.781012e-005 -1.061408e-005 -2.739911e-001 8.085343e-001 -8.874401e-006 -6.335271e-005 8.872135e-001 -4.985521e-001
319950000 1.487632e-005 2.050124e-005 -2.499555e-001 8.209305e-001 5.210704e-005 -7.432713e-005 8.846220e-001 -5.006306e-001
320235000 -8.960654e-005 3.474140e-005 -2.260578e-001 8.330330e-001 -1.412545e-005 -1.219271e-004 8.862726e-001 -5.011565e-001
320520000 -1.098907e-004 2.220164e-005 -2.007323e-001 8.453729e-001 9.321499e-005 1.014894e-004 8.853629e-001 -5.023259e-001
320805000 -5.529801e-005 1.228461e-005 -1.758910e-001 8.559257e-001 1.162019e-004 6.621208e-005 8.840445e-001 -4.998110e-001
321090000 -1.135719e-005 -5.607495e-005 -1.489252e-001 8.663319e-001 -5.125872e-005 -8.434236e-005 8.853929e-001 -5.008550e-001
321375000 -3.236478e-005 3.213380e-005 -1.220126e-001 8.764426e-001 9.413387e-005 5.945282e-005 8.854399e-001 -5.015757e-001
321660000 2.298900e-005 1.270012e-005 -9.413811e-002 8.852623e-001 3.365041e-005 1.894174e-005 8.853893e-001 -5.028594e-001
321945000 -9.374581e-005 -1.354716e-005 -6.644478e-002 8.938296e-001 -5.726552e-005 1.487707e-004 8.842066e-001 -5.030411e-001
322230000 3.574989e-005 -1.017805e-004 -3.639784e-002 9.006159e-001 4.959832e-005 8.235686e-005 8.830088e-001 -5.030064e-001
322515000 -9.744764e-006 -3.334161e-005 -6.591610e-003 9.073418e-001 -1.103809e-004 6.269030e-005 8.830647e-001 -5.038852e-001
322800000 -1.092080e-005 -1.218211e-004 2.409068e-002 9.136600e-001 -9.594606e-005 1.435585e-006 8.844572e-001 -5.048229e-001
323085000 1.433715e-005 -1.676873e-004 5.509138e-002 9.180195e-001 -1.770756e-005 6.913011e-005 8.838291e-001 -5.041146e-001
323370000 1.228964e-004 -2.874951e-006 8.689032e-002 9.213954e-001 2.891055e-005 -1.969757e-004 8.826359e-001 -5.061158e-001
323655000 -5.658716e-005 5.145039e-005 1.195159e-001 9.229487e-001 -3.126812e-006 -3.404219e-005 8.828236e-001 -5.069368e-001
323940000 -4.238123e-005 2.689748e-005 1.526303e-001 9.248971e-001 -4.752861e-005 3.783390e-005 8.815992e-001 -5.065195e-001
324225000 -2.088007e-005 1.755185e-004 1.856956e-001 9.246032e-001 4.948298e-005 -4.444793e-005 8.811026e-001 -5.063006e-001
324510000 2.983374e-005 6.763870e-005 2.200639e-001 9.224705e-001 5.760140e-005 -1.830030e-005 8.816148e-001 -5.086802e-001
324795000 -6.280073e-005 -6.924523e-006 2.542349e-001 9.199815e-001 -5.728946e-005 7.227535e-005 8.819411e-001 -5.076306e-001
325080000 -1.039471e-004 -4.450341e-007 2.890533e-001 9.153672e-001 6.225302e-006 1.171042e-005 8.812544e-001 -5.076980e-001
325365000 4.826570e-005 -4.894697e-005 3.233738e-001 9.097109e-001 1.545276e-006 2.379748e-005 8.822049e-001 -5.088884e-001
325650000 -2.073136e-005 -9.951868e-005 3.588190e-001 9.027844e-001 3.279333e-005 8.188679e-005 8.821922e-001 -5.077595e-001
325935000 -5.788036e-005 -3.886931e-005 3.937898e-001 8.937166e-001 -9.051186e-005 -1.793239e-006 8.805967e-001 -5.085407e-001
326220000 5.051321e-005 6.675224e-005 4.285705e-001 8.822307e-001 -6.137150e-005 1.928094e-004 8.811654e-001 -5.102913e-001
326505000 1.405617e-005 -4.102830e-005 4.640420e-001 8.699359e-001 1.318154e-004 2.118488e-005 8.804386e-001 -5.100241e-001
326790000 6.510326e-005 -8.342882e-005 4.992469e-001 8.561832e-001 -1.340763e-005 1.045753e-004 8.791294e-001 -5.097495e-001
327075000 -2.773304e-005 -1.070429e-005 5.341015e-001 8.398725e-001 -3.155776e-005 6.270357e-005 8.792138e-001 -5.113070e-001
327360000 5.662701e-005 5.652579e-006 5.678356e-001 8.230008e-001 7.858209e-006 3.871742e-005 8.811442e-001 -5.115721e-001
327645000 9.195835e-005 1.284304e-004 6.012823e-001 8.039789e-001 -5.126853e-005 -5.229191e-005 8.804193e-001 -5.109351e-001
327930000 -6.669894e-005 1.027896e-004 6.339682e-001 7.829638e-001 1.052281e-004 -8.821450e-005 8.792308e-001 -5.106399e-001
328215000 -1.479156e-006 1.076259e-006 6.668789e-001 7.600193e-001 -1.525824e-005 -1.828183e-005 8.787131e-001 -5.126085e-001
328500000 -4.551505e-005 -2.173984e-005 6.980324e-001 7.358999e-001 6.547722e-005 -6.454273e-005 8.784022e-001 -5.124387e-001
328785000 -1.017269e-005 5.505585e-005 7.284970e-001 7.100291e-001 6.545569e-005 7.863074e-005 8.789023e-001 -5.127938e-001
329070000 9.056381e-006 -2.904375e-005 7.574489e-001 6.822697e-001 9.639876e-005 1.030975e-004 8.777857e-001 -5.140439e-001
329355000 -1.243852e-005 -9.950416e-005 7.858490e-001 6.525282e-001 -2.357682e-005 1.238236e-004 8.777319e-001 -5.145731e-001
329640000 1.051614e-004 -1.176949e-004 8.131089e-001 6.230332e-001 5.110893e-005 8.850441e-005 8.786545e-001 -5.138491e-001
329925000 -2.796484e-005 -2.610045e-005 8.376154e-001 5.904198e-001 1.380307e-005 2.146447e-005 8.765688e-001 -5.143753e-001
330210000 1.556448e-004 -2.302040e-005 8.610925e-001 5.574356e-001 -3.858767e-005 4.252874e-005 8.759736e-001 -5.148371e-001
330495000 9.619391e-005 5.384454e-005 8.829304e-001 5.230235e-001 -1.460210e-004 -9.056629e-005 8.767686e-001 -5.149584e-001
330780000 6.018317e-005 1.066422e-005 9.031808e-001 4.875984e-001 -4.321738e-005 -4.234933e-005 8.770305e-001 -5.159100e-001
331065000 -2.340521e-005 8.047521e-005 9.218013e-001 4.511845e-001 6.497563e-005 -8.836066e-005 8.757237e-001 -5.158090e-001
331350000 -4.338306e-005 1.334723e-004 9.382155e-001 4.147308e-001 -5.003792e-005 9.971319e-005 8.756359e-001 -5.169058e-001
331635000 3.623194e-005 -4.841638e-005 9.537711e-001 3.759117e-001 7.452421e-005 -3.010334e-005 8.766943e-001 -5.174535e-001
331920000 -7.436877e-005 -3.464125e-005 9.663805e-001 3.374625e-001 3.890919e-005 -7.838670e-006 8.752390e-001 -5.165444e-001
332205000 -1.330648e-005 2.661514e-006 9.773070e-001 2.985477e-001 7.458369e-005 -2.554441e-005 8.744464e-001 -5.183651e-001
332490000 -1.347770e-006 -6.984470e-005 9.866971e-001 2.591129e-001 6.296390e-005 -4.399419e-005 8.755316e-001 -5.183322e-001
332775000 -7.570829e-005 -7.242610e-006 9.936818e-001 2.198534e-001 1.145135e-004 7.940376e-005 8.748260e-001 -5.189620e-001
333060000 -9.360231e-005 -9.069737e-005 9.990260e-001 1.803275e-001 6.151490e-005 -4.405128e-007 8.744836e-001 -5.189421e-001
333345000 -8.851100e-005 8.376264e-005 1.001618e+000 1.414248e-001 7.101060e-005 1.268200e-005 8.756341e-001 -5.190315e-001
333630000 -8.911954e-005 -5.484275e-005 1.003596e+000 1.015372e-001 1.312703e-005 -1.195492e-004 8.743046e-001 -5.199324e-001
333915000 4.309210e-005 3.941594e-006 1.002548e+000 6.271422e-002 2.195470e-005 2.744213e-005 8.736402e-001 -5.196476e-001
334200000 3.294575e-005 -2.996127e-006 1.000379e+000 2.402048e-002 -4.836481e-005 8.921380e-005 8.740684e-001 -5.211634e-001
334485000 4.067280e-005 1.308405e-004 9.967568e-001 -1.374245e-002 3.096926e-005 -9.018436e-006 8.744742e-001 -5.209726e-001
334770000 6.717510e-005 1.768557e-005 9.911572e-001 -5.027911e-002 -3.206084e-005 -7.933448e-005 8.739011e-001 -5.203971e-001
335055000 -1.865599e-005 7.081540e-005 9.833086e-001 -8.750720e-002 8.107035e-005 -8.105719e-005 8.743274e-001 -5.221747e-001
335340000 2.646851e-005 1.135087e-005 9.750824e-001 -1.239423e-001 -8.278889e-006 3.643932e-005 8.736445e-001 -5.242033e-001
335625000 -2.597885e-005 4.568208e-005 9.651008e-001 -1.583430e-001 9.389264e-005 1.887030e-005 8.732457e-001 -5.231365e-001
335910000 -3.703559e-005 -1.275605e-004 9.526442e-001 -1.920322e-001 3.512741e-005 5.581169e-005 8.726524e-001 -5.230142e-001
336195000 1.316118e-004 1.275552e-005 9.405994e-001 -2.253612e-001 -5.657996e-005 3.977666e-005 8.708761e-001 -5.225072e-001
336480000 -1.025160e-004 7.440924e-006 9.265373e-001 -2.573767e-001 -1.615805e-005 -1.037837e-005 8.735291e-001 -5.228876e-001
336765000 -9.814079e-005 -4.085342e-005 9.116091e-001 -2.887977e-001 -7.572697e-005 3.518171e-005 8.724774e-001 -5.233590e-001
337050000 -2.088181e-006 -3.547051e-005 8.957284e-001 -3.186821e-001 4.940977e-005 -6.233832e-006 8.726416e-001 -5.252209e-001
337335000 -1.842267e-005 -1.113349e-005 8.781425e-001 -3.479460e-001 -6.477779e-005 1.050390e-004 8.709680e-001 -5.263258e-001
337620000 -6.971029e-005 -9.281907e-005 8.606165e-001 -3.756522e-001 9.075864e-005 5.043028e-005 8.704146e-001 -5.262097e-001
337905000 -7.194531e-005 8.126651e-006 8.419306e-001 -4.022208e-001 -7.211894e-005 6.727935e-005 8.696698e-001 -5.243660e-001
338190000 2.997826e-005 -1.189474e-004 8.222526e-001 -4.278217e-001 -3.449532e-005 3.268315e-005 8.699687e-001 -5.255941e-001
338475000 -3.830964e-005 -1.001128e-004 8.025358e-001 -4.529565e-001 1.043463e-004 5.891934e-005 8.718215e-001 -5.258933e-001
338760000 2.325622e-006 -1.036066e-005 7.819780e-001 -4.763786e-001 1.249427e-004 8.334356e-005 8.708154e-001 -5.265577e-001
339045000 1.300583e-005 -1.593737e-005 7.608132e-001 -4.983467e-001 6.410871e-005 4.612744e-005 8.710582e-001 -5.271634e-001
339330000 5.131683e-005 -5.136834e-005 7.396465e-001 -5.198517e-001 -4.673333e-005 7.343628e-005 8.726321e-001 -5.268471e-001
339615000 -5.538204e-005 -3.826386e-005 7.181330e-001 -5.402951e-001 -9.559715e-005 6.913401e-005 8.698334e-001 -5.286891e-001
339900000 2.009378e-005 -9.811738e-005 6.958989e-001 -5.594811e-001 -6.649750e-005 3.534164e-005 8.691762e-001 -5.290632e-001
340185000 -3.741015e-005 -1.545862e-004 6.727933e-001 -5.771674e-001 -1.210857e-004 -5.546757e-005 8.693248e-001 -5.288713e-001
340470000 5.356331e-005 3.692106e-005 6.513341e-001 -5.951238e-001 -2.907754e-005 3.711048e-006 8.695445e-001 -5.283266e-001
340755000 -1.085814e-004 -3.614411e-005 6.279397e-001 -6.112369e-001 4.265789e-005 -1.267527e-004 8.682430e-001 -5.308113e-001
341040000 -2.262855e-005 1.465977e-004 6.052884e-001 -6.259947e-001 -1.072704e-005 -9.391316e-005 8.681305e-001 -5.298265e-001
341325000 -2.111885e-005 -1.788895e-005 5.820285e-001 -6.409541e-001 -1.168490e-004 7.667244e-005 8.704572e-001 -5.281972e-001
341610000 -4.287844e-005 5.177360e-005 5.587440e-001 -6.544213e-001 1.822417e-004 -5.518414e-005 8.699398e-001 -5.308666e-001
341895000 -1.173214e-004 -5.742234e-006 5.361280e-001 -6.673219e-001 -6.345951e-005 -2.641146e-005 8.665122e-001 -5.322582e-001
342180000 -1.032110e-004 5.159646e-005 5.133749e-001 -6.790631e-001 -7.923281e-005 4.733225e-005 8.688391e-001 -5.320686e-001
342465000 5.858227e-005 -1.187574e-004 4.897493e-001 -6.904039e-001 8.731045e-006 -3.151365e-006 8.669839e-001 -5.334126e-001
342750000 -4.667021e-005 -1.791675e-005 4.660157e-001 -7.003366e-001 3.811043e-005 1.536540e-005 8.691522e-001 -5.342675e-001
343035000 -8.128832e-006 -7.952840e-005 4.434970e-001 -7.098448e-001 8.090416e-005 7.372064e-005 8.668538e-001 -5.336639e-001
343320000 9.193772e-005 5.315231e-005 4.208237e-001 -7.187515e-001 -2.667827e-005 6.081790e-005 8.666539e-001 -5.327365e-001
343605000 1.784631e-005 -5.893851e-005 3.982685e-001 -7.267745e-001 -1.435032e-004 1.313415e-004 8.660734e-001 -5.335064e-001
343890000 2.213628e-005 2.598217e-005 3.749660e-001 -7.345715e-001 -1.255109e-004 9.997201e-005 8.669398e-001 -5.352308e-001
