!Agilent Technologies,N5230C,SG49000117,A.08.50.07
!Agilent N5230C: A.08.50.07
!Date: Sunday, March 17, 2024 08:44:23
!Correction: S11(Off) 
!S21(Off) 
!S12(Off) 
!S22(Full 1 Port(2)) 
!S2P File: Measurements: S11, S21, S12, S22:
# Hz S  RI   R 50
300000000 7.839491e-005 8.022054e-006 -7.252335e-001 -4.655781e-001 5.951999e-005 -3.730431e-005 8.010539e-001 -6.160108e-001
300285000 6.514631e-005 -1.313801e-005 -7.339250e-001 -4.416752e-001 9.208408e-005 1.357224e-005 7.996628e-001 -6.172300e-001
300570000 5.953027e-007 -9.605456e-005 -7.425268e-001 -4.172543e-001 6.532331e-005 1.055605e-004 8.013582e-001 -6.184081e-001
300855000 2.902785e-005 1.018833e-004 -7.499343e-001 -3.934936e-001 9.763864e-005 6.826193e-005 8.007349e-001 -6.178222e-001
301140000 6.459196e-005 3.128912e-005 -7.563548e-001 -3.697399e-001 -1.269174e-004 7.580324e-005 7.990249e-001 -6.189626e-001
301425000 -8.466317e-005 7.006898e-006 -7.625527e-001 -3.458598e-001 3.293793e-005 3.490446e-005 7.989502e-001 -6.197231e-001
301710000 4.207051e-005 1.033083e-004 -7.684796e-001 -3.226061e-001 -7.665897e-005 3.968225e-005 7.986270e-001 -6.206623e-001
301995000 -3.128831e-005 8.694663e-005 -7.736415e-001 -2.991394e-001 2.245988e-005 -9.038363e-005 7.993237e-001 -6.201763e-001
302280000 -7.265915e-005 7.580464e-005 -7.777222e-001 -2.761415e-001 -8.165785e-006 -2.503205e-005 7.985771e-001 -6.198266e-001
302565000 3.344806e-005 7.073964e-005 -7.810974e-001 -2.530451e-001 -1.162736e-004 1.060612e-004 7.979683e-001 -6.224642e-001
302850000 -1.613165e-004 6.402996e-005 -7.843974e-001 -2.296931e-001 -2.085482e-005 -2.090474e-005 7.977161e-001 -6.203778e-001
303135000 -5.485694e-005 7.709344e-005 -7.862616e-001 -2.074701e-001 9.484103e-006 -4.240464e-005 7.976519e-001 -6.209696e-001
303420000 -4.409737e-005 1.281302e-004 -7.885535e-001 -1.849778e-001 1.125707e-004 -9.916509e-005 7.948089e-001 -6.220627e-001
303705000 -5.490779e-005 1.228836e-004 -7.902489e-001 -1.620177e-001 5.230323e-005 -5.339457e-005 7.964429e-001 -6.238028e-001
303990000 -3.127737e-005 -4.222276e-005 -7.914964e-001 -1.397599e-001 1.726176e-004 9.152931e-005 7.965478e-001 -6.213866e-001
304275000 6.258813e-005 -3.271333e-005 -7.916655e-001 -1.177451e-001 3.611676e-005 5.848240e-005 7.954838e-001 -6.241075e-001
304560000 -1.009884e-004 -8.270291e-005 -7.912560e-001 -9.626579e-002 1.867193e-005 7.917113e-005 7.943408e-001 -6.242666e-001
304845000 -1.514261e-005 -1.020742e-004 -7.907252e-001 -7.466662e-002 4.612292e-005 -5.262482e-005 7.947164e-001 -6.227268e-001
305130000 2.272380e-006 -1.102245e-005 -7.900868e-001 -5.318913e-002 -4.616266e-005 -7.326226e-005 7.941375e-001 -6.250626e-001
305415000 -2.772682e-005 -1.112440e-004 -7.888612e-001 -3.244288e-002 -3.091363e-005 5.330531e-005 7.928950e-001 -6.249232e-001
305700000 -1.294214e-005 -3.098630e-005 -7.873226e-001 -1.095690e-002 1.127272e-006 -6.359421e-005 7.943510e-001 -6.269269e-001
305985000 -5.579236e-005 -3.553767e-005 -7.849080e-001 1.018971e-002 -1.231568e-004 2.859261e-005 7.926953e-001 -6.274522e-001
306270000 4.615919e-005 -2.989113e-005 -7.820293e-001 3.081812e-002 -6.138923e-005 5.592323e-005 7.946414e-001 -6.271316e-001
306555000 5.482477e-005 -1.047112e-004 -7.794045e-001 5.188058e-002 -9.195995e-005 -9.334650e-005 7.941583e-001 -6.285647e-001
306840000 2.741568e-005 -1.291956e-004 -7.759973e-001 7.180464e-002 7.353523e-006 -1.953849e-005 7.936885e-001 -6.265664e-001
307125000 1.347829e-004 7.326092e-005 -7.719027e-001 9.277466e-002 9.667494e-005 -1.017776e-004 7.916833e-001 -6.278746e-001
307410000 1.408936e-004 1.870738e-005 -7.676404e-001 1.128109e-001 5.728715e-005 -1.380214e-005 7.927956e-001 -6.294852e-001
307695000 2.386172e-005 2.793641e-005 -7.633695e-001 1.329784e-001 6.452205e-006 1.855231e-005 7.922682e-001 -6.294529e-001
307980000 1.676608e-005 1.842178e-005 -7.582891e-001 1.523259e-001 -2.090301e-006 7.181863e-005 7.896791e-001 -6.295569e-001
308265000 -2.009574e-005 5.378384e-005 -7.537883e-001 1.720325e-001 4.361115e-005 5.219068e-007 7.899267e-001 -6.294955e-001
308550000 -4.203039e-005 1.098987e-004 -7.474954e-001 1.912251e-001 2.268072e-005 2.164172e-005 7.894722e-001 -6.294974e-001
308835000 1.311257e-005 1.133038e-004 -7.419462e-001 2.108100e-001 2.407265e-005 -2.784773e-005 7.899368e-001 -6.313248e-001
309120000 -4.452871e-005 6.720936e-005 -7.353966e-001 2.304862e-001 3.305477e-005 -8.761662e-005 7.886180e-001 -6.319625e-001
309405000 -5.814010e-005 2.757793e-005 -7.288980e-001 2.498920e-001 5.180987e-005 7.896427e-005 7.896506e-001 -6.337308e-001
309690000 -1.634643e-004 -1.808340e-005 -7.216311e-001 2.689067e-001 -5.118941e-005 2.810022e-006 7.885275e-001 -6.330071e-001
309975000 -1.310135e-004 -4.497690e-005 -7.142447e-001 2.879606e-001 4.109150e-006 1.205549e-004 7.877230e-001 -6.322298e-001
310260000 -4.171607e-005 7.364133e-005 -7.064463e-001 3.063375e-001 6.091831e-005 5.448494e-005 7.896091e-001 -6.344924e-001
310545000 -7.007809e-005 4.624773e-005 -6.987959e-001 3.252138e-001 -1.852952e-006 4.961291e-005 7.859130e-001 -6.341863e-001
310830000 1.031031e-005 4.632719e-005 -6.900473e-001 3.438515e-001 -7.322915e-006 9.344449e-006 7.880923e-001 -6.367593e-001
311115000 -1.974001e-005 -1.531465e-004 -6.813242e-001 3.621423e-001 -4.561629e-005 -1.472309e-007 7.872816e-001 -6.343552e-001
311400000 2.918339e-005 5.082379e-005 -6.723312e-001 3.806240e-001 -4.382700e-005 6.071886e-006 7.865280e-001 -6.353964e-001
311685000 -8.755219e-005 -3.725294e-005 -6.625152e-001 3.982600e-001 -3.429036e-005 2.307887e-005 7.877476e-001 -6.352666e-001
311970000 -5.034063e-005 -4.016247e-005 -6.522658e-001 4.167802e-001 -1.524779e-005 -3.415043e-005 7.843418e-001 -6.354357e-001
312255000 3.996313e-007 -3.228864e-005 -6.422399e-001 4.342653e-001 -8.298107e-006 -1.185021e-004 7.851638e-001 -6.366216e-001
312540000 3.005775e-005 -1.878448e-005 -6.315292e-001 4.523252e-001 -7.177691e-005 -4.583911e-006 7.846742e-001 -6.362588e-001
312825000 1.239957e-004 -1.125443e-004 -6.202926e-001 4.705821e-001 -4.079283e-005 4.970370e-005 7.838113e-001 -6.381772e-001
313110000 9.234965e-005 5.315262e-005 -6.087250e-001 4.880479e-001 5.518744e-005 -6.833432e-005 7.819396e-001 -6.387516e-001
313395000 -5.318220e-005 -4.054310e-005 -5.963761e-001 5.056452e-001 3.006299e-005 -1.367532e-005 7.847528e-001 -6.379223e-001
313680000 -4.692647e-005 5.745112e-005 -5.843689e-001 5.226816e-001 7.281949e-005 -6.821362e-005 7.846737e-001 -6.395413e-001
313965000 9.367615e-005 6.744482e-005 -5.710838e-001 5.400132e-001 4.600847e-005 8.614461e-006 7.833190e-001 -6.386255e-001
314250000 8.669227e-006 -1.016054e-005 -5.578803e-001 5.573733e-001 8.830142e-006 -4.203803e-005 7.820966e-001 -6.391662e-001
314535000 -8.794289e-006 -1.596389e-005 -5.438222e-001 5.744131e-001 2.697024e-005 -5.120028e-005 7.829344e-001 -6.403701e-001
314820000 -3.096780e-005 1.170729e-005 -5.295846e-001 5.909498e-001 9.898798e-005 -1.940885e-005 7.805318e-001 -6.407820e-001
315105000 -3.670012e-005 -4.116454e-006 -5.145669e-001 6.079594e-001 -3.045518e-005 1.067704e-004 7.781081e-001 -6.395606e-001
315390000 -4.589256e-005 3.229626e-005 -4.995565e-001 6.242522e-001 -4.283102e-005 -2.388912e-005 7.813094e-001 -6.409621e-001
315675000 -2.294892e-005 2.102094e-005 -4.834582e-001 6.404514e-001 4.173286e-006 1.114566e-004 7.802438e-001 -6.405320e-001
315960000 -8.640827e-005 -3.130480e-005 -4.668618e-001 6.567920e-001 4.974170e-005 -9.645454e-005 7.798187e-001 -6.416725e-001
316245000 5.443895e-005 -1.099553e-005 -4.503565e-001 6.721565e-001 -3.575989e-005 3.501349e-005 7.785391e-001 -6.420204e-001
316530000 8.014710e-005 -1.302114e-004 -4.321359e-001 6.884591e-001 3.068736e-006 7.956097e-005 7.795722e-001 -6.447623e-001
316815000 6.598386e-005 -1.008824e-004 -4.142261e-001 7.038177e-001 -6.694849e-005 7.256398e-005 7.805783e-001 -6.435858e-001
317100000 5.456575e-005 -9.419971e-005 -3.958921e-001 7.190876e-001 -1.400995e-004 5.363689e-005 7.785259e-001 -6.434193e-001
317385000 -6.732319e-006 -6.380904e-006 -3.763688e-001 7.336946e-001 -2.010311e-004 -2.955778e-005 7.809212e-001 -6.439522e-001
317670000 5.789797e-005 1.329189e-006 -3.564506e-001 7.483212e-001 3.952420e-005 -9.772653e-005 7.789738e-001 -6.453860e-001
317955000 5.512792e-005 -2.784795e-006 -3.357775e-001 7.630084e-001 5.104618e-005 5.922702e-005 7.792317e-001 -6.469213e-001
318240000 5.488061e-005 5.113099e-005 -3.146645e-001 7.763287e-001 2.777266e-006 -5.373899e-005 7.768931e-001 -6.454915e-001
318525000 -3.211767e-005 5.930657e-005 -2.926032e-001 7.890854e-001 1.676079e-006 -2.772742e-005 7.772815e-001 -6.454359e-001
318810000 8.962672e-005 -6.878009e-005 -2.695443e-001 8.024493e-001 5.235622e-005 -3.826918e-005 7.769303e-001 -6.463717e-001
319095000 -7.050786e-005 1.024480e-004 -2.464258e-001 8.150431e-001 1.338256e-005 -4.397427e-005 7.760806e-001 -6.461291e-001
319380000 -5.187304e-005 1.623984e-004 -2.227830e-001 8.268418e-001 -4.930973e-005 -5.064908e-005 7.760380e-001 -6.478350e-001
319665000 1.123775e-006 9.053391e-005 -1.980278e-001 8.395602e-001 6.291206e-005 7.071372e-005 7.764385e-001 -6.479449e-001
319950000 -2.459329e-005 -2.848405e-005 -1.718384e-001 8.492208e-001 -2.693831e-005 -6.163115e-005 7.745500e-001 -6.494811e-001
320235000 -6.694363e-006 -3.889681e-005 -1.464568e-001 8.599317e-001 -9.043639e-005 2.768946e-005 7.744073e-001 -6.504905e-001
320520000 -3.922970e-005 4.623934e-005 -1.190000e-001 8.693962e-001 -1.923549e-005 2.631688e-005 7.732266e-001 -6.500496e-001
320805000 -4.853741e-005 7.194324e-005 -9.208332e-002 8.785087e-001 2.131437e-006 -4.529994e-005 7.750189e-001 -6.492162e-001
321090000 1.019825e-005 7.339937e-005 -6.360960e-002 8.860074e-001 -1.410505e-004 -1.684267e-005 7.732995e-001 -6.492755e-001
321375000 6.066976e-006 3.059292e-005 -3.490775e-002 8.934193e-001 -3.399251e-006 -2.294707e-005 7.738138e-001 -6.508306e-001
321660000 1.624526e-004 -3.884737e-005 -5.351730e-003 8.996977e-001 -1.105063e-007 -1.091429e-004 7.724153e-001 -6.513848e-001
321945000 -1.151200e-004 -6.365154e-005 2.521509e-002 9.056793e-001 3.100054e-005 -6.557410e-005 7.710060e-001 -6.510091e-001
322230000 -1.242834e-005 -2.011612e-004 5.567803e-002 9.102894e-001 4.646343e-005 -5.271656e-005 7.709367e-001 -6.526147e-001
322515000 3.057627e-007 -1.033378e-004 8.778531e-002 9.131135e-001 4.094558e-005 5.529757e-006 7.696168e-001 -6.519600e-001
322800000 -8.738186e-005 -2.042867e-005 1.186083e-001 9.156097e-001 -2.050411e-005 -1.239063e-004 7.716532e-001 -6.537014e-001
323085000 -1.420236e-004 3.343496e-007 1.518245e-001 9.163703e-001 1.442933e-005 2.362150e-005 7.704572e-001 -6.538694e-001
323370000 4.866845e-005 -9.069710e-005 1.847753e-001 9.164658e-001 -1.090662e-005 -3.920092e-005 7.708632e-001 -6.552382e-001
323655000 -1.738509e-005 -5.206822e-005 2.182468e-001 9.149795e-001 -1.617261e-005 -1.404210e-005 7.690839e-001 -6.543190e-001
323940000 1.676596e-005 -5.401850e-005 2.527326e-001 9.120849e-001 1.058897e-004 7.561409e-005 7.676569e-001 -6.549596e-001
324225000 8.201646e-005 3.585429e-005 2.867468e-001 9.073548e-001 8.994044e-005 -1.140201e-005 7.675307e-001 -6.545166e-001
324510000 -2.587841e-005 1.546389e-005 3.206904e-001 9.016875e-001 2.432836e-005 1.236888e-004 7.676365e-001 -6.579961e-001
324795000 1.270704e-004 -4.128264e-005 3.556990e-001 8.949671e-001 -9.985507e-005 -1.121164e-004 7.682590e-001 -6.572204e-001
325080000 -4.364438e-005 -5.274692e-005 3.907025e-001 8.858667e-001 -8.917604e-005 4.117496e-005 7.671887e-001 -6.564045e-001
325365000 3.133880e-005 4.412496e-005 4.254993e-001 8.760469e-001 -1.331679e-004 1.536618e-005 7.674816e-001 -6.593428e-001
325650000 -9.344012e-007 -1.087454e-004 4.604627e-001 8.638350e-001 -5.893111e-005 -1.212152e-005 7.666728e-001 -6.576629e-001
325935000 7.856953e-005 -6.112921e-005 4.949347e-001 8.498793e-001 -7.501892e-005 -9.266578e-005 7.651702e-001 -6.578949e-001
326220000 -1.299304e-005 -1.728070e-005 5.288239e-001 8.339233e-001 -6.540833e-005 -5.134623e-005 7.661769e-001 -6.595449e-001
326505000 6.438678e-005 -1.904560e-005 5.628151e-001 8.169252e-001 -2.791570e-005 1.002387e-004 7.645857e-001 -6.591547e-001
326790000 3.127368e-005 -1.459062e-004 5.962815e-001 7.982819e-001 9.939260e-005 -1.441771e-004 7.641223e-001 -6.585233e-001
327075000 8.796682e-005 -2.073474e-005 6.289678e-001 7.775826e-001 4.273562e-005 2.102554e-005 7.632650e-001 -6.605464e-001
327360000 -1.585575e-005 -1.172905e-005 6.615698e-001 7.549549e-001 5.317501e-006 -9.782458e-005 7.646453e-001 -6.610845e-001
327645000 6.620793e-005 4.446418e-005 6.927163e-001 7.306175e-001 -6.216353e-005 1.596822e-005 7.634534e-001 -6.617584e-001
327930000 2.366854e-005 6.334734e-006 7.233409e-001 7.052792e-001 6.824266e-005 6.522620e-005 7.638235e-001 -6.613254e-001
328215000 4.924694e-005 4.316076e-005 7.522356e-001 6.782355e-001 -8.828341e-005 1.024868e-006 7.627848e-001 -6.621760e-001
328500000 7.188264e-005 -1.348118e-005 7.800043e-001 6.491317e-001 -8.281615e-005 7.570035e-005 7.607062e-001 -6.626863e-001
328785000 2.080449e-005 -5.920234e-005 8.066546e-001 6.192713e-001 -7.756585e-005 -2.416729e-005 7.612365e-001 -6.621459e-001
329070000 -1.137689e-005 -4.508057e-005 8.317161e-001 5.878617e-001 -3.706712e-005 -7.624386e-005 7.614077e-001 -6.624187e-001
329355000 -1.220478e-005 -3.781640e-005 8.556039e-001 5.548941e-001 5.914275e-006 -5.423828e-005 7.609576e-001 -6.644602e-001
329640000 8.243708e-005 -3.616995e-005 8.777059e-001 5.207874e-001 -1.528845e-004 3.120293e-007 7.599406e-001 -6.644053e-001
329925000 -9.839370e-005 4.872944e-005 8.980790e-001 4.856465e-001 9.232691e-006 9.759295e-006 7.601565e-001 -6.645343e-001
330210000 1.324855e-005 1.506352e-004 9.169427e-001 4.497301e-001 1.199730e-005 4.850638e-005 7.591984e-001 -6.641685e-001
330495000 -9.536518e-005 3.646929e-005 9.336479e-001 4.122606e-001 6.371546e-005 -1.495820e-004 7.591063e-001 -6.641537e-001
330780000 -3.550468e-005 4.786330e-005 9.487146e-001 3.749612e-001 -9.375958e-006 4.618000e-005 7.577109e-001 -6.665136e-001
331065000 -7.582128e-005 -3.660574e-005 9.618560e-001 3.363475e-001 5.303441e-005 -7.047083e-005 7.582524e-001 -6.645423e-001
331350000 4.282269e-005 6.026957e-005 9.724030e-001 2.976730e-001 1.167980e-004 -3.150062e-005 7.578614e-001 -6.667755e-001
331635000 -8.202247e-008 -2.215465e-005 9.822785e-001 2.587947e-001 6.608187e-005 4.961962e-005 7.583965e-001 -6.675805e-001
331920000 -1.127700e-005 -5.409238e-005 9.900994e-001 2.182890e-001 -1.870268e-005 5.556766e-005 7.577642e-001 -6.681311e-001
332205000 9.776080e-005 -1.502969e-004 9.950587e-001 1.790653e-001 6.349054e-005 -8.036322e-005 7.566355e-001 -6.685280e-001
332490000 3.239862e-005 6.884319e-005 9.983295e-001 1.398973e-001 5.259330e-006 2.644894e-005 7.571983e-001 -6.680666e-001
332775000 6.343140e-005 -4.308302e-005 1.000387e+000 1.007290e-001 -1.802922e-005 9.800505e-005 7.558588e-001 -6.693818e-001
333060000 -1.022295e-006 1.205943e-004 9.991153e-001 6.191184e-002 -4.847109e-005 1.425372e-006 7.560704e-001 -6.692137e-001
333345000 1.191692e-004 1.694532e-004 9.972339e-001 2.315197e-002 3.995961e-005 9.060173e-006 7.557232e-001 -6.706372e-001
333630000 1.334336e-005 5.904716e-005 9.940867e-001 -1.448588e-002 -9.058064e-005 8.065234e-005 7.548062e-001 -6.716160e-001
333915000 -1.029306e-004 -9.393793e-005 9.879127e-001 -5.229438e-002 -4.486428e-005 1.672422e-005 7.538763e-001 -6.707692e-001
334200000 -6.825750e-005 4.499965e-005 9.810154e-001 -8.902685e-002 -1.660682e-005 1.037100e-006 7.536839e-001 -6.722953e-001
334485000 -5.456531e-005 2.538001e-005 9.721286e-001 -1.248760e-001 -6.283777e-006 1.724838e-005 7.536251e-001 -6.711255e-001
334770000 1.070624e-004 4.074974e-005 9.622445e-001 -1.606272e-001 4.619480e-005 -3.693244e-005 7.541259e-001 -6.726466e-001
335055000 -2.069491e-005 -4.437686e-006 9.506878e-001 -1.945701e-001 5.749127e-005 1.684125e-005 7.541829e-001 -6.730669e-001
335340000 3.371649e-005 6.284609e-005 9.374230e-001 -2.280115e-001 -1.828386e-005 -3.401272e-005 7.530040e-001 -6.742473e-001
335625000 -4.653961e-005 -1.964449e-005 9.239926e-001 -2.597338e-001 3.286604e-005 -1.838891e-005 7.524368e-001 -6.737068e-001
335910000 -1.430089e-004 6.760672e-005 9.089611e-001 -2.915462e-001 -8.304527e-005 -1.589007e-005 7.515118e-001 -6.738129e-001
336195000 -7.277831e-005 8.096529e-006 8.927135e-001 -3.213702e-001 -1.383994e-005 6.801606e-005 7.517655e-001 -6.724809e-001
336480000 6.736790e-006 -2.875106e-005 8.751667e-001 -3.508551e-001 -1.124376e-005 -1.077693e-004 7.521366e-001 -6.751691e-001
336765000 -2.398991e-005 -2.695844e-005 8.571374e-001 -3.784306e-001 -8.683513e-005 -8.388404e-005 7.505203e-001 -6.762351e-001
337050000 3.196442e-005 -1.421223e-005 8.387955e-001 -4.058739e-001 6.545225e-006 -3.287570e-005 7.505689e-001 -6.758321e-001
337335000 9.189041e-005 -6.545509e-005 8.188406e-001 -4.308375e-001 3.123887e-005 -2.728668e-005 7.493008e-001 -6.769772e-001
337620000 9.110286e-006 -7.141906e-005 7.987801e-001 -4.557885e-001 6.272993e-005 -1.646222e-005 7.502643e-001 -6.775277e-001
337905000 7.065527e-005 -1.351880e-004 7.780319e-001 -4.800377e-001 2.338351e-005 -1.410497e-005 7.489327e-001 -6.754557e-001
338190000 1.904404e-005 1.686436e-006 7.574281e-001 -5.019711e-001 1.605449e-004 -1.475493e-004 7.500875e-001 -6.769917e-001
338475000 -1.506814e-005 -2.007764e-005 7.352222e-001 -5.234002e-001 3.124794e-005 -9.209268e-005 7.503982e-001 -6.775790e-001
338760000 3.963654e-005 -5.082059e-006 7.131169e-001 -5.433774e-001 6.550473e-005 4.058773e-005 7.487719e-001 -6.775745e-001
339045000 6.028394e-005 -5.947275e-005 6.910769e-001 -5.626082e-001 -7.678432e-005 -3.330235e-005 7.481903e-001 -6.788175e-001
339330000 -4.370060e-005 -5.241162e-006 6.683359e-001 -5.809349e-001 6.980095e-005 5.017699e-005 7.490636e-001 -6.786945e-001
339615000 1.385093e-005 -1.034442e-004 6.457394e-001 -5.977626e-001 3.758983e-006 -4.437144e-005 7.471138e-001 -6.794558e-001
339900000 3.188875e-005 -1.892603e-007 6.228323e-001 -6.139026e-001 -6.777456e-005 6.380579e-005 7.453798e-001 -6.801865e-001
340185000 5.034960e-005 1.126585e-004 5.995429e-001 -6.295588e-001 -1.173764e-004 1.227010e-004 7.470457e-001 -6.805864e-001
340470000 -5.889860e-005 2.166748e-005 5.759915e-001 -6.443027e-001 -3.488456e-006 -6.085057e-007 7.456243e-001 -6.791596e-001
340755000 -3.554624e-005 -6.812075e-005 5.528689e-001 -6.574705e-001 5.083222e-005 -8.542122e-006 7.453120e-001 -6.822349e-001
341040000 3.347979e-005 3.943546e-005 5.290329e-001 -6.698427e-001 -1.597506e-004 1.706636e-004 7.431332e-001 -6.818917e-001
341325000 6.901402e-005 6.180627e-005 5.060644e-001 -6.816179e-001 -5.742902e-005 -5.008237e-005 7.468702e-001 -6.820483e-001
341610000 -4.249500e-005 4.171540e-005 4.829152e-001 -6.924132e-001 -6.907318e-005 7.351254e-005 7.448815e-001 -6.827900e-001
341895000 -5.692500e-005 2.560498e-005 4.595141e-001 -7.028055e-001 -3.446354e-005 -1.405810e-005 7.423181e-001 -6.828009e-001
342180000 1.306000e-005 5.416097e-006 4.361978e-001 -7.120081e-001 -4.711930e-005 9.686370e-005 7.436588e-001 -6.841355e-001
342465000 -3.577105e-005 -1.222915e-005 4.134927e-001 -7.206234e-001 -3.347988e-006 -3.156942e-005 7.423001e-001 -6.840444e-001
342750000 -6.367161e-005 -1.081320e-004 3.898180e-001 -7.287650e-001 7.225243e-005 -7.037562e-006 7.445837e-001 -6.851363e-001
343035000 -3.767245e-005 -3.918064e-005 3.671744e-001 -7.358324e-001 1.223312e-004 3.437011e-006 7.414895e-001 -6.852961e-001
343320000 -4.140862e-005 -9.884153e-005 3.440516e-001 -7.426329e-001 7.393422e-006 1.028784e-004 7.430628e-001 -6.844141e-001
343605000 -2.828101e-005 -4.547749e-005 3.215187e-001 -7.487429e-001 1.717412e-005 1.216119e-005 7.409778e-001 -6.852384e-001
343890000 2.480373e-006 -9.683715e-005 2.994367e-001 -7.538555e-001 -6.036256e-005 2.961486e-006 7.412444e-001 -6.859935e-001
