!Agilent Technologies,N5230C,SG49000117,A.08.50.07
!Agilent N5230C: A.08.50.07
!Date: Sunday, March 17, 2024 08:43:23
!Correction: S11(Off) 
!S21(Off) 
!S12(Off) 
!S22(Full 1 Port(2)) 
!S2P File: Measurements: S11, S21, S12, S22:
# Hz S  RI   R 50
300000000 -3.281925e-005 -1.078723e-004 -7.373658e-001 -4.240836e-001 4.528307e-005 -8.192158e-005 7.293559e-001 -6.845387e-001
300285000 7.458794e-005 7.575230e-006 -7.450591e-001 -4.005274e-001 -2.492159e-005 -5.764309e-005 7.278834e-001 -6.847099e-001
300570000 -1.719283e-005 2.708174e-005 -7.517253e-001 -3.764988e-001 -7.729700e-005 -1.716884e-005 7.277145e-001 -6.857271e-001
300855000 9.424172e-005 -6.406630e-005 -7.583642e-001 -3.527752e-001 1.095774e-004 -3.075532e-005 7.278662e-001 -6.867101e-001
301140000 5.804237e-005 -4.990708e-005 -7.639788e-001 -3.293344e-001 -3.365056e-005 -5.512766e-005 7.265795e-001 -6.858798e-001
301425000 2.625124e-005 6.067212e-005 -7.689672e-001 -3.052125e-001 -3.794933e-005 -3.343653e-005 7.269248e-001 -6.871251e-001
301710000 7.565699e-005 -8.249144e-005 -7.735632e-001 -2.822058e-001 1.149571e-004 2.234489e-005 7.256037e-001 -6.892092e-001
301995000 4.803837e-005 8.782741e-005 -7.769157e-001 -2.590311e-001 1.317773e-004 1.553019e-004 7.258919e-001 -6.873569e-001
302280000 -5.093872e-005 6.890253e-005 -7.807044e-001 -2.362009e-001 1.165319e-005 2.021099e-006 7.261267e-001 -6.881250e-001
302565000 -3.906709e-005 1.543193e-006 -7.829754e-001 -2.133044e-001 -2.859740e-005 6.638777e-005 7.249795e-001 -6.901979e-001
302850000 1.380300e-005 1.093758e-005 -7.851636e-001 -1.908381e-001 -2.521730e-005 3.507226e-005 7.243680e-001 -6.888934e-001
303135000 -6.023454e-005 5.555732e-005 -7.863978e-001 -1.684868e-001 -4.227743e-005 -1.353640e-005 7.243381e-001 -6.893392e-001
303420000 -1.085248e-004 1.377342e-004 -7.876201e-001 -1.463089e-001 -6.730575e-007 1.004381e-004 7.218068e-001 -6.908821e-001
303705000 -4.608605e-005 4.732203e-005 -7.883481e-001 -1.240395e-001 5.478070e-005 -2.040593e-005 7.231312e-001 -6.921179e-001
303990000 -3.524235e-005 -6.521036e-005 -7.886176e-001 -1.026874e-001 1.360213e-005 6.032632e-005 7.236750e-001 -6.911932e-001
304275000 -1.258321e-005 7.557967e-005 -7.876090e-001 -8.041904e-002 -1.038088e-004 -1.187443e-004 7.214667e-001 -6.911368e-001
304560000 -5.052469e-005 -2.797172e-005 -7.871613e-001 -5.903085e-002 -1.117120e-004 3.930824e-005 7.220618e-001 -6.924154e-001
304845000 -4.270820e-005 4.705914e-006 -7.859830e-001 -3.781202e-002 -9.079338e-005 -6.215743e-005 7.219613e-001 -6.918032e-001
305130000 -2.468718e-005 -1.749626e-004 -7.841614e-001 -1.624418e-002 -2.058790e-005 -7.350367e-005 7.213746e-001 -6.916328e-001
305415000 -9.630438e-005 -1.228976e-004 -7.823690e-001 4.254336e-003 -4.278632e-005 -1.136071e-004 7.207151e-001 -6.930790e-001
305700000 -1.944251e-005 -1.914388e-005 -7.793990e-001 2.508697e-002 -1.604934e-005 -8.710255e-005 7.193296e-001 -6.939092e-001
305985000 -5.566794e-005 -8.302461e-005 -7.768121e-001 4.592058e-002 -4.431380e-005 -2.468149e-005 7.194299e-001 -6.939778e-001
306270000 6.144179e-005 -1.784805e-005 -7.733715e-001 6.632849e-002 -1.373047e-005 -9.756578e-006 7.214881e-001 -6.949635e-001
306555000 1.341225e-004 -3.405167e-005 -7.698869e-001 8.637079e-002 1.922244e-005 -1.087668e-004 7.191783e-001 -6.971079e-001
306840000 1.191466e-004 2.015559e-006 -7.655967e-001 1.074590e-001 -1.339580e-005 -5.844753e-005 7.184850e-001 -6.959945e-001
307125000 7.653321e-005 5.253616e-005 -7.612827e-001 1.270078e-001 1.116488e-004 -1.118662e-004 7.164638e-001 -6.964037e-001
307410000 1.558149e-005 -5.065809e-005 -7.561730e-001 1.467682e-001 8.567105e-005 1.062192e-004 7.174384e-001 -6.966033e-001
307695000 8.237338e-005 3.109841e-005 -7.511533e-001 1.662306e-001 1.743156e-004 9.578152e-005 7.159005e-001 -6.976507e-001
307980000 5.911487e-005 3.276123e-005 -7.453418e-001 1.861350e-001 1.110121e-004 -1.149026e-005 7.160257e-001 -6.982877e-001
308265000 7.265471e-005 8.906490e-005 -7.396789e-001 2.057765e-001 3.895896e-005 7.184812e-005 7.152321e-001 -6.978748e-001
308550000 1.054269e-004 4.978829e-005 -7.329967e-001 2.248416e-001 -5.960925e-005 -5.394237e-007 7.151548e-001 -6.975328e-001
308835000 -1.182150e-005 -7.722049e-005 -7.269281e-001 2.434231e-001 -8.646154e-005 6.007915e-005 7.144988e-001 -6.984127e-001
309120000 8.386005e-005 5.378189e-006 -7.194693e-001 2.628490e-001 3.098662e-005 9.155396e-005 7.150180e-001 -7.003258e-001
309405000 -1.150258e-005 1.391731e-004 -7.121862e-001 2.819001e-001 -7.212413e-005 3.920778e-005 7.134021e-001 -7.006920e-001
309690000 -5.774050e-005 -1.415386e-005 -7.047532e-001 3.007460e-001 5.637665e-005 -3.863914e-005 7.148079e-001 -7.014980e-001
309975000 -8.319508e-005 -2.450682e-005 -6.965346e-001 3.190414e-001 1.716881e-005 -2.816175e-005 7.137405e-001 -7.006416e-001
310260000 -8.407966e-005 3.157240e-005 -6.880942e-001 3.375018e-001 -1.325930e-004 -3.674299e-005 7.143963e-001 -7.031503e-001
310545000 -9.678430e-005 -1.661124e-005 -6.792734e-001 3.557417e-001 -2.536114e-005 -4.560195e-005 7.128680e-001 -7.017366e-001
310830000 -2.800569e-005 -5.405951e-005 -6.700479e-001 3.740827e-001 1.735852e-005 -6.317590e-005 7.117558e-001 -7.039629e-001
311115000 -3.301131e-005 -1.364906e-005 -6.604179e-001 3.922568e-001 -8.097168e-005 1.647026e-005 7.107311e-001 -7.015490e-001
311400000 1.463559e-005 9.346232e-005 -6.507629e-001 4.107025e-001 8.084482e-005 -2.857038e-005 7.105690e-001 -7.040536e-001
311685000 3.626669e-005 -9.727701e-005 -6.404339e-001 4.286240e-001 4.289416e-005 1.512700e-005 7.106513e-001 -7.041383e-001
311970000 1.761928e-005 -6.384878e-005 -6.298892e-001 4.462969e-001 7.050253e-005 1.007518e-005 7.096764e-001 -7.031569e-001
312255000 6.511717e-006 -2.804759e-005 -6.186615e-001 4.638264e-001 5.699463e-006 6.074064e-006 7.092162e-001 -7.040755e-001
312540000 4.740717e-005 2.445321e-005 -6.069804e-001 4.812635e-001 -4.597009e-005 -1.132079e-005 7.075709e-001 -7.047498e-001
312825000 4.215423e-006 -2.372802e-005 -5.948987e-001 4.986324e-001 -1.183051e-006 1.099290e-004 7.076283e-001 -7.046121e-001
313110000 4.078566e-006 9.700614e-005 -5.823361e-001 5.160069e-001 -4.405629e-005 6.226917e-005 7.061892e-001 -7.059675e-001
313395000 2.957359e-005 -1.450201e-005 -5.700441e-001 5.331674e-001 -4.297173e-005 2.397719e-005 7.081900e-001 -7.054925e-001
313680000 9.068051e-006 1.487113e-004 -5.566621e-001 5.497367e-001 2.897972e-005 -2.173166e-005 7.074769e-001 -7.059888e-001
313965000 9.709156e-006 3.480462e-005 -5.427409e-001 5.667643e-001 -4.099953e-005 7.863698e-005 7.061132e-001 -7.070876e-001
314250000 -8.426401e-005 6.607927e-005 -5.289074e-001 5.836813e-001 -5.511480e-005 1.223783e-006 7.037202e-001 -7.069494e-001
314535000 6.880120e-006 -6.972566e-005 -5.137759e-001 5.998673e-001 -9.232136e-005 5.316719e-005 7.044401e-001 -7.077512e-001
314820000 -8.289065e-005 -8.016425e-005 -4.984980e-001 6.164423e-001 1.257016e-005 9.788495e-005 7.049389e-001 -7.088103e-001
315105000 3.946964e-005 -3.079664e-005 -4.828391e-001 6.324748e-001 -3.348564e-005 9.702520e-007 7.025539e-001 -7.064595e-001
315390000 -3.069810e-005 -1.051188e-004 -4.662599e-001 6.485287e-001 -7.013459e-005 6.216639e-007 7.034919e-001 -7.103755e-001
315675000 1.839025e-005 3.921023e-005 -4.495454e-001 6.643126e-001 6.155021e-005 -1.095914e-005 7.029606e-001 -7.086898e-001
315960000 4.677082e-005 -6.641971e-005 -4.322483e-001 6.799456e-001 -3.149768e-005 2.988517e-005 7.016734e-001 -7.095557e-001
316245000 5.764172e-005 3.726755e-005 -4.142103e-001 6.949551e-001 1.681335e-005 -4.159621e-005 7.008552e-001 -7.095223e-001
316530000 3.775256e-005 -4.793156e-005 -3.958687e-001 7.100245e-001 1.824770e-005 -6.617823e-005 7.028329e-001 -7.105363e-001
316815000 7.642362e-005 -5.395449e-005 -3.765714e-001 7.247872e-001 -3.281291e-005 -1.510977e-005 7.015626e-001 -7.110192e-001
317100000 -4.384206e-006 -3.613807e-005 -3.572000e-001 7.390032e-001 6.760888e-005 -9.107005e-005 7.003370e-001 -7.103593e-001
317385000 -1.473927e-006 -4.950389e-005 -3.363343e-001 7.529801e-001 8.256047e-005 -1.249263e-005 7.020798e-001 -7.125940e-001
317670000 1.400818e-005 8.612833e-005 -3.154842e-001 7.664821e-001 6.510683e-005 4.377487e-005 7.002211e-001 -7.126313e-001
317955000 5.916015e-005 6.821975e-005 -2.943518e-001 7.799534e-001 7.323302e-005 7.122044e-005 7.004638e-001 -7.137272e-001
318240000 6.648251e-005 6.377770e-005 -2.717514e-001 7.927725e-001 6.405878e-005 2.473856e-005 6.992114e-001 -7.139208e-001
318525000 -7.926911e-006 6.388660e-005 -2.485536e-001 8.056647e-001 -1.135319e-005 -1.587580e-006 6.985570e-001 -7.131284e-001
318810000 8.850644e-006 4.097054e-005 -2.254376e-001 8.174554e-001 2.098795e-005 3.126321e-005 6.988252e-001 -7.138296e-001
319095000 -1.828908e-005 -2.756690e-005 -2.005397e-001 8.288400e-001 5.499083e-005 2.348872e-005 6.977561e-001 -7.127295e-001
319380000 1.114769e-004 -8.252907e-006 -1.759924e-001 8.395911e-001 -6.478026e-005 9.853097e-005 6.959674e-001 -7.158865e-001
319665000 -5.900766e-005 9.037232e-005 -1.499504e-001 8.499109e-001 -4.089942e-005 5.641780e-005 6.971014e-001 -7.164461e-001
319950000 -1.132686e-004 2.707666e-005 -1.238722e-001 8.589081e-001 -5.182849e-005 5.439418e-005 6.944593e-001 -7.171068e-001
320235000 -5.785894e-005 -2.156626e-005 -9.694973e-002 8.681959e-001 -1.119541e-004 6.299731e-005 6.945102e-001 -7.164766e-001
320520000 -7.084809e-005 -4.228052e-005 -6.862528e-002 8.759978e-001 -1.619624e-004 -1.277567e-005 6.935749e-001 -7.174942e-001
320805000 -3.467369e-005 -7.392355e-005 -4.079004e-002 8.833987e-001 -1.000483e-004 6.444833e-005 6.947797e-001 -7.166371e-001
321090000 -7.916458e-006 -1.360618e-005 -1.136625e-002 8.902291e-001 -7.943330e-005 -5.474999e-005 6.930340e-001 -7.164479e-001
321375000 2.059597e-005 1.685879e-005 1.846169e-002 8.950952e-001 -6.339496e-005 -2.131907e-005 6.929610e-001 -7.184603e-001
321660000 5.248166e-005 -2.154153e-005 4.862143e-002 8.997691e-001 -1.921190e-005 -4.990141e-005 6.929180e-001 -7.190640e-001
321945000 9.203690e-006 -1.414845e-004 7.965615e-002 9.032766e-001 -2.603928e-005 -2.462401e-005 6.916454e-001 -7.189418e-001
322230000 1.088536e-004 7.383716e-005 1.109165e-001 9.059815e-001 7.790258e-005 -1.307966e-004 6.895936e-001 -7.191669e-001
322515000 -2.225965e-005 -9.232867e-005 1.434211e-001 9.068992e-001 7.987802e-005 1.201781e-005 6.896703e-001 -7.196063e-001
322800000 -6.831915e-005 -4.209304e-005 1.758701e-001 9.071273e-001 -1.639966e-005 1.705313e-007 6.913253e-001 -7.222843e-001
323085000 1.742640e-005 -1.028578e-004 2.088220e-001 9.057518e-001 -9.921255e-005 -7.582217e-005 6.901337e-001 -7.219474e-001
323370000 4.991431e-005 9.125864e-005 2.423824e-001 9.031949e-001 2.286160e-005 -2.251937e-005 6.891438e-001 -7.224735e-001
323655000 -5.741755e-005 8.357092e-007 2.758864e-001 8.995232e-001 4.742717e-005 -9.156792e-006 6.886571e-001 -7.230045e-001
323940000 -2.399482e-005 -6.229731e-005 3.104022e-001 8.943572e-001 -1.041586e-004 4.596391e-006 6.867206e-001 -7.223787e-001
324225000 -1.109680e-004 -5.923463e-005 3.443404e-001 8.874765e-001 -2.663453e-005 -5.880279e-005 6.863266e-001 -7.210373e-001
324510000 -5.902208e-005 1.735924e-005 3.788098e-001 8.791807e-001 3.117153e-005 -3.196127e-005 6.866603e-001 -7.247459e-001
324795000 -4.150770e-005 8.069654e-005 4.123032e-001 8.683968e-001 3.005202e-006 -9.383071e-005 6.863728e-001 -7.248030e-001
325080000 -5.141986e-006 -4.145086e-005 4.471173e-001 8.569608e-001 1.356975e-004 -1.006154e-005 6.852971e-001 -7.239481e-001
325365000 -6.899867e-005 -7.927429e-005 4.815778e-001 8.440361e-001 4.809118e-005 2.147283e-005 6.852854e-001 -7.243029e-001
325650000 3.340195e-005 -3.953016e-005 5.153241e-001 8.293461e-001 -7.255072e-006 4.356433e-005 6.849161e-001 -7.245243e-001
325935000 -5.507575e-005 1.100541e-005 5.487518e-001 8.128484e-001 1.758263e-005 3.513729e-005 6.845145e-001 -7.254981e-001
326220000 5.431617e-005 1.384657e-005 5.823560e-001 7.940915e-001 -2.177807e-005 1.358735e-004 6.835844e-001 -7.269796e-001
326505000 2.209245e-005 -7.565899e-005 6.149264e-001 7.750400e-001 4.805718e-005 5.600051e-005 6.828771e-001 -7.269136e-001
326790000 -5.497686e-005 1.410928e-005 6.469108e-001 7.532515e-001 -9.043165e-005 -3.777837e-005 6.834635e-001 -7.248911e-001
327075000 -8.869394e-005 6.148984e-005 6.781529e-001 7.300013e-001 -9.299057e-006 6.510180e-005 6.810253e-001 -7.272900e-001
327360000 -1.673794e-005 -8.997498e-005 7.078238e-001 7.053457e-001 -2.042361e-005 3.175209e-005 6.820454e-001 -7.287815e-001
327645000 -7.150126e-005 -1.162191e-004 7.372440e-001 6.784780e-001 1.080089e-005 -8.957140e-006 6.820021e-001 -7.290338e-001
327930000 6.613843e-005 -8.894656e-005 7.658626e-001 6.504160e-001 -7.105263e-005 -1.115587e-005 6.807886e-001 -7.284830e-001
328215000 8.965696e-005 2.194305e-005 7.921592e-001 6.208752e-001 -4.686085e-005 -5.615435e-005 6.803990e-001 -7.284514e-001
328500000 1.044002e-005 1.145830e-004 8.178002e-001 5.904343e-001 8.200151e-005 6.267865e-007 6.792371e-001 -7.291382e-001
328785000 -1.306138e-004 2.271184e-005 8.414980e-001 5.578113e-001 9.673410e-005 4.337072e-005 6.788571e-001 -7.291052e-001
329070000 -3.272805e-005 4.760077e-006 8.641213e-001 5.247297e-001 3.029010e-005 2.961609e-006 6.794256e-001 -7.296799e-001
329355000 -1.075238e-004 -5.045345e-005 8.849981e-001 4.902418e-001 -9.904985e-005 4.282574e-005 6.776198e-001 -7.307189e-001
329640000 -8.307370e-005 5.908692e-005 9.043013e-001 4.546772e-001 -8.314121e-006 -1.697889e-004 6.777935e-001 -7.310840e-001
329925000 9.593822e-005 -3.799878e-005 9.211677e-001 4.180465e-001 -5.515375e-005 4.005536e-006 6.776463e-001 -7.308245e-001
330210000 -3.909897e-005 1.680531e-005 9.370475e-001 3.807886e-001 -8.552906e-007 -5.049561e-006 6.757358e-001 -7.309189e-001
330495000 7.579828e-005 1.500387e-005 9.505105e-001 3.429210e-001 -5.327555e-005 1.319574e-006 6.757865e-001 -7.315603e-001
330780000 -5.295854e-005 -5.346624e-006 9.618334e-001 3.049181e-001 -5.487950e-005 1.106915e-005 6.757265e-001 -7.337477e-001
331065000 6.734970e-005 -3.878913e-005 9.717948e-001 2.665157e-001 3.448773e-005 -1.174762e-005 6.754607e-001 -7.316619e-001
331350000 -1.802073e-005 6.269078e-005 9.796436e-001 2.273218e-001 5.005625e-005 1.642822e-005 6.742986e-001 -7.330599e-001
331635000 -1.833828e-005 -1.868743e-005 9.859259e-001 1.879342e-001 -6.897896e-006 4.203961e-005 6.749372e-001 -7.343596e-001
331920000 1.868265e-005 4.766474e-005 9.892486e-001 1.487924e-001 3.896177e-005 2.519871e-005 6.745877e-001 -7.347240e-001
332205000 2.221097e-005 -5.599468e-006 9.914832e-001 1.099724e-001 8.119383e-007 1.325763e-004 6.724545e-001 -7.352332e-001
332490000 7.704690e-005 7.324776e-005 9.921629e-001 7.113834e-002 9.278487e-006 1.678369e-005 6.731650e-001 -7.363245e-001
332775000 -5.130498e-005 -6.465251e-006 9.905369e-001 3.230241e-002 -1.355199e-004 5.639095e-005 6.721171e-001 -7.356378e-001
333060000 1.994628e-005 3.121076e-005 9.873439e-001 -5.171819e-003 1.252425e-004 -3.152479e-005 6.723269e-001 -7.369756e-001
333345000 -1.234382e-006 -2.058168e-005 9.823047e-001 -4.312049e-002 -4.991259e-005 -6.505451e-005 6.730037e-001 -7.369334e-001
333630000 4.554074e-005 2.090390e-005 9.757475e-001 -8.004412e-002 -3.352787e-005 -7.347095e-005 6.713154e-001 -7.380406e-001
333915000 -7.144054e-005 -6.200312e-005 9.676620e-001 -1.156725e-001 -7.402565e-006 8.780502e-005 6.704113e-001 -7.370174e-001
334200000 1.772573e-006 9.630513e-006 9.582335e-001 -1.516271e-001 -4.091746e-005 6.796475e-005 6.702188e-001 -7.377012e-001
334485000 -5.585534e-005 -1.678189e-006 9.467612e-001 -1.853892e-001 4.124924e-005 6.673896e-005 6.703356e-001 -7.384732e-001
334770000 9.072488e-005 -6.500755e-005 9.347880e-001 -2.189450e-001 -2.273420e-005 1.038171e-004 6.699277e-001 -7.390146e-001
335055000 8.317786e-005 4.505667e-005 9.214822e-001 -2.514765e-001 -2.988506e-005 3.869387e-005 6.697102e-001 -7.395684e-001
335340000 -8.478527e-005 -1.325752e-005 9.064981e-001 -2.828686e-001 3.712699e-005 2.890010e-005 6.679314e-001 -7.413915e-001
335625000 -1.487187e-005 5.465350e-005 8.902795e-001 -3.128274e-001 -1.496532e-004 1.003388e-004 6.680441e-001 -7.399236e-001
335910000 -7.537106e-005 7.070390e-005 8.736559e-001 -3.427339e-001 -9.354256e-005 -1.074360e-005 6.668265e-001 -7.404534e-001
336195000 -6.607953e-005 3.086421e-005 8.556007e-001 -3.705489e-001 1.072478e-005 -8.025821e-006 6.669403e-001 -7.405061e-001
336480000 1.576615e-005 -8.741900e-005 8.374852e-001 -3.979195e-001 -1.136082e-004 1.032247e-004 6.675902e-001 -7.425023e-001
336765000 -2.780929e-005 -1.148647e-004 8.181007e-001 -4.242848e-001 1.806743e-005 1.727310e-006 6.658825e-001 -7.421611e-001
337050000 -5.632571e-005 -6.765482e-005 7.982240e-001 -4.484874e-001 9.140003e-006 -4.704521e-005 6.660792e-001 -7.430326e-001
337335000 -4.717128e-005 -5.187572e-005 7.772763e-001 -4.724480e-001 -3.149830e-005 -1.484590e-005 6.640301e-001 -7.431659e-001
337620000 -5.122294e-005 -5.470889e-006 7.563223e-001 -4.951429e-001 2.252433e-005 -6.613448e-006 6.630456e-001 -7.438552e-001
337905000 -4.292605e-005 9.632809e-005 7.352426e-001 -5.166860e-001 -3.793386e-005 -4.394514e-005 6.642075e-001 -7.418131e-001
338190000 -1.034804e-005 1.935518e-005 7.132603e-001 -5.372406e-001 -4.180300e-005 -6.087232e-005 6.635699e-001 -7.435546e-001
338475000 -5.075400e-005 1.296774e-004 6.910601e-001 -5.565754e-001 -2.141136e-005 -1.293924e-004 6.644763e-001 -7.440285e-001
338760000 -5.624913e-005 -4.919694e-005 6.685604e-001 -5.743732e-001 4.637061e-005 -4.823914e-005 6.627308e-001 -7.445288e-001
339045000 -5.732039e-005 -1.831393e-005 6.458654e-001 -5.922436e-001 4.325626e-005 3.720471e-005 6.622652e-001 -7.459124e-001
339330000 -6.448668e-005 -1.312913e-004 6.227342e-001 -6.088347e-001 2.196832e-005 -5.017685e-006 6.643888e-001 -7.452695e-001
339615000 1.779648e-005 -1.824543e-004 5.995533e-001 -6.247259e-001 2.161916e-005 -1.677727e-005 6.617334e-001 -7.463876e-001
339900000 -2.939378e-005 -4.488518e-005 5.763407e-001 -6.383754e-001 2.462723e-005 1.469718e-005 6.609416e-001 -7.466001e-001
340185000 5.891691e-006 -4.982495e-005 5.535207e-001 -6.521786e-001 -2.229069e-005 7.997290e-005 6.605213e-001 -7.472081e-001
340470000 4.624194e-005 5.397035e-005 5.299480e-001 -6.648095e-001 1.461206e-005 3.573943e-005 6.606338e-001 -7.469346e-001
340755000 5.134880e-005 -1.697626e-005 5.062566e-001 -6.767200e-001 -1.828525e-005 1.944132e-005 6.585867e-001 -7.487278e-001
341040000 -2.830123e-005 3.204720e-005 4.834370e-001 -6.877781e-001 -3.454411e-005 2.045479e-005 6.595779e-001 -7.486517e-001
341325000 -4.421138e-005 -2.860714e-005 4.592091e-001 -6.975024e-001 -2.042724e-004 -8.627889e-005 6.607105e-001 -7.483438e-001
341610000 2.069774e-005 7.037352e-006 4.364420e-001 -7.071749e-001 4.021874e-006 2.613838e-006 6.609371e-001 -7.487323e-001
341895000 -5.531272e-006 2.843153e-005 4.137260e-001 -7.158136e-001 5.374769e-006 -3.654286e-005 6.569366e-001 -7.492335e-001
342180000 -6.188063e-005 3.422922e-005 3.904964e-001 -7.238095e-001 1.973905e-005 -8.047179e-005 6.568357e-001 -7.509995e-001
342465000 -1.255167e-004 3.553347e-005 3.676866e-001 -7.313489e-001 2.126090e-005 7.026317e-005 6.558720e-001 -7.506547e-001
342750000 -1.135962e-004 -5.014362e-005 3.447532e-001 -7.377726e-001 -5.570300e-006 -1.091556e-004 6.578654e-001 -7.531431e-001
343035000 1.791040e-005 -5.473853e-005 3.221401e-001 -7.437875e-001 -2.745268e-005 -1.765229e-005 6.556201e-001 -7.517890e-001
343320000 -5.559445e-005 6.801476e-006 2.992352e-001 -7.491568e-001 1.197086e-005 -7.877365e-005 6.549639e-001 -7.512715e-001
343605000 1.187149e-005 -5.791374e-005 2.763809e-001 -7.541169e-001 8.719308e-005 2.625217e-005 6.549804e-001 -7.517958e-001
343890000 7.583476e-006 -6.139346e-005 2.548226e-001 -7.584229e-001 6.432291e-005 2.560493e-005 6.533071e-001 -7.530096e-001
