!Agilent Technologies,N5230C,SG49000117,A.08.50.07
!Agilent N5230C: A.08.50.07
!Date: Monday, May 20, 2024 21:41:42
!Correction: S11(Full 2 Port(1,2)) 
!S21(Full 2 Port(1,2)) 
!S12(Full 2 Port(1,2)) 
!S22(Full 2 Port(1,2)) 
!S2P File: Measurements: S11, S21, S12, S22:
# Hz S  MA   R 50
1000000000 1.029244e+000 -1.349281e+001 2.911639e-004 7.502663e+001 3.732776e-004 4.388912e+001 1.064806e+000 -2.991870e+001
1000150000 1.031308e+000 -1.340703e+001 2.218809e-004 2.845659e+001 8.684042e-005 -1.817575e+001 1.064213e+000 -2.998550e+001
1000300000 1.029150e+000 -1.338528e+001 1.843402e-004 -1.723885e+002 2.708251e-004 1.302640e+002 1.063728e+000 -2.992811e+001
1000450000 1.028971e+000 -1.340020e+001 1.232698e-004 -1.432018e+002 1.979979e-004 -1.557512e+002 1.062623e+000 -2.998299e+001
1000600000 1.029850e+000 -1.344097e+001 8.941628e-005 1.379632e+002 4.066072e-004 9.359724e+001 1.062608e+000 -3.003059e+001
1000750000 1.030697e+000 -1.349626e+001 2.181217e-004 -9.216081e+001 3.408862e-004 1.553311e+002 1.065544e+000 -3.000868e+001
1000900000 1.028894e+000 -1.342620e+001 2.092458e-004 -1.747862e+002 2.278691e-004 8.718851e+001 1.063234e+000 -2.995083e+001
1001050000 1.030862e+000 -1.342162e+001 9.605898e-005 1.068356e+002 3.440134e-004 2.036352e+001 1.064431e+000 -3.000144e+001
1001200000 1.031320e+000 -1.349530e+001 4.389201e-004 7.713156e+001 5.181481e-004 -1.586226e+002 1.063263e+000 -2.996980e+001
1001350000 1.029954e+000 -1.354244e+001 1.737285e-004 9.444512e+001 4.987908e-004 1.320761e+002 1.063162e+000 -2.991819e+001
1001500000 1.029683e+000 -1.342536e+001 1.646142e-004 1.200097e+002 7.909592e-004 1.031873e+002 1.063249e+000 -2.985139e+001
1001650000 1.029500e+000 -1.342424e+001 3.559397e-004 7.597915e+001 4.273959e-004 1.277086e+002 1.062748e+000 -2.983290e+001
1001800000 1.029425e+000 -1.346367e+001 4.110395e-004 1.690074e+002 3.585684e-004 8.349844e+001 1.064611e+000 -2.995810e+001
1001950000 1.029738e+000 -1.347356e+001 4.757402e-004 7.921143e+001 5.476652e-004 1.892096e-001 1.064169e+000 -3.011092e+001
1002100000 1.027977e+000 -1.346670e+001 3.430681e-004 -9.882098e+001 3.779890e-004 1.006717e+002 1.063694e+000 -3.009040e+001
1002250000 1.029112e+000 -1.350747e+001 1.088809e-004 -1.268845e+002 4.993909e-005 6.777864e+001 1.062611e+000 -3.004239e+001
1002400000 1.029018e+000 -1.358805e+001 1.329255e-004 4.886343e+001 1.266562e-004 1.771496e+002 1.063356e+000 -3.011537e+001
1002550000 1.028417e+000 -1.345768e+001 5.259781e-005 3.820552e+001 5.265275e-004 8.931926e+001 1.063887e+000 -3.001681e+001
1002700000 1.029938e+000 -1.345322e+001 1.254665e-004 -1.736372e+001 7.257095e-004 1.573208e+002 1.064640e+000 -3.007138e+001
1002850000 1.030743e+000 -1.347281e+001 2.534183e-004 5.164210e+001 2.922228e-004 8.277940e+001 1.063314e+000 -3.000025e+001
1003000000 1.030593e+000 -1.356042e+001 3.613511e-004 9.489260e+001 5.137488e-004 1.742122e+002 1.065451e+000 -3.000621e+001
1003150000 1.030658e+000 -1.347718e+001 1.529543e-004 1.422879e+001 2.970990e-004 3.097573e+001 1.062368e+000 -2.995847e+001
1003300000 1.030167e+000 -1.344574e+001 9.655506e-005 1.173893e+001 6.764562e-004 1.153213e+002 1.063345e+000 -3.003536e+001
1003450000 1.031629e+000 -1.348463e+001 8.782385e-005 1.005772e+002 3.484276e-004 -8.392851e+000 1.063331e+000 -3.009385e+001
1003600000 1.031559e+000 -1.344054e+001 1.804534e-004 3.941689e+001 5.413054e-004 1.022773e+002 1.061713e+000 -3.009762e+001
1003750000 1.030822e+000 -1.345955e+001 1.824119e-004 1.520740e+002 3.623397e-004 2.268449e+001 1.063855e+000 -3.005192e+001
1003900000 1.032204e+000 -1.342897e+001 1.666633e-004 -4.019067e+001 2.049787e-004 1.632613e+002 1.064196e+000 -3.004025e+001
1004050000 1.031163e+000 -1.349794e+001 1.451346e-004 1.798024e+002 6.981068e-004 1.016302e+002 1.062317e+000 -2.997548e+001
1004200000 1.029034e+000 -1.343985e+001 3.095101e-004 -1.422756e+002 3.094547e-004 1.178056e+002 1.063186e+000 -2.998134e+001
1004350000 1.029383e+000 -1.340915e+001 2.242847e-004 3.492077e+001 6.555963e-004 1.522683e+002 1.063385e+000 -3.006034e+001
1004500000 1.028454e+000 -1.343888e+001 2.407050e-004 6.747292e+001 5.643401e-004 4.437083e+001 1.062633e+000 -2.995423e+001
1004650000 1.031040e+000 -1.346497e+001 1.598551e-004 -1.582952e+002 2.802821e-004 4.664256e+001 1.063731e+000 -2.998325e+001
1004800000 1.029552e+000 -1.344156e+001 1.246781e-004 1.162551e+002 6.348882e-004 3.299609e+001 1.061653e+000 -2.994759e+001
1004950000 1.029590e+000 -1.346312e+001 2.222333e-004 6.921754e+001 1.829497e-004 -1.084370e+001 1.065830e+000 -3.008249e+001
1005100000 1.030188e+000 -1.346612e+001 1.479359e-004 9.553731e+001 3.500541e-004 3.093982e+001 1.062750e+000 -3.005470e+001
1005250000 1.029695e+000 -1.342983e+001 2.164122e-004 1.664655e+002 5.245392e-004 -2.351648e+001 1.064057e+000 -2.987556e+001
1005400000 1.030335e+000 -1.348097e+001 4.211672e-004 1.394511e+001 4.379452e-004 5.389783e+001 1.065475e+000 -3.005203e+001
1005550000 1.029538e+000 -1.341796e+001 3.951858e-004 1.143985e+002 6.574251e-004 7.591390e+001 1.064758e+000 -3.004728e+001
1005700000 1.030390e+000 -1.350667e+001 3.351529e-004 5.309170e+001 4.030796e-004 -1.787903e+002 1.065144e+000 -3.010526e+001
1005850000 1.031483e+000 -1.348822e+001 3.038517e-004 3.076047e+000 3.109386e-004 1.529331e+002 1.066449e+000 -3.005164e+001
1006000000 1.030039e+000 -1.352244e+001 1.973577e-004 -1.343594e+002 4.448673e-004 1.867313e+001 1.062659e+000 -3.013640e+001
1006150000 1.029340e+000 -1.349661e+001 2.914424e-004 1.129897e+002 3.778992e-004 6.289796e+001 1.062990e+000 -3.012107e+001
1006300000 1.030176e+000 -1.347248e+001 1.109732e-004 1.265907e+002 1.580619e-004 -5.264434e+001 1.066310e+000 -2.993637e+001
1006450000 1.030058e+000 -1.351839e+001 9.564191e-005 1.562141e+002 5.110605e-004 -3.456710e+001 1.065372e+000 -3.015517e+001
1006600000 1.030363e+000 -1.352721e+001 8.127132e-005 -1.319330e+002 4.212346e-004 -1.455308e+001 1.064830e+000 -2.994619e+001
1006750000 1.030825e+000 -1.361553e+001 6.066801e-005 -1.619235e+002 5.419934e-004 1.096773e+002 1.064406e+000 -3.000218e+001
1006900000 1.030165e+000 -1.357781e+001 2.147834e-004 1.392908e+002 2.761816e-004 1.510378e+002 1.064064e+000 -2.994060e+001
1007050000 1.032537e+000 -1.354991e+001 1.064697e-004 1.614599e+002 2.435933e-004 4.625908e+001 1.064629e+000 -3.008746e+001
1007200000 1.030438e+000 -1.352348e+001 4.926761e-004 1.125498e+002 1.915633e-004 6.630920e+001 1.065009e+000 -3.013874e+001
1007350000 1.030797e+000 -1.352293e+001 1.338763e-004 7.710697e+001 2.675786e-004 1.286650e+002 1.065489e+000 -2.996698e+001
1007500000 1.030053e+000 -1.346427e+001 2.837800e-004 7.408569e+001 3.574333e-004 4.218749e+001 1.061936e+000 -2.996105e+001
1007650000 1.029109e+000 -1.364902e+001 3.280303e-004 1.391859e+002 3.205885e-004 7.871917e+001 1.061671e+000 -3.026427e+001
1007800000 1.028294e+000 -1.355072e+001 2.450563e-004 1.147380e+002 8.408324e-004 1.389377e+002 1.063440e+000 -3.029441e+001
1007950000 1.029102e+000 -1.353340e+001 1.813528e-004 6.550262e+001 1.354506e-004 -1.567455e+002 1.063586e+000 -3.028173e+001
1008100000 1.029743e+000 -1.358084e+001 2.463521e-004 7.636274e+001 6.324848e-004 7.624265e+001 1.062649e+000 -3.031123e+001
1008250000 1.030294e+000 -1.356513e+001 2.983744e-004 9.671893e+001 6.565990e-004 -2.051320e+001 1.061074e+000 -3.018718e+001
1008400000 1.029789e+000 -1.357436e+001 3.440535e-004 8.510167e+001 5.702537e-004 5.885929e+001 1.061857e+000 -3.029348e+001
1008550000 1.029886e+000 -1.355969e+001 1.156050e-004 -3.324561e+001 8.979074e-004 1.275241e+002 1.064713e+000 -3.040674e+001
1008700000 1.030316e+000 -1.353972e+001 3.726062e-004 1.298606e+002 5.214295e-005 1.233392e+002 1.066879e+000 -3.029292e+001
1008850000 1.031387e+000 -1.355686e+001 3.082084e-004 4.781373e+001 1.376254e-004 -8.917913e+001 1.063568e+000 -3.019936e+001
1009000000 1.029730e+000 -1.354060e+001 1.597347e-004 -1.163859e+002 4.796309e-004 -1.658460e+002 1.064128e+000 -3.010305e+001
1009150000 1.030849e+000 -1.345891e+001 3.270445e-004 7.104796e+000 9.557442e-004 1.551219e+002 1.063911e+000 -3.025040e+001
1009300000 1.029201e+000 -1.354320e+001 3.079626e-004 3.336398e+001 5.016169e-004 7.301063e+001 1.064912e+000 -3.023100e+001
1009450000 1.027930e+000 -1.356609e+001 1.592665e-004 1.452156e+002 5.280390e-004 9.007828e+001 1.067040e+000 -3.012891e+001
1009600000 1.030377e+000 -1.354551e+001 2.726149e-004 7.077784e+001 1.058743e-004 9.697298e+001 1.063738e+000 -3.024430e+001
1009750000 1.029536e+000 -1.363290e+001 3.990150e-004 3.205846e+001 9.689113e-005 6.881269e+001 1.062739e+000 -3.028882e+001
1009900000 1.030825e+000 -1.351867e+001 5.645776e-004 -8.912256e+000 1.626993e-004 7.283888e+001 1.065154e+000 -3.031230e+001
1010050000 1.029639e+000 -1.359183e+001 2.457548e-004 1.085267e+002 4.754100e-004 1.021771e+002 1.063987e+000 -3.018028e+001
1010200000 1.030107e+000 -1.363115e+001 3.948396e-004 8.055945e+001 9.876561e-004 3.588936e+001 1.065250e+000 -3.022038e+001
1010350000 1.030712e+000 -1.364180e+001 9.077847e-005 7.440025e+001 4.639053e-004 1.345694e+001 1.067142e+000 -3.029983e+001
1010500000 1.029745e+000 -1.372839e+001 1.924485e-004 9.583195e+001 6.521365e-004 1.422250e+002 1.064327e+000 -3.038118e+001
1010650000 1.031459e+000 -1.368314e+001 1.846794e-004 1.465246e+001 4.345718e-004 1.329458e+002 1.063531e+000 -3.021979e+001
1010800000 1.030792e+000 -1.368126e+001 2.172935e-004 1.294447e+002 3.896440e-004 1.607359e+002 1.063487e+000 -3.025377e+001
1010950000 1.029466e+000 -1.362075e+001 1.675911e-004 1.076913e+002 5.499470e-004 7.941335e+001 1.062996e+000 -3.019516e+001
1011100000 1.029233e+000 -1.360755e+001 2.806172e-004 8.842621e+001 5.432030e-004 1.320106e+002 1.061010e+000 -3.022477e+001
1011250000 1.030801e+000 -1.358021e+001 2.368741e-004 6.481317e+001 1.271316e-004 -1.579807e+002 1.062889e+000 -3.016593e+001
1011400000 1.031204e+000 -1.357915e+001 2.561219e-004 7.794668e+001 8.185017e-004 3.027594e+001 1.063639e+000 -3.037041e+001
1011550000 1.029354e+000 -1.362815e+001 3.736745e-004 4.728918e+001 1.683072e-004 8.637571e+001 1.062824e+000 -3.017276e+001
1011700000 1.030138e+000 -1.360601e+001 2.323276e-004 9.279516e+001 5.810139e-004 7.290392e+001 1.062916e+000 -3.032412e+001
1011850000 1.031282e+000 -1.364645e+001 7.865056e-005 -5.822240e+001 2.025238e-004 9.196384e+001 1.063594e+000 -3.031140e+001
1012000000 1.030653e+000 -1.369248e+001 3.461077e-004 7.215370e+001 4.617803e-004 3.284984e+001 1.064337e+000 -3.042671e+001
1012150000 1.029334e+000 -1.364166e+001 3.827511e-004 1.236191e+002 5.621568e-004 -1.695319e+001 1.066958e+000 -3.029382e+001
1012300000 1.030070e+000 -1.366535e+001 1.984134e-004 1.626274e+002 2.460131e-004 -1.283775e+002 1.064041e+000 -3.037033e+001
1012450000 1.029908e+000 -1.366027e+001 1.480475e-004 6.793864e+001 1.299902e-004 6.704985e+001 1.065062e+000 -3.007798e+001
1012600000 1.029028e+000 -1.364422e+001 2.748749e-004 1.544541e+002 3.057444e-004 1.204063e+002 1.065788e+000 -3.016343e+001
1012750000 1.030441e+000 -1.367010e+001 3.083308e-004 3.877521e+001 2.346965e-004 1.602378e+002 1.066369e+000 -3.014308e+001
1012900000 1.028901e+000 -1.360113e+001 2.870238e-004 8.652330e+001 1.665766e-004 1.159692e+002 1.064533e+000 -3.025166e+001
1013050000 1.029956e+000 -1.360677e+001 1.034982e-004 -5.301368e+001 1.372709e-003 7.613015e+001 1.062783e+000 -3.020857e+001
1013200000 1.029909e+000 -1.368779e+001 2.720489e-004 -1.161677e+002 5.086923e-004 -1.328884e+001 1.061069e+000 -3.029288e+001
1013350000 1.028962e+000 -1.366645e+001 1.095988e-004 -3.667976e+001 1.424379e-004 -9.758564e+000 1.063930e+000 -3.012600e+001
1013500000 1.028530e+000 -1.370875e+001 2.175538e-004 1.371385e+002 5.352754e-004 -1.669365e+002 1.061616e+000 -3.031408e+001
1013650000 1.029508e+000 -1.362025e+001 3.314890e-004 5.962353e+001 9.255913e-005 1.195818e+002 1.062407e+000 -3.028556e+001
1013800000 1.030003e+000 -1.372018e+001 3.437697e-004 8.948560e+001 5.106242e-004 6.831429e+001 1.061503e+000 -3.038247e+001
1013950000 1.029849e+000 -1.359770e+001 6.482463e-005 1.179650e+002 2.537559e-004 -1.754295e+002 1.062141e+000 -3.036732e+001
1014100000 1.029194e+000 -1.365411e+001 8.779344e-005 1.698449e+002 2.957936e-004 1.122703e+002 1.064885e+000 -3.037448e+001
1014250000 1.031318e+000 -1.373690e+001 2.469860e-004 7.791161e+001 1.931077e-004 1.319021e+002 1.065127e+000 -3.033131e+001
1014400000 1.029575e+000 -1.376097e+001 1.062475e-004 8.472709e+001 3.765826e-004 5.523186e+001 1.065728e+000 -3.039360e+001
1014550000 1.030419e+000 -1.364526e+001 9.332402e-005 -1.752702e+002 1.857912e-004 5.705000e+001 1.064574e+000 -3.031406e+001
1014700000 1.029984e+000 -1.373746e+001 1.272801e-004 7.112485e+001 5.280437e-004 5.500319e+001 1.064936e+000 -3.039886e+001
1014850000 1.030167e+000 -1.372106e+001 3.848144e-004 8.706718e+001 3.436083e-004 8.584904e+001 1.064581e+000 -3.040656e+001
1015000000 1.031028e+000 -1.361187e+001 4.088122e-004 5.706495e+001 7.739450e-004 9.475904e+001 1.067029e+000 -3.037693e+001
1015150000 1.030106e+000 -1.374903e+001 1.536785e-004 9.632394e+001 8.273698e-004 6.869740e+001 1.064729e+000 -3.029560e+001
1015300000 1.030513e+000 -1.372684e+001 1.904646e-004 9.085425e+001 3.141626e-004 -5.544810e-001 1.064406e+000 -3.032879e+001
1015450000 1.029493e+000 -1.383292e+001 1.686352e-004 1.390859e+002 5.384433e-004 2.412424e+001 1.062525e+000 -3.029307e+001
1015600000 1.031181e+000 -1.370691e+001 1.255987e-004 -4.600070e+001 3.658402e-004 1.407075e+002 1.063807e+000 -3.042002e+001
1015750000 1.030456e+000 -1.376009e+001 1.603010e-004 7.585563e+001 4.488653e-004 1.092370e+002 1.062103e+000 -3.047321e+001
1015900000 1.029692e+000 -1.363381e+001 2.212393e-004 1.605464e+002 8.101941e-004 6.105067e+001 1.061440e+000 -3.041178e+001
1016050000 1.030333e+000 -1.373793e+001 2.585353e-004 1.124703e+002 5.152884e-004 -9.898154e+001 1.058664e+000 -3.029982e+001
1016200000 1.031175e+000 -1.376270e+001 4.268917e-004 8.155022e+001 3.833210e-004 -3.608098e+001 1.061919e+000 -3.034491e+001
1016350000 1.030934e+000 -1.375942e+001 1.120730e-004 2.630339e+001 8.406870e-004 -1.379938e+001 1.059358e+000 -3.022195e+001
1016500000 1.029694e+000 -1.370097e+001 1.376998e-004 7.754084e+001 3.446453e-005 1.237595e+001 1.061680e+000 -3.031187e+001
1016650000 1.031327e+000 -1.366463e+001 4.304442e-004 1.090691e+002 5.507040e-004 4.517333e+001 1.063350e+000 -3.029692e+001
1016800000 1.031877e+000 -1.369934e+001 3.333692e-004 1.637548e+002 3.765758e-004 -3.491805e+001 1.062795e+000 -3.040460e+001
1016950000 1.030928e+000 -1.371283e+001 4.016299e-004 8.623012e+001 5.119749e-004 1.586562e+002 1.067121e+000 -3.037397e+001
1017100000 1.030694e+000 -1.368914e+001 3.392399e-004 4.473274e+001 7.463339e-004 1.675115e+002 1.063909e+000 -3.029425e+001
1017250000 1.032525e+000 -1.375511e+001 4.429364e-004 8.657640e+000 6.958109e-004 -8.080515e+001 1.065741e+000 -3.026054e+001
1017400000 1.030369e+000 -1.370780e+001 3.344839e-004 1.429020e+002 2.915712e-004 5.280932e+001 1.066946e+000 -3.036430e+001
1017550000 1.029789e+000 -1.366175e+001 2.072106e-004 -1.723806e+002 2.172627e-004 5.587899e+001 1.066761e+000 -3.041451e+001
1017700000 1.030307e+000 -1.383663e+001 1.287720e-004 7.008586e+001 5.602353e-004 1.050038e+002 1.064814e+000 -3.035893e+001
1017850000 1.030305e+000 -1.373858e+001 1.903978e-004 1.440659e+001 8.847876e-004 6.828286e+001 1.065941e+000 -3.029746e+001
1018000000 1.030510e+000 -1.380617e+001 3.325359e-004 4.884626e+001 2.745844e-004 -9.599347e-001 1.065788e+000 -3.043338e+001
1018150000 1.029722e+000 -1.379721e+001 4.024796e-004 1.087155e+002 2.714907e-004 -6.016464e+001 1.065036e+000 -3.044925e+001
1018300000 1.030853e+000 -1.379697e+001 1.596504e-004 5.366969e+001 2.705532e-004 -4.570212e+001 1.063328e+000 -3.033319e+001
1018450000 1.029988e+000 -1.373128e+001 2.353463e-004 9.581084e+001 4.158327e-004 1.021487e+002 1.066397e+000 -3.036671e+001
1018600000 1.030895e+000 -1.380818e+001 3.873349e-004 4.376865e+001 5.409014e-004 1.029417e+002 1.063916e+000 -3.044408e+001
1018750000 1.030175e+000 -1.387085e+001 9.663506e-005 1.181939e+002 6.195704e-004 1.051064e+002 1.064680e+000 -3.051047e+001
1018900000 1.031384e+000 -1.373809e+001 1.463593e-004 -6.899034e+000 1.198298e-004 1.587246e+002 1.063161e+000 -3.026394e+001
1019050000 1.030748e+000 -1.378193e+001 3.416714e-004 5.720170e+001 3.746464e-004 6.347197e+001 1.065562e+000 -3.034867e+001
1019200000 1.030812e+000 -1.378040e+001 2.886458e-004 1.098405e+002 5.701244e-004 8.869027e+000 1.064269e+000 -3.039962e+001
1019350000 1.031680e+000 -1.386294e+001 3.113264e-004 9.501321e+001 5.115828e-004 1.054495e+002 1.066042e+000 -3.053306e+001
1019500000 1.030313e+000 -1.384436e+001 3.441832e-004 5.634544e+001 3.012927e-004 4.901786e+001 1.066844e+000 -3.061007e+001
1019650000 1.030218e+000 -1.382011e+001 2.998511e-004 2.723391e+001 6.966749e-004 3.351542e+001 1.062092e+000 -3.058915e+001
1019800000 1.030351e+000 -1.383772e+001 2.613026e-004 9.492375e+001 4.229601e-004 2.758591e+000 1.062572e+000 -3.030237e+001
1019950000 1.030709e+000 -1.381361e+001 2.072050e-004 1.656892e+002 4.451757e-004 7.381793e+001 1.063418e+000 -3.053820e+001
1020100000 1.030417e+000 -1.384515e+001 1.914563e-004 4.106113e+001 5.644955e-004 2.998004e+001 1.060824e+000 -3.055637e+001
1020250000 1.031960e+000 -1.379444e+001 2.535040e-005 1.016947e+002 3.977345e-004 4.065757e+001 1.064687e+000 -3.042768e+001
1020400000 1.030093e+000 -1.387632e+001 1.501255e-004 1.617114e+002 1.542932e-004 7.278269e+001 1.063755e+000 -3.062049e+001
1020550000 1.030584e+000 -1.388861e+001 9.108255e-005 4.957755e+001 2.347657e-004 3.597160e+000 1.065772e+000 -3.050132e+001
1020700000 1.031068e+000 -1.381961e+001 3.717933e-004 7.955519e+001 2.671757e-004 -1.345984e+002 1.067727e+000 -3.055616e+001
1020850000 1.030315e+000 -1.384747e+001 2.921461e-004 6.953780e+001 5.095418e-004 6.691582e+001 1.068944e+000 -3.052621e+001
1021000000 1.029796e+000 -1.390026e+001 1.697528e-004 3.127565e+001 4.914310e-004 7.269806e+001 1.071124e+000 -3.046947e+001
1021150000 1.029518e+000 -1.384158e+001 2.507033e-004 1.109208e+002 1.058011e-003 4.987462e+001 1.067761e+000 -3.047742e+001
1021300000 1.029245e+000 -1.375111e+001 2.275085e-004 1.437732e+002 5.311980e-004 7.986047e+001 1.066202e+000 -3.052789e+001
1021450000 1.029248e+000 -1.381495e+001 4.160432e-004 7.769959e+001 2.219762e-004 -1.916470e+001 1.065038e+000 -3.047575e+001
1021600000 1.028786e+000 -1.377491e+001 1.708561e-004 1.187058e+002 3.547493e-004 6.389471e+001 1.065466e+000 -3.052859e+001
1021750000 1.028221e+000 -1.374675e+001 1.827240e-004 1.161377e+002 3.364559e-004 1.464337e+002 1.061787e+000 -3.056346e+001
1021900000 1.029349e+000 -1.381482e+001 2.946265e-004 1.009001e+002 2.415440e-004 8.077997e+001 1.063181e+000 -3.060233e+001
1022050000 1.030110e+000 -1.374254e+001 2.973673e-004 5.272957e+001 3.873166e-004 6.703452e+001 1.065231e+000 -3.060148e+001
1022200000 1.029694e+000 -1.378948e+001 2.396137e-004 4.215052e+001 4.560635e-004 4.520169e+001 1.065465e+000 -3.057650e+001
1022350000 1.030675e+000 -1.381263e+001 1.203334e-004 8.762052e+001 3.466244e-004 -1.595699e+002 1.065718e+000 -3.063150e+001
1022500000 1.030237e+000 -1.385035e+001 1.486749e-004 1.632478e+002 7.481396e-004 4.289877e+001 1.066155e+000 -3.046052e+001
1022650000 1.031386e+000 -1.378500e+001 7.440822e-005 1.613675e+002 1.595191e-004 5.450852e+001 1.068506e+000 -3.057896e+001
1022800000 1.031662e+000 -1.380058e+001 3.457109e-004 4.710363e+001 3.610241e-004 -4.522387e+001 1.068396e+000 -3.049092e+001
1022950000 1.030546e+000 -1.378102e+001 4.416777e-004 4.683128e+001 8.383548e-004 3.787450e+001 1.067777e+000 -3.047796e+001
1023100000 1.030658e+000 -1.386227e+001 6.325276e-005 -1.138070e+002 5.186899e-004 -1.399639e+001 1.064666e+000 -3.053308e+001
