!Agilent Technologies,N5230C,SG49000117,A.08.50.07
!Agilent N5230C: A.08.50.07
!Date: Monday, May 20, 2024 21:32:30
!Correction: S11(Full 2 Port(1,2)) 
!S21(Full 2 Port(1,2)) 
!S12(Full 2 Port(1,2)) 
!S22(Full 2 Port(1,2)) 
!S2P File: Measurements: S11, S21, S12, S22:
# Hz S  MA   R 50
1000000000 1.029938e+000 -1.344604e+001 8.150637e-004 7.522691e+001 1.043506e-003 6.494287e+001 1.062415e+000 -3.002253e+001
1000150000 1.030652e+000 -1.343741e+001 7.452788e-004 9.055376e+001 1.438385e-003 6.895679e+001 1.063053e+000 -2.998437e+001
1000300000 1.030110e+000 -1.351907e+001 4.921040e-004 7.567100e+001 9.199323e-004 5.673233e+001 1.063792e+000 -2.994253e+001
1000450000 1.030370e+000 -1.346707e+001 5.316783e-004 7.697176e+001 1.207021e-003 7.104821e+001 1.062003e+000 -3.003926e+001
1000600000 1.029813e+000 -1.345799e+001 4.934898e-004 9.440967e+001 1.393666e-003 7.242433e+001 1.063263e+000 -3.004257e+001
1000750000 1.029301e+000 -1.344881e+001 7.069490e-004 9.314589e+001 1.305697e-003 9.005434e+001 1.063104e+000 -3.009092e+001
1000900000 1.029751e+000 -1.338879e+001 7.051640e-004 9.946837e+001 2.183082e-003 1.012008e+002 1.063019e+000 -2.995041e+001
1001050000 1.028647e+000 -1.341248e+001 5.549602e-004 9.283465e+001 1.419779e-003 6.953999e+001 1.062278e+000 -3.007581e+001
1001200000 1.030032e+000 -1.343003e+001 5.325363e-004 7.249594e+001 1.376809e-003 6.685021e+001 1.063289e+000 -3.005370e+001
1001350000 1.029834e+000 -1.343931e+001 5.606132e-004 7.738281e+001 1.290878e-003 5.618791e+001 1.063278e+000 -2.997683e+001
1001500000 1.029291e+000 -1.343482e+001 7.317383e-004 7.121241e+001 1.442311e-003 5.155941e+001 1.062763e+000 -2.990011e+001
1001650000 1.027221e+000 -1.341439e+001 8.416683e-004 9.662585e+001 9.457050e-004 8.377198e+001 1.064625e+000 -2.987755e+001
1001800000 1.028297e+000 -1.350967e+001 5.297641e-004 7.645083e+001 7.219739e-004 8.160861e+001 1.065484e+000 -3.002278e+001
1001950000 1.028899e+000 -1.352516e+001 6.395880e-004 1.086944e+002 8.545950e-004 6.646843e+001 1.063106e+000 -3.004557e+001
1002100000 1.028282e+000 -1.347138e+001 6.942088e-004 7.130846e+001 7.566102e-004 6.895039e+001 1.064028e+000 -3.003101e+001
1002250000 1.027896e+000 -1.347906e+001 8.153978e-004 8.388804e+001 1.609808e-003 5.621606e+001 1.062189e+000 -3.014799e+001
1002400000 1.028774e+000 -1.343898e+001 4.629761e-004 6.234080e+001 1.492986e-003 7.812382e+001 1.062516e+000 -3.011455e+001
1002550000 1.030295e+000 -1.351057e+001 8.462886e-004 8.407818e+001 1.265286e-003 7.770989e+001 1.062829e+000 -3.002479e+001
1002700000 1.028688e+000 -1.351021e+001 8.460038e-004 9.420987e+001 1.490617e-003 5.651630e+001 1.062509e+000 -3.011208e+001
1002850000 1.029308e+000 -1.349881e+001 7.051615e-004 8.941331e+001 1.790622e-003 7.290905e+001 1.063069e+000 -3.011494e+001
1003000000 1.030008e+000 -1.354610e+001 5.326876e-004 8.242680e+001 5.990832e-004 6.098394e+001 1.062639e+000 -3.001254e+001
1003150000 1.030195e+000 -1.342461e+001 3.441913e-004 6.758293e+001 1.620430e-003 5.267096e+001 1.063178e+000 -2.995986e+001
1003300000 1.030791e+000 -1.342666e+001 5.405367e-004 8.205820e+001 1.417835e-003 7.112500e+001 1.062130e+000 -2.994551e+001
1003450000 1.030972e+000 -1.348845e+001 9.195756e-004 9.688862e+001 1.016709e-003 6.335655e+001 1.061464e+000 -3.007843e+001
1003600000 1.030727e+000 -1.342382e+001 7.393029e-004 8.837574e+001 7.985924e-004 3.358932e+001 1.062828e+000 -2.997087e+001
1003750000 1.030460e+000 -1.351010e+001 6.263399e-004 8.023086e+001 9.696619e-004 9.338873e+001 1.062379e+000 -3.009173e+001
1003900000 1.029760e+000 -1.348970e+001 8.609156e-004 8.585191e+001 1.085967e-003 6.516967e+001 1.061647e+000 -2.995282e+001
1004050000 1.030855e+000 -1.349669e+001 6.239701e-004 7.523086e+001 1.088455e-003 6.102039e+001 1.061828e+000 -3.005816e+001
1004200000 1.029091e+000 -1.346534e+001 4.259704e-004 5.767932e+001 1.114035e-003 6.036672e+001 1.062960e+000 -3.000517e+001
1004350000 1.029256e+000 -1.351022e+001 6.832400e-004 7.197207e+001 1.418198e-003 5.771201e+001 1.065086e+000 -3.013479e+001
1004500000 1.029308e+000 -1.355424e+001 1.139296e-003 9.392611e+001 1.105076e-003 7.980078e+001 1.063624e+000 -3.002559e+001
1004650000 1.028491e+000 -1.344351e+001 8.958398e-004 8.580625e+001 1.385328e-003 7.051355e+001 1.061687e+000 -3.007251e+001
1004800000 1.029405e+000 -1.342863e+001 3.910144e-004 8.378419e+001 1.365400e-003 4.317887e+001 1.060879e+000 -3.003141e+001
1004950000 1.029382e+000 -1.347832e+001 7.464760e-004 9.645475e+001 1.362995e-003 8.355079e+001 1.062780e+000 -3.000770e+001
1005100000 1.029324e+000 -1.347213e+001 5.716371e-004 9.913107e+001 1.192528e-003 5.488858e+001 1.063680e+000 -3.011194e+001
1005250000 1.030996e+000 -1.345766e+001 7.850899e-004 5.339893e+001 7.646185e-004 6.036794e+001 1.062850e+000 -3.000078e+001
1005400000 1.029422e+000 -1.346150e+001 5.698633e-004 6.079005e+001 1.281510e-003 7.228618e+001 1.065420e+000 -3.009741e+001
1005550000 1.030428e+000 -1.348658e+001 5.435601e-004 8.348331e+001 1.269866e-003 8.517468e+001 1.063219e+000 -3.009538e+001
1005700000 1.030798e+000 -1.345746e+001 7.271781e-004 9.042054e+001 1.468296e-003 7.232482e+001 1.066925e+000 -3.020483e+001
1005850000 1.031739e+000 -1.357150e+001 5.861050e-004 7.629221e+001 1.216104e-003 9.008077e+001 1.063480e+000 -3.021414e+001
1006000000 1.031806e+000 -1.350086e+001 8.303172e-004 8.323759e+001 1.123881e-003 9.083361e+001 1.063802e+000 -3.017386e+001
1006150000 1.029654e+000 -1.352463e+001 6.889463e-004 5.848027e+001 1.425646e-003 5.263250e+001 1.063342e+000 -3.014283e+001
1006300000 1.029985e+000 -1.350841e+001 6.459386e-004 8.005088e+001 1.058087e-003 6.291547e+001 1.063730e+000 -3.021928e+001
1006450000 1.030915e+000 -1.344754e+001 7.593675e-004 8.152641e+001 1.800038e-003 6.053440e+001 1.065499e+000 -3.012646e+001
1006600000 1.030396e+000 -1.357538e+001 7.804279e-004 8.846345e+001 8.048902e-004 4.914863e+001 1.063831e+000 -3.001722e+001
1006750000 1.030507e+000 -1.358989e+001 6.092934e-004 9.860896e+001 1.513468e-003 8.456363e+001 1.062137e+000 -3.001299e+001
1006900000 1.031397e+000 -1.352072e+001 7.398275e-004 6.027356e+001 9.449308e-004 1.027773e+002 1.064563e+000 -2.999214e+001
1007050000 1.030758e+000 -1.353090e+001 5.821854e-004 7.291965e+001 1.536804e-003 9.664756e+001 1.061363e+000 -3.001093e+001
1007200000 1.031384e+000 -1.354969e+001 7.541504e-004 9.475477e+001 1.180623e-003 8.829713e+001 1.062039e+000 -3.013096e+001
1007350000 1.031925e+000 -1.356457e+001 7.882675e-004 7.560576e+001 1.290221e-003 8.549587e+001 1.061648e+000 -3.014809e+001
1007500000 1.031053e+000 -1.345010e+001 6.571063e-004 7.885291e+001 1.665382e-003 6.353024e+001 1.062204e+000 -3.017270e+001
1007650000 1.029155e+000 -1.353615e+001 6.049914e-004 9.237254e+001 1.011893e-003 7.846259e+001 1.065261e+000 -3.013337e+001
1007800000 1.030130e+000 -1.354753e+001 5.935600e-004 7.182558e+001 9.750534e-004 4.894603e+001 1.060385e+000 -3.025786e+001
1007950000 1.029565e+000 -1.357991e+001 6.288244e-004 7.433885e+001 1.493147e-003 5.444858e+001 1.060977e+000 -3.032330e+001
1008100000 1.029486e+000 -1.357384e+001 1.009310e-003 9.369711e+001 1.387002e-003 3.948996e+001 1.062876e+000 -3.024628e+001
1008250000 1.028998e+000 -1.357362e+001 5.930801e-004 7.144952e+001 1.168851e-003 6.190266e+001 1.063557e+000 -3.042768e+001
1008400000 1.030403e+000 -1.361568e+001 5.219114e-004 7.365546e+001 1.017207e-003 5.508551e+001 1.060997e+000 -3.032829e+001
1008550000 1.030510e+000 -1.363507e+001 7.285870e-004 8.822579e+001 1.305182e-003 8.697181e+001 1.062697e+000 -3.023857e+001
1008700000 1.030666e+000 -1.354189e+001 8.054927e-004 1.005234e+002 3.702125e-004 8.207607e+001 1.061824e+000 -3.019015e+001
1008850000 1.031358e+000 -1.361474e+001 4.888994e-004 8.842274e+001 8.467796e-004 5.685246e+001 1.062268e+000 -3.025368e+001
1009000000 1.030720e+000 -1.348993e+001 8.137886e-004 7.322166e+001 1.401646e-003 7.932426e+001 1.063876e+000 -3.016719e+001
1009150000 1.030343e+000 -1.346025e+001 6.669257e-004 8.736058e+001 1.499995e-003 5.541616e+001 1.064876e+000 -3.034450e+001
1009300000 1.029920e+000 -1.349355e+001 8.180988e-004 6.610073e+001 8.018791e-004 6.289458e+001 1.063445e+000 -3.022751e+001
1009450000 1.029891e+000 -1.362496e+001 5.975519e-004 6.863327e+001 1.048474e-003 8.366676e+001 1.064155e+000 -3.020724e+001
1009600000 1.029936e+000 -1.362944e+001 7.271116e-004 8.434366e+001 1.149336e-003 9.372571e+001 1.065200e+000 -3.034986e+001
1009750000 1.029635e+000 -1.360264e+001 4.828897e-004 5.751421e+001 1.027034e-003 6.109674e+001 1.066815e+000 -3.026208e+001
1009900000 1.029372e+000 -1.356964e+001 7.270858e-004 6.084221e+001 1.183795e-003 5.258034e+001 1.064548e+000 -3.032922e+001
1010050000 1.031461e+000 -1.365074e+001 8.522192e-004 7.339998e+001 1.915087e-003 6.358300e+001 1.064465e+000 -3.032763e+001
1010200000 1.030792e+000 -1.364653e+001 9.645650e-004 9.312617e+001 1.206116e-003 6.834513e+001 1.062336e+000 -3.022432e+001
1010350000 1.029047e+000 -1.369582e+001 6.478699e-004 5.993261e+001 1.097004e-003 6.120930e+001 1.062908e+000 -3.033343e+001
1010500000 1.029557e+000 -1.361932e+001 7.392714e-004 7.780791e+001 1.207636e-003 3.976963e+001 1.064030e+000 -3.034962e+001
1010650000 1.028053e+000 -1.366087e+001 6.027097e-004 7.374938e+001 1.214679e-003 7.494754e+001 1.062747e+000 -3.038333e+001
1010800000 1.028201e+000 -1.360155e+001 7.215956e-004 5.927135e+001 1.305830e-003 6.407884e+001 1.064163e+000 -3.028415e+001
1010950000 1.029288e+000 -1.363284e+001 5.297163e-004 8.726151e+001 6.466537e-004 9.510134e+001 1.059713e+000 -3.015747e+001
1011100000 1.029606e+000 -1.359733e+001 6.432164e-004 8.749515e+001 1.226997e-003 7.194265e+001 1.063065e+000 -3.020299e+001
1011250000 1.030543e+000 -1.354811e+001 6.784694e-004 7.447569e+001 1.194387e-003 7.871918e+001 1.062397e+000 -3.016123e+001
1011400000 1.028732e+000 -1.360723e+001 6.917706e-004 9.785567e+001 1.230101e-003 5.273462e+001 1.060395e+000 -3.020781e+001
1011550000 1.030239e+000 -1.362238e+001 1.068495e-003 7.186871e+001 1.035504e-003 8.572892e+001 1.064180e+000 -3.016006e+001
1011700000 1.029243e+000 -1.367926e+001 5.313632e-004 5.400798e+001 9.596521e-004 6.988117e+001 1.062986e+000 -3.029886e+001
1011850000 1.028982e+000 -1.361984e+001 5.411392e-004 8.159251e+001 1.601693e-003 4.259462e+001 1.060584e+000 -3.014333e+001
1012000000 1.028573e+000 -1.361913e+001 9.147751e-004 3.694546e+001 1.066343e-003 3.997419e+001 1.063054e+000 -3.039973e+001
1012150000 1.028756e+000 -1.367486e+001 7.578850e-004 6.234458e+001 1.018964e-003 8.378241e+001 1.062582e+000 -3.035599e+001
1012300000 1.030882e+000 -1.359679e+001 6.158962e-004 7.038124e+001 1.318241e-003 6.532307e+001 1.063792e+000 -3.030227e+001
1012450000 1.029606e+000 -1.367177e+001 5.600015e-004 4.742902e+001 1.277729e-003 7.794560e+001 1.066121e+000 -3.018922e+001
1012600000 1.029328e+000 -1.361834e+001 6.507167e-004 7.303101e+001 1.308562e-003 7.295497e+001 1.064588e+000 -3.013456e+001
1012750000 1.029511e+000 -1.366445e+001 8.890225e-004 5.796109e+001 1.344415e-003 7.955860e+001 1.066548e+000 -3.003063e+001
1012900000 1.029537e+000 -1.362953e+001 8.057752e-004 6.516351e+001 1.941300e-003 6.248608e+001 1.063494e+000 -3.012433e+001
1013050000 1.028955e+000 -1.363992e+001 8.122151e-004 6.079799e+001 1.572826e-003 6.231798e+001 1.064716e+000 -3.001831e+001
1013200000 1.029513e+000 -1.363967e+001 5.629993e-004 6.508266e+001 1.386620e-003 8.507310e+001 1.061628e+000 -3.019280e+001
1013350000 1.029010e+000 -1.370234e+001 8.053836e-004 9.038602e+001 1.296526e-003 6.420680e+001 1.063429e+000 -3.025935e+001
1013500000 1.028309e+000 -1.380821e+001 4.388501e-004 6.770488e+001 1.160936e-003 5.521968e+001 1.062491e+000 -3.031920e+001
1013650000 1.029430e+000 -1.364846e+001 6.752341e-004 8.549160e+001 1.311846e-003 5.421095e+001 1.062240e+000 -3.036609e+001
1013800000 1.028862e+000 -1.371068e+001 6.357386e-004 8.254163e+001 1.214758e-003 6.086816e+001 1.062976e+000 -3.033440e+001
1013950000 1.030669e+000 -1.360861e+001 4.532998e-004 6.389412e+001 1.061354e-003 7.069003e+001 1.061787e+000 -3.026837e+001
1014100000 1.029359e+000 -1.364617e+001 7.867215e-004 8.145998e+001 1.335750e-003 9.179608e+001 1.060934e+000 -3.042151e+001
1014250000 1.029597e+000 -1.366559e+001 9.260511e-004 7.990455e+001 1.099887e-003 9.765765e+001 1.063912e+000 -3.035420e+001
1014400000 1.031414e+000 -1.368130e+001 6.876952e-004 6.765650e+001 1.123933e-003 7.616132e+001 1.062174e+000 -3.042525e+001
1014550000 1.031042e+000 -1.374847e+001 4.953559e-004 6.383430e+001 1.008015e-003 8.188330e+001 1.063663e+000 -3.031165e+001
1014700000 1.031120e+000 -1.374318e+001 8.365989e-004 8.139362e+001 1.334885e-003 7.837533e+001 1.065490e+000 -3.038960e+001
1014850000 1.030494e+000 -1.370633e+001 7.697752e-004 4.840064e+001 6.803869e-004 6.987827e+001 1.062929e+000 -3.028614e+001
1015000000 1.031256e+000 -1.373031e+001 7.161174e-004 7.948919e+001 1.405672e-003 5.435448e+001 1.065127e+000 -3.028401e+001
1015150000 1.030506e+000 -1.374240e+001 8.984510e-004 9.212310e+001 1.271829e-003 7.731332e+001 1.063996e+000 -3.030095e+001
1015300000 1.030038e+000 -1.371115e+001 5.679238e-004 7.719723e+001 8.098001e-004 4.819606e+001 1.061986e+000 -3.030238e+001
1015450000 1.029533e+000 -1.365517e+001 6.622105e-004 7.501846e+001 1.205906e-003 6.505741e+001 1.061809e+000 -3.047535e+001
1015600000 1.029860e+000 -1.377777e+001 6.857388e-004 9.904105e+001 1.049664e-003 4.120814e+001 1.061061e+000 -3.030827e+001
1015750000 1.029280e+000 -1.376791e+001 8.195813e-004 7.883684e+001 1.266644e-003 6.763573e+001 1.061847e+000 -3.049474e+001
1015900000 1.029947e+000 -1.367747e+001 4.526225e-004 9.117418e+001 1.393478e-003 6.688077e+001 1.061144e+000 -3.037989e+001
1016050000 1.030427e+000 -1.371171e+001 3.065083e-004 6.721301e+001 8.354274e-004 6.075660e+001 1.061667e+000 -3.025416e+001
1016200000 1.030002e+000 -1.367480e+001 6.061957e-004 7.350928e+001 1.525138e-003 5.245658e+001 1.059414e+000 -3.037571e+001
1016350000 1.031183e+000 -1.370389e+001 8.044118e-004 8.510429e+001 1.207927e-003 7.046535e+001 1.060672e+000 -3.035628e+001
1016500000 1.031126e+000 -1.358176e+001 6.609044e-004 7.087024e+001 1.200406e-003 7.046384e+001 1.060145e+000 -3.043292e+001
1016650000 1.031457e+000 -1.366601e+001 5.354349e-004 5.105674e+001 9.947820e-004 7.246417e+001 1.063793e+000 -3.026195e+001
1016800000 1.031128e+000 -1.374090e+001 6.670253e-004 8.747312e+001 1.229718e-003 6.523534e+001 1.062813e+000 -3.036778e+001
1016950000 1.032555e+000 -1.370913e+001 6.456794e-004 7.438416e+001 1.386468e-003 6.717553e+001 1.064200e+000 -3.040807e+001
1017100000 1.032254e+000 -1.375577e+001 6.115618e-004 5.683409e+001 1.618302e-003 7.109362e+001 1.067648e+000 -3.033423e+001
1017250000 1.030885e+000 -1.376192e+001 6.804764e-004 6.347466e+001 1.383546e-003 7.703375e+001 1.063957e+000 -3.035852e+001
1017400000 1.030379e+000 -1.365473e+001 7.594151e-004 9.288887e+001 1.354380e-003 5.448026e+001 1.064249e+000 -3.033379e+001
1017550000 1.030558e+000 -1.381436e+001 8.489035e-004 1.057458e+002 1.989431e-003 6.833057e+001 1.065391e+000 -3.028452e+001
1017700000 1.028872e+000 -1.378827e+001 9.187377e-004 7.589484e+001 1.641738e-003 5.833538e+001 1.063128e+000 -3.036613e+001
1017850000 1.028778e+000 -1.386203e+001 6.441724e-004 8.813412e+001 7.144476e-004 4.111288e+001 1.062728e+000 -3.033954e+001
1018000000 1.029211e+000 -1.375500e+001 7.943895e-004 6.951778e+001 8.370811e-004 4.658106e+001 1.063635e+000 -3.051090e+001
1018150000 1.028693e+000 -1.378965e+001 6.912214e-004 9.412995e+001 1.369507e-003 6.163919e+001 1.062323e+000 -3.032310e+001
1018300000 1.029916e+000 -1.378953e+001 7.879891e-004 6.977407e+001 1.583691e-003 5.770587e+001 1.064288e+000 -3.033506e+001
1018450000 1.030175e+000 -1.379744e+001 7.855585e-004 5.965213e+001 1.575509e-003 5.407335e+001 1.063311e+000 -3.049761e+001
1018600000 1.030045e+000 -1.375657e+001 5.918331e-004 7.850211e+001 1.009491e-003 5.808921e+001 1.063508e+000 -3.046019e+001
1018750000 1.031569e+000 -1.378927e+001 5.242059e-004 6.611665e+001 9.758945e-004 5.265791e+001 1.062085e+000 -3.049401e+001
1018900000 1.030194e+000 -1.376088e+001 6.039583e-004 9.071248e+001 1.096854e-003 7.470890e+001 1.065984e+000 -3.039635e+001
1019050000 1.031192e+000 -1.385781e+001 8.115089e-004 8.343563e+001 1.020257e-003 4.487664e+001 1.065190e+000 -3.042949e+001
1019200000 1.031248e+000 -1.379076e+001 9.545823e-004 5.873312e+001 1.702783e-003 7.260707e+001 1.067281e+000 -3.049574e+001
1019350000 1.029607e+000 -1.379228e+001 7.647623e-004 7.635535e+001 1.135565e-003 8.727385e+001 1.066219e+000 -3.046985e+001
1019500000 1.029846e+000 -1.383138e+001 7.431422e-004 8.180580e+001 1.032850e-003 6.195014e+001 1.064435e+000 -3.062465e+001
1019650000 1.030065e+000 -1.376720e+001 5.726693e-004 6.653153e+001 1.087100e-003 3.592390e+001 1.063362e+000 -3.057522e+001
1019800000 1.029522e+000 -1.387371e+001 8.030460e-004 8.106116e+001 1.223817e-003 6.331037e+001 1.061363e+000 -3.065922e+001
1019950000 1.031190e+000 -1.388953e+001 7.356494e-004 5.544275e+001 9.130772e-004 7.547655e+001 1.062394e+000 -3.057603e+001
1020100000 1.031774e+000 -1.390997e+001 6.112018e-004 9.754008e+001 8.497222e-004 6.306097e+001 1.062096e+000 -3.055365e+001
1020250000 1.029694e+000 -1.383839e+001 6.482303e-004 7.748488e+001 1.400954e-003 8.440038e+001 1.062023e+000 -3.052518e+001
1020400000 1.030506e+000 -1.382375e+001 1.022893e-003 8.223228e+001 1.509345e-003 7.709698e+001 1.063619e+000 -3.057926e+001
1020550000 1.030901e+000 -1.391238e+001 7.154056e-004 6.285122e+001 1.423248e-003 8.532891e+001 1.064486e+000 -3.053411e+001
1020700000 1.031012e+000 -1.396642e+001 6.125980e-004 6.570829e+001 1.610892e-003 5.228588e+001 1.065077e+000 -3.062973e+001
1020850000 1.031295e+000 -1.387015e+001 7.009908e-004 8.924184e+001 1.786227e-003 5.714899e+001 1.067914e+000 -3.056293e+001
1021000000 1.030638e+000 -1.387467e+001 7.433076e-004 7.251816e+001 6.611738e-004 1.017507e+002 1.068968e+000 -3.056437e+001
1021150000 1.029174e+000 -1.384793e+001 7.375880e-004 7.567728e+001 7.904256e-004 5.576269e+001 1.065782e+000 -3.050603e+001
1021300000 1.029271e+000 -1.381233e+001 7.226585e-004 6.260480e+001 1.532132e-003 9.167331e+001 1.066469e+000 -3.045911e+001
1021450000 1.029344e+000 -1.386913e+001 9.001754e-004 9.257191e+001 1.157468e-003 9.118320e+001 1.062980e+000 -3.056293e+001
1021600000 1.028445e+000 -1.385408e+001 6.405809e-004 7.684859e+001 1.105628e-003 8.545249e+001 1.062971e+000 -3.053042e+001
1021750000 1.028657e+000 -1.381153e+001 5.132452e-004 8.954176e+001 1.612067e-003 7.149150e+001 1.063565e+000 -3.055292e+001
1021900000 1.028709e+000 -1.378880e+001 6.196909e-004 7.620342e+001 1.224041e-003 6.752223e+001 1.063653e+000 -3.060332e+001
1022050000 1.029468e+000 -1.377299e+001 7.097592e-004 6.121513e+001 2.038751e-003 7.142651e+001 1.064755e+000 -3.070885e+001
1022200000 1.029786e+000 -1.378846e+001 6.716310e-004 7.605168e+001 1.265953e-003 4.839589e+001 1.063782e+000 -3.050124e+001
1022350000 1.030023e+000 -1.382406e+001 6.835665e-004 6.554444e+001 1.259328e-003 8.364347e+001 1.064532e+000 -3.066840e+001
1022500000 1.030208e+000 -1.385969e+001 7.595661e-004 6.854150e+001 1.221240e-003 4.322723e+001 1.063080e+000 -3.056966e+001
1022650000 1.030748e+000 -1.389869e+001 5.322496e-004 9.064081e+001 1.473884e-003 5.311380e+001 1.065497e+000 -3.050601e+001
1022800000 1.030487e+000 -1.381507e+001 7.363649e-004 7.222681e+001 1.252092e-003 5.640171e+001 1.065090e+000 -3.050113e+001
1022950000 1.030144e+000 -1.380835e+001 7.190872e-004 7.304379e+001 1.025872e-003 7.202832e+001 1.066013e+000 -3.055618e+001
1023100000 1.030092e+000 -1.389748e+001 6.467876e-004 6.050273e+001 1.698611e-003 5.432146e+001 1.062417e+000 -3.050228e+001
1023250000 1.030166e+000 -1.381706e+001 5.799598e-004 7.327850e+001 1.296340e-003 4.069344e+001 1.062567e+000 -3.041604e+001
