!Agilent Technologies,N5230C,SG49000117,A.08.50.07
!Agilent N5230C: A.08.50.07
!Date: Monday, May 20, 2024 21:07:27
!Correction: S11(Full 2 Port(1,2)) 
!S21(Full 2 Port(1,2)) 
!S12(Full 2 Port(1,2)) 
!S22(Full 2 Port(1,2)) 
!S2P File: Measurements: S11, S21, S12, S22:
# Hz S  MA   R 50
1000000000 1.029791e+000 -1.497085e+001 1.581816e-003 8.592047e+001 2.985262e-003 6.796426e+001 1.063103e+000 -2.520497e+001
1000150000 1.030506e+000 -1.493319e+001 1.334113e-003 7.533993e+001 2.606157e-003 6.577743e+001 1.060358e+000 -2.519062e+001
1000300000 1.030182e+000 -1.491136e+001 1.649204e-003 7.713399e+001 2.885035e-003 6.630708e+001 1.062746e+000 -2.522764e+001
1000450000 1.029069e+000 -1.496214e+001 1.707980e-003 7.008479e+001 3.129896e-003 7.439622e+001 1.059792e+000 -2.530376e+001
1000600000 1.029438e+000 -1.494676e+001 1.717334e-003 7.592625e+001 2.843629e-003 6.914154e+001 1.061706e+000 -2.521208e+001
1000750000 1.028841e+000 -1.493758e+001 1.464050e-003 8.527344e+001 3.217643e-003 6.624191e+001 1.061676e+000 -2.527056e+001
1000900000 1.029382e+000 -1.492671e+001 1.616996e-003 8.326691e+001 2.843471e-003 7.349509e+001 1.060173e+000 -2.522239e+001
1001050000 1.029664e+000 -1.493548e+001 1.533379e-003 8.055481e+001 3.121081e-003 7.013990e+001 1.063980e+000 -2.516783e+001
1001200000 1.029973e+000 -1.488310e+001 1.514506e-003 7.276573e+001 3.115665e-003 7.009151e+001 1.062131e+000 -2.515713e+001
1001350000 1.030858e+000 -1.491945e+001 1.595418e-003 7.682582e+001 3.319270e-003 6.860870e+001 1.062533e+000 -2.529114e+001
1001500000 1.029139e+000 -1.494690e+001 1.914349e-003 7.976275e+001 2.793535e-003 6.993478e+001 1.063448e+000 -2.513766e+001
1001650000 1.029791e+000 -1.494711e+001 1.911520e-003 8.359111e+001 3.045617e-003 6.032745e+001 1.061023e+000 -2.521090e+001
1001800000 1.029498e+000 -1.489587e+001 1.650959e-003 8.685339e+001 2.389288e-003 7.275052e+001 1.062102e+000 -2.525165e+001
1001950000 1.029243e+000 -1.497089e+001 1.632212e-003 7.796876e+001 2.684428e-003 6.081695e+001 1.061253e+000 -2.527016e+001
1002100000 1.029770e+000 -1.495115e+001 1.594807e-003 8.062489e+001 2.767584e-003 6.538033e+001 1.059480e+000 -2.521028e+001
1002250000 1.029926e+000 -1.501303e+001 1.366817e-003 8.774188e+001 2.746639e-003 6.481381e+001 1.060084e+000 -2.540547e+001
1002400000 1.029095e+000 -1.503244e+001 1.915079e-003 8.018333e+001 2.900822e-003 7.492918e+001 1.062428e+000 -2.533244e+001
1002550000 1.029566e+000 -1.499663e+001 1.586014e-003 8.874432e+001 2.551249e-003 6.595922e+001 1.061049e+000 -2.533882e+001
1002700000 1.030576e+000 -1.500441e+001 1.451879e-003 8.456020e+001 2.603226e-003 7.030867e+001 1.062621e+000 -2.526364e+001
1002850000 1.029629e+000 -1.489249e+001 1.465969e-003 7.877791e+001 2.542408e-003 7.501802e+001 1.060170e+000 -2.537580e+001
1003000000 1.029433e+000 -1.497865e+001 1.600309e-003 8.879272e+001 2.990793e-003 7.812528e+001 1.061842e+000 -2.528688e+001
1003150000 1.030698e+000 -1.496187e+001 1.515545e-003 7.034868e+001 2.835155e-003 7.554798e+001 1.061549e+000 -2.531215e+001
1003300000 1.030557e+000 -1.492091e+001 1.275020e-003 8.027591e+001 2.413363e-003 6.796555e+001 1.061727e+000 -2.531331e+001
1003450000 1.031426e+000 -1.499894e+001 1.677578e-003 7.752406e+001 2.883239e-003 6.165681e+001 1.060706e+000 -2.531954e+001
1003600000 1.030275e+000 -1.494115e+001 1.392793e-003 8.518607e+001 2.945578e-003 6.406764e+001 1.059631e+000 -2.538439e+001
1003750000 1.030651e+000 -1.498779e+001 1.708692e-003 7.205179e+001 2.417160e-003 6.854459e+001 1.058291e+000 -2.537423e+001
1003900000 1.031368e+000 -1.493382e+001 1.516063e-003 8.097356e+001 2.753707e-003 6.172301e+001 1.061896e+000 -2.527674e+001
1004050000 1.029691e+000 -1.497021e+001 1.686254e-003 7.343317e+001 2.792705e-003 7.666487e+001 1.058580e+000 -2.537128e+001
1004200000 1.029783e+000 -1.488932e+001 1.712771e-003 7.855717e+001 2.985443e-003 6.691314e+001 1.061463e+000 -2.521559e+001
1004350000 1.029703e+000 -1.494017e+001 1.681160e-003 7.798824e+001 2.221058e-003 7.063423e+001 1.059914e+000 -2.524600e+001
1004500000 1.028396e+000 -1.499337e+001 1.586309e-003 7.863308e+001 2.848839e-003 6.376398e+001 1.061493e+000 -2.530244e+001
1004650000 1.030789e+000 -1.499975e+001 1.639197e-003 7.502171e+001 2.599609e-003 7.013605e+001 1.060953e+000 -2.526011e+001
1004800000 1.030697e+000 -1.493417e+001 1.574835e-003 7.718758e+001 2.685185e-003 6.639624e+001 1.060681e+000 -2.536803e+001
1004950000 1.030686e+000 -1.490076e+001 1.735221e-003 8.185416e+001 2.681389e-003 7.030181e+001 1.063234e+000 -2.527755e+001
1005100000 1.030586e+000 -1.492125e+001 1.477551e-003 8.469406e+001 3.258716e-003 7.391356e+001 1.061610e+000 -2.523790e+001
1005250000 1.029788e+000 -1.498737e+001 1.940401e-003 7.116912e+001 2.815742e-003 8.017580e+001 1.060354e+000 -2.524657e+001
1005400000 1.030750e+000 -1.494958e+001 1.663442e-003 6.851061e+001 2.712506e-003 6.731192e+001 1.060658e+000 -2.535727e+001
1005550000 1.030779e+000 -1.505280e+001 1.378026e-003 7.541822e+001 2.931276e-003 6.914446e+001 1.063642e+000 -2.536930e+001
1005700000 1.032072e+000 -1.493619e+001 1.646014e-003 7.388582e+001 3.048619e-003 6.440851e+001 1.061879e+000 -2.533824e+001
1005850000 1.029997e+000 -1.503659e+001 1.624205e-003 9.167310e+001 3.003976e-003 6.370966e+001 1.061584e+000 -2.537107e+001
1006000000 1.030807e+000 -1.499206e+001 1.690207e-003 8.416396e+001 3.231486e-003 6.098502e+001 1.063472e+000 -2.532312e+001
1006150000 1.031160e+000 -1.499006e+001 1.736367e-003 8.537805e+001 3.137523e-003 6.671014e+001 1.062194e+000 -2.539442e+001
1006300000 1.030056e+000 -1.504366e+001 1.846701e-003 8.701134e+001 2.816118e-003 5.730583e+001 1.063751e+000 -2.527884e+001
1006450000 1.030597e+000 -1.505877e+001 1.548957e-003 7.753825e+001 2.767421e-003 6.769612e+001 1.063661e+000 -2.526011e+001
1006600000 1.031059e+000 -1.498067e+001 1.462664e-003 7.593964e+001 3.019987e-003 6.562598e+001 1.061267e+000 -2.521617e+001
1006750000 1.029697e+000 -1.499057e+001 1.666920e-003 8.214827e+001 3.406036e-003 6.487676e+001 1.062211e+000 -2.531044e+001
1006900000 1.031346e+000 -1.500904e+001 1.644197e-003 7.543571e+001 2.769848e-003 7.052316e+001 1.060404e+000 -2.543712e+001
1007050000 1.030814e+000 -1.502754e+001 1.556452e-003 8.530072e+001 2.480007e-003 6.507337e+001 1.062550e+000 -2.521092e+001
1007200000 1.030423e+000 -1.507631e+001 1.379230e-003 7.409653e+001 2.531191e-003 6.046872e+001 1.062009e+000 -2.524890e+001
1007350000 1.030345e+000 -1.497882e+001 1.454027e-003 7.690627e+001 3.151026e-003 6.941149e+001 1.060776e+000 -2.534299e+001
1007500000 1.030156e+000 -1.497161e+001 1.508536e-003 7.848444e+001 3.340236e-003 8.321879e+001 1.060350e+000 -2.537250e+001
1007650000 1.030112e+000 -1.499860e+001 1.672184e-003 7.938078e+001 2.887130e-003 7.651478e+001 1.062538e+000 -2.547632e+001
1007800000 1.028437e+000 -1.501698e+001 1.706194e-003 9.183810e+001 2.928190e-003 7.100839e+001 1.060807e+000 -2.542752e+001
1007950000 1.028706e+000 -1.505985e+001 1.628545e-003 8.277061e+001 3.216678e-003 7.258222e+001 1.060834e+000 -2.543105e+001
1008100000 1.029143e+000 -1.505146e+001 1.669075e-003 7.469420e+001 3.250943e-003 7.104575e+001 1.061201e+000 -2.555466e+001
1008250000 1.029387e+000 -1.506371e+001 1.458147e-003 7.596503e+001 3.130352e-003 6.947977e+001 1.061855e+000 -2.543360e+001
1008400000 1.030454e+000 -1.509238e+001 1.531587e-003 8.504548e+001 2.771294e-003 7.594361e+001 1.060956e+000 -2.546381e+001
1008550000 1.029472e+000 -1.502181e+001 1.519289e-003 7.845927e+001 2.864587e-003 8.044574e+001 1.061291e+000 -2.552603e+001
1008700000 1.030236e+000 -1.503496e+001 1.623741e-003 7.682772e+001 2.664772e-003 6.277898e+001 1.062053e+000 -2.556840e+001
1008850000 1.030547e+000 -1.500838e+001 1.829844e-003 8.060813e+001 3.307929e-003 7.148808e+001 1.061054e+000 -2.555504e+001
1009000000 1.029926e+000 -1.505793e+001 1.445588e-003 8.587843e+001 3.220868e-003 6.757403e+001 1.062435e+000 -2.552618e+001
1009150000 1.030196e+000 -1.507111e+001 1.537490e-003 8.343355e+001 2.851417e-003 6.885197e+001 1.062481e+000 -2.545118e+001
1009300000 1.029868e+000 -1.505446e+001 1.373957e-003 8.153773e+001 2.807789e-003 6.923052e+001 1.060889e+000 -2.548864e+001
1009450000 1.029796e+000 -1.513224e+001 1.461455e-003 7.939977e+001 3.018899e-003 5.389937e+001 1.060937e+000 -2.551627e+001
1009600000 1.029917e+000 -1.512963e+001 1.842128e-003 8.637606e+001 3.060501e-003 6.301971e+001 1.062386e+000 -2.544627e+001
1009750000 1.029723e+000 -1.507943e+001 1.426555e-003 8.292077e+001 3.402244e-003 5.785124e+001 1.064965e+000 -2.547773e+001
1009900000 1.030084e+000 -1.500928e+001 1.451184e-003 8.616699e+001 2.401347e-003 6.724379e+001 1.061663e+000 -2.552257e+001
1010050000 1.029248e+000 -1.514527e+001 1.477725e-003 8.002340e+001 3.156257e-003 7.581892e+001 1.061178e+000 -2.557698e+001
1010200000 1.029583e+000 -1.509162e+001 1.476372e-003 8.484408e+001 2.583437e-003 7.462081e+001 1.062671e+000 -2.549603e+001
1010350000 1.030277e+000 -1.512505e+001 1.476043e-003 9.020119e+001 3.369561e-003 7.357691e+001 1.061942e+000 -2.545903e+001
1010500000 1.030812e+000 -1.519550e+001 1.737432e-003 8.294745e+001 3.169699e-003 6.453420e+001 1.062185e+000 -2.554404e+001
1010650000 1.030060e+000 -1.519890e+001 1.389039e-003 7.371201e+001 3.040352e-003 7.543328e+001 1.059517e+000 -2.550702e+001
1010800000 1.028780e+000 -1.514602e+001 1.629194e-003 8.161491e+001 2.652022e-003 7.051916e+001 1.062149e+000 -2.551815e+001
1010950000 1.030329e+000 -1.506673e+001 1.613973e-003 7.554074e+001 3.113132e-003 6.873811e+001 1.056966e+000 -2.534237e+001
1011100000 1.029549e+000 -1.510498e+001 1.708732e-003 8.435336e+001 3.050262e-003 7.188521e+001 1.060724e+000 -2.546371e+001
1011250000 1.031204e+000 -1.505734e+001 1.542741e-003 6.884500e+001 3.310557e-003 6.788037e+001 1.058661e+000 -2.545817e+001
1011400000 1.029455e+000 -1.511127e+001 1.724774e-003 7.169569e+001 3.818005e-003 5.901072e+001 1.058710e+000 -2.544675e+001
1011550000 1.030471e+000 -1.514730e+001 1.302469e-003 7.700785e+001 3.206409e-003 6.567064e+001 1.059822e+000 -2.555325e+001
1011700000 1.030395e+000 -1.514107e+001 1.545297e-003 7.864191e+001 2.732710e-003 7.463190e+001 1.060832e+000 -2.549087e+001
1011850000 1.030474e+000 -1.517575e+001 1.500789e-003 8.124638e+001 2.933720e-003 6.514577e+001 1.059417e+000 -2.558231e+001
1012000000 1.032059e+000 -1.520808e+001 1.647749e-003 7.503336e+001 3.122058e-003 7.794034e+001 1.063156e+000 -2.551195e+001
1012150000 1.030115e+000 -1.517229e+001 1.683177e-003 7.823651e+001 3.327240e-003 6.890417e+001 1.060760e+000 -2.542516e+001
1012300000 1.031257e+000 -1.509630e+001 1.717433e-003 8.191260e+001 2.625079e-003 5.169688e+001 1.063229e+000 -2.544304e+001
1012450000 1.029063e+000 -1.516000e+001 1.607466e-003 8.715538e+001 2.895962e-003 7.112089e+001 1.061202e+000 -2.537726e+001
1012600000 1.030134e+000 -1.512769e+001 1.736217e-003 8.220450e+001 2.791990e-003 5.690474e+001 1.062271e+000 -2.532313e+001
1012750000 1.028953e+000 -1.510284e+001 1.907312e-003 8.195652e+001 2.674328e-003 6.353839e+001 1.062767e+000 -2.535759e+001
1012900000 1.029806e+000 -1.515843e+001 1.463753e-003 7.574184e+001 2.539371e-003 6.224860e+001 1.061662e+000 -2.525735e+001
1013050000 1.030050e+000 -1.516568e+001 1.995000e-003 7.810394e+001 3.149856e-003 7.300235e+001 1.060035e+000 -2.540921e+001
1013200000 1.029466e+000 -1.515887e+001 1.508994e-003 8.394856e+001 2.963479e-003 6.044975e+001 1.058680e+000 -2.540223e+001
1013350000 1.029973e+000 -1.518042e+001 1.784635e-003 7.893085e+001 3.087579e-003 6.947150e+001 1.061932e+000 -2.566927e+001
1013500000 1.029083e+000 -1.515446e+001 1.282416e-003 7.461265e+001 2.994881e-003 6.388240e+001 1.059182e+000 -2.559080e+001
1013650000 1.028744e+000 -1.524834e+001 1.350813e-003 7.466445e+001 3.153891e-003 6.359718e+001 1.059833e+000 -2.562852e+001
1013800000 1.030111e+000 -1.515499e+001 1.575661e-003 6.116576e+001 3.345076e-003 6.480431e+001 1.059228e+000 -2.561443e+001
1013950000 1.029791e+000 -1.515613e+001 1.495708e-003 7.573918e+001 3.176928e-003 6.374628e+001 1.060796e+000 -2.560215e+001
1014100000 1.030330e+000 -1.520488e+001 1.514820e-003 7.576968e+001 3.321761e-003 6.505269e+001 1.059946e+000 -2.567530e+001
1014250000 1.030547e+000 -1.521406e+001 1.481824e-003 7.708360e+001 3.515446e-003 6.494587e+001 1.058802e+000 -2.551541e+001
1014400000 1.031146e+000 -1.521903e+001 1.792978e-003 7.765533e+001 3.353810e-003 7.282718e+001 1.065525e+000 -2.557486e+001
1014550000 1.030566e+000 -1.515911e+001 1.280564e-003 7.681326e+001 3.438554e-003 6.311866e+001 1.063408e+000 -2.564231e+001
1014700000 1.029947e+000 -1.521001e+001 1.625923e-003 7.705387e+001 3.236272e-003 7.061304e+001 1.064048e+000 -2.560050e+001
1014850000 1.031635e+000 -1.525137e+001 1.929068e-003 7.230805e+001 3.211009e-003 6.024038e+001 1.063618e+000 -2.562385e+001
1015000000 1.031437e+000 -1.523387e+001 1.614552e-003 7.342653e+001 3.200850e-003 6.573441e+001 1.064257e+000 -2.556229e+001
1015150000 1.030123e+000 -1.522684e+001 1.622057e-003 8.959028e+001 3.800515e-003 6.074332e+001 1.062252e+000 -2.557141e+001
1015300000 1.032255e+000 -1.522169e+001 1.467869e-003 7.806010e+001 2.779707e-003 6.893488e+001 1.062149e+000 -2.559361e+001
1015450000 1.029168e+000 -1.521296e+001 1.661353e-003 7.016463e+001 2.686569e-003 6.386704e+001 1.059522e+000 -2.563352e+001
1015600000 1.030406e+000 -1.525289e+001 1.465818e-003 7.167754e+001 2.900943e-003 7.054092e+001 1.058635e+000 -2.559610e+001
1015750000 1.029728e+000 -1.520256e+001 1.761007e-003 7.039375e+001 2.848467e-003 6.317151e+001 1.060509e+000 -2.547357e+001
1015900000 1.030403e+000 -1.529611e+001 1.376667e-003 8.229383e+001 3.175190e-003 6.844841e+001 1.057813e+000 -2.554171e+001
1016050000 1.029881e+000 -1.521229e+001 1.385648e-003 8.565896e+001 2.941696e-003 6.319452e+001 1.060515e+000 -2.563886e+001
1016200000 1.031088e+000 -1.523993e+001 1.592374e-003 6.980690e+001 3.351331e-003 7.560497e+001 1.058160e+000 -2.574647e+001
1016350000 1.031766e+000 -1.521157e+001 1.348005e-003 7.712750e+001 3.171888e-003 7.388543e+001 1.058049e+000 -2.550899e+001
1016500000 1.030508e+000 -1.521369e+001 1.443183e-003 7.221342e+001 2.641321e-003 6.616553e+001 1.060776e+000 -2.559150e+001
1016650000 1.031454e+000 -1.521832e+001 1.616237e-003 7.907152e+001 2.513350e-003 5.833401e+001 1.059548e+000 -2.573111e+001
1016800000 1.031395e+000 -1.529681e+001 1.626264e-003 8.028378e+001 2.741087e-003 6.953685e+001 1.060341e+000 -2.550342e+001
1016950000 1.032218e+000 -1.529149e+001 1.806468e-003 9.431216e+001 3.126350e-003 6.993297e+001 1.061364e+000 -2.556560e+001
1017100000 1.032360e+000 -1.530224e+001 1.436130e-003 7.987363e+001 3.012136e-003 6.017590e+001 1.063204e+000 -2.544227e+001
1017250000 1.030686e+000 -1.530015e+001 1.426141e-003 7.971914e+001 2.983025e-003 7.002416e+001 1.063000e+000 -2.563393e+001
1017400000 1.030917e+000 -1.526391e+001 1.479401e-003 7.443044e+001 3.440552e-003 7.530109e+001 1.064347e+000 -2.541494e+001
1017550000 1.031616e+000 -1.527056e+001 1.461417e-003 8.836499e+001 3.318681e-003 6.263354e+001 1.064112e+000 -2.560826e+001
1017700000 1.029819e+000 -1.525692e+001 1.507200e-003 8.057571e+001 3.101569e-003 5.820206e+001 1.063068e+000 -2.566912e+001
1017850000 1.030064e+000 -1.524310e+001 1.785295e-003 8.680209e+001 2.824474e-003 5.255135e+001 1.061768e+000 -2.561271e+001
1018000000 1.030234e+000 -1.533156e+001 1.776482e-003 7.948244e+001 2.822560e-003 6.167688e+001 1.062405e+000 -2.565081e+001
1018150000 1.029520e+000 -1.534921e+001 1.680969e-003 8.162223e+001 2.787012e-003 8.219428e+001 1.062224e+000 -2.560462e+001
1018300000 1.030859e+000 -1.534445e+001 1.621724e-003 7.241725e+001 2.861270e-003 7.477184e+001 1.060655e+000 -2.574287e+001
1018450000 1.031614e+000 -1.530282e+001 1.557904e-003 7.830358e+001 3.511934e-003 6.750325e+001 1.059402e+000 -2.561899e+001
1018600000 1.028706e+000 -1.534128e+001 1.835904e-003 8.141268e+001 2.835110e-003 5.492252e+001 1.062279e+000 -2.561089e+001
1018750000 1.029830e+000 -1.529868e+001 1.599853e-003 7.388399e+001 2.941877e-003 7.017110e+001 1.061734e+000 -2.557814e+001
1018900000 1.030620e+000 -1.529648e+001 1.653177e-003 7.204511e+001 3.117383e-003 7.170159e+001 1.062833e+000 -2.552418e+001
1019050000 1.029602e+000 -1.525053e+001 1.242771e-003 6.970572e+001 3.182703e-003 7.232850e+001 1.061165e+000 -2.560857e+001
1019200000 1.030342e+000 -1.521502e+001 1.797119e-003 8.745335e+001 3.168559e-003 6.966740e+001 1.063596e+000 -2.567465e+001
1019350000 1.030631e+000 -1.535769e+001 1.702009e-003 7.737653e+001 3.047055e-003 7.283240e+001 1.060469e+000 -2.584245e+001
1019500000 1.030234e+000 -1.541057e+001 1.391492e-003 8.164944e+001 3.199810e-003 5.966069e+001 1.062809e+000 -2.572784e+001
1019650000 1.030447e+000 -1.536644e+001 1.526906e-003 7.467208e+001 3.050949e-003 6.811299e+001 1.062136e+000 -2.577718e+001
1019800000 1.030049e+000 -1.534639e+001 1.455784e-003 7.038617e+001 3.052010e-003 6.659866e+001 1.061870e+000 -2.579120e+001
1019950000 1.031628e+000 -1.544233e+001 1.610458e-003 7.770522e+001 3.373274e-003 6.977368e+001 1.058971e+000 -2.587921e+001
1020100000 1.030586e+000 -1.540142e+001 1.771481e-003 7.685526e+001 3.016524e-003 6.175058e+001 1.059624e+000 -2.570800e+001
1020250000 1.029802e+000 -1.539635e+001 1.851436e-003 8.519897e+001 3.805224e-003 6.818965e+001 1.058557e+000 -2.586993e+001
1020400000 1.030552e+000 -1.543744e+001 1.568459e-003 6.709711e+001 3.275604e-003 6.212020e+001 1.061792e+000 -2.572427e+001
1020550000 1.030829e+000 -1.528521e+001 1.709407e-003 7.994962e+001 2.900271e-003 6.162733e+001 1.063665e+000 -2.572803e+001
1020700000 1.030427e+000 -1.531535e+001 1.668916e-003 7.927778e+001 3.058944e-003 6.653096e+001 1.064900e+000 -2.581112e+001
1020850000 1.029735e+000 -1.542052e+001 1.831907e-003 7.381000e+001 3.154329e-003 6.698489e+001 1.066286e+000 -2.561682e+001
1021000000 1.030927e+000 -1.538864e+001 1.748351e-003 7.464723e+001 2.156135e-003 6.205296e+001 1.066229e+000 -2.567636e+001
1021150000 1.030101e+000 -1.536234e+001 1.598083e-003 8.156744e+001 3.017744e-003 6.315549e+001 1.067558e+000 -2.573372e+001
1021300000 1.030372e+000 -1.531492e+001 1.827973e-003 7.511792e+001 2.735033e-003 6.754143e+001 1.060767e+000 -2.561661e+001
1021450000 1.028671e+000 -1.525607e+001 1.704243e-003 8.194819e+001 2.577813e-003 6.256362e+001 1.062443e+000 -2.586751e+001
1021600000 1.027964e+000 -1.529965e+001 1.465222e-003 8.088137e+001 2.836846e-003 6.716296e+001 1.061874e+000 -2.569273e+001
1021750000 1.028186e+000 -1.533727e+001 1.586350e-003 7.972939e+001 2.307578e-003 6.958750e+001 1.061673e+000 -2.576162e+001
1021900000 1.027702e+000 -1.534979e+001 1.670853e-003 7.105002e+001 2.505046e-003 7.784995e+001 1.061205e+000 -2.572119e+001
1022050000 1.028662e+000 -1.538551e+001 1.593624e-003 7.999545e+001 2.861944e-003 6.938327e+001 1.063550e+000 -2.575208e+001
1022200000 1.029984e+000 -1.541419e+001 1.645742e-003 7.182333e+001 3.381857e-003 6.377725e+001 1.061838e+000 -2.581518e+001
1022350000 1.030847e+000 -1.533420e+001 1.691605e-003 7.566156e+001 2.970805e-003 5.991296e+001 1.060266e+000 -2.562176e+001
1022500000 1.031218e+000 -1.537754e+001 1.354836e-003 8.660845e+001 3.000623e-003 5.350100e+001 1.063667e+000 -2.557502e+001
1022650000 1.029693e+000 -1.538032e+001 1.353167e-003 7.652785e+001 2.639807e-003 7.276298e+001 1.061359e+000 -2.559518e+001
1022800000 1.030852e+000 -1.535320e+001 1.620428e-003 7.876260e+001 2.661272e-003 6.550970e+001 1.064276e+000 -2.591176e+001
1022950000 1.029584e+000 -1.538609e+001 1.516796e-003 7.969181e+001 2.693567e-003 6.548215e+001 1.061459e+000 -2.569503e+001
1023100000 1.029878e+000 -1.535566e+001 1.621147e-003 8.889133e+001 3.081240e-003 7.203685e+001 1.064039e+000 -2.561505e+001
1023250000 1.030002e+000 -1.539414e+001 1.612013e-003 7.009863e+001 2.589126e-003 7.035501e+001 1.061924e+000 -2.575573e+001
