!Agilent Technologies,N5230C,SG49000117,A.08.50.07
!Agilent N5230C: A.08.50.07
!Date: Monday, May 20, 2024 21:15:10
!Correction: S11(Full 2 Port(1,2)) 
!S21(Full 2 Port(1,2)) 
!S12(Full 2 Port(1,2)) 
!S22(Full 2 Port(1,2)) 
!S2P File: Measurements: S11, S21, S12, S22:
# Hz S  MA   R 50
1000000000 1.030467e+000 -1.763853e+001 2.062218e-003 8.367214e+001 4.335189e-003 6.789139e+001 1.062618e+000 -3.003905e+001
1000150000 1.029546e+000 -1.767059e+001 2.178539e-003 7.407390e+001 4.080994e-003 6.501000e+001 1.064447e+000 -3.013161e+001
1000300000 1.029945e+000 -1.761502e+001 2.159582e-003 7.578398e+001 4.164945e-003 5.970725e+001 1.062009e+000 -3.011376e+001
1000450000 1.031396e+000 -1.766575e+001 2.292898e-003 7.733549e+001 4.139816e-003 6.394530e+001 1.062105e+000 -2.999275e+001
1000600000 1.031369e+000 -1.757795e+001 2.513554e-003 7.420583e+001 3.748090e-003 6.933565e+001 1.062822e+000 -3.007714e+001
1000750000 1.030901e+000 -1.767045e+001 2.202124e-003 8.216936e+001 4.560987e-003 6.553817e+001 1.062767e+000 -3.010040e+001
1000900000 1.030186e+000 -1.760753e+001 2.478492e-003 7.861256e+001 3.925442e-003 6.302718e+001 1.061834e+000 -3.007685e+001
1001050000 1.031014e+000 -1.760740e+001 2.196976e-003 7.833868e+001 4.008911e-003 6.755764e+001 1.061665e+000 -3.012415e+001
1001200000 1.029687e+000 -1.762579e+001 2.326676e-003 7.966361e+001 4.522086e-003 6.096833e+001 1.064766e+000 -3.007182e+001
1001350000 1.029679e+000 -1.755930e+001 2.278214e-003 7.976939e+001 4.090633e-003 6.612119e+001 1.064834e+000 -3.004749e+001
1001500000 1.030570e+000 -1.761220e+001 2.299544e-003 7.227512e+001 4.745104e-003 6.381169e+001 1.062384e+000 -3.008844e+001
1001650000 1.029109e+000 -1.766315e+001 2.510961e-003 7.758526e+001 3.829087e-003 6.185941e+001 1.063693e+000 -3.012869e+001
1001800000 1.028871e+000 -1.766178e+001 2.301967e-003 8.293834e+001 4.058502e-003 5.910452e+001 1.062461e+000 -3.019507e+001
1001950000 1.029156e+000 -1.766908e+001 2.116010e-003 7.477831e+001 3.675392e-003 5.999936e+001 1.061640e+000 -3.024007e+001
1002100000 1.029519e+000 -1.767959e+001 2.328458e-003 7.860683e+001 4.098412e-003 6.254721e+001 1.063559e+000 -3.019555e+001
1002250000 1.028672e+000 -1.766936e+001 2.325213e-003 7.804624e+001 3.771047e-003 6.111701e+001 1.061137e+000 -3.022860e+001
1002400000 1.029848e+000 -1.761720e+001 2.324294e-003 7.349561e+001 3.961044e-003 6.442621e+001 1.063252e+000 -3.025565e+001
1002550000 1.029063e+000 -1.764918e+001 2.343784e-003 7.691403e+001 4.556800e-003 5.893374e+001 1.063582e+000 -3.018489e+001
1002700000 1.030626e+000 -1.771444e+001 2.581345e-003 7.208616e+001 3.923445e-003 6.607599e+001 1.061769e+000 -3.019966e+001
1002850000 1.030607e+000 -1.765425e+001 2.471615e-003 7.956431e+001 4.163523e-003 6.475906e+001 1.062542e+000 -3.008520e+001
1003000000 1.029143e+000 -1.761826e+001 2.215676e-003 8.278558e+001 4.456733e-003 6.475500e+001 1.065847e+000 -3.017546e+001
1003150000 1.030736e+000 -1.771459e+001 2.203303e-003 7.809002e+001 4.569228e-003 6.537961e+001 1.062536e+000 -3.019133e+001
1003300000 1.030942e+000 -1.762206e+001 2.357585e-003 8.228294e+001 4.494014e-003 6.330096e+001 1.061990e+000 -3.024863e+001
1003450000 1.030789e+000 -1.769034e+001 2.368954e-003 7.116533e+001 3.869697e-003 6.860025e+001 1.060919e+000 -3.010845e+001
1003600000 1.031171e+000 -1.761553e+001 2.281057e-003 8.013442e+001 4.289638e-003 6.304513e+001 1.063325e+000 -3.012268e+001
1003750000 1.032231e+000 -1.767338e+001 2.318701e-003 8.178092e+001 3.891248e-003 5.863526e+001 1.060638e+000 -3.012135e+001
1003900000 1.029982e+000 -1.764384e+001 2.270728e-003 7.965503e+001 4.688051e-003 6.380828e+001 1.061840e+000 -3.014127e+001
1004050000 1.031483e+000 -1.760243e+001 2.572090e-003 7.934145e+001 4.500107e-003 6.080326e+001 1.064135e+000 -3.017089e+001
1004200000 1.029739e+000 -1.764697e+001 2.471756e-003 7.792984e+001 4.697870e-003 6.522842e+001 1.060720e+000 -3.006697e+001
1004350000 1.030511e+000 -1.766148e+001 2.528603e-003 8.403677e+001 4.075375e-003 6.625734e+001 1.063474e+000 -3.009550e+001
1004500000 1.029883e+000 -1.766236e+001 2.127643e-003 7.491653e+001 4.144029e-003 6.841996e+001 1.064254e+000 -3.007243e+001
1004650000 1.029209e+000 -1.767560e+001 2.293298e-003 7.628033e+001 4.075896e-003 6.901253e+001 1.061390e+000 -3.007319e+001
1004800000 1.029969e+000 -1.766477e+001 2.177516e-003 8.016811e+001 4.386808e-003 5.644656e+001 1.060566e+000 -3.017631e+001
1004950000 1.030408e+000 -1.764226e+001 2.044942e-003 7.821112e+001 4.348143e-003 6.636638e+001 1.063297e+000 -3.023742e+001
1005100000 1.029912e+000 -1.762840e+001 2.212194e-003 8.248972e+001 4.353497e-003 6.036448e+001 1.064088e+000 -3.016558e+001
1005250000 1.029920e+000 -1.765414e+001 2.353914e-003 7.780599e+001 3.934486e-003 6.711873e+001 1.063786e+000 -3.025296e+001
1005400000 1.031819e+000 -1.766430e+001 2.233546e-003 8.441090e+001 3.898660e-003 6.588528e+001 1.064358e+000 -3.015506e+001
1005550000 1.030077e+000 -1.772965e+001 2.154676e-003 7.543890e+001 4.142061e-003 5.921741e+001 1.063409e+000 -3.020224e+001
1005700000 1.030617e+000 -1.773541e+001 2.257226e-003 8.082220e+001 4.314144e-003 6.764864e+001 1.063118e+000 -3.036620e+001
1005850000 1.031574e+000 -1.765342e+001 2.745738e-003 7.192841e+001 4.368962e-003 6.055829e+001 1.062727e+000 -3.029717e+001
1006000000 1.031809e+000 -1.773022e+001 2.380807e-003 7.351268e+001 4.598067e-003 6.422777e+001 1.064105e+000 -3.024739e+001
1006150000 1.030195e+000 -1.770073e+001 2.079976e-003 8.163661e+001 4.485980e-003 6.694640e+001 1.064805e+000 -3.020662e+001
1006300000 1.030282e+000 -1.776972e+001 2.281303e-003 8.140102e+001 4.258967e-003 6.263502e+001 1.064246e+000 -3.026362e+001
1006450000 1.030811e+000 -1.777009e+001 2.129612e-003 7.798450e+001 4.448012e-003 5.736243e+001 1.062938e+000 -3.010796e+001
1006600000 1.032248e+000 -1.769829e+001 2.266498e-003 7.711335e+001 4.173448e-003 6.366201e+001 1.062487e+000 -3.026825e+001
1006750000 1.031894e+000 -1.780832e+001 2.291195e-003 7.692161e+001 4.049691e-003 6.046789e+001 1.063379e+000 -3.011012e+001
1006900000 1.031213e+000 -1.777491e+001 2.196598e-003 7.296243e+001 4.035555e-003 6.111322e+001 1.063262e+000 -3.024405e+001
1007050000 1.030959e+000 -1.768094e+001 2.393606e-003 7.579949e+001 4.218073e-003 6.708855e+001 1.064619e+000 -3.016520e+001
1007200000 1.030284e+000 -1.770139e+001 2.275091e-003 7.935892e+001 4.033044e-003 6.077100e+001 1.063585e+000 -3.018270e+001
1007350000 1.030111e+000 -1.769026e+001 1.919021e-003 8.278729e+001 4.141761e-003 7.378725e+001 1.062904e+000 -3.018946e+001
1007500000 1.032025e+000 -1.781376e+001 2.617878e-003 7.826308e+001 4.269548e-003 6.112110e+001 1.061975e+000 -3.013645e+001
1007650000 1.030346e+000 -1.773689e+001 2.524397e-003 7.480366e+001 3.932685e-003 6.819928e+001 1.063912e+000 -3.028276e+001
1007800000 1.028708e+000 -1.773639e+001 2.140852e-003 7.836487e+001 4.241468e-003 6.204624e+001 1.061082e+000 -3.038886e+001
1007950000 1.029007e+000 -1.770088e+001 2.016458e-003 7.383238e+001 4.793832e-003 6.308761e+001 1.062302e+000 -3.044246e+001
1008100000 1.029504e+000 -1.772081e+001 2.292773e-003 7.716656e+001 4.178473e-003 6.905820e+001 1.063440e+000 -3.038640e+001
1008250000 1.030188e+000 -1.777201e+001 2.464106e-003 7.677220e+001 4.112518e-003 6.622975e+001 1.059509e+000 -3.042752e+001
1008400000 1.029600e+000 -1.773365e+001 2.330852e-003 7.367413e+001 4.130691e-003 6.236787e+001 1.062301e+000 -3.043644e+001
1008550000 1.031454e+000 -1.771435e+001 2.411669e-003 7.867545e+001 4.090176e-003 6.656810e+001 1.061698e+000 -3.042938e+001
1008700000 1.029663e+000 -1.771111e+001 2.374332e-003 7.598073e+001 4.110634e-003 6.088069e+001 1.062632e+000 -3.029862e+001
1008850000 1.030317e+000 -1.766719e+001 2.172674e-003 7.322683e+001 3.926580e-003 6.352241e+001 1.062374e+000 -3.031405e+001
1009000000 1.030885e+000 -1.768141e+001 2.386793e-003 7.706863e+001 3.653946e-003 6.377204e+001 1.062870e+000 -3.024018e+001
1009150000 1.030548e+000 -1.762362e+001 2.283357e-003 7.561835e+001 3.908048e-003 6.441467e+001 1.063042e+000 -3.047214e+001
1009300000 1.030200e+000 -1.772382e+001 2.433991e-003 7.913763e+001 4.603880e-003 7.517473e+001 1.061843e+000 -3.033969e+001
1009450000 1.030139e+000 -1.774569e+001 2.372828e-003 7.852273e+001 4.302213e-003 6.371903e+001 1.062791e+000 -3.027267e+001
1009600000 1.030010e+000 -1.782744e+001 2.358878e-003 7.137016e+001 4.132552e-003 6.451366e+001 1.063450e+000 -3.037460e+001
1009750000 1.029680e+000 -1.774604e+001 2.217214e-003 8.255137e+001 3.954940e-003 6.099043e+001 1.060803e+000 -3.041648e+001
1009900000 1.030425e+000 -1.776697e+001 2.455402e-003 7.333571e+001 4.267309e-003 6.286291e+001 1.064484e+000 -3.041250e+001
1010050000 1.029768e+000 -1.783535e+001 2.357389e-003 7.316355e+001 4.348792e-003 6.359687e+001 1.063373e+000 -3.038733e+001
1010200000 1.031926e+000 -1.788881e+001 2.367632e-003 7.545603e+001 4.637681e-003 6.275636e+001 1.063716e+000 -3.036528e+001
1010350000 1.030995e+000 -1.788126e+001 2.475604e-003 7.581087e+001 4.302980e-003 6.292476e+001 1.065288e+000 -3.032606e+001
1010500000 1.030630e+000 -1.795105e+001 2.371897e-003 7.191023e+001 4.417233e-003 5.812465e+001 1.064560e+000 -3.042983e+001
1010650000 1.030166e+000 -1.790660e+001 2.184443e-003 7.268047e+001 3.782132e-003 6.312530e+001 1.062403e+000 -3.048415e+001
1010800000 1.029613e+000 -1.789090e+001 2.210843e-003 7.171893e+001 3.793923e-003 6.248228e+001 1.062262e+000 -3.020342e+001
1010950000 1.029573e+000 -1.783924e+001 2.414521e-003 6.770998e+001 4.099067e-003 6.302374e+001 1.061655e+000 -3.034460e+001
1011100000 1.030423e+000 -1.784511e+001 2.305414e-003 6.812709e+001 4.032683e-003 6.587229e+001 1.062509e+000 -3.029383e+001
1011250000 1.029670e+000 -1.776799e+001 2.116440e-003 7.392348e+001 3.903556e-003 6.275631e+001 1.063757e+000 -3.030465e+001
1011400000 1.029720e+000 -1.777776e+001 2.280825e-003 7.881958e+001 4.571706e-003 7.377296e+001 1.060186e+000 -3.019919e+001
1011550000 1.030477e+000 -1.778685e+001 2.242023e-003 8.029649e+001 4.026871e-003 7.582724e+001 1.062624e+000 -3.050550e+001
1011700000 1.030596e+000 -1.790540e+001 2.495281e-003 8.082789e+001 4.487914e-003 6.714312e+001 1.059984e+000 -3.047317e+001
1011850000 1.030025e+000 -1.792965e+001 2.402568e-003 7.304469e+001 4.798758e-003 6.411298e+001 1.060103e+000 -3.046270e+001
1012000000 1.030741e+000 -1.790202e+001 2.231863e-003 7.462270e+001 4.327151e-003 6.562442e+001 1.061813e+000 -3.043719e+001
1012150000 1.029401e+000 -1.789053e+001 2.095571e-003 7.612160e+001 3.953744e-003 6.598611e+001 1.062622e+000 -3.042084e+001
1012300000 1.031140e+000 -1.786492e+001 2.383522e-003 6.947268e+001 4.442357e-003 6.904761e+001 1.063450e+000 -3.044245e+001
1012450000 1.029652e+000 -1.781825e+001 2.321249e-003 7.580202e+001 4.752678e-003 5.999879e+001 1.063373e+000 -3.031737e+001
1012600000 1.030784e+000 -1.791868e+001 2.089065e-003 8.115675e+001 4.367579e-003 6.142090e+001 1.064296e+000 -3.029272e+001
1012750000 1.029750e+000 -1.782031e+001 2.183958e-003 7.979656e+001 4.642812e-003 6.360987e+001 1.066104e+000 -3.026122e+001
1012900000 1.028508e+000 -1.784007e+001 2.378452e-003 7.549811e+001 4.153009e-003 6.515199e+001 1.065485e+000 -3.024932e+001
1013050000 1.029237e+000 -1.782235e+001 2.247133e-003 7.468216e+001 4.410800e-003 6.129956e+001 1.062827e+000 -3.032346e+001
1013200000 1.028299e+000 -1.794919e+001 2.083199e-003 7.915458e+001 3.622324e-003 6.128665e+001 1.061186e+000 -3.034844e+001
1013350000 1.030523e+000 -1.794273e+001 2.275064e-003 7.385484e+001 4.586775e-003 6.983188e+001 1.063405e+000 -3.033876e+001
1013500000 1.028277e+000 -1.795306e+001 2.302732e-003 7.472337e+001 3.898174e-003 7.271825e+001 1.060019e+000 -3.036025e+001
1013650000 1.029660e+000 -1.795058e+001 2.241291e-003 7.896762e+001 4.354131e-003 6.556796e+001 1.064411e+000 -3.045362e+001
1013800000 1.030162e+000 -1.799419e+001 2.340534e-003 8.023866e+001 3.874160e-003 6.107580e+001 1.062692e+000 -3.053444e+001
1013950000 1.030070e+000 -1.790971e+001 2.198709e-003 6.730324e+001 4.145158e-003 6.634974e+001 1.064720e+000 -3.043644e+001
1014100000 1.030527e+000 -1.793884e+001 2.162258e-003 7.720434e+001 4.393735e-003 7.024370e+001 1.062535e+000 -3.040585e+001
1014250000 1.031424e+000 -1.787150e+001 2.496938e-003 7.876994e+001 4.115496e-003 6.801447e+001 1.061477e+000 -3.036367e+001
1014400000 1.030094e+000 -1.796513e+001 2.705669e-003 7.609783e+001 4.626658e-003 5.513441e+001 1.063022e+000 -3.040721e+001
1014550000 1.031056e+000 -1.797152e+001 2.046976e-003 7.298280e+001 4.335067e-003 6.280365e+001 1.062484e+000 -3.045040e+001
1014700000 1.030827e+000 -1.796718e+001 2.099122e-003 6.747887e+001 3.719310e-003 6.170366e+001 1.063500e+000 -3.044128e+001
1014850000 1.029007e+000 -1.803132e+001 2.259020e-003 7.499926e+001 3.938875e-003 6.282108e+001 1.063765e+000 -3.040229e+001
1015000000 1.031741e+000 -1.794702e+001 2.074049e-003 8.424554e+001 3.985764e-003 6.133364e+001 1.063964e+000 -3.040593e+001
1015150000 1.031837e+000 -1.793935e+001 2.054732e-003 7.451100e+001 4.336998e-003 6.237294e+001 1.064501e+000 -3.040885e+001
1015300000 1.031507e+000 -1.796410e+001 2.842656e-003 7.819465e+001 4.449729e-003 5.923669e+001 1.063960e+000 -3.042134e+001
1015450000 1.030614e+000 -1.791139e+001 2.406836e-003 8.420723e+001 3.893566e-003 6.019796e+001 1.062791e+000 -3.052052e+001
1015600000 1.029068e+000 -1.794876e+001 2.289198e-003 7.526340e+001 3.964852e-003 7.101417e+001 1.060399e+000 -3.037145e+001
1015750000 1.030724e+000 -1.798909e+001 2.487614e-003 7.862746e+001 4.311835e-003 7.075320e+001 1.062077e+000 -3.060002e+001
1015900000 1.029066e+000 -1.790803e+001 2.559107e-003 7.305499e+001 4.329406e-003 5.760701e+001 1.061815e+000 -3.055158e+001
1016050000 1.030106e+000 -1.793452e+001 2.550593e-003 7.458202e+001 3.961124e-003 7.006518e+001 1.059982e+000 -3.052329e+001
1016200000 1.031305e+000 -1.792405e+001 2.391777e-003 7.478541e+001 4.345324e-003 6.527930e+001 1.059439e+000 -3.044513e+001
1016350000 1.030769e+000 -1.793447e+001 2.282937e-003 8.083774e+001 3.938454e-003 5.957179e+001 1.062238e+000 -3.050205e+001
1016500000 1.029764e+000 -1.795781e+001 2.116353e-003 8.000509e+001 4.109296e-003 6.331816e+001 1.061880e+000 -3.053918e+001
1016650000 1.033669e+000 -1.796060e+001 2.541930e-003 7.673579e+001 4.025494e-003 6.106751e+001 1.061437e+000 -3.047001e+001
1016800000 1.031800e+000 -1.792332e+001 2.487819e-003 6.964937e+001 4.168702e-003 6.355329e+001 1.061377e+000 -3.041404e+001
1016950000 1.033455e+000 -1.799058e+001 2.231234e-003 6.890804e+001 4.619673e-003 7.057481e+001 1.064519e+000 -3.048180e+001
1017100000 1.031505e+000 -1.797960e+001 2.409144e-003 7.712963e+001 4.561436e-003 6.134685e+001 1.066350e+000 -3.039481e+001
1017250000 1.031718e+000 -1.801227e+001 2.293725e-003 7.931621e+001 4.566386e-003 6.053461e+001 1.065477e+000 -3.038543e+001
1017400000 1.032338e+000 -1.800487e+001 2.413947e-003 7.613762e+001 4.519987e-003 6.109964e+001 1.065731e+000 -3.041411e+001
1017550000 1.031222e+000 -1.802306e+001 2.514317e-003 8.273389e+001 4.180483e-003 5.848230e+001 1.063677e+000 -3.050986e+001
1017700000 1.030544e+000 -1.797246e+001 2.639991e-003 7.409496e+001 4.684038e-003 5.083567e+001 1.062491e+000 -3.043817e+001
1017850000 1.029988e+000 -1.796875e+001 2.246273e-003 7.703140e+001 3.903567e-003 6.043512e+001 1.063722e+000 -3.057317e+001
1018000000 1.029598e+000 -1.810390e+001 2.331618e-003 6.762285e+001 3.996038e-003 6.514460e+001 1.063493e+000 -3.053361e+001
1018150000 1.029420e+000 -1.806908e+001 2.248253e-003 7.484830e+001 4.180464e-003 6.418895e+001 1.063907e+000 -3.052423e+001
1018300000 1.029441e+000 -1.806442e+001 2.413742e-003 7.301624e+001 4.880797e-003 6.255680e+001 1.065119e+000 -3.046056e+001
1018450000 1.030958e+000 -1.800875e+001 2.444733e-003 7.135754e+001 4.434078e-003 6.289040e+001 1.063330e+000 -3.061742e+001
1018600000 1.032149e+000 -1.808255e+001 2.391335e-003 7.590546e+001 4.004080e-003 5.766322e+001 1.064589e+000 -3.046918e+001
1018750000 1.030704e+000 -1.800979e+001 2.226691e-003 7.393642e+001 4.219109e-003 6.140246e+001 1.063305e+000 -3.052743e+001
1018900000 1.032048e+000 -1.804040e+001 2.311155e-003 7.439856e+001 4.371297e-003 5.916587e+001 1.064430e+000 -3.052073e+001
1019050000 1.030748e+000 -1.803131e+001 2.443531e-003 7.623092e+001 4.477853e-003 6.063939e+001 1.063885e+000 -3.049708e+001
1019200000 1.031575e+000 -1.805043e+001 2.648903e-003 7.821875e+001 4.296693e-003 6.891707e+001 1.064051e+000 -3.056498e+001
1019350000 1.030803e+000 -1.805512e+001 2.406639e-003 7.060941e+001 4.067797e-003 6.093442e+001 1.063917e+000 -3.063831e+001
1019500000 1.028564e+000 -1.808639e+001 2.591836e-003 7.235344e+001 4.435334e-003 5.999865e+001 1.064273e+000 -3.066590e+001
1019650000 1.030346e+000 -1.803918e+001 2.247344e-003 7.710299e+001 4.255862e-003 6.263100e+001 1.063841e+000 -3.063766e+001
1019800000 1.030838e+000 -1.812265e+001 2.250241e-003 7.788604e+001 4.578590e-003 6.401220e+001 1.061997e+000 -3.065667e+001
1019950000 1.031179e+000 -1.805055e+001 2.374109e-003 7.210503e+001 4.209542e-003 6.852366e+001 1.063820e+000 -3.063897e+001
1020100000 1.030650e+000 -1.814894e+001 2.062150e-003 7.754024e+001 4.528029e-003 6.069107e+001 1.061657e+000 -3.061364e+001
1020250000 1.029904e+000 -1.808068e+001 2.228698e-003 7.254248e+001 3.882060e-003 5.749246e+001 1.064626e+000 -3.056289e+001
1020400000 1.030318e+000 -1.814050e+001 2.199079e-003 8.132754e+001 4.105034e-003 6.245406e+001 1.064558e+000 -3.064571e+001
1020550000 1.030456e+000 -1.809655e+001 2.467618e-003 7.274246e+001 3.983550e-003 5.219432e+001 1.066308e+000 -3.058807e+001
1020700000 1.030740e+000 -1.815653e+001 2.356772e-003 7.017175e+001 3.874106e-003 5.526174e+001 1.067891e+000 -3.063310e+001
1020850000 1.031334e+000 -1.810013e+001 2.415742e-003 7.830625e+001 4.485837e-003 5.938263e+001 1.069852e+000 -3.058629e+001
1021000000 1.030671e+000 -1.810782e+001 2.398765e-003 7.519375e+001 4.772468e-003 6.364685e+001 1.067865e+000 -3.057765e+001
1021150000 1.031354e+000 -1.813018e+001 2.698858e-003 7.736782e+001 4.276581e-003 5.868737e+001 1.067911e+000 -3.077687e+001
1021300000 1.029458e+000 -1.811112e+001 2.580475e-003 7.591820e+001 3.957365e-003 5.612679e+001 1.066691e+000 -3.065350e+001
1021450000 1.029082e+000 -1.806419e+001 2.454435e-003 7.096246e+001 4.333916e-003 5.643279e+001 1.063694e+000 -3.076612e+001
1021600000 1.030118e+000 -1.806323e+001 2.178058e-003 6.911107e+001 4.236037e-003 5.615954e+001 1.063787e+000 -3.087273e+001
1021750000 1.028883e+000 -1.806659e+001 2.269731e-003 7.381422e+001 4.501502e-003 5.600853e+001 1.063201e+000 -3.065154e+001
1021900000 1.028814e+000 -1.813172e+001 2.364978e-003 7.302648e+001 3.844880e-003 5.973249e+001 1.061725e+000 -3.084003e+001
1022050000 1.030205e+000 -1.807546e+001 2.482102e-003 6.939163e+001 3.885739e-003 6.129994e+001 1.061848e+000 -3.078045e+001
1022200000 1.030565e+000 -1.805494e+001 2.308981e-003 7.679395e+001 4.030481e-003 6.479396e+001 1.062427e+000 -3.067327e+001
1022350000 1.031804e+000 -1.807721e+001 2.655335e-003 7.714246e+001 3.689275e-003 6.649371e+001 1.066544e+000 -3.058833e+001
1022500000 1.030969e+000 -1.807403e+001 2.029361e-003 6.971197e+001 4.583615e-003 6.485654e+001 1.065194e+000 -3.067676e+001
1022650000 1.030428e+000 -1.818264e+001 2.440746e-003 7.534026e+001 4.164954e-003 5.911301e+001 1.066213e+000 -3.070359e+001
1022800000 1.030582e+000 -1.807561e+001 2.423419e-003 7.848263e+001 4.536672e-003 6.791737e+001 1.064148e+000 -3.060917e+001
1022950000 1.032215e+000 -1.813838e+001 2.538293e-003 7.193172e+001 4.380044e-003 5.655849e+001 1.064517e+000 -3.063251e+001
1023100000 1.030007e+000 -1.808996e+001 2.387255e-003 7.711052e+001 4.337811e-003 5.769157e+001 1.063026e+000 -3.070683e+001
1023250000 1.028976e+000 -1.807941e+001 2.325142e-003 7.397178e+001 4.748120e-003 6.356687e+001 1.064699e+000 -3.056401e+001
