!Agilent Technologies,N5230C,SG49000117,A.08.50.07
!Agilent N5230C: A.08.50.07
!Date: Monday, May 20, 2024 21:04:35
!Correction: S11(Full 2 Port(1,2)) 
!S21(Full 2 Port(1,2)) 
!S12(Full 2 Port(1,2)) 
!S22(Full 2 Port(1,2)) 
!S2P File: Measurements: S11, S21, S12, S22:
# Hz S  MA   R 50
1000000000 1.031239e+000 -1.756920e+001 1.944387e-003 7.927794e+001 3.700839e-003 5.917342e+001 1.064071e+000 -3.010869e+001
1000150000 1.030953e+000 -1.759716e+001 1.849565e-003 7.511376e+001 3.361388e-003 6.782853e+001 1.064416e+000 -3.007316e+001
1000300000 1.031309e+000 -1.760269e+001 1.939383e-003 7.329955e+001 3.228834e-003 6.780395e+001 1.062430e+000 -3.021041e+001
1000450000 1.030988e+000 -1.768018e+001 1.891851e-003 6.814576e+001 3.742603e-003 6.974508e+001 1.062766e+000 -3.001506e+001
1000600000 1.031045e+000 -1.771047e+001 2.021595e-003 7.203173e+001 4.048777e-003 6.023594e+001 1.062343e+000 -3.022512e+001
1000750000 1.031061e+000 -1.766463e+001 2.111540e-003 7.753621e+001 3.439781e-003 6.695171e+001 1.062159e+000 -3.016029e+001
1000900000 1.030886e+000 -1.763177e+001 1.866160e-003 7.420930e+001 3.475052e-003 6.014021e+001 1.061105e+000 -3.015641e+001
1001050000 1.031177e+000 -1.764997e+001 2.259623e-003 8.425278e+001 3.776750e-003 6.003694e+001 1.062695e+000 -3.000737e+001
1001200000 1.030470e+000 -1.767066e+001 2.028174e-003 7.673360e+001 3.341118e-003 6.478696e+001 1.062553e+000 -3.009595e+001
1001350000 1.029721e+000 -1.766472e+001 2.094362e-003 7.385939e+001 3.409604e-003 6.346706e+001 1.063727e+000 -3.005510e+001
1001500000 1.029301e+000 -1.773018e+001 2.314797e-003 7.508504e+001 3.831145e-003 6.307943e+001 1.062185e+000 -3.012451e+001
1001650000 1.029231e+000 -1.767705e+001 1.823368e-003 8.468828e+001 3.696738e-003 7.341299e+001 1.062326e+000 -3.012893e+001
1001800000 1.029328e+000 -1.764706e+001 1.947049e-003 7.813503e+001 3.388237e-003 6.341669e+001 1.062493e+000 -3.004790e+001
1001950000 1.029685e+000 -1.772983e+001 1.903053e-003 7.377283e+001 3.964596e-003 7.081625e+001 1.060939e+000 -3.021532e+001
1002100000 1.029129e+000 -1.764594e+001 2.104648e-003 7.480566e+001 3.415417e-003 6.569429e+001 1.062078e+000 -3.024746e+001
1002250000 1.027948e+000 -1.775265e+001 1.906417e-003 7.846687e+001 3.656663e-003 6.522293e+001 1.062480e+000 -3.013926e+001
1002400000 1.031102e+000 -1.772705e+001 1.809552e-003 6.876640e+001 3.742061e-003 6.195968e+001 1.060573e+000 -3.019436e+001
1002550000 1.029995e+000 -1.769607e+001 1.845331e-003 7.073019e+001 4.156435e-003 7.431508e+001 1.058971e+000 -3.022829e+001
1002700000 1.029513e+000 -1.766257e+001 2.331928e-003 7.581479e+001 3.985304e-003 6.328154e+001 1.061549e+000 -3.025602e+001
1002850000 1.030769e+000 -1.773496e+001 1.886241e-003 7.976272e+001 3.615602e-003 6.495711e+001 1.064409e+000 -3.028374e+001
1003000000 1.031070e+000 -1.773580e+001 2.078818e-003 7.906991e+001 3.977509e-003 5.916840e+001 1.062462e+000 -3.024520e+001
1003150000 1.031933e+000 -1.768123e+001 2.366689e-003 6.982875e+001 4.247810e-003 6.601295e+001 1.063362e+000 -3.013239e+001
1003300000 1.032456e+000 -1.771231e+001 1.705915e-003 7.597219e+001 3.678925e-003 6.442435e+001 1.061049e+000 -3.018794e+001
1003450000 1.031744e+000 -1.770030e+001 1.997969e-003 8.014912e+001 3.627543e-003 6.604252e+001 1.061220e+000 -3.013857e+001
1003600000 1.031249e+000 -1.766747e+001 2.232326e-003 7.536208e+001 3.440569e-003 6.256982e+001 1.061851e+000 -3.023799e+001
1003750000 1.031938e+000 -1.761614e+001 2.031458e-003 7.698858e+001 3.609634e-003 6.930699e+001 1.060144e+000 -3.014756e+001
1003900000 1.031350e+000 -1.765648e+001 2.057273e-003 7.317781e+001 3.166669e-003 6.588998e+001 1.060888e+000 -3.026903e+001
1004050000 1.031420e+000 -1.760635e+001 2.348722e-003 7.373006e+001 3.654219e-003 6.921287e+001 1.061658e+000 -3.008406e+001
1004200000 1.030242e+000 -1.766782e+001 1.996530e-003 7.834095e+001 3.156139e-003 6.802066e+001 1.060432e+000 -3.007124e+001
1004350000 1.030860e+000 -1.771221e+001 2.073365e-003 7.387517e+001 3.882137e-003 6.478344e+001 1.063922e+000 -3.010214e+001
1004500000 1.029992e+000 -1.775589e+001 2.253535e-003 7.613309e+001 3.445940e-003 7.126213e+001 1.061177e+000 -3.015380e+001
1004650000 1.031010e+000 -1.770135e+001 2.079073e-003 7.716022e+001 3.570038e-003 6.096132e+001 1.062040e+000 -3.021448e+001
1004800000 1.030705e+000 -1.775105e+001 1.859415e-003 8.351794e+001 4.006168e-003 6.381561e+001 1.062546e+000 -3.014270e+001
1004950000 1.030986e+000 -1.768786e+001 1.999502e-003 7.373790e+001 3.506879e-003 6.484858e+001 1.059970e+000 -3.023950e+001
1005100000 1.030490e+000 -1.770758e+001 2.129921e-003 7.847340e+001 3.768835e-003 6.225390e+001 1.062531e+000 -3.021329e+001
1005250000 1.030159e+000 -1.762513e+001 2.198697e-003 7.708025e+001 4.000588e-003 5.924264e+001 1.063076e+000 -3.018986e+001
1005400000 1.030552e+000 -1.772022e+001 2.081363e-003 7.605090e+001 3.361724e-003 6.107282e+001 1.064481e+000 -3.018721e+001
1005550000 1.031134e+000 -1.771632e+001 1.796338e-003 7.750131e+001 3.650463e-003 5.476336e+001 1.062818e+000 -3.021737e+001
1005700000 1.030852e+000 -1.770637e+001 2.115075e-003 7.280568e+001 3.421052e-003 6.100201e+001 1.061670e+000 -3.016229e+001
1005850000 1.031680e+000 -1.775366e+001 2.136989e-003 7.803071e+001 3.467901e-003 5.587530e+001 1.066432e+000 -3.035673e+001
1006000000 1.031358e+000 -1.761257e+001 2.266196e-003 7.391150e+001 3.338256e-003 6.411873e+001 1.063683e+000 -3.034318e+001
1006150000 1.030025e+000 -1.778750e+001 1.974751e-003 7.354620e+001 3.642966e-003 6.263945e+001 1.062493e+000 -3.026701e+001
1006300000 1.031410e+000 -1.780029e+001 1.815703e-003 7.886079e+001 3.963988e-003 4.966304e+001 1.063077e+000 -3.029785e+001
1006450000 1.031563e+000 -1.773238e+001 2.030059e-003 8.193933e+001 4.028847e-003 6.370764e+001 1.062495e+000 -3.015192e+001
1006600000 1.031374e+000 -1.775193e+001 2.020784e-003 7.735596e+001 3.274152e-003 6.564085e+001 1.062449e+000 -3.018309e+001
1006750000 1.030847e+000 -1.783746e+001 1.840674e-003 7.854937e+001 3.174439e-003 6.172344e+001 1.059816e+000 -3.023579e+001
1006900000 1.031404e+000 -1.773579e+001 2.006758e-003 8.061954e+001 3.298483e-003 6.099340e+001 1.063687e+000 -3.024063e+001
1007050000 1.032032e+000 -1.778957e+001 2.030918e-003 7.377442e+001 3.167148e-003 6.147913e+001 1.061450e+000 -3.020151e+001
1007200000 1.032587e+000 -1.774331e+001 2.227708e-003 7.950047e+001 3.986164e-003 6.801900e+001 1.061796e+000 -3.026218e+001
1007350000 1.031564e+000 -1.772985e+001 1.692630e-003 8.158007e+001 3.408225e-003 6.537333e+001 1.061098e+000 -3.017856e+001
1007500000 1.030522e+000 -1.774995e+001 1.916909e-003 8.360150e+001 3.739588e-003 6.785357e+001 1.059435e+000 -3.025874e+001
1007650000 1.031279e+000 -1.779050e+001 2.110200e-003 7.001850e+001 3.850313e-003 6.577592e+001 1.059562e+000 -3.029851e+001
1007800000 1.030379e+000 -1.775134e+001 2.135018e-003 7.503518e+001 3.483914e-003 7.232567e+001 1.062252e+000 -3.045026e+001
1007950000 1.031216e+000 -1.781018e+001 2.149257e-003 7.269969e+001 3.237890e-003 8.304241e+001 1.062028e+000 -3.044951e+001
1008100000 1.030777e+000 -1.782242e+001 1.693620e-003 6.635546e+001 3.425882e-003 6.494160e+001 1.059740e+000 -3.043062e+001
1008250000 1.029787e+000 -1.787315e+001 2.040611e-003 7.339021e+001 3.383656e-003 5.843011e+001 1.060816e+000 -3.039859e+001
1008400000 1.029154e+000 -1.778960e+001 1.784473e-003 7.408685e+001 3.501098e-003 6.708203e+001 1.061258e+000 -3.041001e+001
1008550000 1.031591e+000 -1.777936e+001 1.785580e-003 7.657916e+001 3.602884e-003 6.451969e+001 1.063079e+000 -3.032740e+001
1008700000 1.031142e+000 -1.778888e+001 1.992860e-003 7.649666e+001 3.497094e-003 6.030551e+001 1.061163e+000 -3.035152e+001
1008850000 1.030973e+000 -1.776063e+001 1.807801e-003 7.601379e+001 3.694625e-003 6.712487e+001 1.064458e+000 -3.032673e+001
1009000000 1.029954e+000 -1.781766e+001 1.949966e-003 7.731165e+001 3.342694e-003 6.004628e+001 1.063434e+000 -3.045450e+001
1009150000 1.030216e+000 -1.783194e+001 1.835080e-003 7.670711e+001 3.407831e-003 6.020102e+001 1.064324e+000 -3.041423e+001
1009300000 1.030355e+000 -1.773886e+001 1.986819e-003 7.518806e+001 3.547627e-003 5.798451e+001 1.062049e+000 -3.042557e+001
1009450000 1.031126e+000 -1.777387e+001 2.094766e-003 7.676811e+001 3.763754e-003 5.799747e+001 1.064868e+000 -3.044538e+001
1009600000 1.031563e+000 -1.774094e+001 2.226300e-003 7.601839e+001 3.704912e-003 5.788088e+001 1.062489e+000 -3.046042e+001
1009750000 1.030567e+000 -1.783509e+001 1.884635e-003 7.562271e+001 3.044586e-003 5.615210e+001 1.062171e+000 -3.048661e+001
1009900000 1.030406e+000 -1.780676e+001 2.302815e-003 7.021659e+001 3.487285e-003 6.288007e+001 1.063642e+000 -3.039106e+001
1010050000 1.030554e+000 -1.787463e+001 2.138047e-003 7.790985e+001 4.040238e-003 6.579637e+001 1.063063e+000 -3.059431e+001
1010200000 1.030553e+000 -1.791590e+001 1.876703e-003 7.005476e+001 3.505639e-003 6.423222e+001 1.062798e+000 -3.052880e+001
1010350000 1.031100e+000 -1.796896e+001 2.150248e-003 7.614127e+001 3.718665e-003 5.676467e+001 1.061402e+000 -3.047777e+001
1010500000 1.030030e+000 -1.790599e+001 2.117418e-003 8.045724e+001 3.912664e-003 6.813642e+001 1.062666e+000 -3.041096e+001
1010650000 1.031247e+000 -1.797469e+001 1.783377e-003 6.988451e+001 3.300770e-003 5.906638e+001 1.065719e+000 -3.037575e+001
1010800000 1.030044e+000 -1.794519e+001 1.941354e-003 7.551496e+001 4.120795e-003 6.416929e+001 1.062242e+000 -3.028802e+001
1010950000 1.027955e+000 -1.792360e+001 2.315640e-003 7.483448e+001 3.579876e-003 6.079795e+001 1.062807e+000 -3.043903e+001
1011100000 1.031312e+000 -1.785115e+001 1.946062e-003 6.949543e+001 3.470287e-003 6.321395e+001 1.062078e+000 -3.035403e+001
1011250000 1.031415e+000 -1.782674e+001 1.999324e-003 8.861537e+001 3.048227e-003 7.134322e+001 1.062136e+000 -3.029164e+001
1011400000 1.032367e+000 -1.779711e+001 1.850335e-003 7.257071e+001 3.533198e-003 6.242576e+001 1.061839e+000 -3.029518e+001
1011550000 1.030639e+000 -1.780126e+001 2.183141e-003 8.282432e+001 3.706802e-003 6.807716e+001 1.060782e+000 -3.051749e+001
1011700000 1.031865e+000 -1.783825e+001 1.771307e-003 8.190008e+001 4.100353e-003 6.458881e+001 1.061502e+000 -3.045909e+001
1011850000 1.031328e+000 -1.791888e+001 1.507767e-003 7.506593e+001 4.153690e-003 7.013453e+001 1.063091e+000 -3.059743e+001
1012000000 1.031594e+000 -1.783961e+001 1.946870e-003 8.181403e+001 4.144632e-003 6.055582e+001 1.063970e+000 -3.046094e+001
1012150000 1.031392e+000 -1.784356e+001 1.849859e-003 8.214528e+001 3.605718e-003 6.032988e+001 1.062025e+000 -3.044844e+001
1012300000 1.030398e+000 -1.790336e+001 1.908748e-003 8.155893e+001 3.355019e-003 6.162523e+001 1.061119e+000 -3.045584e+001
1012450000 1.030494e+000 -1.793081e+001 1.643604e-003 7.657690e+001 3.287232e-003 6.726189e+001 1.063621e+000 -3.033058e+001
1012600000 1.030461e+000 -1.788759e+001 1.946013e-003 8.112580e+001 3.396606e-003 5.220768e+001 1.062587e+000 -3.030318e+001
1012750000 1.029974e+000 -1.782516e+001 1.939592e-003 7.508047e+001 3.751257e-003 6.373578e+001 1.064828e+000 -3.028769e+001
1012900000 1.030595e+000 -1.785162e+001 2.000901e-003 6.898834e+001 3.479061e-003 5.959962e+001 1.060770e+000 -3.021431e+001
1013050000 1.030945e+000 -1.787266e+001 2.245864e-003 7.238139e+001 3.476704e-003 6.580387e+001 1.062501e+000 -3.031017e+001
1013200000 1.030189e+000 -1.791642e+001 2.179304e-003 7.538490e+001 3.659061e-003 6.827344e+001 1.062748e+000 -3.037665e+001
1013350000 1.029448e+000 -1.795134e+001 1.910393e-003 7.759299e+001 3.810127e-003 6.537939e+001 1.062288e+000 -3.048388e+001
1013500000 1.029221e+000 -1.795907e+001 2.115971e-003 7.164578e+001 3.048659e-003 6.802126e+001 1.062046e+000 -3.050919e+001
1013650000 1.030389e+000 -1.792609e+001 1.827793e-003 7.823003e+001 3.655876e-003 7.053169e+001 1.061719e+000 -3.044128e+001
1013800000 1.030674e+000 -1.792996e+001 1.824392e-003 7.452856e+001 3.263451e-003 6.173146e+001 1.060803e+000 -3.058347e+001
1013950000 1.030545e+000 -1.796465e+001 2.099521e-003 7.683945e+001 3.156679e-003 5.831326e+001 1.063192e+000 -3.055482e+001
1014100000 1.031316e+000 -1.793167e+001 2.078725e-003 7.649213e+001 3.568072e-003 6.202142e+001 1.061405e+000 -3.056491e+001
1014250000 1.031148e+000 -1.795379e+001 2.008214e-003 7.419382e+001 3.773505e-003 6.985136e+001 1.061663e+000 -3.047557e+001
1014400000 1.032133e+000 -1.790279e+001 1.861913e-003 8.034424e+001 3.962990e-003 6.625558e+001 1.060929e+000 -3.053038e+001
1014550000 1.031628e+000 -1.792325e+001 2.179546e-003 7.872961e+001 4.361618e-003 5.497614e+001 1.063813e+000 -3.058854e+001
1014700000 1.031664e+000 -1.806836e+001 1.781870e-003 7.090027e+001 3.790598e-003 6.224757e+001 1.062893e+000 -3.037094e+001
1014850000 1.032630e+000 -1.800381e+001 2.136935e-003 7.802601e+001 3.956758e-003 5.995274e+001 1.063222e+000 -3.060213e+001
1015000000 1.032540e+000 -1.805677e+001 2.024000e-003 7.207990e+001 3.649557e-003 6.552991e+001 1.062391e+000 -3.046070e+001
1015150000 1.030474e+000 -1.799389e+001 1.924972e-003 7.856355e+001 3.542702e-003 7.465270e+001 1.061803e+000 -3.061633e+001
1015300000 1.031044e+000 -1.791229e+001 2.092673e-003 7.321815e+001 4.177042e-003 6.943282e+001 1.059649e+000 -3.054007e+001
1015450000 1.030839e+000 -1.796884e+001 1.804915e-003 7.882992e+001 4.065105e-003 5.969090e+001 1.061294e+000 -3.048201e+001
1015600000 1.030380e+000 -1.797524e+001 2.221781e-003 6.899223e+001 4.257844e-003 6.300218e+001 1.059647e+000 -3.059573e+001
1015750000 1.031260e+000 -1.799903e+001 1.782652e-003 7.553838e+001 3.325809e-003 5.860750e+001 1.061489e+000 -3.057645e+001
1015900000 1.031444e+000 -1.800252e+001 2.105764e-003 6.794882e+001 3.211980e-003 7.057439e+001 1.058216e+000 -3.067608e+001
1016050000 1.030333e+000 -1.799485e+001 1.834516e-003 7.863258e+001 3.756857e-003 5.649006e+001 1.060282e+000 -3.059625e+001
1016200000 1.030983e+000 -1.794609e+001 2.019235e-003 8.491153e+001 3.694752e-003 6.803795e+001 1.058284e+000 -3.054972e+001
1016350000 1.031920e+000 -1.802067e+001 1.853474e-003 7.337874e+001 4.056110e-003 6.330153e+001 1.060438e+000 -3.049898e+001
1016500000 1.031871e+000 -1.794507e+001 2.059369e-003 7.921249e+001 3.635417e-003 6.518102e+001 1.059468e+000 -3.043300e+001
1016650000 1.032639e+000 -1.793430e+001 2.187840e-003 7.320005e+001 3.636547e-003 5.742252e+001 1.062290e+000 -3.050126e+001
1016800000 1.031815e+000 -1.793901e+001 1.936100e-003 7.417756e+001 3.536464e-003 6.036784e+001 1.061597e+000 -3.053152e+001
1016950000 1.033109e+000 -1.794507e+001 1.908172e-003 7.431746e+001 4.014505e-003 7.356463e+001 1.062551e+000 -3.058179e+001
1017100000 1.032235e+000 -1.806616e+001 1.882573e-003 7.890611e+001 3.998517e-003 6.381418e+001 1.063315e+000 -3.036538e+001
1017250000 1.032133e+000 -1.807648e+001 2.098511e-003 7.854235e+001 4.297991e-003 6.727301e+001 1.067273e+000 -3.046909e+001
1017400000 1.032490e+000 -1.799154e+001 2.136419e-003 7.705611e+001 4.245306e-003 6.737819e+001 1.065091e+000 -3.048348e+001
1017550000 1.031371e+000 -1.797271e+001 1.935041e-003 8.107664e+001 4.444536e-003 6.166882e+001 1.063213e+000 -3.053025e+001
1017700000 1.030934e+000 -1.805944e+001 2.167299e-003 6.729237e+001 4.050621e-003 5.876539e+001 1.062406e+000 -3.059229e+001
1017850000 1.029811e+000 -1.804476e+001 2.157830e-003 7.500925e+001 3.414564e-003 6.171811e+001 1.063676e+000 -3.068668e+001
1018000000 1.029895e+000 -1.804108e+001 1.876453e-003 6.589717e+001 4.096472e-003 6.102417e+001 1.063412e+000 -3.045160e+001
1018150000 1.030249e+000 -1.807781e+001 2.071848e-003 7.458764e+001 3.460866e-003 6.295726e+001 1.060577e+000 -3.063066e+001
1018300000 1.030254e+000 -1.811459e+001 1.965137e-003 7.676476e+001 3.637027e-003 5.283449e+001 1.059929e+000 -3.060621e+001
1018450000 1.031322e+000 -1.804934e+001 2.093975e-003 8.006823e+001 3.836711e-003 5.756255e+001 1.061904e+000 -3.050366e+001
1018600000 1.030502e+000 -1.804034e+001 2.068492e-003 7.153141e+001 3.881259e-003 6.589284e+001 1.064026e+000 -3.053363e+001
1018750000 1.031984e+000 -1.807001e+001 1.571676e-003 7.755019e+001 3.780092e-003 7.055585e+001 1.061518e+000 -3.060203e+001
1018900000 1.032067e+000 -1.806145e+001 1.741958e-003 6.723493e+001 3.155728e-003 6.503258e+001 1.061386e+000 -3.058310e+001
1019050000 1.030146e+000 -1.807034e+001 2.312494e-003 7.409903e+001 3.673178e-003 6.802277e+001 1.064142e+000 -3.053345e+001
1019200000 1.031644e+000 -1.811141e+001 1.956192e-003 7.526561e+001 3.238981e-003 6.726688e+001 1.064566e+000 -3.051118e+001
1019350000 1.031693e+000 -1.813578e+001 1.929129e-003 6.780581e+001 3.159401e-003 6.483120e+001 1.062377e+000 -3.065441e+001
1019500000 1.031233e+000 -1.810091e+001 1.977095e-003 7.226289e+001 2.952535e-003 6.938821e+001 1.064858e+000 -3.070016e+001
1019650000 1.030006e+000 -1.819345e+001 1.762759e-003 7.948361e+001 3.373439e-003 6.150330e+001 1.061573e+000 -3.067117e+001
1019800000 1.031155e+000 -1.815950e+001 1.982370e-003 7.355099e+001 3.627529e-003 6.603400e+001 1.063147e+000 -3.059375e+001
1019950000 1.029853e+000 -1.813671e+001 1.858279e-003 7.972610e+001 3.231079e-003 6.016406e+001 1.061978e+000 -3.074315e+001
1020100000 1.030209e+000 -1.822690e+001 1.933886e-003 7.671863e+001 3.981432e-003 6.033202e+001 1.063587e+000 -3.076128e+001
1020250000 1.031097e+000 -1.819931e+001 1.949856e-003 6.929724e+001 3.518329e-003 6.154127e+001 1.061731e+000 -3.060260e+001
1020400000 1.031106e+000 -1.816718e+001 2.022633e-003 7.706932e+001 3.449012e-003 6.346966e+001 1.062606e+000 -3.068120e+001
1020550000 1.030522e+000 -1.812825e+001 2.083293e-003 7.037424e+001 3.289329e-003 6.625330e+001 1.065073e+000 -3.063744e+001
1020700000 1.032031e+000 -1.819226e+001 1.998510e-003 6.477867e+001 3.070467e-003 6.884380e+001 1.067979e+000 -3.073764e+001
1020850000 1.031172e+000 -1.811900e+001 2.042747e-003 7.820175e+001 3.565759e-003 6.120643e+001 1.066977e+000 -3.064557e+001
1021000000 1.029256e+000 -1.813480e+001 1.814635e-003 8.275558e+001 3.397387e-003 6.223239e+001 1.064630e+000 -3.067492e+001
1021150000 1.028984e+000 -1.813632e+001 2.035741e-003 7.142757e+001 3.590305e-003 6.689980e+001 1.063706e+000 -3.074752e+001
1021300000 1.030869e+000 -1.817668e+001 1.978318e-003 6.327954e+001 3.749951e-003 6.803522e+001 1.066768e+000 -3.065566e+001
1021450000 1.029380e+000 -1.806060e+001 1.875443e-003 7.422897e+001 4.419011e-003 6.726804e+001 1.064158e+000 -3.077852e+001
1021600000 1.029412e+000 -1.803371e+001 2.076954e-003 7.173278e+001 2.938505e-003 6.678591e+001 1.065675e+000 -3.065511e+001
1021750000 1.029895e+000 -1.810910e+001 2.107658e-003 7.419611e+001 3.861234e-003 5.712671e+001 1.062225e+000 -3.072982e+001
1021900000 1.030224e+000 -1.809656e+001 2.096283e-003 7.122910e+001 3.901332e-003 6.697043e+001 1.063605e+000 -3.091692e+001
1022050000 1.030723e+000 -1.812630e+001 2.030490e-003 8.272964e+001 3.877168e-003 6.155718e+001 1.060572e+000 -3.082381e+001
1022200000 1.030993e+000 -1.811815e+001 1.879312e-003 8.247028e+001 3.557561e-003 6.468825e+001 1.062657e+000 -3.071144e+001
1022350000 1.031504e+000 -1.810070e+001 1.731689e-003 7.187669e+001 3.675886e-003 7.017491e+001 1.064467e+000 -3.066492e+001
1022500000 1.031411e+000 -1.816525e+001 1.850541e-003 7.407533e+001 4.541031e-003 6.505799e+001 1.064103e+000 -3.066689e+001
1022650000 1.031185e+000 -1.809714e+001 2.023841e-003 7.317612e+001 4.164726e-003 6.686719e+001 1.064344e+000 -3.076250e+001
1022800000 1.031089e+000 -1.813836e+001 1.984974e-003 7.538536e+001 3.869052e-003 6.801105e+001 1.064880e+000 -3.070395e+001
1022950000 1.031390e+000 -1.820289e+001 1.932767e-003 7.887569e+001 3.687440e-003 6.966422e+001 1.063662e+000 -3.058346e+001
1023100000 1.030883e+000 -1.819171e+001 2.065365e-003 7.493407e+001 4.050595e-003 6.513494e+001 1.063992e+000 -3.073220e+001
1023250000 1.031378e+000 -1.813131e+001 2.129439e-003 7.249355e+001 3.805080e-003 6.799063e+001 1.062294e+000 -3.063880e+001
