!Agilent Technologies,N5230C,SG49000117,A.08.50.07
!Agilent N5230C: A.08.50.07
!Date: Monday, May 20, 2024 21:02:08
!Correction: S11(Full 2 Port(1,2)) 
!S21(Full 2 Port(1,2)) 
!S12(Full 2 Port(1,2)) 
!S22(Full 2 Port(1,2)) 
!S2P File: Measurements: S11, S21, S12, S22:
# Hz S  MA   R 50
1000000000 1.031076e+000 -1.904930e+001 2.160063e-003 6.874493e+001 4.291024e-003 6.218701e+001 1.063342e+000 -3.254897e+001
1000150000 1.030070e+000 -1.906783e+001 2.371411e-003 7.611605e+001 4.255341e-003 6.348807e+001 1.061816e+000 -3.253506e+001
1000300000 1.031042e+000 -1.910635e+001 2.040113e-003 7.372881e+001 3.924516e-003 5.860953e+001 1.062458e+000 -3.250019e+001
1000450000 1.030190e+000 -1.910722e+001 2.518985e-003 7.879273e+001 4.217099e-003 6.696934e+001 1.062488e+000 -3.254400e+001
1000600000 1.029981e+000 -1.904517e+001 2.284646e-003 7.759115e+001 4.117443e-003 5.995688e+001 1.062779e+000 -3.258751e+001
1000750000 1.029890e+000 -1.906515e+001 2.268324e-003 7.775612e+001 4.079618e-003 6.630028e+001 1.061384e+000 -3.248861e+001
1000900000 1.030448e+000 -1.904045e+001 2.237216e-003 7.494767e+001 4.647704e-003 6.018642e+001 1.060814e+000 -3.262143e+001
1001050000 1.031538e+000 -1.904791e+001 2.302703e-003 7.361487e+001 4.321877e-003 6.041466e+001 1.064240e+000 -3.264044e+001
1001200000 1.029453e+000 -1.902049e+001 2.268641e-003 7.393546e+001 3.700124e-003 5.191218e+001 1.062352e+000 -3.249369e+001
1001350000 1.029022e+000 -1.907533e+001 2.209124e-003 7.077961e+001 4.514522e-003 6.192584e+001 1.061980e+000 -3.247192e+001
1001500000 1.030194e+000 -1.906682e+001 2.139597e-003 7.673556e+001 4.192422e-003 5.211243e+001 1.065189e+000 -3.248213e+001
1001650000 1.028876e+000 -1.908293e+001 2.150570e-003 7.888247e+001 4.095016e-003 6.220214e+001 1.063163e+000 -3.248638e+001
1001800000 1.029124e+000 -1.917888e+001 2.147397e-003 7.870841e+001 3.874232e-003 6.378651e+001 1.062725e+000 -3.259381e+001
1001950000 1.028123e+000 -1.910302e+001 2.221883e-003 7.555054e+001 4.339882e-003 6.170073e+001 1.060933e+000 -3.262206e+001
1002100000 1.028038e+000 -1.908703e+001 2.243371e-003 7.129603e+001 4.209287e-003 6.559974e+001 1.061806e+000 -3.262440e+001
1002250000 1.030666e+000 -1.913890e+001 2.508615e-003 7.781599e+001 3.815328e-003 6.296986e+001 1.062907e+000 -3.263029e+001
1002400000 1.028020e+000 -1.911434e+001 2.079770e-003 7.710247e+001 3.931109e-003 6.387336e+001 1.062901e+000 -3.273073e+001
1002550000 1.029668e+000 -1.906802e+001 2.106527e-003 7.055013e+001 4.225945e-003 5.983198e+001 1.062405e+000 -3.267994e+001
1002700000 1.030923e+000 -1.908717e+001 2.253570e-003 8.245211e+001 3.965795e-003 7.061864e+001 1.062070e+000 -3.263383e+001
1002850000 1.031491e+000 -1.914086e+001 2.057304e-003 7.432406e+001 4.294607e-003 6.351645e+001 1.061697e+000 -3.252563e+001
1003000000 1.031687e+000 -1.911829e+001 2.161359e-003 8.119165e+001 3.728031e-003 6.904916e+001 1.061511e+000 -3.263218e+001
1003150000 1.031231e+000 -1.902969e+001 1.969083e-003 7.836456e+001 4.368281e-003 6.562341e+001 1.062917e+000 -3.259539e+001
1003300000 1.032404e+000 -1.916976e+001 2.170892e-003 7.633103e+001 4.218488e-003 6.141452e+001 1.060965e+000 -3.248332e+001
1003450000 1.031506e+000 -1.910720e+001 2.166931e-003 8.005454e+001 4.243180e-003 6.167306e+001 1.060393e+000 -3.256952e+001
1003600000 1.031151e+000 -1.908848e+001 2.482642e-003 7.632455e+001 4.343532e-003 5.972289e+001 1.061274e+000 -3.262684e+001
1003750000 1.032008e+000 -1.903493e+001 2.300747e-003 7.789711e+001 3.950807e-003 6.703642e+001 1.061605e+000 -3.268870e+001
1003900000 1.031101e+000 -1.911572e+001 2.252275e-003 7.488188e+001 4.156617e-003 6.517399e+001 1.063806e+000 -3.259230e+001
1004050000 1.030059e+000 -1.917366e+001 2.129994e-003 7.252148e+001 4.158556e-003 6.443435e+001 1.062181e+000 -3.267490e+001
1004200000 1.030189e+000 -1.917272e+001 2.438410e-003 7.643819e+001 3.988843e-003 5.559967e+001 1.061435e+000 -3.262039e+001
1004350000 1.030478e+000 -1.913066e+001 2.439831e-003 7.520596e+001 3.898351e-003 6.403294e+001 1.062719e+000 -3.266935e+001
1004500000 1.030999e+000 -1.907754e+001 2.172532e-003 7.992268e+001 3.892581e-003 5.921187e+001 1.061863e+000 -3.265212e+001
1004650000 1.029793e+000 -1.914497e+001 2.074882e-003 7.518964e+001 4.243557e-003 6.358315e+001 1.062495e+000 -3.259949e+001
1004800000 1.030452e+000 -1.906526e+001 2.339640e-003 7.659605e+001 3.841441e-003 6.236171e+001 1.062147e+000 -3.256470e+001
1004950000 1.031403e+000 -1.910976e+001 2.276630e-003 7.472655e+001 3.989249e-003 5.815313e+001 1.064035e+000 -3.260962e+001
1005100000 1.029443e+000 -1.912248e+001 2.178345e-003 8.070440e+001 3.835114e-003 5.713412e+001 1.062682e+000 -3.273343e+001
1005250000 1.031549e+000 -1.910173e+001 2.314951e-003 7.268300e+001 4.044682e-003 6.043791e+001 1.063025e+000 -3.269864e+001
1005400000 1.030141e+000 -1.916258e+001 2.165997e-003 7.761335e+001 4.084549e-003 5.860477e+001 1.062467e+000 -3.265834e+001
1005550000 1.030413e+000 -1.911257e+001 2.427531e-003 7.014062e+001 3.847302e-003 6.081619e+001 1.064672e+000 -3.260843e+001
1005700000 1.030815e+000 -1.911217e+001 2.280124e-003 7.413517e+001 4.190200e-003 6.719608e+001 1.063081e+000 -3.270163e+001
1005850000 1.031337e+000 -1.922473e+001 2.348015e-003 7.547795e+001 3.723416e-003 6.121392e+001 1.061039e+000 -3.270782e+001
1006000000 1.030244e+000 -1.916018e+001 2.178681e-003 7.572898e+001 4.490495e-003 6.869432e+001 1.064009e+000 -3.269866e+001
1006150000 1.031482e+000 -1.922429e+001 2.371182e-003 6.806194e+001 4.017999e-003 6.590084e+001 1.063222e+000 -3.267882e+001
1006300000 1.032072e+000 -1.918076e+001 2.138186e-003 8.124091e+001 3.926697e-003 6.026547e+001 1.064770e+000 -3.269426e+001
1006450000 1.032111e+000 -1.915950e+001 2.107373e-003 7.270040e+001 4.384335e-003 6.852754e+001 1.062417e+000 -3.269085e+001
1006600000 1.032361e+000 -1.927115e+001 2.472748e-003 7.278161e+001 4.160195e-003 5.535270e+001 1.062286e+000 -3.262010e+001
1006750000 1.030898e+000 -1.929144e+001 1.990075e-003 6.774431e+001 4.440830e-003 6.637243e+001 1.062836e+000 -3.267958e+001
1006900000 1.031773e+000 -1.920856e+001 2.335951e-003 6.422759e+001 4.653901e-003 6.566708e+001 1.063443e+000 -3.256360e+001
1007050000 1.030437e+000 -1.929036e+001 2.159429e-003 8.355588e+001 4.126395e-003 5.987598e+001 1.061831e+000 -3.265240e+001
1007200000 1.031511e+000 -1.910244e+001 2.380960e-003 6.827674e+001 4.240432e-003 6.293449e+001 1.061421e+000 -3.265902e+001
1007350000 1.031186e+000 -1.916374e+001 2.533908e-003 7.862136e+001 4.280729e-003 6.705373e+001 1.061276e+000 -3.265036e+001
1007500000 1.029756e+000 -1.918055e+001 2.377886e-003 7.502321e+001 3.747458e-003 5.925030e+001 1.061843e+000 -3.277575e+001
1007650000 1.030366e+000 -1.925724e+001 2.201115e-003 7.280018e+001 3.779008e-003 6.353165e+001 1.059247e+000 -3.273603e+001
1007800000 1.030888e+000 -1.921138e+001 2.071425e-003 7.389994e+001 4.694318e-003 6.214797e+001 1.063597e+000 -3.292788e+001
1007950000 1.029647e+000 -1.916753e+001 2.243088e-003 7.529275e+001 4.163126e-003 6.132358e+001 1.060875e+000 -3.291977e+001
1008100000 1.030088e+000 -1.917808e+001 2.523716e-003 7.640385e+001 3.534252e-003 6.677225e+001 1.061171e+000 -3.284217e+001
1008250000 1.029977e+000 -1.927872e+001 1.908630e-003 8.000633e+001 3.797623e-003 6.179826e+001 1.062709e+000 -3.284798e+001
1008400000 1.029869e+000 -1.917707e+001 2.454890e-003 7.584784e+001 4.298290e-003 5.851187e+001 1.064505e+000 -3.289021e+001
1008550000 1.030704e+000 -1.920235e+001 2.376475e-003 7.855550e+001 3.857353e-003 6.207677e+001 1.061835e+000 -3.284478e+001
1008700000 1.031039e+000 -1.915861e+001 2.213110e-003 7.036146e+001 3.918028e-003 6.537907e+001 1.061600e+000 -3.289787e+001
1008850000 1.031567e+000 -1.917929e+001 2.354382e-003 7.429694e+001 4.442814e-003 6.641495e+001 1.063520e+000 -3.279351e+001
1009000000 1.031690e+000 -1.914660e+001 2.428146e-003 7.199568e+001 3.620493e-003 6.517039e+001 1.063791e+000 -3.290181e+001
1009150000 1.030758e+000 -1.926041e+001 2.121755e-003 7.903516e+001 4.100668e-003 6.020994e+001 1.062573e+000 -3.275229e+001
1009300000 1.030997e+000 -1.915894e+001 2.399603e-003 7.671320e+001 4.093405e-003 5.799641e+001 1.063368e+000 -3.275507e+001
1009450000 1.031571e+000 -1.918609e+001 2.768089e-003 8.256958e+001 4.648788e-003 5.946070e+001 1.063374e+000 -3.283904e+001
1009600000 1.030002e+000 -1.923729e+001 2.304415e-003 7.942551e+001 4.225835e-003 6.122803e+001 1.064101e+000 -3.283725e+001
1009750000 1.031047e+000 -1.924847e+001 2.246259e-003 7.218071e+001 4.380158e-003 6.291175e+001 1.062509e+000 -3.282233e+001
1009900000 1.028697e+000 -1.927477e+001 2.031724e-003 7.365215e+001 3.876241e-003 6.205453e+001 1.064847e+000 -3.284941e+001
1010050000 1.030058e+000 -1.932758e+001 2.164294e-003 7.740777e+001 3.951662e-003 6.019496e+001 1.063965e+000 -3.289311e+001
1010200000 1.030097e+000 -1.919503e+001 2.292272e-003 8.108577e+001 4.585551e-003 5.777657e+001 1.063808e+000 -3.301479e+001
1010350000 1.030494e+000 -1.931526e+001 2.458928e-003 7.656854e+001 4.039609e-003 5.928322e+001 1.062865e+000 -3.295612e+001
1010500000 1.029954e+000 -1.938237e+001 2.418801e-003 6.990574e+001 3.917331e-003 5.885820e+001 1.064879e+000 -3.285700e+001
1010650000 1.030390e+000 -1.930819e+001 2.233736e-003 7.219894e+001 3.822899e-003 5.590203e+001 1.063075e+000 -3.283895e+001
1010800000 1.029917e+000 -1.933272e+001 2.153334e-003 7.261550e+001 4.004025e-003 5.692506e+001 1.063386e+000 -3.294780e+001
1010950000 1.029167e+000 -1.937467e+001 2.420909e-003 6.934825e+001 4.376982e-003 5.757661e+001 1.061803e+000 -3.295822e+001
1011100000 1.030755e+000 -1.927930e+001 2.316794e-003 7.168571e+001 4.330385e-003 6.531667e+001 1.062096e+000 -3.268163e+001
1011250000 1.031333e+000 -1.929176e+001 2.190783e-003 7.458952e+001 4.055142e-003 6.137177e+001 1.061569e+000 -3.269268e+001
1011400000 1.030027e+000 -1.927307e+001 2.073297e-003 7.995509e+001 4.474943e-003 5.943900e+001 1.060086e+000 -3.279657e+001
1011550000 1.030130e+000 -1.926808e+001 2.265083e-003 8.301593e+001 4.102200e-003 5.661360e+001 1.061541e+000 -3.295941e+001
1011700000 1.030414e+000 -1.928675e+001 2.133342e-003 7.404892e+001 3.489706e-003 6.373759e+001 1.060250e+000 -3.289710e+001
1011850000 1.029402e+000 -1.933188e+001 2.092904e-003 7.280514e+001 3.996429e-003 6.703941e+001 1.061133e+000 -3.296304e+001
1012000000 1.031239e+000 -1.936521e+001 2.385292e-003 7.378799e+001 3.911105e-003 5.850199e+001 1.060995e+000 -3.301246e+001
1012150000 1.030109e+000 -1.936913e+001 2.285948e-003 8.014826e+001 3.795098e-003 6.262982e+001 1.063071e+000 -3.285723e+001
1012300000 1.030730e+000 -1.938261e+001 2.300121e-003 7.297782e+001 4.181214e-003 6.561322e+001 1.063897e+000 -3.270338e+001
1012450000 1.029292e+000 -1.930559e+001 2.356468e-003 7.550360e+001 3.975091e-003 5.776117e+001 1.065209e+000 -3.277801e+001
1012600000 1.029578e+000 -1.937896e+001 2.520330e-003 7.053278e+001 4.133123e-003 6.768678e+001 1.064372e+000 -3.277814e+001
1012750000 1.029896e+000 -1.936518e+001 2.150190e-003 7.743554e+001 4.901324e-003 6.152818e+001 1.065356e+000 -3.279778e+001
1012900000 1.030295e+000 -1.930989e+001 2.233819e-003 8.040356e+001 4.072129e-003 6.111102e+001 1.063185e+000 -3.284894e+001
1013050000 1.029443e+000 -1.932315e+001 2.346065e-003 7.715546e+001 4.212565e-003 6.796990e+001 1.062075e+000 -3.287687e+001
1013200000 1.030388e+000 -1.933367e+001 2.472785e-003 6.774001e+001 3.893809e-003 5.810939e+001 1.062208e+000 -3.290953e+001
1013350000 1.030306e+000 -1.942564e+001 2.396652e-003 7.809682e+001 4.731806e-003 6.283378e+001 1.061408e+000 -3.296537e+001
1013500000 1.030848e+000 -1.931819e+001 2.232859e-003 8.335859e+001 3.655301e-003 5.459583e+001 1.061218e+000 -3.285199e+001
1013650000 1.029699e+000 -1.935155e+001 1.920335e-003 7.354062e+001 4.283237e-003 5.895702e+001 1.060140e+000 -3.301663e+001
1013800000 1.029835e+000 -1.948203e+001 2.412811e-003 7.202687e+001 4.301119e-003 6.184333e+001 1.061027e+000 -3.296181e+001
1013950000 1.030790e+000 -1.942392e+001 1.952622e-003 7.811832e+001 4.095842e-003 6.861777e+001 1.062779e+000 -3.295862e+001
1014100000 1.029099e+000 -1.945061e+001 2.239596e-003 7.188393e+001 3.675640e-003 6.094556e+001 1.061213e+000 -3.301989e+001
1014250000 1.031069e+000 -1.933874e+001 2.127643e-003 7.391138e+001 4.610372e-003 6.353704e+001 1.060494e+000 -3.295174e+001
1014400000 1.030778e+000 -1.941631e+001 2.249867e-003 7.384136e+001 3.878628e-003 6.090315e+001 1.064196e+000 -3.294964e+001
1014550000 1.032555e+000 -1.942560e+001 2.187029e-003 7.313941e+001 3.827801e-003 5.743197e+001 1.063919e+000 -3.304179e+001
1014700000 1.030795e+000 -1.938531e+001 2.133700e-003 6.353576e+001 4.145219e-003 5.318445e+001 1.063694e+000 -3.295267e+001
1014850000 1.032291e+000 -1.951266e+001 2.408317e-003 7.380803e+001 4.113477e-003 6.461002e+001 1.066027e+000 -3.301209e+001
1015000000 1.031031e+000 -1.944378e+001 2.689364e-003 7.906679e+001 4.218703e-003 5.988195e+001 1.065604e+000 -3.294918e+001
1015150000 1.030708e+000 -1.948318e+001 2.234211e-003 7.406589e+001 4.238904e-003 6.017816e+001 1.063864e+000 -3.294423e+001
1015300000 1.030835e+000 -1.946626e+001 2.446296e-003 7.654893e+001 4.983810e-003 6.082977e+001 1.064238e+000 -3.300954e+001
1015450000 1.031160e+000 -1.946297e+001 2.345996e-003 7.858871e+001 4.309380e-003 5.623633e+001 1.062322e+000 -3.299024e+001
1015600000 1.028575e+000 -1.936797e+001 2.145116e-003 7.072868e+001 4.220598e-003 5.966944e+001 1.060176e+000 -3.299292e+001
1015750000 1.029610e+000 -1.942085e+001 2.268689e-003 7.461624e+001 3.986492e-003 5.711929e+001 1.061701e+000 -3.294487e+001
1015900000 1.030267e+000 -1.940627e+001 2.041903e-003 8.029256e+001 3.704031e-003 6.631316e+001 1.060800e+000 -3.304424e+001
1016050000 1.030855e+000 -1.941519e+001 2.099041e-003 7.147536e+001 4.544192e-003 5.663135e+001 1.060049e+000 -3.302088e+001
1016200000 1.030942e+000 -1.945286e+001 2.379027e-003 8.159200e+001 3.644390e-003 6.523963e+001 1.060227e+000 -3.299734e+001
1016350000 1.032513e+000 -1.942430e+001 2.456120e-003 7.515401e+001 3.904801e-003 6.626634e+001 1.061199e+000 -3.296679e+001
1016500000 1.031563e+000 -1.941704e+001 2.217650e-003 7.099931e+001 3.912313e-003 6.225191e+001 1.058500e+000 -3.292426e+001
1016650000 1.034121e+000 -1.943825e+001 2.494546e-003 7.440578e+001 4.036927e-003 5.420696e+001 1.064523e+000 -3.285849e+001
1016800000 1.032918e+000 -1.949742e+001 2.417795e-003 7.113093e+001 3.778048e-003 7.324105e+001 1.061584e+000 -3.294229e+001
1016950000 1.033053e+000 -1.940750e+001 2.389340e-003 7.559248e+001 4.015748e-003 6.082085e+001 1.064011e+000 -3.295089e+001
1017100000 1.033416e+000 -1.941944e+001 2.476969e-003 7.098207e+001 3.772427e-003 6.183101e+001 1.067594e+000 -3.289971e+001
1017250000 1.031206e+000 -1.946482e+001 2.324301e-003 7.684870e+001 4.802700e-003 6.462380e+001 1.065431e+000 -3.297253e+001
1017400000 1.030704e+000 -1.953473e+001 2.365228e-003 7.439826e+001 4.207507e-003 5.714170e+001 1.064793e+000 -3.299255e+001
1017550000 1.032576e+000 -1.943518e+001 2.150509e-003 7.752839e+001 4.164703e-003 5.696385e+001 1.065136e+000 -3.291755e+001
1017700000 1.031674e+000 -1.947916e+001 2.057453e-003 7.303491e+001 4.371796e-003 6.549738e+001 1.061334e+000 -3.309002e+001
1017850000 1.029977e+000 -1.946128e+001 2.553933e-003 7.889314e+001 4.613341e-003 5.611130e+001 1.062534e+000 -3.297089e+001
1018000000 1.029776e+000 -1.943545e+001 2.149310e-003 7.873384e+001 4.352380e-003 5.623794e+001 1.064057e+000 -3.299968e+001
1018150000 1.031453e+000 -1.949001e+001 2.351848e-003 7.412321e+001 4.002887e-003 5.548757e+001 1.062435e+000 -3.292653e+001
1018300000 1.030744e+000 -1.945454e+001 2.297204e-003 7.680915e+001 4.355169e-003 5.740071e+001 1.060729e+000 -3.303514e+001
1018450000 1.030435e+000 -1.947890e+001 2.353199e-003 7.387859e+001 4.017121e-003 6.657852e+001 1.063101e+000 -3.290086e+001
1018600000 1.031114e+000 -1.939356e+001 2.047998e-003 7.593901e+001 3.801677e-003 6.964093e+001 1.062134e+000 -3.289920e+001
1018750000 1.031227e+000 -1.951439e+001 2.312868e-003 7.163922e+001 4.312698e-003 5.986231e+001 1.061745e+000 -3.298550e+001
1018900000 1.030683e+000 -1.947560e+001 2.557153e-003 7.926275e+001 4.325916e-003 6.329366e+001 1.064289e+000 -3.307985e+001
1019050000 1.031843e+000 -1.950663e+001 2.364092e-003 7.664964e+001 4.145594e-003 5.595377e+001 1.064318e+000 -3.322516e+001
1019200000 1.030830e+000 -1.949215e+001 2.116843e-003 7.368983e+001 3.968571e-003 6.209303e+001 1.065364e+000 -3.315538e+001
1019350000 1.030905e+000 -1.955794e+001 2.257328e-003 7.014149e+001 4.034324e-003 6.553436e+001 1.061372e+000 -3.309694e+001
1019500000 1.030400e+000 -1.956618e+001 2.221714e-003 6.968570e+001 4.025900e-003 6.783076e+001 1.063831e+000 -3.294716e+001
1019650000 1.031258e+000 -1.955307e+001 2.267272e-003 7.122880e+001 3.844883e-003 5.987336e+001 1.063591e+000 -3.309628e+001
1019800000 1.030386e+000 -1.957779e+001 2.374704e-003 7.345088e+001 4.588696e-003 6.077734e+001 1.060907e+000 -3.305884e+001
1019950000 1.030116e+000 -1.955050e+001 2.292553e-003 6.903992e+001 3.881593e-003 5.490924e+001 1.059349e+000 -3.308675e+001
1020100000 1.030962e+000 -1.963050e+001 1.966119e-003 7.257894e+001 4.066695e-003 6.148292e+001 1.062592e+000 -3.306953e+001
1020250000 1.030956e+000 -1.960454e+001 2.215075e-003 8.143829e+001 3.947974e-003 6.000216e+001 1.061261e+000 -3.309888e+001
1020400000 1.030425e+000 -1.962930e+001 2.136697e-003 7.242241e+001 3.980471e-003 6.017868e+001 1.062490e+000 -3.297204e+001
1020550000 1.030882e+000 -1.961613e+001 2.173718e-003 7.240459e+001 3.942474e-003 5.778543e+001 1.064590e+000 -3.317661e+001
1020700000 1.031790e+000 -1.958943e+001 2.230310e-003 7.635686e+001 3.771448e-003 6.287768e+001 1.068015e+000 -3.317080e+001
1020850000 1.031071e+000 -1.955278e+001 2.300210e-003 6.802341e+001 4.481891e-003 5.851716e+001 1.066402e+000 -3.298272e+001
1021000000 1.030775e+000 -1.958760e+001 2.283601e-003 6.957392e+001 4.778395e-003 6.049761e+001 1.067443e+000 -3.313473e+001
1021150000 1.030376e+000 -1.959435e+001 2.262500e-003 7.618349e+001 4.139911e-003 5.987608e+001 1.066107e+000 -3.302376e+001
1021300000 1.031371e+000 -1.954085e+001 2.247740e-003 6.739412e+001 3.905176e-003 5.947023e+001 1.063798e+000 -3.316192e+001
1021450000 1.029233e+000 -1.951665e+001 2.417013e-003 6.654554e+001 3.955501e-003 5.283194e+001 1.063849e+000 -3.311712e+001
1021600000 1.028683e+000 -1.958420e+001 2.318158e-003 7.505923e+001 4.640779e-003 5.428958e+001 1.062431e+000 -3.332790e+001
1021750000 1.029296e+000 -1.948507e+001 2.332152e-003 7.946678e+001 4.336353e-003 6.173140e+001 1.062191e+000 -3.326881e+001
1021900000 1.030297e+000 -1.957809e+001 2.205559e-003 8.093116e+001 3.944610e-003 5.216491e+001 1.062953e+000 -3.324209e+001
1022050000 1.028988e+000 -1.960636e+001 2.357893e-003 7.257095e+001 4.543132e-003 5.998097e+001 1.063215e+000 -3.318143e+001
1022200000 1.031626e+000 -1.954203e+001 2.326186e-003 7.407558e+001 4.216002e-003 5.638630e+001 1.060406e+000 -3.304692e+001
1022350000 1.030873e+000 -1.960823e+001 2.649394e-003 7.069521e+001 4.357562e-003 6.242844e+001 1.062279e+000 -3.324308e+001
1022500000 1.031964e+000 -1.959939e+001 2.062764e-003 7.729507e+001 3.870167e-003 5.430086e+001 1.064089e+000 -3.313571e+001
1022650000 1.030679e+000 -1.961114e+001 2.457320e-003 7.613617e+001 4.216789e-003 5.900721e+001 1.067363e+000 -3.315670e+001
1022800000 1.031823e+000 -1.959437e+001 2.273583e-003 7.552093e+001 4.088683e-003 6.417159e+001 1.063917e+000 -3.313894e+001
1022950000 1.030685e+000 -1.958978e+001 2.472797e-003 7.627303e+001 4.308449e-003 5.881565e+001 1.063106e+000 -3.310675e+001
1023100000 1.030602e+000 -1.963513e+001 2.267604e-003 7.495617e+001 4.139968e-003 5.924412e+001 1.061111e+000 -3.326882e+001
1023250000 1.032049e+000 -1.959324e+001 2.498540e-003 7.358176e+001 4.007037e-003 5.980311e+001 1.064875e+000 -3.316765e+001
