!Agilent Technologies,N5230C,SG49000117,A.08.50.07
!Agilent N5230C: A.08.50.07
!Date: Monday, May 20, 2024 21:12:58
!Correction: S11(Full 2 Port(1,2)) 
!S21(Full 2 Port(1,2)) 
!S12(Full 2 Port(1,2)) 
!S22(Full 2 Port(1,2)) 
!S2P File: Measurements: S11, S21, S12, S22:
# Hz S  MA   R 50
1000000000 1.029171e+000 -1.074542e+001 1.141949e-003 8.776761e+001 2.449858e-003 7.099219e+001 1.059237e+000 -1.764527e+001
1000150000 1.027278e+000 -1.078080e+001 1.445258e-003 8.511095e+001 2.245789e-003 8.306432e+001 1.058538e+000 -1.772507e+001
1000300000 1.029327e+000 -1.081160e+001 1.294638e-003 8.445980e+001 2.110439e-003 7.774284e+001 1.061413e+000 -1.769558e+001
1000450000 1.030000e+000 -1.079606e+001 1.202823e-003 8.687634e+001 2.356850e-003 7.631008e+001 1.058222e+000 -1.771074e+001
1000600000 1.030379e+000 -1.078219e+001 1.459836e-003 8.393720e+001 2.390290e-003 8.412511e+001 1.059678e+000 -1.774169e+001
1000750000 1.029332e+000 -1.084787e+001 1.263253e-003 8.201598e+001 2.831970e-003 8.052031e+001 1.058925e+000 -1.774236e+001
1000900000 1.028787e+000 -1.083818e+001 1.388248e-003 6.608872e+001 2.647694e-003 9.146088e+001 1.057132e+000 -1.783771e+001
1001050000 1.028545e+000 -1.075356e+001 9.687644e-004 7.641247e+001 2.388161e-003 7.358445e+001 1.060985e+000 -1.775562e+001
1001200000 1.029234e+000 -1.072128e+001 1.105558e-003 8.475634e+001 2.853787e-003 7.608416e+001 1.061352e+000 -1.774367e+001
1001350000 1.029733e+000 -1.081950e+001 1.257929e-003 7.975578e+001 2.396901e-003 7.934370e+001 1.059207e+000 -1.758966e+001
1001500000 1.026800e+000 -1.077037e+001 1.253818e-003 7.729105e+001 2.696526e-003 8.269350e+001 1.060690e+000 -1.759916e+001
1001650000 1.028461e+000 -1.074258e+001 1.167927e-003 6.733285e+001 1.995603e-003 6.934007e+001 1.060880e+000 -1.771692e+001
1001800000 1.028432e+000 -1.079241e+001 9.925653e-004 7.393125e+001 2.121808e-003 7.537394e+001 1.059464e+000 -1.772467e+001
1001950000 1.027890e+000 -1.082070e+001 1.232766e-003 7.850947e+001 2.193585e-003 7.377191e+001 1.060101e+000 -1.779922e+001
1002100000 1.027493e+000 -1.081156e+001 1.361503e-003 9.674464e+001 1.927592e-003 6.178189e+001 1.058580e+000 -1.785131e+001
1002250000 1.026511e+000 -1.082944e+001 9.999551e-004 7.877733e+001 2.050069e-003 8.750230e+001 1.058830e+000 -1.776581e+001
1002400000 1.028918e+000 -1.083121e+001 1.160198e-003 9.748880e+001 2.350347e-003 7.258348e+001 1.058261e+000 -1.777092e+001
1002550000 1.028527e+000 -1.083403e+001 1.415268e-003 8.080935e+001 2.286256e-003 7.807168e+001 1.058337e+000 -1.780498e+001
1002700000 1.030008e+000 -1.084813e+001 1.401934e-003 7.926255e+001 2.409253e-003 6.798964e+001 1.058475e+000 -1.772024e+001
1002850000 1.028518e+000 -1.086711e+001 1.020635e-003 7.867538e+001 2.626591e-003 8.730276e+001 1.060477e+000 -1.772033e+001
1003000000 1.028911e+000 -1.079531e+001 1.090827e-003 6.862039e+001 2.684743e-003 6.823298e+001 1.057617e+000 -1.783217e+001
1003150000 1.030905e+000 -1.081377e+001 1.260839e-003 9.813558e+001 2.167733e-003 7.243029e+001 1.058017e+000 -1.776394e+001
1003300000 1.030373e+000 -1.087675e+001 1.092672e-003 9.481935e+001 2.315632e-003 6.940493e+001 1.056847e+000 -1.784247e+001
1003450000 1.031741e+000 -1.080095e+001 1.085325e-003 7.907330e+001 2.361772e-003 8.345454e+001 1.057906e+000 -1.784046e+001
1003600000 1.028802e+000 -1.080547e+001 1.112477e-003 7.630480e+001 2.372782e-003 6.714737e+001 1.056108e+000 -1.770209e+001
1003750000 1.029391e+000 -1.081287e+001 1.382883e-003 8.932069e+001 1.828639e-003 8.247014e+001 1.056732e+000 -1.782211e+001
1003900000 1.029614e+000 -1.082652e+001 1.376241e-003 8.072369e+001 1.862069e-003 6.766910e+001 1.058386e+000 -1.779027e+001
1004050000 1.027087e+000 -1.087569e+001 1.093963e-003 9.327535e+001 1.716564e-003 8.201347e+001 1.058146e+000 -1.785625e+001
1004200000 1.028038e+000 -1.080712e+001 1.214731e-003 8.942275e+001 2.201089e-003 7.693167e+001 1.058081e+000 -1.775596e+001
1004350000 1.027193e+000 -1.078978e+001 1.062312e-003 8.774823e+001 2.118370e-003 8.416420e+001 1.059171e+000 -1.776009e+001
1004500000 1.028484e+000 -1.082655e+001 7.922433e-004 8.327141e+001 2.288907e-003 7.781309e+001 1.059737e+000 -1.784941e+001
1004650000 1.029079e+000 -1.081463e+001 1.488351e-003 8.206940e+001 2.399642e-003 7.619239e+001 1.058673e+000 -1.781600e+001
1004800000 1.028544e+000 -1.082515e+001 1.222038e-003 7.127618e+001 2.479821e-003 6.799624e+001 1.059645e+000 -1.779663e+001
1004950000 1.028517e+000 -1.079710e+001 1.434784e-003 8.727177e+001 2.691492e-003 7.098257e+001 1.060073e+000 -1.772951e+001
1005100000 1.028439e+000 -1.083179e+001 1.351331e-003 8.128816e+001 2.387811e-003 7.972121e+001 1.058703e+000 -1.788558e+001
1005250000 1.028592e+000 -1.080891e+001 1.199979e-003 9.042551e+001 2.378064e-003 8.446261e+001 1.059830e+000 -1.765697e+001
1005400000 1.028428e+000 -1.084645e+001 1.124043e-003 9.172307e+001 2.671061e-003 7.948561e+001 1.060906e+000 -1.772628e+001
1005550000 1.029857e+000 -1.077039e+001 1.225767e-003 9.329836e+001 2.632649e-003 6.934821e+001 1.060043e+000 -1.769495e+001
1005700000 1.029187e+000 -1.085085e+001 1.271063e-003 8.482805e+001 2.500264e-003 6.471514e+001 1.058822e+000 -1.782785e+001
1005850000 1.028561e+000 -1.085432e+001 1.312570e-003 8.271711e+001 2.358239e-003 7.163962e+001 1.058343e+000 -1.777192e+001
1006000000 1.028226e+000 -1.075033e+001 1.253990e-003 7.332131e+001 2.110900e-003 6.052076e+001 1.058399e+000 -1.774730e+001
1006150000 1.029425e+000 -1.080234e+001 1.625953e-003 8.085435e+001 1.775848e-003 8.159995e+001 1.059291e+000 -1.785095e+001
1006300000 1.029482e+000 -1.085425e+001 1.356633e-003 8.477140e+001 2.134203e-003 6.329814e+001 1.059256e+000 -1.777872e+001
1006450000 1.029231e+000 -1.087083e+001 1.367510e-003 8.927419e+001 2.484416e-003 7.383201e+001 1.062296e+000 -1.780532e+001
1006600000 1.029273e+000 -1.088881e+001 1.256195e-003 8.631203e+001 2.441744e-003 8.059522e+001 1.058943e+000 -1.788717e+001
1006750000 1.029369e+000 -1.087562e+001 1.230028e-003 8.161366e+001 1.820040e-003 7.553349e+001 1.059409e+000 -1.781240e+001
1006900000 1.029769e+000 -1.088587e+001 1.250577e-003 9.267010e+001 2.292355e-003 7.625970e+001 1.059215e+000 -1.779604e+001
1007050000 1.029318e+000 -1.086780e+001 1.346263e-003 7.817583e+001 2.102476e-003 7.723409e+001 1.058674e+000 -1.784397e+001
1007200000 1.029460e+000 -1.090962e+001 1.056713e-003 8.663391e+001 2.637486e-003 6.863226e+001 1.060172e+000 -1.776249e+001
1007350000 1.029974e+000 -1.084138e+001 7.961349e-004 9.855843e+001 1.921006e-003 6.684367e+001 1.060768e+000 -1.772441e+001
1007500000 1.029065e+000 -1.084391e+001 1.279942e-003 8.512571e+001 2.100575e-003 8.432973e+001 1.058787e+000 -1.786197e+001
1007650000 1.028152e+000 -1.085606e+001 1.245760e-003 7.239663e+001 2.665064e-003 7.242696e+001 1.058746e+000 -1.785527e+001
1007800000 1.029151e+000 -1.086923e+001 9.157148e-004 8.646558e+001 1.962597e-003 7.760891e+001 1.058852e+000 -1.788842e+001
1007950000 1.029175e+000 -1.093256e+001 1.293540e-003 7.425048e+001 1.931842e-003 7.034321e+001 1.056309e+000 -1.802220e+001
1008100000 1.028753e+000 -1.086950e+001 1.173274e-003 9.598398e+001 3.036898e-003 8.814317e+001 1.059488e+000 -1.792183e+001
1008250000 1.029476e+000 -1.096601e+001 1.414993e-003 7.696326e+001 2.492610e-003 6.597072e+001 1.058951e+000 -1.798475e+001
1008400000 1.027484e+000 -1.088694e+001 1.149588e-003 7.817826e+001 2.253365e-003 7.363750e+001 1.056821e+000 -1.789245e+001
1008550000 1.030312e+000 -1.093173e+001 1.144967e-003 9.301007e+001 2.245875e-003 7.001633e+001 1.061452e+000 -1.792435e+001
1008700000 1.029374e+000 -1.091468e+001 1.158158e-003 7.922800e+001 2.662560e-003 6.728966e+001 1.057959e+000 -1.792893e+001
1008850000 1.029277e+000 -1.093823e+001 1.339131e-003 7.959592e+001 2.165811e-003 6.727171e+001 1.059679e+000 -1.795899e+001
1009000000 1.029598e+000 -1.094003e+001 1.043033e-003 7.640166e+001 2.721935e-003 7.063853e+001 1.058467e+000 -1.789359e+001
1009150000 1.029594e+000 -1.081919e+001 1.245795e-003 8.634177e+001 1.881704e-003 6.729604e+001 1.059920e+000 -1.785894e+001
1009300000 1.028536e+000 -1.087141e+001 1.137705e-003 8.201823e+001 2.558829e-003 7.477464e+001 1.059086e+000 -1.791592e+001
1009450000 1.030305e+000 -1.088076e+001 1.222788e-003 8.983353e+001 2.624086e-003 6.443559e+001 1.059598e+000 -1.797395e+001
1009600000 1.028756e+000 -1.088837e+001 1.201306e-003 7.862093e+001 2.084824e-003 7.703455e+001 1.058988e+000 -1.799728e+001
1009750000 1.027870e+000 -1.088067e+001 1.128618e-003 7.275816e+001 2.172863e-003 7.181493e+001 1.057798e+000 -1.791600e+001
1009900000 1.027958e+000 -1.084898e+001 1.083901e-003 7.075874e+001 1.898445e-003 6.530760e+001 1.058386e+000 -1.789459e+001
1010050000 1.029535e+000 -1.098310e+001 1.384950e-003 7.682967e+001 2.534059e-003 6.873444e+001 1.057968e+000 -1.790265e+001
1010200000 1.029761e+000 -1.102141e+001 1.311760e-003 7.897149e+001 2.107256e-003 8.335543e+001 1.059641e+000 -1.788446e+001
1010350000 1.028278e+000 -1.096439e+001 1.410826e-003 7.943971e+001 2.483321e-003 7.952705e+001 1.054864e+000 -1.805085e+001
1010500000 1.027710e+000 -1.100429e+001 1.388117e-003 8.263739e+001 2.378044e-003 8.762096e+001 1.059064e+000 -1.790335e+001
1010650000 1.028292e+000 -1.095860e+001 1.181207e-003 7.560525e+001 2.594728e-003 6.299190e+001 1.059401e+000 -1.789756e+001
1010800000 1.029078e+000 -1.088778e+001 1.294960e-003 8.085033e+001 2.354586e-003 7.183456e+001 1.057721e+000 -1.796342e+001
1010950000 1.029510e+000 -1.094614e+001 1.388072e-003 9.022123e+001 1.994400e-003 8.532813e+001 1.056986e+000 -1.796045e+001
1011100000 1.028138e+000 -1.090853e+001 1.269291e-003 9.438128e+001 2.443087e-003 7.716223e+001 1.057122e+000 -1.789426e+001
1011250000 1.029536e+000 -1.088266e+001 1.508745e-003 7.858031e+001 2.557432e-003 7.033372e+001 1.056346e+000 -1.786928e+001
1011400000 1.028742e+000 -1.091755e+001 1.390670e-003 8.136425e+001 2.488014e-003 6.479136e+001 1.057677e+000 -1.787305e+001
1011550000 1.028367e+000 -1.092003e+001 1.001625e-003 8.051358e+001 2.234337e-003 7.575969e+001 1.057015e+000 -1.793290e+001
1011700000 1.028901e+000 -1.092306e+001 1.336253e-003 8.063581e+001 2.121637e-003 6.790809e+001 1.058876e+000 -1.795973e+001
1011850000 1.030220e+000 -1.095244e+001 1.307714e-003 7.363964e+001 1.965228e-003 7.778036e+001 1.058805e+000 -1.810458e+001
1012000000 1.028694e+000 -1.094668e+001 1.052883e-003 9.113543e+001 1.948233e-003 7.048243e+001 1.057592e+000 -1.805091e+001
1012150000 1.028843e+000 -1.091527e+001 1.534420e-003 9.821757e+001 2.019345e-003 7.183369e+001 1.058977e+000 -1.802284e+001
1012300000 1.028030e+000 -1.097591e+001 1.379325e-003 6.632423e+001 1.739894e-003 9.432520e+001 1.059197e+000 -1.793122e+001
1012450000 1.028742e+000 -1.100000e+001 1.305911e-003 8.284480e+001 1.989310e-003 7.808530e+001 1.058154e+000 -1.786775e+001
1012600000 1.029639e+000 -1.100920e+001 1.237338e-003 9.326871e+001 1.821425e-003 7.121722e+001 1.060647e+000 -1.787741e+001
1012750000 1.028177e+000 -1.091090e+001 1.502467e-003 9.099336e+001 2.753487e-003 6.800941e+001 1.060964e+000 -1.771577e+001
1012900000 1.030466e+000 -1.094325e+001 1.300426e-003 7.862922e+001 2.379323e-003 7.316937e+001 1.059140e+000 -1.793847e+001
1013050000 1.026707e+000 -1.091046e+001 1.163891e-003 8.403252e+001 2.247334e-003 8.185764e+001 1.059145e+000 -1.793880e+001
1013200000 1.028355e+000 -1.100472e+001 1.489338e-003 8.174740e+001 1.568553e-003 7.403434e+001 1.057218e+000 -1.787506e+001
1013350000 1.026771e+000 -1.103621e+001 9.859878e-004 9.262381e+001 1.858988e-003 7.104865e+001 1.058885e+000 -1.815466e+001
1013500000 1.028047e+000 -1.101266e+001 1.233103e-003 8.214782e+001 1.956554e-003 8.063673e+001 1.057299e+000 -1.793100e+001
1013650000 1.028353e+000 -1.110534e+001 1.339350e-003 7.722578e+001 2.218973e-003 8.775532e+001 1.056046e+000 -1.803176e+001
1013800000 1.028187e+000 -1.099731e+001 1.452673e-003 8.497346e+001 2.604960e-003 8.378006e+001 1.057992e+000 -1.806119e+001
1013950000 1.028592e+000 -1.099769e+001 1.254796e-003 8.894920e+001 2.581862e-003 6.304230e+001 1.058246e+000 -1.815770e+001
1014100000 1.028551e+000 -1.099303e+001 1.283154e-003 8.605264e+001 2.537867e-003 7.962332e+001 1.058284e+000 -1.800462e+001
1014250000 1.028630e+000 -1.097646e+001 1.326227e-003 9.036506e+001 1.915496e-003 8.535735e+001 1.059312e+000 -1.787124e+001
1014400000 1.030351e+000 -1.098927e+001 1.503190e-003 8.314283e+001 2.369434e-003 7.097365e+001 1.058654e+000 -1.808162e+001
1014550000 1.029999e+000 -1.106880e+001 1.219982e-003 8.993333e+001 2.690118e-003 7.779443e+001 1.059466e+000 -1.793366e+001
1014700000 1.029293e+000 -1.106257e+001 1.328271e-003 7.491411e+001 2.669776e-003 7.901025e+001 1.058953e+000 -1.794632e+001
1014850000 1.030216e+000 -1.100145e+001 1.547785e-003 8.448898e+001 2.594172e-003 7.617309e+001 1.060506e+000 -1.793400e+001
1015000000 1.029576e+000 -1.099156e+001 1.181123e-003 8.204554e+001 2.559712e-003 7.875771e+001 1.059886e+000 -1.814594e+001
1015150000 1.029290e+000 -1.094694e+001 1.090352e-003 8.181521e+001 2.674509e-003 7.659254e+001 1.059228e+000 -1.791014e+001
1015300000 1.029586e+000 -1.099899e+001 1.121753e-003 7.837858e+001 2.909279e-003 7.495164e+001 1.059030e+000 -1.795509e+001
1015450000 1.029997e+000 -1.110440e+001 1.237174e-003 8.087684e+001 2.369492e-003 7.033434e+001 1.056501e+000 -1.800557e+001
1015600000 1.029423e+000 -1.098327e+001 1.212868e-003 6.788239e+001 2.387023e-003 7.312848e+001 1.056633e+000 -1.799958e+001
1015750000 1.030488e+000 -1.097960e+001 1.291907e-003 6.865477e+001 2.427627e-003 8.848988e+001 1.055683e+000 -1.809130e+001
1015900000 1.029723e+000 -1.102363e+001 9.744123e-004 9.014915e+001 2.999406e-003 6.550393e+001 1.054055e+000 -1.794673e+001
1016050000 1.029821e+000 -1.100382e+001 1.311538e-003 8.915986e+001 1.752510e-003 7.624625e+001 1.052632e+000 -1.807706e+001
1016200000 1.030246e+000 -1.101483e+001 1.279162e-003 8.467107e+001 1.902344e-003 7.436944e+001 1.057517e+000 -1.811810e+001
1016350000 1.029811e+000 -1.104358e+001 1.176506e-003 8.740183e+001 2.224840e-003 6.470216e+001 1.056045e+000 -1.802818e+001
1016500000 1.029972e+000 -1.103962e+001 1.418710e-003 8.355186e+001 1.623217e-003 6.371316e+001 1.058893e+000 -1.798143e+001
1016650000 1.029493e+000 -1.102933e+001 1.130150e-003 8.199134e+001 2.102677e-003 8.342377e+001 1.057464e+000 -1.788028e+001
1016800000 1.031231e+000 -1.099761e+001 1.551907e-003 8.008602e+001 2.024440e-003 6.775593e+001 1.057099e+000 -1.800422e+001
1016950000 1.030839e+000 -1.103636e+001 1.015740e-003 8.254125e+001 2.291959e-003 6.138185e+001 1.058859e+000 -1.781449e+001
1017100000 1.030107e+000 -1.107177e+001 1.350500e-003 7.966340e+001 2.020706e-003 5.741117e+001 1.062123e+000 -1.790450e+001
1017250000 1.031247e+000 -1.102062e+001 1.311512e-003 8.571442e+001 2.023470e-003 8.294379e+001 1.062075e+000 -1.794272e+001
1017400000 1.030411e+000 -1.109712e+001 1.190479e-003 7.961234e+001 1.607994e-003 7.448716e+001 1.060007e+000 -1.794262e+001
1017550000 1.029146e+000 -1.099699e+001 9.948449e-004 9.238673e+001 2.196477e-003 6.083694e+001 1.059737e+000 -1.790915e+001
1017700000 1.029016e+000 -1.102584e+001 1.311200e-003 7.596214e+001 2.732366e-003 8.051314e+001 1.058675e+000 -1.796415e+001
1017850000 1.028717e+000 -1.103963e+001 1.319614e-003 8.632168e+001 2.917983e-003 6.719491e+001 1.059548e+000 -1.798973e+001
1018000000 1.028787e+000 -1.107118e+001 1.112297e-003 7.107584e+001 2.687072e-003 7.638270e+001 1.059189e+000 -1.797886e+001
1018150000 1.028718e+000 -1.109457e+001 1.292555e-003 7.054066e+001 2.009614e-003 7.285445e+001 1.059341e+000 -1.808960e+001
1018300000 1.028744e+000 -1.104788e+001 9.770859e-004 7.685780e+001 2.027063e-003 8.360489e+001 1.058657e+000 -1.800415e+001
1018450000 1.031097e+000 -1.105376e+001 1.170178e-003 7.055602e+001 2.594030e-003 6.225459e+001 1.058506e+000 -1.808744e+001
1018600000 1.029906e+000 -1.107543e+001 1.536319e-003 7.766761e+001 1.571153e-003 8.282580e+001 1.060363e+000 -1.787850e+001
1018750000 1.030022e+000 -1.104223e+001 1.352948e-003 8.929359e+001 2.632445e-003 8.499232e+001 1.062347e+000 -1.784952e+001
1018900000 1.029006e+000 -1.101825e+001 1.352704e-003 8.508549e+001 2.282040e-003 7.738287e+001 1.059821e+000 -1.799462e+001
1019050000 1.028875e+000 -1.104688e+001 1.277763e-003 8.137703e+001 2.234184e-003 8.131657e+001 1.061291e+000 -1.799606e+001
1019200000 1.029206e+000 -1.112226e+001 1.362772e-003 8.326711e+001 2.154641e-003 8.097467e+001 1.063812e+000 -1.812747e+001
1019350000 1.028925e+000 -1.108862e+001 1.305084e-003 7.745529e+001 2.386273e-003 7.685941e+001 1.062786e+000 -1.815077e+001
1019500000 1.029797e+000 -1.112864e+001 1.286936e-003 8.215926e+001 2.913442e-003 7.544662e+001 1.061742e+000 -1.811814e+001
1019650000 1.029881e+000 -1.118197e+001 1.483167e-003 8.064367e+001 2.127784e-003 7.569170e+001 1.057408e+000 -1.817812e+001
1019800000 1.029788e+000 -1.108855e+001 1.392651e-003 7.865596e+001 2.618475e-003 6.906321e+001 1.059292e+000 -1.812077e+001
1019950000 1.029592e+000 -1.106577e+001 1.234819e-003 8.777398e+001 2.335285e-003 7.745503e+001 1.058000e+000 -1.819954e+001
1020100000 1.029055e+000 -1.118609e+001 1.416460e-003 7.902249e+001 1.966600e-003 8.046648e+001 1.058069e+000 -1.805934e+001
1020250000 1.029192e+000 -1.110095e+001 1.227151e-003 8.464022e+001 2.308577e-003 8.389684e+001 1.055669e+000 -1.819336e+001
1020400000 1.030182e+000 -1.117551e+001 1.391292e-003 7.767027e+001 2.028347e-003 6.957460e+001 1.060586e+000 -1.813675e+001
1020550000 1.028872e+000 -1.108197e+001 1.250390e-003 8.034560e+001 1.792482e-003 9.491647e+001 1.061290e+000 -1.818196e+001
1020700000 1.027771e+000 -1.116900e+001 1.160228e-003 7.929773e+001 1.654249e-003 8.694270e+001 1.060487e+000 -1.811917e+001
1020850000 1.029897e+000 -1.117857e+001 1.200301e-003 7.802757e+001 2.557744e-003 6.289152e+001 1.062712e+000 -1.807670e+001
1021000000 1.028103e+000 -1.110077e+001 1.343003e-003 7.196210e+001 2.033064e-003 7.172828e+001 1.062836e+000 -1.805005e+001
1021150000 1.028765e+000 -1.116306e+001 1.436598e-003 7.661771e+001 2.095111e-003 7.519023e+001 1.062700e+000 -1.818889e+001
1021300000 1.028535e+000 -1.106537e+001 1.396496e-003 8.620373e+001 3.069669e-003 7.765696e+001 1.062109e+000 -1.807124e+001
1021450000 1.028468e+000 -1.108681e+001 1.249539e-003 8.456715e+001 2.038630e-003 6.851612e+001 1.059320e+000 -1.798999e+001
1021600000 1.027447e+000 -1.107751e+001 1.278797e-003 8.774859e+001 2.447811e-003 6.610091e+001 1.058596e+000 -1.813780e+001
1021750000 1.026633e+000 -1.102429e+001 1.307914e-003 8.843663e+001 3.075224e-003 6.992876e+001 1.058771e+000 -1.813337e+001
1021900000 1.027215e+000 -1.107499e+001 1.115907e-003 8.960979e+001 2.460406e-003 7.302694e+001 1.061148e+000 -1.809200e+001
1022050000 1.028949e+000 -1.107760e+001 1.087462e-003 7.551609e+001 2.442143e-003 7.550124e+001 1.060468e+000 -1.804163e+001
1022200000 1.028243e+000 -1.112285e+001 1.517113e-003 7.755587e+001 2.442907e-003 6.903426e+001 1.057741e+000 -1.806342e+001
1022350000 1.028513e+000 -1.113218e+001 1.417255e-003 8.888107e+001 1.696296e-003 7.392625e+001 1.059058e+000 -1.803131e+001
1022500000 1.028391e+000 -1.111984e+001 1.352673e-003 8.646432e+001 2.133349e-003 7.200655e+001 1.060880e+000 -1.804430e+001
1022650000 1.028393e+000 -1.112220e+001 1.467523e-003 8.414340e+001 1.992789e-003 7.022825e+001 1.061873e+000 -1.800013e+001
1022800000 1.030001e+000 -1.118728e+001 1.323188e-003 8.948540e+001 2.576430e-003 6.717208e+001 1.060843e+000 -1.817139e+001
1022950000 1.030197e+000 -1.106782e+001 1.088902e-003 8.109486e+001 1.808664e-003 7.300626e+001 1.059881e+000 -1.801537e+001
1023100000 1.030755e+000 -1.109920e+001 1.403144e-003 7.766634e+001 2.383439e-003 8.570151e+001 1.058558e+000 -1.806261e+001
1023250000 1.029388e+000 -1.103233e+001 1.218277e-003 8.405423e+001 2.243894e-003 7.262161e+001 1.062295e+000 -1.819196e+001
