!Agilent Technologies,N5230C,SG49000117,A.08.50.07
!Agilent N5230C: A.08.50.07
!Date: Monday, May 20, 2024 21:11:15
!Correction: S11(Full 2 Port(1,2)) 
!S21(Full 2 Port(1,2)) 
!S12(Full 2 Port(1,2)) 
!S22(Full 2 Port(1,2)) 
!S2P File: Measurements: S11, S21, S12, S22:
# Hz S  MA   R 50
1000000000 1.028878e+000 -1.152879e+001 1.208160e-003 7.099035e+001 2.461044e-003 6.989765e+001 1.060189e+000 -1.894589e+001
1000150000 1.029921e+000 -1.155027e+001 1.378116e-003 8.354805e+001 2.076647e-003 7.075718e+001 1.059800e+000 -1.906679e+001
1000300000 1.029895e+000 -1.153188e+001 1.511885e-003 7.994664e+001 2.274988e-003 7.217726e+001 1.060154e+000 -1.911340e+001
1000450000 1.028333e+000 -1.151703e+001 1.261404e-003 7.659444e+001 2.411979e-003 7.079427e+001 1.058424e+000 -1.902852e+001
1000600000 1.029284e+000 -1.150191e+001 1.184802e-003 7.888612e+001 2.559917e-003 7.317252e+001 1.057608e+000 -1.907608e+001
1000750000 1.028273e+000 -1.160578e+001 1.392282e-003 8.927228e+001 2.543731e-003 6.870776e+001 1.057006e+000 -1.910948e+001
1000900000 1.029084e+000 -1.148304e+001 1.294856e-003 7.877811e+001 2.559652e-003 6.811170e+001 1.059040e+000 -1.906680e+001
1001050000 1.028471e+000 -1.153256e+001 1.427118e-003 7.386407e+001 2.021346e-003 7.543520e+001 1.059317e+000 -1.907776e+001
1001200000 1.028441e+000 -1.156618e+001 1.256764e-003 8.140259e+001 2.110515e-003 6.808543e+001 1.061108e+000 -1.889643e+001
1001350000 1.029183e+000 -1.147654e+001 1.429367e-003 7.943903e+001 2.610045e-003 6.568552e+001 1.058296e+000 -1.904526e+001
1001500000 1.029354e+000 -1.154809e+001 1.448515e-003 7.829341e+001 2.963962e-003 6.996693e+001 1.060220e+000 -1.905181e+001
1001650000 1.029374e+000 -1.154812e+001 1.242838e-003 9.333163e+001 2.935849e-003 6.941772e+001 1.061058e+000 -1.901228e+001
1001800000 1.028227e+000 -1.151242e+001 1.520306e-003 8.949809e+001 2.217774e-003 5.545155e+001 1.060459e+000 -1.896752e+001
1001950000 1.028461e+000 -1.156586e+001 1.733268e-003 9.232982e+001 2.421788e-003 7.790509e+001 1.058356e+000 -1.900835e+001
1002100000 1.026939e+000 -1.151712e+001 1.410967e-003 8.170094e+001 1.887161e-003 7.019562e+001 1.060087e+000 -1.909665e+001
1002250000 1.027594e+000 -1.161239e+001 1.315879e-003 7.761481e+001 2.995441e-003 6.753975e+001 1.060446e+000 -1.916159e+001
1002400000 1.028481e+000 -1.151150e+001 1.497537e-003 7.299905e+001 2.651649e-003 6.703925e+001 1.060745e+000 -1.909618e+001
1002550000 1.028605e+000 -1.156339e+001 1.426874e-003 7.529387e+001 2.595346e-003 6.790639e+001 1.057600e+000 -1.917469e+001
1002700000 1.029994e+000 -1.146383e+001 1.138275e-003 8.968449e+001 2.478789e-003 7.661850e+001 1.058952e+000 -1.911040e+001
1002850000 1.030985e+000 -1.163451e+001 1.204414e-003 8.193726e+001 2.832416e-003 6.999683e+001 1.058939e+000 -1.907106e+001
1003000000 1.029940e+000 -1.162338e+001 1.200905e-003 8.258572e+001 1.908163e-003 8.388296e+001 1.057333e+000 -1.896983e+001
1003150000 1.029944e+000 -1.154200e+001 1.224464e-003 7.523560e+001 2.212316e-003 7.055949e+001 1.059818e+000 -1.906958e+001
1003300000 1.030820e+000 -1.159206e+001 1.060791e-003 7.507929e+001 3.115286e-003 8.196731e+001 1.057906e+000 -1.901520e+001
1003450000 1.029845e+000 -1.155993e+001 1.280942e-003 9.148151e+001 2.918951e-003 7.381038e+001 1.058026e+000 -1.904604e+001
1003600000 1.031410e+000 -1.152888e+001 1.076688e-003 8.630954e+001 2.921540e-003 7.731639e+001 1.057819e+000 -1.903008e+001
1003750000 1.031196e+000 -1.151014e+001 1.643345e-003 7.760865e+001 2.643435e-003 6.765446e+001 1.056836e+000 -1.900772e+001
1003900000 1.030751e+000 -1.152032e+001 1.330551e-003 8.361723e+001 2.742767e-003 6.924625e+001 1.057195e+000 -1.903348e+001
1004050000 1.029040e+000 -1.153074e+001 1.175288e-003 7.589233e+001 2.650610e-003 6.974620e+001 1.054317e+000 -1.901336e+001
1004200000 1.029914e+000 -1.150955e+001 1.533696e-003 7.954311e+001 2.429139e-003 6.939861e+001 1.058901e+000 -1.901404e+001
1004350000 1.028471e+000 -1.154030e+001 1.278293e-003 7.917543e+001 2.808394e-003 7.017348e+001 1.057465e+000 -1.912169e+001
1004500000 1.028043e+000 -1.155166e+001 1.351094e-003 7.879475e+001 2.324469e-003 7.834133e+001 1.059758e+000 -1.912342e+001
1004650000 1.029276e+000 -1.145917e+001 1.627539e-003 8.003213e+001 2.510466e-003 7.386285e+001 1.057942e+000 -1.899476e+001
1004800000 1.029310e+000 -1.163306e+001 1.302708e-003 8.358983e+001 2.353115e-003 6.839890e+001 1.059426e+000 -1.906194e+001
1004950000 1.029195e+000 -1.154047e+001 1.341773e-003 8.091127e+001 2.941896e-003 7.780934e+001 1.057976e+000 -1.905958e+001
1005100000 1.029281e+000 -1.156092e+001 1.217215e-003 7.830857e+001 1.962267e-003 6.603802e+001 1.057377e+000 -1.915571e+001
1005250000 1.027658e+000 -1.165355e+001 1.200248e-003 7.983112e+001 2.056908e-003 8.936504e+001 1.057822e+000 -1.915349e+001
1005400000 1.030209e+000 -1.149520e+001 1.531366e-003 8.231965e+001 2.256390e-003 6.354972e+001 1.058765e+000 -1.913917e+001
1005550000 1.031008e+000 -1.158405e+001 1.063913e-003 8.525026e+001 2.711491e-003 6.968375e+001 1.058707e+000 -1.919705e+001
1005700000 1.028331e+000 -1.162037e+001 1.120198e-003 6.691942e+001 2.427018e-003 7.795991e+001 1.059537e+000 -1.911973e+001
1005850000 1.030512e+000 -1.158108e+001 1.597528e-003 8.262025e+001 2.364585e-003 7.607137e+001 1.060752e+000 -1.910146e+001
1006000000 1.028468e+000 -1.158391e+001 1.048334e-003 8.819440e+001 2.304792e-003 6.004457e+001 1.061759e+000 -1.924635e+001
1006150000 1.030193e+000 -1.160257e+001 1.250826e-003 7.674097e+001 2.434171e-003 7.810074e+001 1.059938e+000 -1.920566e+001
1006300000 1.029262e+000 -1.157761e+001 1.159682e-003 7.938468e+001 2.764853e-003 8.065497e+001 1.059013e+000 -1.905599e+001
1006450000 1.028523e+000 -1.161140e+001 1.268905e-003 8.418077e+001 3.145547e-003 8.113695e+001 1.058991e+000 -1.911172e+001
1006600000 1.028687e+000 -1.162797e+001 1.435616e-003 8.782963e+001 2.021064e-003 6.178621e+001 1.060065e+000 -1.912358e+001
1006750000 1.030209e+000 -1.170075e+001 8.950425e-004 8.876888e+001 2.533288e-003 7.429317e+001 1.057521e+000 -1.909057e+001
1006900000 1.030102e+000 -1.165677e+001 1.045902e-003 9.672158e+001 3.113431e-003 7.691195e+001 1.059895e+000 -1.898486e+001
1007050000 1.030179e+000 -1.158459e+001 1.485714e-003 8.044601e+001 2.811917e-003 8.358418e+001 1.058672e+000 -1.909516e+001
1007200000 1.030278e+000 -1.154984e+001 1.219508e-003 8.219538e+001 2.184954e-003 6.161583e+001 1.060340e+000 -1.910118e+001
1007350000 1.029701e+000 -1.157149e+001 1.137633e-003 7.891863e+001 2.664200e-003 7.180347e+001 1.059787e+000 -1.914755e+001
1007500000 1.028911e+000 -1.160925e+001 1.209785e-003 9.134585e+001 2.418870e-003 6.357151e+001 1.059301e+000 -1.922266e+001
1007650000 1.029164e+000 -1.152462e+001 1.438531e-003 8.791058e+001 2.124883e-003 6.334662e+001 1.058444e+000 -1.924891e+001
1007800000 1.029183e+000 -1.155222e+001 1.318013e-003 7.920254e+001 2.449663e-003 8.169807e+001 1.058409e+000 -1.908711e+001
1007950000 1.029189e+000 -1.168380e+001 9.380752e-004 7.581935e+001 2.491782e-003 7.967139e+001 1.054780e+000 -1.924368e+001
1008100000 1.028066e+000 -1.164932e+001 1.405794e-003 7.902839e+001 2.293328e-003 7.694234e+001 1.057682e+000 -1.934027e+001
1008250000 1.028081e+000 -1.169211e+001 1.154766e-003 8.395394e+001 2.703271e-003 7.192175e+001 1.058211e+000 -1.938673e+001
1008400000 1.028416e+000 -1.169085e+001 1.295706e-003 7.090420e+001 2.154930e-003 7.378001e+001 1.059374e+000 -1.927277e+001
1008550000 1.029025e+000 -1.158641e+001 1.515940e-003 8.409124e+001 2.652252e-003 7.092221e+001 1.058722e+000 -1.920436e+001
1008700000 1.030934e+000 -1.167796e+001 1.202329e-003 7.902251e+001 1.707972e-003 7.650917e+001 1.059478e+000 -1.927227e+001
1008850000 1.028269e+000 -1.153331e+001 1.252603e-003 8.668628e+001 2.469118e-003 7.265800e+001 1.058711e+000 -1.923370e+001
1009000000 1.028922e+000 -1.161594e+001 1.042214e-003 9.221231e+001 2.684280e-003 6.264225e+001 1.060249e+000 -1.929363e+001
1009150000 1.030038e+000 -1.171421e+001 1.328986e-003 8.489771e+001 3.082412e-003 7.101169e+001 1.060190e+000 -1.925083e+001
1009300000 1.029899e+000 -1.162612e+001 1.318671e-003 7.786783e+001 2.352162e-003 6.519709e+001 1.059457e+000 -1.921737e+001
1009450000 1.028594e+000 -1.161129e+001 1.096994e-003 7.835773e+001 2.303867e-003 6.529170e+001 1.061973e+000 -1.924507e+001
1009600000 1.030266e+000 -1.159420e+001 1.396531e-003 9.160459e+001 2.238477e-003 6.527436e+001 1.060403e+000 -1.935613e+001
1009750000 1.028688e+000 -1.163894e+001 1.451753e-003 8.745071e+001 2.560203e-003 7.231545e+001 1.061433e+000 -1.929989e+001
1009900000 1.029624e+000 -1.164783e+001 1.350219e-003 7.633082e+001 2.492356e-003 7.918876e+001 1.063836e+000 -1.926201e+001
1010050000 1.030160e+000 -1.177678e+001 1.382347e-003 8.466139e+001 2.318431e-003 7.634926e+001 1.061541e+000 -1.934418e+001
1010200000 1.030187e+000 -1.167915e+001 1.397844e-003 7.671278e+001 2.543752e-003 6.752394e+001 1.059278e+000 -1.921169e+001
1010350000 1.029377e+000 -1.165312e+001 1.228920e-003 9.276938e+001 2.618669e-003 8.337086e+001 1.059906e+000 -1.924518e+001
1010500000 1.029380e+000 -1.174886e+001 1.269871e-003 8.204691e+001 2.085116e-003 7.412631e+001 1.060448e+000 -1.919249e+001
1010650000 1.029886e+000 -1.167948e+001 1.428501e-003 7.985106e+001 2.595577e-003 7.072978e+001 1.058461e+000 -1.935932e+001
1010800000 1.029242e+000 -1.177438e+001 1.388408e-003 9.021549e+001 2.540835e-003 7.053575e+001 1.057286e+000 -1.914235e+001
1010950000 1.029787e+000 -1.174218e+001 1.487020e-003 8.633009e+001 2.447741e-003 7.779230e+001 1.058612e+000 -1.923978e+001
1011100000 1.030209e+000 -1.169863e+001 1.325103e-003 8.592184e+001 2.572414e-003 7.147952e+001 1.058931e+000 -1.915861e+001
1011250000 1.029053e+000 -1.166137e+001 1.235164e-003 7.902708e+001 2.527165e-003 7.932339e+001 1.059248e+000 -1.919662e+001
1011400000 1.027880e+000 -1.166530e+001 1.160704e-003 8.237852e+001 2.660629e-003 7.374434e+001 1.059415e+000 -1.915474e+001
1011550000 1.029202e+000 -1.164366e+001 1.292964e-003 8.552823e+001 2.858615e-003 7.468338e+001 1.056802e+000 -1.914979e+001
1011700000 1.028238e+000 -1.163495e+001 8.983346e-004 7.807753e+001 2.556124e-003 6.839831e+001 1.059222e+000 -1.931457e+001
1011850000 1.028112e+000 -1.173059e+001 1.596009e-003 7.739157e+001 2.432580e-003 8.932973e+001 1.058297e+000 -1.931566e+001
1012000000 1.030526e+000 -1.170489e+001 1.503334e-003 8.352309e+001 2.318731e-003 7.057348e+001 1.057268e+000 -1.932076e+001
1012150000 1.028990e+000 -1.163687e+001 1.198650e-003 7.907312e+001 2.249007e-003 7.246551e+001 1.059711e+000 -1.931714e+001
1012300000 1.028527e+000 -1.169363e+001 1.273427e-003 8.025671e+001 2.601004e-003 8.417896e+001 1.056810e+000 -1.924867e+001
1012450000 1.028344e+000 -1.175369e+001 1.148431e-003 7.725576e+001 1.889411e-003 6.948376e+001 1.058837e+000 -1.908308e+001
1012600000 1.028473e+000 -1.164243e+001 1.372580e-003 7.760234e+001 2.368660e-003 7.816803e+001 1.059241e+000 -1.920788e+001
1012750000 1.028101e+000 -1.167055e+001 1.370776e-003 7.981411e+001 2.701030e-003 7.709355e+001 1.058989e+000 -1.909998e+001
1012900000 1.028882e+000 -1.175744e+001 1.241858e-003 7.288531e+001 1.842445e-003 8.951899e+001 1.059540e+000 -1.909576e+001
1013050000 1.027425e+000 -1.170888e+001 1.111030e-003 6.656669e+001 2.398097e-003 8.367964e+001 1.057744e+000 -1.924304e+001
1013200000 1.028588e+000 -1.168300e+001 1.325844e-003 8.598547e+001 1.934227e-003 8.666111e+001 1.056208e+000 -1.916384e+001
1013350000 1.029281e+000 -1.173400e+001 1.097706e-003 8.190202e+001 2.271598e-003 6.959177e+001 1.057673e+000 -1.935744e+001
1013500000 1.029959e+000 -1.174953e+001 1.422111e-003 7.956387e+001 2.806871e-003 6.684755e+001 1.059201e+000 -1.928343e+001
1013650000 1.028497e+000 -1.171302e+001 1.403895e-003 8.309112e+001 2.166913e-003 8.658409e+001 1.057582e+000 -1.925513e+001
1013800000 1.029372e+000 -1.179117e+001 1.575196e-003 8.634465e+001 2.492015e-003 6.017070e+001 1.057133e+000 -1.930042e+001
1013950000 1.028813e+000 -1.182133e+001 1.229273e-003 8.715920e+001 2.447397e-003 6.275161e+001 1.059191e+000 -1.921421e+001
1014100000 1.029196e+000 -1.179029e+001 1.403431e-003 8.386071e+001 2.611879e-003 7.148246e+001 1.057488e+000 -1.921941e+001
1014250000 1.029591e+000 -1.177415e+001 1.374711e-003 8.097950e+001 2.236110e-003 7.961438e+001 1.057764e+000 -1.939381e+001
1014400000 1.029577e+000 -1.171503e+001 1.299399e-003 9.272794e+001 2.593715e-003 7.924471e+001 1.058451e+000 -1.933589e+001
1014550000 1.028400e+000 -1.183276e+001 1.094562e-003 8.951895e+001 2.708101e-003 6.799821e+001 1.060818e+000 -1.922471e+001
1014700000 1.030646e+000 -1.188032e+001 1.451984e-003 7.864188e+001 2.332879e-003 8.205567e+001 1.059669e+000 -1.929031e+001
1014850000 1.030585e+000 -1.174944e+001 1.421505e-003 8.095907e+001 2.750234e-003 6.618562e+001 1.060511e+000 -1.929803e+001
1015000000 1.030586e+000 -1.169615e+001 1.327334e-003 8.916464e+001 2.732611e-003 7.117087e+001 1.059071e+000 -1.930167e+001
1015150000 1.030039e+000 -1.179482e+001 1.208833e-003 6.961065e+001 2.528783e-003 7.438403e+001 1.059850e+000 -1.929370e+001
1015300000 1.030249e+000 -1.170490e+001 1.314021e-003 8.586803e+001 2.525050e-003 5.907602e+001 1.059885e+000 -1.942014e+001
1015450000 1.030286e+000 -1.176141e+001 1.522495e-003 6.744521e+001 2.599381e-003 8.323818e+001 1.056619e+000 -1.925118e+001
1015600000 1.028044e+000 -1.183052e+001 1.437610e-003 9.471600e+001 2.619513e-003 6.784795e+001 1.055926e+000 -1.934240e+001
1015750000 1.028625e+000 -1.172196e+001 1.386341e-003 9.673605e+001 2.607245e-003 6.868650e+001 1.057469e+000 -1.940019e+001
1015900000 1.030143e+000 -1.170317e+001 1.212403e-003 8.607084e+001 2.451856e-003 6.938602e+001 1.055592e+000 -1.948798e+001
1016050000 1.028311e+000 -1.177214e+001 1.282994e-003 8.417002e+001 2.807467e-003 7.180246e+001 1.056504e+000 -1.937894e+001
1016200000 1.029585e+000 -1.183851e+001 1.429763e-003 8.812744e+001 2.949339e-003 6.909940e+001 1.054652e+000 -1.935311e+001
1016350000 1.030994e+000 -1.178689e+001 1.378678e-003 7.352254e+001 2.986030e-003 8.202815e+001 1.056156e+000 -1.927350e+001
1016500000 1.030083e+000 -1.178924e+001 1.092653e-003 6.438694e+001 2.980980e-003 7.371104e+001 1.057856e+000 -1.916273e+001
1016650000 1.030413e+000 -1.177602e+001 1.349439e-003 9.075987e+001 3.450661e-003 7.737042e+001 1.058597e+000 -1.923234e+001
1016800000 1.031475e+000 -1.182190e+001 1.177477e-003 8.776591e+001 2.770490e-003 7.572880e+001 1.058926e+000 -1.921896e+001
1016950000 1.030507e+000 -1.178324e+001 1.646341e-003 8.460688e+001 2.344301e-003 7.239027e+001 1.059368e+000 -1.929381e+001
1017100000 1.030854e+000 -1.178521e+001 1.388982e-003 7.967019e+001 2.777305e-003 7.721169e+001 1.058362e+000 -1.909697e+001
1017250000 1.030391e+000 -1.181493e+001 1.598315e-003 9.023123e+001 2.625270e-003 8.666238e+001 1.059312e+000 -1.908305e+001
1017400000 1.028466e+000 -1.173417e+001 1.575481e-003 8.170213e+001 2.623064e-003 7.254088e+001 1.060367e+000 -1.918030e+001
1017550000 1.030337e+000 -1.181918e+001 1.222501e-003 8.404199e+001 2.152162e-003 7.725288e+001 1.059443e+000 -1.928934e+001
1017700000 1.028024e+000 -1.178765e+001 1.289535e-003 9.190176e+001 2.493519e-003 7.779269e+001 1.060636e+000 -1.913124e+001
1017850000 1.029126e+000 -1.179828e+001 1.290371e-003 9.209576e+001 2.540555e-003 7.361827e+001 1.062657e+000 -1.915998e+001
1018000000 1.028795e+000 -1.178199e+001 1.458973e-003 8.726762e+001 2.899292e-003 6.362886e+001 1.059522e+000 -1.928424e+001
1018150000 1.028886e+000 -1.185105e+001 1.662364e-003 7.838379e+001 2.557870e-003 6.748847e+001 1.061695e+000 -1.929877e+001
1018300000 1.029264e+000 -1.177098e+001 1.374640e-003 7.526814e+001 2.904801e-003 7.707353e+001 1.057197e+000 -1.933971e+001
1018450000 1.029387e+000 -1.177762e+001 1.268755e-003 8.255327e+001 2.228040e-003 6.516502e+001 1.059451e+000 -1.940209e+001
1018600000 1.029674e+000 -1.176009e+001 1.430153e-003 9.172340e+001 2.345409e-003 7.713013e+001 1.056879e+000 -1.938224e+001
1018750000 1.027929e+000 -1.178054e+001 1.197906e-003 8.184254e+001 2.414970e-003 6.905490e+001 1.059177e+000 -1.928106e+001
1018900000 1.030814e+000 -1.182506e+001 1.362684e-003 7.991881e+001 2.498296e-003 7.894389e+001 1.059470e+000 -1.937650e+001
1019050000 1.029136e+000 -1.185035e+001 1.557760e-003 8.517467e+001 2.480729e-003 7.046629e+001 1.060782e+000 -1.932437e+001
1019200000 1.028998e+000 -1.193892e+001 1.273118e-003 7.640195e+001 2.471757e-003 7.699554e+001 1.059740e+000 -1.927664e+001
1019350000 1.029581e+000 -1.183553e+001 1.321486e-003 8.485345e+001 3.065249e-003 8.978953e+001 1.059762e+000 -1.919766e+001
1019500000 1.028707e+000 -1.189679e+001 1.341755e-003 7.356809e+001 2.641274e-003 7.827589e+001 1.061612e+000 -1.936901e+001
1019650000 1.028823e+000 -1.183367e+001 1.473566e-003 7.938448e+001 2.379096e-003 7.823125e+001 1.058116e+000 -1.941553e+001
1019800000 1.029143e+000 -1.189022e+001 9.830748e-004 8.568889e+001 2.645729e-003 6.890451e+001 1.058377e+000 -1.942068e+001
1019950000 1.030222e+000 -1.189387e+001 1.184630e-003 8.194129e+001 2.430458e-003 7.959087e+001 1.057126e+000 -1.939257e+001
1020100000 1.028075e+000 -1.189664e+001 1.495809e-003 8.568040e+001 2.328829e-003 6.523529e+001 1.058456e+000 -1.953186e+001
1020250000 1.030205e+000 -1.190160e+001 1.267912e-003 8.601823e+001 2.750384e-003 6.993032e+001 1.056410e+000 -1.941187e+001
1020400000 1.028721e+000 -1.191579e+001 1.268893e-003 7.772829e+001 2.439380e-003 6.944598e+001 1.061608e+000 -1.932029e+001
1020550000 1.029647e+000 -1.187573e+001 1.519079e-003 8.019711e+001 2.689225e-003 7.306834e+001 1.061563e+000 -1.943315e+001
1020700000 1.029873e+000 -1.183813e+001 1.121853e-003 7.870393e+001 2.907811e-003 7.178019e+001 1.062737e+000 -1.940864e+001
1020850000 1.029691e+000 -1.190707e+001 1.240113e-003 8.327560e+001 2.318611e-003 7.631217e+001 1.063051e+000 -1.948975e+001
1021000000 1.029097e+000 -1.184011e+001 1.437506e-003 8.578219e+001 2.721133e-003 7.418694e+001 1.061824e+000 -1.946267e+001
1021150000 1.029185e+000 -1.193585e+001 1.360902e-003 8.317227e+001 2.237817e-003 7.504967e+001 1.063308e+000 -1.941207e+001
1021300000 1.028655e+000 -1.179567e+001 1.627590e-003 7.783898e+001 2.313676e-003 7.589050e+001 1.061866e+000 -1.935313e+001
1021450000 1.028798e+000 -1.184635e+001 1.354952e-003 7.382782e+001 2.404147e-003 6.927757e+001 1.061985e+000 -1.938589e+001
1021600000 1.027810e+000 -1.187251e+001 1.192899e-003 7.879792e+001 2.116949e-003 7.271078e+001 1.056463e+000 -1.956817e+001
1021750000 1.028288e+000 -1.189043e+001 1.561347e-003 9.119621e+001 2.123057e-003 6.934116e+001 1.059410e+000 -1.938148e+001
1021900000 1.028772e+000 -1.195023e+001 1.133298e-003 6.987625e+001 2.482875e-003 7.870987e+001 1.058116e+000 -1.951005e+001
1022050000 1.028940e+000 -1.187729e+001 1.411630e-003 8.364911e+001 2.310298e-003 7.782481e+001 1.058118e+000 -1.949590e+001
1022200000 1.029672e+000 -1.179380e+001 1.394339e-003 8.323080e+001 2.503078e-003 8.459783e+001 1.060618e+000 -1.941036e+001
1022350000 1.029786e+000 -1.182990e+001 1.412374e-003 7.554691e+001 2.209631e-003 6.617837e+001 1.060555e+000 -1.949920e+001
1022500000 1.029565e+000 -1.187533e+001 1.418870e-003 9.266974e+001 2.386788e-003 7.520010e+001 1.060363e+000 -1.934538e+001
1022650000 1.029313e+000 -1.185032e+001 1.264361e-003 7.530876e+001 2.589881e-003 7.007748e+001 1.062093e+000 -1.948136e+001
1022800000 1.029848e+000 -1.184908e+001 1.258794e-003 8.909734e+001 2.839172e-003 7.452192e+001 1.061174e+000 -1.927460e+001
1022950000 1.030709e+000 -1.190510e+001 1.282760e-003 7.322826e+001 1.992043e-003 7.780405e+001 1.059751e+000 -1.928580e+001
1023100000 1.028279e+000 -1.185885e+001 1.465751e-003 8.356219e+001 2.520591e-003 7.040928e+001 1.061989e+000 -1.929833e+001
1023250000 1.030336e+000 -1.193612e+001 1.481137e-003 8.789161e+001 2.963271e-003 6.918185e+001 1.060758e+000 -1.936085e+001
