!Agilent Technologies,N5230C,SG49000117,A.08.50.07
!Agilent N5230C: A.08.50.07
!Date: Monday, May 20, 2024 21:10:07
!Correction: S11(Full 2 Port(1,2)) 
!S21(Full 2 Port(1,2)) 
!S12(Full 2 Port(1,2)) 
!S22(Full 2 Port(1,2)) 
!S2P File: Measurements: S11, S21, S12, S22:
# Hz S  MA   R 50
1000000000 1.028538e+000 -1.214885e+001 1.501346e-003 9.306755e+001 2.489867e-003 7.417268e+001 1.058293e+000 -2.028629e+001
1000150000 1.029124e+000 -1.212325e+001 1.354905e-003 8.313242e+001 3.072692e-003 6.639320e+001 1.058438e+000 -2.046578e+001
1000300000 1.028841e+000 -1.211344e+001 1.156589e-003 7.823093e+001 2.804439e-003 5.847080e+001 1.059295e+000 -2.032709e+001
1000450000 1.029253e+000 -1.211154e+001 1.335337e-003 7.541777e+001 2.804218e-003 7.709159e+001 1.057979e+000 -2.041703e+001
1000600000 1.029341e+000 -1.209363e+001 1.396386e-003 8.525014e+001 2.599031e-003 6.810480e+001 1.057438e+000 -2.043725e+001
1000750000 1.030734e+000 -1.211721e+001 1.416256e-003 8.346740e+001 2.615154e-003 7.141370e+001 1.058175e+000 -2.044033e+001
1000900000 1.029148e+000 -1.214826e+001 1.699431e-003 8.438930e+001 2.600566e-003 7.222005e+001 1.059020e+000 -2.048023e+001
1001050000 1.030362e+000 -1.210876e+001 1.336184e-003 8.176567e+001 2.261263e-003 7.288069e+001 1.058197e+000 -2.037535e+001
1001200000 1.028568e+000 -1.212386e+001 1.560255e-003 7.333720e+001 2.233292e-003 6.656801e+001 1.059631e+000 -2.036708e+001
1001350000 1.028650e+000 -1.224794e+001 1.078677e-003 8.653814e+001 2.540811e-003 6.614594e+001 1.059723e+000 -2.033200e+001
1001500000 1.029582e+000 -1.215946e+001 1.399070e-003 8.475882e+001 2.262171e-003 7.490349e+001 1.059009e+000 -2.027619e+001
1001650000 1.028108e+000 -1.213124e+001 1.346706e-003 8.258555e+001 2.360869e-003 7.501730e+001 1.059411e+000 -2.038556e+001
1001800000 1.027061e+000 -1.215058e+001 1.052392e-003 8.273018e+001 2.400585e-003 6.824492e+001 1.058752e+000 -2.044500e+001
1001950000 1.028430e+000 -1.220158e+001 1.417329e-003 6.777215e+001 2.222680e-003 6.363996e+001 1.058722e+000 -2.035646e+001
1002100000 1.028494e+000 -1.217156e+001 1.229693e-003 9.394736e+001 2.566327e-003 7.302075e+001 1.058847e+000 -2.052002e+001
1002250000 1.029175e+000 -1.229260e+001 1.534205e-003 8.222451e+001 2.623159e-003 7.438087e+001 1.057868e+000 -2.037621e+001
1002400000 1.028174e+000 -1.224031e+001 1.225985e-003 7.737790e+001 2.537841e-003 7.219898e+001 1.059956e+000 -2.051535e+001
1002550000 1.029923e+000 -1.222733e+001 1.604960e-003 8.641447e+001 2.350719e-003 7.264761e+001 1.057991e+000 -2.049989e+001
1002700000 1.027188e+000 -1.217375e+001 1.543523e-003 8.431512e+001 2.703040e-003 7.032678e+001 1.057259e+000 -2.044007e+001
1002850000 1.029006e+000 -1.223725e+001 1.272520e-003 7.814549e+001 2.565433e-003 6.387096e+001 1.059418e+000 -2.053343e+001
1003000000 1.029310e+000 -1.220753e+001 1.388948e-003 8.288371e+001 2.540344e-003 7.323553e+001 1.059751e+000 -2.042727e+001
1003150000 1.029571e+000 -1.216017e+001 1.595004e-003 7.623611e+001 2.349870e-003 5.745044e+001 1.061213e+000 -2.039224e+001
1003300000 1.030351e+000 -1.222380e+001 1.466261e-003 7.958820e+001 2.785358e-003 6.826463e+001 1.057309e+000 -2.043062e+001
1003450000 1.029026e+000 -1.219674e+001 1.383767e-003 8.103650e+001 2.344452e-003 8.253838e+001 1.054988e+000 -2.046936e+001
1003600000 1.030169e+000 -1.212271e+001 1.445186e-003 8.523650e+001 2.395729e-003 7.590313e+001 1.057621e+000 -2.046396e+001
1003750000 1.029132e+000 -1.213480e+001 1.063259e-003 7.728683e+001 2.505706e-003 6.272408e+001 1.059944e+000 -2.058120e+001
1003900000 1.029829e+000 -1.218751e+001 1.322537e-003 7.207417e+001 3.001251e-003 7.379489e+001 1.055810e+000 -2.043731e+001
1004050000 1.029720e+000 -1.216148e+001 1.364682e-003 8.044244e+001 2.446989e-003 7.347280e+001 1.058019e+000 -2.044697e+001
1004200000 1.028679e+000 -1.212209e+001 1.098763e-003 8.830663e+001 2.509634e-003 6.333414e+001 1.058187e+000 -2.040111e+001
1004350000 1.029935e+000 -1.220676e+001 1.505456e-003 8.260827e+001 2.360299e-003 8.313786e+001 1.057081e+000 -2.046976e+001
1004500000 1.027701e+000 -1.223211e+001 1.615983e-003 7.551624e+001 2.338688e-003 7.491084e+001 1.058851e+000 -2.035640e+001
1004650000 1.029349e+000 -1.217760e+001 1.298686e-003 8.013785e+001 2.702350e-003 8.460160e+001 1.059820e+000 -2.056321e+001
1004800000 1.029464e+000 -1.221255e+001 1.322558e-003 8.457760e+001 3.084895e-003 8.461299e+001 1.058120e+000 -2.040982e+001
1004950000 1.028736e+000 -1.222144e+001 1.226371e-003 7.905351e+001 2.890050e-003 7.549384e+001 1.058127e+000 -2.052183e+001
1005100000 1.029209e+000 -1.220045e+001 1.471591e-003 6.704816e+001 2.748630e-003 6.726552e+001 1.058619e+000 -2.048301e+001
1005250000 1.028579e+000 -1.211497e+001 1.244858e-003 7.956075e+001 2.618829e-003 7.222449e+001 1.060004e+000 -2.039035e+001
1005400000 1.029888e+000 -1.216411e+001 1.379266e-003 7.608816e+001 2.297924e-003 7.540071e+001 1.058297e+000 -2.030931e+001
1005550000 1.029388e+000 -1.222365e+001 1.166161e-003 8.589630e+001 3.241299e-003 6.709279e+001 1.060074e+000 -2.050728e+001
1005700000 1.029797e+000 -1.213045e+001 1.430928e-003 8.390421e+001 2.877806e-003 6.859956e+001 1.058611e+000 -2.045218e+001
1005850000 1.029627e+000 -1.225397e+001 1.494663e-003 7.367321e+001 2.470680e-003 7.340298e+001 1.059855e+000 -2.050137e+001
1006000000 1.028620e+000 -1.216721e+001 1.274564e-003 8.727909e+001 2.344145e-003 7.246783e+001 1.058980e+000 -2.042715e+001
1006150000 1.028862e+000 -1.219922e+001 1.334944e-003 7.790639e+001 2.401062e-003 7.606533e+001 1.061094e+000 -2.047811e+001
1006300000 1.028599e+000 -1.228755e+001 1.331261e-003 8.910101e+001 2.132834e-003 5.693444e+001 1.061002e+000 -2.048786e+001
1006450000 1.030716e+000 -1.226634e+001 1.435113e-003 9.524005e+001 2.780210e-003 7.027576e+001 1.061685e+000 -2.039827e+001
1006600000 1.030602e+000 -1.223321e+001 1.292824e-003 9.320560e+001 2.725462e-003 7.356981e+001 1.058816e+000 -2.034975e+001
1006750000 1.029126e+000 -1.225144e+001 1.269634e-003 8.250504e+001 2.822006e-003 7.222282e+001 1.061174e+000 -2.037642e+001
1006900000 1.030299e+000 -1.221668e+001 1.275518e-003 7.494965e+001 2.437961e-003 6.897656e+001 1.059969e+000 -2.040508e+001
1007050000 1.028723e+000 -1.218416e+001 1.155781e-003 8.505704e+001 2.932475e-003 6.055947e+001 1.060767e+000 -2.041351e+001
1007200000 1.031090e+000 -1.222304e+001 1.203250e-003 7.967512e+001 2.408311e-003 7.160175e+001 1.055572e+000 -2.039523e+001
1007350000 1.030350e+000 -1.226584e+001 1.206044e-003 8.581722e+001 2.831331e-003 6.970121e+001 1.057963e+000 -2.047638e+001
1007500000 1.029625e+000 -1.220455e+001 1.382157e-003 7.502980e+001 2.457743e-003 6.840231e+001 1.057486e+000 -2.047859e+001
1007650000 1.029752e+000 -1.222766e+001 1.451540e-003 7.901190e+001 2.948354e-003 7.148353e+001 1.056027e+000 -2.049665e+001
1007800000 1.028861e+000 -1.219255e+001 1.464030e-003 9.386087e+001 2.870035e-003 6.828416e+001 1.057201e+000 -2.066395e+001
1007950000 1.027659e+000 -1.223149e+001 1.477405e-003 7.143227e+001 2.663082e-003 8.065207e+001 1.056845e+000 -2.058888e+001
1008100000 1.028243e+000 -1.229221e+001 1.302651e-003 7.875804e+001 2.426387e-003 6.949568e+001 1.058401e+000 -2.056912e+001
1008250000 1.028903e+000 -1.232289e+001 1.449856e-003 8.383814e+001 2.851119e-003 7.683537e+001 1.058056e+000 -2.062006e+001
1008400000 1.028222e+000 -1.227119e+001 1.607381e-003 8.090826e+001 2.464029e-003 7.795411e+001 1.058452e+000 -2.066506e+001
1008550000 1.029079e+000 -1.229386e+001 1.386347e-003 6.930935e+001 2.567768e-003 8.501786e+001 1.056932e+000 -2.059943e+001
1008700000 1.029516e+000 -1.226288e+001 1.410288e-003 7.857703e+001 3.199361e-003 6.716692e+001 1.055788e+000 -2.055191e+001
1008850000 1.029646e+000 -1.217968e+001 1.140618e-003 9.488913e+001 3.367660e-003 6.489287e+001 1.058589e+000 -2.058813e+001
1009000000 1.030945e+000 -1.223950e+001 1.184760e-003 7.491833e+001 2.180043e-003 5.881634e+001 1.056826e+000 -2.065358e+001
1009150000 1.029611e+000 -1.224356e+001 1.485304e-003 8.856024e+001 2.390561e-003 7.601758e+001 1.060636e+000 -2.055483e+001
1009300000 1.028609e+000 -1.220812e+001 1.365348e-003 7.913525e+001 2.870936e-003 6.918934e+001 1.059128e+000 -2.057065e+001
1009450000 1.029345e+000 -1.221381e+001 1.275846e-003 8.155513e+001 2.915309e-003 7.348674e+001 1.059561e+000 -2.063963e+001
1009600000 1.028861e+000 -1.228597e+001 1.433575e-003 8.306796e+001 2.718490e-003 7.023381e+001 1.058645e+000 -2.059513e+001
1009750000 1.029628e+000 -1.226652e+001 1.248410e-003 7.203046e+001 2.233179e-003 8.563779e+001 1.058549e+000 -2.054839e+001
1009900000 1.028158e+000 -1.226022e+001 1.602348e-003 8.154956e+001 3.167497e-003 7.106551e+001 1.060544e+000 -2.062493e+001
1010050000 1.029340e+000 -1.225557e+001 1.254640e-003 8.418301e+001 2.205398e-003 7.895398e+001 1.058104e+000 -2.055145e+001
1010200000 1.029130e+000 -1.231087e+001 1.386219e-003 8.632781e+001 2.769161e-003 6.489619e+001 1.058943e+000 -2.062663e+001
1010350000 1.029714e+000 -1.230885e+001 1.147807e-003 8.661282e+001 2.439444e-003 7.560967e+001 1.059545e+000 -2.066787e+001
1010500000 1.029945e+000 -1.228706e+001 1.490190e-003 7.169493e+001 2.940108e-003 7.330468e+001 1.059535e+000 -2.068576e+001
1010650000 1.030453e+000 -1.236355e+001 1.388285e-003 7.997806e+001 2.867682e-003 6.877716e+001 1.057856e+000 -2.055826e+001
1010800000 1.029556e+000 -1.228759e+001 1.533828e-003 9.261189e+001 2.617437e-003 7.642595e+001 1.059899e+000 -2.052347e+001
1010950000 1.028114e+000 -1.237298e+001 1.511688e-003 8.567587e+001 2.710878e-003 6.388607e+001 1.056833e+000 -2.054930e+001
1011100000 1.027732e+000 -1.230858e+001 1.569409e-003 9.034074e+001 3.476225e-003 7.225783e+001 1.055517e+000 -2.059813e+001
1011250000 1.029831e+000 -1.229515e+001 1.304077e-003 7.803683e+001 2.923539e-003 6.427538e+001 1.056301e+000 -2.049609e+001
1011400000 1.028481e+000 -1.221646e+001 1.223042e-003 7.473450e+001 2.056560e-003 7.438105e+001 1.059090e+000 -2.057747e+001
1011550000 1.028719e+000 -1.226130e+001 1.579197e-003 9.090823e+001 2.432641e-003 6.792765e+001 1.056669e+000 -2.058850e+001
1011700000 1.029315e+000 -1.231252e+001 1.615822e-003 9.184509e+001 2.111983e-003 7.436211e+001 1.058158e+000 -2.064343e+001
1011850000 1.029405e+000 -1.235907e+001 1.226743e-003 7.597205e+001 2.470552e-003 7.366843e+001 1.057621e+000 -2.076530e+001
1012000000 1.029719e+000 -1.231913e+001 1.101996e-003 8.604244e+001 2.103977e-003 7.240760e+001 1.058807e+000 -2.065562e+001
1012150000 1.029028e+000 -1.229780e+001 1.277515e-003 8.336331e+001 2.180263e-003 7.042627e+001 1.058999e+000 -2.049444e+001
1012300000 1.028651e+000 -1.233521e+001 1.172472e-003 7.411295e+001 2.171513e-003 7.018990e+001 1.060607e+000 -2.057836e+001
1012450000 1.028900e+000 -1.235389e+001 1.276037e-003 9.119495e+001 2.638730e-003 8.155190e+001 1.059981e+000 -2.048788e+001
1012600000 1.029969e+000 -1.234813e+001 1.622687e-003 8.728390e+001 2.465495e-003 7.908376e+001 1.059946e+000 -2.052052e+001
1012750000 1.028540e+000 -1.228650e+001 1.186781e-003 7.843554e+001 2.856596e-003 7.429139e+001 1.061369e+000 -2.042891e+001
1012900000 1.029418e+000 -1.235917e+001 1.584480e-003 8.444425e+001 2.914561e-003 7.915838e+001 1.057631e+000 -2.058738e+001
1013050000 1.028836e+000 -1.233838e+001 1.345640e-003 8.080373e+001 2.923276e-003 7.467052e+001 1.057455e+000 -2.060558e+001
1013200000 1.027814e+000 -1.236609e+001 1.257384e-003 7.272668e+001 2.623647e-003 7.934476e+001 1.055533e+000 -2.063262e+001
1013350000 1.028395e+000 -1.235949e+001 1.584490e-003 6.994098e+001 2.468636e-003 6.807704e+001 1.059121e+000 -2.056616e+001
1013500000 1.028959e+000 -1.235653e+001 1.188795e-003 8.205167e+001 2.323470e-003 7.875689e+001 1.057139e+000 -2.060612e+001
1013650000 1.028404e+000 -1.232289e+001 1.605082e-003 7.799471e+001 2.502244e-003 6.608527e+001 1.056706e+000 -2.055383e+001
1013800000 1.030110e+000 -1.239930e+001 1.410571e-003 7.733423e+001 2.951382e-003 5.182671e+001 1.057556e+000 -2.050850e+001
1013950000 1.029550e+000 -1.244599e+001 1.489267e-003 7.914013e+001 3.020469e-003 6.629320e+001 1.059350e+000 -2.061650e+001
1014100000 1.030685e+000 -1.235149e+001 1.072471e-003 1.005259e+002 2.505392e-003 6.884960e+001 1.057021e+000 -2.046386e+001
1014250000 1.029145e+000 -1.233756e+001 1.485167e-003 7.557648e+001 2.155852e-003 7.347579e+001 1.057764e+000 -2.065780e+001
1014400000 1.030549e+000 -1.239463e+001 1.359419e-003 7.180145e+001 2.261702e-003 7.016364e+001 1.059531e+000 -2.068501e+001
1014550000 1.029662e+000 -1.244870e+001 1.386302e-003 7.925082e+001 2.663120e-003 7.198872e+001 1.058162e+000 -2.070229e+001
1014700000 1.030976e+000 -1.236051e+001 1.519076e-003 8.098664e+001 2.661718e-003 6.399878e+001 1.058438e+000 -2.060823e+001
1014850000 1.030159e+000 -1.237355e+001 1.433644e-003 8.672109e+001 2.291680e-003 7.286132e+001 1.058394e+000 -2.071050e+001
1015000000 1.031551e+000 -1.242133e+001 1.363683e-003 7.821483e+001 2.441203e-003 6.285597e+001 1.058466e+000 -2.064226e+001
1015150000 1.031627e+000 -1.239423e+001 1.381815e-003 8.416325e+001 2.720207e-003 7.253075e+001 1.059198e+000 -2.074271e+001
1015300000 1.030390e+000 -1.245560e+001 1.554339e-003 7.961775e+001 3.146355e-003 7.151065e+001 1.058376e+000 -2.078390e+001
1015450000 1.029650e+000 -1.245571e+001 1.763681e-003 8.596377e+001 2.638064e-003 6.699081e+001 1.057566e+000 -2.067299e+001
1015600000 1.028390e+000 -1.238623e+001 1.254790e-003 8.181179e+001 1.946933e-003 5.672324e+001 1.056862e+000 -2.077519e+001
1015750000 1.028355e+000 -1.243621e+001 1.476414e-003 8.575080e+001 2.607009e-003 7.189573e+001 1.056792e+000 -2.057599e+001
1015900000 1.028747e+000 -1.240808e+001 1.279028e-003 7.416457e+001 2.584577e-003 5.828536e+001 1.056334e+000 -2.069940e+001
1016050000 1.030095e+000 -1.232582e+001 1.524238e-003 7.708940e+001 2.717201e-003 7.439462e+001 1.055085e+000 -2.076721e+001
1016200000 1.030055e+000 -1.236462e+001 1.424108e-003 8.963536e+001 2.973016e-003 6.931982e+001 1.056406e+000 -2.050592e+001
1016350000 1.030810e+000 -1.246540e+001 1.339542e-003 7.526138e+001 3.061222e-003 7.016319e+001 1.057958e+000 -2.072921e+001
1016500000 1.030968e+000 -1.234806e+001 1.311684e-003 7.892461e+001 3.038228e-003 7.333270e+001 1.056854e+000 -2.056736e+001
1016650000 1.030841e+000 -1.233362e+001 1.053403e-003 7.777110e+001 2.980005e-003 7.529839e+001 1.057143e+000 -2.055048e+001
1016800000 1.032457e+000 -1.236585e+001 1.318296e-003 8.125833e+001 2.021812e-003 8.359545e+001 1.057342e+000 -2.069777e+001
1016950000 1.031761e+000 -1.237317e+001 1.573696e-003 7.789491e+001 2.371378e-003 7.978381e+001 1.060723e+000 -2.059964e+001
1017100000 1.030931e+000 -1.237342e+001 1.284605e-003 8.063655e+001 2.958786e-003 7.347198e+001 1.060170e+000 -2.050642e+001
1017250000 1.030900e+000 -1.239606e+001 1.265184e-003 8.265440e+001 2.913557e-003 7.722207e+001 1.058789e+000 -2.056629e+001
1017400000 1.029893e+000 -1.241224e+001 1.203170e-003 8.348341e+001 2.895839e-003 6.362902e+001 1.060186e+000 -2.063180e+001
1017550000 1.029804e+000 -1.241053e+001 1.062992e-003 7.035553e+001 2.661426e-003 7.825000e+001 1.060704e+000 -2.048917e+001
1017700000 1.028858e+000 -1.244641e+001 1.380145e-003 8.682769e+001 3.047922e-003 6.515462e+001 1.060248e+000 -2.056408e+001
1017850000 1.030689e+000 -1.244525e+001 1.409391e-003 8.333167e+001 1.906182e-003 6.561893e+001 1.058061e+000 -2.054020e+001
1018000000 1.028929e+000 -1.249977e+001 1.477048e-003 8.544463e+001 2.527582e-003 7.996317e+001 1.060514e+000 -2.067929e+001
1018150000 1.028550e+000 -1.237830e+001 1.511070e-003 9.217292e+001 3.134785e-003 6.248840e+001 1.057384e+000 -2.074523e+001
1018300000 1.029522e+000 -1.244655e+001 1.634944e-003 8.614969e+001 2.394586e-003 7.853430e+001 1.057725e+000 -2.076849e+001
1018450000 1.029674e+000 -1.247856e+001 1.370517e-003 7.664909e+001 3.155802e-003 6.309389e+001 1.059512e+000 -2.065732e+001
1018600000 1.030134e+000 -1.248295e+001 1.260391e-003 8.127827e+001 2.883676e-003 6.982455e+001 1.058388e+000 -2.061897e+001
1018750000 1.029262e+000 -1.242873e+001 1.735082e-003 8.415876e+001 3.229734e-003 5.657317e+001 1.057770e+000 -2.069053e+001
1018900000 1.030402e+000 -1.244032e+001 1.110828e-003 7.061599e+001 3.037838e-003 5.889000e+001 1.057410e+000 -2.057757e+001
1019050000 1.029715e+000 -1.243667e+001 1.260652e-003 7.730180e+001 3.023849e-003 6.955065e+001 1.062782e+000 -2.059748e+001
1019200000 1.030271e+000 -1.242890e+001 1.615658e-003 7.693386e+001 2.352601e-003 6.419666e+001 1.058983e+000 -2.072535e+001
1019350000 1.029342e+000 -1.256039e+001 9.515504e-004 8.639924e+001 2.693015e-003 5.746184e+001 1.058601e+000 -2.070938e+001
1019500000 1.028432e+000 -1.253347e+001 1.421055e-003 7.356958e+001 2.275946e-003 6.492943e+001 1.060241e+000 -2.087382e+001
1019650000 1.029037e+000 -1.243030e+001 1.569113e-003 7.589261e+001 2.987532e-003 7.589464e+001 1.061259e+000 -2.076657e+001
1019800000 1.030553e+000 -1.250147e+001 1.558396e-003 8.583683e+001 3.082591e-003 6.643221e+001 1.058870e+000 -2.081975e+001
1019950000 1.029897e+000 -1.253945e+001 1.403647e-003 8.076677e+001 3.231568e-003 7.438461e+001 1.057445e+000 -2.079397e+001
1020100000 1.029710e+000 -1.245096e+001 1.506132e-003 7.361236e+001 2.528709e-003 6.632864e+001 1.057335e+000 -2.093179e+001
1020250000 1.029590e+000 -1.252293e+001 1.554663e-003 8.451901e+001 3.144843e-003 7.039120e+001 1.055758e+000 -2.081584e+001
1020400000 1.029694e+000 -1.250100e+001 1.038382e-003 8.325810e+001 2.663675e-003 7.445537e+001 1.059491e+000 -2.089274e+001
1020550000 1.030669e+000 -1.252933e+001 9.630432e-004 7.965256e+001 2.752079e-003 6.589001e+001 1.060670e+000 -2.085608e+001
1020700000 1.030517e+000 -1.253762e+001 1.499043e-003 8.125533e+001 2.956775e-003 6.700424e+001 1.061880e+000 -2.076951e+001
1020850000 1.029786e+000 -1.250997e+001 1.277952e-003 7.264165e+001 2.834889e-003 7.330046e+001 1.062056e+000 -2.074766e+001
1021000000 1.030105e+000 -1.250501e+001 1.494298e-003 8.204936e+001 2.606792e-003 6.863589e+001 1.061641e+000 -2.067635e+001
1021150000 1.028603e+000 -1.250812e+001 1.154989e-003 7.378144e+001 2.489122e-003 7.307924e+001 1.061380e+000 -2.068513e+001
1021300000 1.027090e+000 -1.245216e+001 1.473896e-003 7.916931e+001 2.465644e-003 6.150324e+001 1.062803e+000 -2.076231e+001
1021450000 1.027978e+000 -1.250837e+001 1.447726e-003 9.327163e+001 2.138861e-003 6.634411e+001 1.060354e+000 -2.074502e+001
1021600000 1.028372e+000 -1.253272e+001 1.440192e-003 7.767535e+001 2.477442e-003 6.193620e+001 1.058493e+000 -2.079294e+001
1021750000 1.027908e+000 -1.246890e+001 1.289510e-003 7.629416e+001 2.274147e-003 6.669053e+001 1.056835e+000 -2.079254e+001
1021900000 1.028773e+000 -1.244682e+001 1.404898e-003 8.199393e+001 2.618229e-003 7.380206e+001 1.056142e+000 -2.081557e+001
1022050000 1.027778e+000 -1.249788e+001 1.397038e-003 8.194154e+001 2.196895e-003 6.550243e+001 1.060055e+000 -2.088016e+001
1022200000 1.029183e+000 -1.254008e+001 1.186391e-003 8.116936e+001 2.637563e-003 6.476624e+001 1.059265e+000 -2.070294e+001
1022350000 1.028806e+000 -1.247923e+001 1.642520e-003 8.254989e+001 2.499866e-003 7.275491e+001 1.061175e+000 -2.079323e+001
1022500000 1.029944e+000 -1.248237e+001 1.419208e-003 8.408100e+001 2.032977e-003 6.509583e+001 1.059609e+000 -2.072144e+001
1022650000 1.029157e+000 -1.248975e+001 1.177333e-003 9.318944e+001 2.573314e-003 6.609819e+001 1.062181e+000 -2.071090e+001
1022800000 1.029673e+000 -1.248528e+001 1.392473e-003 6.648695e+001 2.252098e-003 7.767848e+001 1.060942e+000 -2.064658e+001
1022950000 1.029515e+000 -1.256056e+001 1.389648e-003 7.335422e+001 2.483876e-003 6.769946e+001 1.059625e+000 -2.073037e+001
1023100000 1.030960e+000 -1.256202e+001 1.459571e-003 8.045919e+001 2.564773e-003 8.444827e+001 1.058065e+000 -2.070310e+001
1023250000 1.029959e+000 -1.251407e+001 1.040656e-003 7.757339e+001 2.747468e-003 7.918140e+001 1.057669e+000 -2.063265e+001
