!Agilent Technologies,N5230C,SG49000117,A.08.50.07
!Agilent N5230C: A.08.50.07
!Date: Monday, May 20, 2024 21:08:46
!Correction: S11(Full 2 Port(1,2)) 
!S21(Full 2 Port(1,2)) 
!S12(Full 2 Port(1,2)) 
!S22(Full 2 Port(1,2)) 
!S2P File: Measurements: S11, S21, S12, S22:
# Hz S  MA   R 50
1000000000 1.028867e+000 -1.357327e+001 1.529467e-003 7.870487e+001 3.074687e-003 6.915763e+001 1.057841e+000 -2.282062e+001
1000150000 1.029481e+000 -1.350505e+001 1.388473e-003 7.819369e+001 3.006105e-003 7.945760e+001 1.061442e+000 -2.271716e+001
1000300000 1.029830e+000 -1.364765e+001 1.399343e-003 6.921110e+001 2.562779e-003 6.786942e+001 1.060418e+000 -2.277436e+001
1000450000 1.029946e+000 -1.357346e+001 1.301499e-003 8.282885e+001 2.884060e-003 8.323224e+001 1.059777e+000 -2.282918e+001
1000600000 1.029523e+000 -1.350543e+001 1.458879e-003 7.092425e+001 2.781464e-003 8.147695e+001 1.057384e+000 -2.282741e+001
1000750000 1.028504e+000 -1.357936e+001 1.358695e-003 7.968105e+001 2.846038e-003 7.710774e+001 1.059973e+000 -2.270893e+001
1000900000 1.029726e+000 -1.353543e+001 1.223814e-003 7.985051e+001 2.779048e-003 8.524255e+001 1.058967e+000 -2.275047e+001
1001050000 1.029115e+000 -1.360936e+001 1.498396e-003 7.700745e+001 2.621097e-003 8.193772e+001 1.058625e+000 -2.271026e+001
1001200000 1.029607e+000 -1.359745e+001 1.539011e-003 7.471868e+001 3.480446e-003 6.650032e+001 1.059291e+000 -2.272042e+001
1001350000 1.029507e+000 -1.363445e+001 1.733889e-003 7.948734e+001 3.473689e-003 7.201663e+001 1.062628e+000 -2.271755e+001
1001500000 1.027925e+000 -1.358965e+001 1.671889e-003 7.204517e+001 2.315714e-003 6.919891e+001 1.060151e+000 -2.266646e+001
1001650000 1.028700e+000 -1.361273e+001 1.557094e-003 8.921551e+001 2.907341e-003 7.446310e+001 1.060194e+000 -2.273194e+001
1001800000 1.029307e+000 -1.358467e+001 1.619857e-003 7.913132e+001 2.678332e-003 6.622842e+001 1.058745e+000 -2.267118e+001
1001950000 1.028062e+000 -1.364488e+001 1.735168e-003 7.865717e+001 2.788104e-003 6.403924e+001 1.058133e+000 -2.280258e+001
1002100000 1.027577e+000 -1.358591e+001 1.395490e-003 7.325166e+001 2.475656e-003 7.098988e+001 1.059307e+000 -2.279815e+001
1002250000 1.027783e+000 -1.362744e+001 1.610131e-003 8.067889e+001 2.443124e-003 7.643845e+001 1.058901e+000 -2.284600e+001
1002400000 1.027782e+000 -1.364477e+001 1.636086e-003 8.327927e+001 2.478569e-003 7.448927e+001 1.059078e+000 -2.284069e+001
1002550000 1.029740e+000 -1.360659e+001 1.636788e-003 7.572645e+001 2.928461e-003 7.013569e+001 1.059105e+000 -2.290458e+001
1002700000 1.028105e+000 -1.361384e+001 1.495221e-003 8.380853e+001 2.443353e-003 6.633698e+001 1.061392e+000 -2.276865e+001
1002850000 1.029693e+000 -1.362330e+001 1.736233e-003 7.051038e+001 2.526689e-003 6.863103e+001 1.058067e+000 -2.273161e+001
1003000000 1.030492e+000 -1.361568e+001 1.307178e-003 8.050279e+001 2.396821e-003 6.293007e+001 1.060281e+000 -2.284614e+001
1003150000 1.029379e+000 -1.363141e+001 1.345645e-003 7.900324e+001 2.384573e-003 7.623203e+001 1.058479e+000 -2.275599e+001
1003300000 1.029293e+000 -1.364698e+001 1.728189e-003 7.488421e+001 2.732569e-003 7.004321e+001 1.058540e+000 -2.282801e+001
1003450000 1.030977e+000 -1.359019e+001 1.496070e-003 8.240443e+001 2.687688e-003 7.742803e+001 1.059536e+000 -2.273733e+001
1003600000 1.030447e+000 -1.362522e+001 1.567411e-003 7.814082e+001 2.888694e-003 5.816714e+001 1.058813e+000 -2.276783e+001
1003750000 1.031393e+000 -1.359293e+001 1.392984e-003 8.350148e+001 2.674985e-003 7.123181e+001 1.059114e+000 -2.277609e+001
1003900000 1.030755e+000 -1.360373e+001 1.724976e-003 7.235131e+001 2.755457e-003 7.415089e+001 1.057312e+000 -2.272240e+001
1004050000 1.028716e+000 -1.365467e+001 1.613427e-003 8.560834e+001 2.560166e-003 6.061654e+001 1.059277e+000 -2.276170e+001
1004200000 1.029253e+000 -1.363346e+001 1.409010e-003 8.811221e+001 2.365374e-003 6.953808e+001 1.061584e+000 -2.271446e+001
1004350000 1.027701e+000 -1.370778e+001 1.532660e-003 8.396665e+001 3.081157e-003 7.131003e+001 1.059716e+000 -2.266984e+001
1004500000 1.027212e+000 -1.354370e+001 1.486623e-003 7.701746e+001 2.902432e-003 6.378665e+001 1.059581e+000 -2.278329e+001
1004650000 1.029197e+000 -1.357689e+001 1.407034e-003 7.821047e+001 2.647299e-003 7.035210e+001 1.060496e+000 -2.282972e+001
1004800000 1.028587e+000 -1.357746e+001 1.474512e-003 8.366816e+001 2.982838e-003 7.191880e+001 1.060048e+000 -2.275737e+001
1004950000 1.029295e+000 -1.365403e+001 1.812451e-003 8.252689e+001 2.457452e-003 6.958254e+001 1.061917e+000 -2.270951e+001
1005100000 1.029709e+000 -1.355319e+001 1.208181e-003 7.688457e+001 2.849251e-003 7.739623e+001 1.059023e+000 -2.281105e+001
1005250000 1.028998e+000 -1.358563e+001 1.431964e-003 8.661484e+001 2.279912e-003 8.457668e+001 1.059279e+000 -2.277831e+001
1005400000 1.030372e+000 -1.360977e+001 1.240056e-003 8.532163e+001 2.583851e-003 6.336749e+001 1.059615e+000 -2.283577e+001
1005550000 1.029976e+000 -1.362224e+001 1.528809e-003 8.080634e+001 2.885363e-003 6.637202e+001 1.059873e+000 -2.272567e+001
1005700000 1.029400e+000 -1.356875e+001 1.407617e-003 7.782761e+001 2.630224e-003 6.572586e+001 1.060597e+000 -2.278282e+001
1005850000 1.031879e+000 -1.365401e+001 1.410472e-003 8.765969e+001 3.003398e-003 7.473428e+001 1.060572e+000 -2.293886e+001
1006000000 1.030972e+000 -1.370074e+001 1.518635e-003 8.157465e+001 3.264529e-003 7.358040e+001 1.058977e+000 -2.290775e+001
1006150000 1.030335e+000 -1.364018e+001 1.497752e-003 7.875063e+001 3.378597e-003 7.206980e+001 1.061040e+000 -2.294002e+001
1006300000 1.029133e+000 -1.362063e+001 1.259525e-003 7.918303e+001 3.056512e-003 6.392591e+001 1.058923e+000 -2.282259e+001
1006450000 1.029920e+000 -1.368373e+001 1.271454e-003 7.490049e+001 2.818777e-003 6.258655e+001 1.061068e+000 -2.285911e+001
1006600000 1.030475e+000 -1.369906e+001 1.588306e-003 8.455766e+001 2.739367e-003 7.126643e+001 1.059493e+000 -2.285891e+001
1006750000 1.031241e+000 -1.366575e+001 1.645382e-003 7.397383e+001 3.017357e-003 6.169956e+001 1.060120e+000 -2.280815e+001
1006900000 1.030139e+000 -1.372543e+001 1.723574e-003 8.650546e+001 2.421751e-003 8.303630e+001 1.060053e+000 -2.282604e+001
1007050000 1.030925e+000 -1.365638e+001 1.630424e-003 7.681457e+001 2.643466e-003 7.505959e+001 1.059706e+000 -2.276513e+001
1007200000 1.028831e+000 -1.378255e+001 1.452816e-003 7.343903e+001 2.730614e-003 7.231325e+001 1.060470e+000 -2.274189e+001
1007350000 1.029833e+000 -1.364119e+001 1.520140e-003 6.933697e+001 2.653820e-003 6.889577e+001 1.060897e+000 -2.275748e+001
1007500000 1.030466e+000 -1.371250e+001 1.509687e-003 8.785352e+001 2.547833e-003 7.905299e+001 1.060575e+000 -2.289234e+001
1007650000 1.028484e+000 -1.368949e+001 1.473243e-003 8.762447e+001 2.877749e-003 6.536027e+001 1.059745e+000 -2.289132e+001
1007800000 1.028909e+000 -1.371652e+001 1.735952e-003 7.673363e+001 2.686745e-003 6.395014e+001 1.058359e+000 -2.300392e+001
1007950000 1.028191e+000 -1.377302e+001 1.472772e-003 6.957548e+001 2.923985e-003 6.918004e+001 1.059161e+000 -2.289946e+001
1008100000 1.028909e+000 -1.372719e+001 1.588630e-003 8.372317e+001 2.694348e-003 5.441825e+001 1.058895e+000 -2.307254e+001
1008250000 1.027344e+000 -1.367537e+001 1.711819e-003 7.946918e+001 3.028904e-003 7.033157e+001 1.059352e+000 -2.301449e+001
1008400000 1.031200e+000 -1.376916e+001 1.689395e-003 8.478119e+001 2.199157e-003 5.621128e+001 1.059226e+000 -2.311096e+001
1008550000 1.029798e+000 -1.373126e+001 1.493125e-003 7.310859e+001 1.952940e-003 6.582952e+001 1.059469e+000 -2.295825e+001
1008700000 1.028810e+000 -1.369826e+001 1.518562e-003 7.885011e+001 2.257620e-003 8.177628e+001 1.061209e+000 -2.297556e+001
1008850000 1.030525e+000 -1.358528e+001 1.473462e-003 8.043182e+001 2.496011e-003 7.200208e+001 1.057872e+000 -2.299650e+001
1009000000 1.031090e+000 -1.364069e+001 1.724201e-003 8.232581e+001 2.720511e-003 6.815454e+001 1.057393e+000 -2.302399e+001
1009150000 1.029867e+000 -1.367260e+001 1.523955e-003 7.632820e+001 2.239709e-003 7.900881e+001 1.061487e+000 -2.289250e+001
1009300000 1.029636e+000 -1.370557e+001 1.691961e-003 8.168699e+001 2.340118e-003 7.566103e+001 1.059329e+000 -2.302860e+001
1009450000 1.028634e+000 -1.364867e+001 1.541325e-003 6.975070e+001 3.252997e-003 6.791962e+001 1.059949e+000 -2.290780e+001
1009600000 1.029088e+000 -1.370248e+001 1.362405e-003 8.343893e+001 2.881697e-003 7.326163e+001 1.059288e+000 -2.301176e+001
1009750000 1.027717e+000 -1.370557e+001 1.495173e-003 7.590428e+001 2.526372e-003 6.833074e+001 1.061241e+000 -2.289104e+001
1009900000 1.030456e+000 -1.373197e+001 1.356826e-003 7.826713e+001 2.652913e-003 6.628945e+001 1.061298e+000 -2.287840e+001
1010050000 1.028906e+000 -1.374486e+001 1.262515e-003 7.974776e+001 3.427836e-003 7.002791e+001 1.059765e+000 -2.296230e+001
1010200000 1.029065e+000 -1.382634e+001 1.617164e-003 7.802154e+001 3.601544e-003 6.829207e+001 1.060316e+000 -2.305439e+001
1010350000 1.029545e+000 -1.381147e+001 1.529125e-003 8.375007e+001 2.828120e-003 6.910541e+001 1.059133e+000 -2.295607e+001
1010500000 1.029353e+000 -1.378676e+001 1.323049e-003 7.634926e+001 2.956091e-003 7.256403e+001 1.060233e+000 -2.316411e+001
1010650000 1.028778e+000 -1.383598e+001 1.590486e-003 8.336355e+001 2.642740e-003 7.623302e+001 1.060238e+000 -2.302212e+001
1010800000 1.029380e+000 -1.375635e+001 1.395267e-003 9.410497e+001 3.610696e-003 6.950639e+001 1.061308e+000 -2.295620e+001
1010950000 1.028253e+000 -1.380925e+001 1.254827e-003 8.636483e+001 2.587246e-003 7.578992e+001 1.058205e+000 -2.294912e+001
1011100000 1.028823e+000 -1.382305e+001 1.460662e-003 8.092963e+001 2.792032e-003 7.244387e+001 1.057565e+000 -2.287336e+001
1011250000 1.030356e+000 -1.364735e+001 1.534801e-003 8.915362e+001 3.089942e-003 6.581751e+001 1.056636e+000 -2.282617e+001
1011400000 1.029156e+000 -1.373907e+001 1.498694e-003 6.947691e+001 2.620427e-003 6.975376e+001 1.058601e+000 -2.298195e+001
1011550000 1.029812e+000 -1.377737e+001 1.486841e-003 8.200194e+001 2.559197e-003 6.691055e+001 1.058506e+000 -2.293850e+001
1011700000 1.029152e+000 -1.373458e+001 1.681103e-003 7.715656e+001 2.650949e-003 6.314311e+001 1.060449e+000 -2.297203e+001
1011850000 1.030042e+000 -1.381409e+001 1.499599e-003 7.484451e+001 2.679569e-003 7.083267e+001 1.059453e+000 -2.302387e+001
1012000000 1.030115e+000 -1.378019e+001 1.717380e-003 7.898708e+001 2.443631e-003 6.045714e+001 1.059556e+000 -2.307123e+001
1012150000 1.029791e+000 -1.376293e+001 1.563246e-003 8.902602e+001 2.376312e-003 6.247439e+001 1.059488e+000 -2.294943e+001
1012300000 1.029002e+000 -1.378115e+001 1.267020e-003 8.825517e+001 2.923964e-003 8.688130e+001 1.059560e+000 -2.287072e+001
1012450000 1.028399e+000 -1.374835e+001 1.541378e-003 7.569144e+001 2.679772e-003 7.980907e+001 1.060080e+000 -2.296129e+001
1012600000 1.028488e+000 -1.380943e+001 1.624041e-003 7.919814e+001 2.327651e-003 6.993637e+001 1.062305e+000 -2.287735e+001
1012750000 1.027642e+000 -1.378450e+001 1.536149e-003 8.358750e+001 3.354072e-003 7.012049e+001 1.059100e+000 -2.287499e+001
1012900000 1.028941e+000 -1.378486e+001 1.782027e-003 7.660633e+001 3.099608e-003 7.831033e+001 1.061454e+000 -2.283650e+001
1013050000 1.028464e+000 -1.363496e+001 1.515889e-003 7.656342e+001 2.833258e-003 7.888987e+001 1.058831e+000 -2.290776e+001
1013200000 1.028521e+000 -1.374595e+001 1.966768e-003 8.651884e+001 2.979173e-003 6.890222e+001 1.058707e+000 -2.287666e+001
1013350000 1.028821e+000 -1.378125e+001 1.416769e-003 7.890088e+001 2.657169e-003 6.397029e+001 1.057177e+000 -2.293772e+001
1013500000 1.029913e+000 -1.387041e+001 1.506038e-003 7.656339e+001 2.706417e-003 5.715668e+001 1.058679e+000 -2.301433e+001
1013650000 1.029397e+000 -1.385185e+001 1.660397e-003 7.294791e+001 3.127390e-003 6.047127e+001 1.060061e+000 -2.303637e+001
1013800000 1.029294e+000 -1.387546e+001 1.370881e-003 8.055010e+001 2.601260e-003 6.453491e+001 1.059503e+000 -2.301942e+001
1013950000 1.029967e+000 -1.380382e+001 1.229871e-003 7.012888e+001 2.360166e-003 6.796423e+001 1.057886e+000 -2.299454e+001
1014100000 1.030199e+000 -1.385672e+001 1.366869e-003 7.465044e+001 2.281188e-003 8.900916e+001 1.059638e+000 -2.309177e+001
1014250000 1.030190e+000 -1.379360e+001 1.489959e-003 8.514587e+001 3.013183e-003 7.000676e+001 1.060213e+000 -2.314710e+001
1014400000 1.029507e+000 -1.375769e+001 1.639087e-003 7.546218e+001 2.588274e-003 7.325700e+001 1.061639e+000 -2.329334e+001
1014550000 1.028854e+000 -1.380160e+001 1.520526e-003 7.019297e+001 2.829458e-003 7.791378e+001 1.059601e+000 -2.293788e+001
1014700000 1.030470e+000 -1.382872e+001 1.161383e-003 7.465263e+001 2.674788e-003 8.061919e+001 1.062064e+000 -2.295621e+001
1014850000 1.031585e+000 -1.383659e+001 1.169116e-003 7.122062e+001 3.308101e-003 6.883082e+001 1.062905e+000 -2.297161e+001
1015000000 1.032174e+000 -1.393215e+001 1.327269e-003 7.689884e+001 2.680764e-003 6.748987e+001 1.061657e+000 -2.287486e+001
1015150000 1.029334e+000 -1.383226e+001 1.600439e-003 8.388811e+001 2.651428e-003 6.004993e+001 1.059732e+000 -2.301671e+001
1015300000 1.031291e+000 -1.383698e+001 1.457055e-003 7.475184e+001 2.320385e-003 6.872757e+001 1.060282e+000 -2.301769e+001
1015450000 1.028864e+000 -1.386300e+001 1.221482e-003 7.025314e+001 2.379782e-003 6.367961e+001 1.057946e+000 -2.297908e+001
1015600000 1.028425e+000 -1.389448e+001 1.456990e-003 8.267849e+001 2.872617e-003 6.889642e+001 1.057928e+000 -2.310536e+001
1015750000 1.030477e+000 -1.384278e+001 1.649162e-003 7.305170e+001 3.267586e-003 6.943850e+001 1.059139e+000 -2.309415e+001
1015900000 1.029774e+000 -1.379881e+001 1.679742e-003 8.454290e+001 2.539145e-003 7.124078e+001 1.059605e+000 -2.323125e+001
1016050000 1.030334e+000 -1.387972e+001 1.417027e-003 8.658992e+001 3.113407e-003 8.267605e+001 1.057730e+000 -2.319050e+001
1016200000 1.030309e+000 -1.382209e+001 1.539037e-003 7.496200e+001 2.941479e-003 7.614726e+001 1.055835e+000 -2.304512e+001
1016350000 1.030326e+000 -1.388464e+001 1.428302e-003 8.188391e+001 2.773645e-003 7.767999e+001 1.055565e+000 -2.294770e+001
1016500000 1.030007e+000 -1.386063e+001 1.605864e-003 7.985298e+001 3.251491e-003 7.594666e+001 1.058094e+000 -2.306447e+001
1016650000 1.029814e+000 -1.385613e+001 1.320435e-003 7.491237e+001 3.011425e-003 7.044772e+001 1.057245e+000 -2.305641e+001
1016800000 1.032334e+000 -1.391738e+001 1.660325e-003 8.014957e+001 3.156696e-003 6.943386e+001 1.058618e+000 -2.314990e+001
1016950000 1.031070e+000 -1.386831e+001 1.386303e-003 7.475552e+001 2.558070e-003 8.041634e+001 1.059847e+000 -2.306413e+001
1017100000 1.031819e+000 -1.390284e+001 1.487384e-003 7.195146e+001 3.112982e-003 8.385421e+001 1.060130e+000 -2.296954e+001
1017250000 1.031188e+000 -1.387602e+001 1.341171e-003 8.359635e+001 3.337933e-003 6.851379e+001 1.060397e+000 -2.293287e+001
1017400000 1.030425e+000 -1.388455e+001 1.550686e-003 9.081554e+001 3.179177e-003 5.915974e+001 1.060812e+000 -2.284539e+001
1017550000 1.030198e+000 -1.386718e+001 1.680415e-003 7.578439e+001 2.994206e-003 6.287000e+001 1.060784e+000 -2.307368e+001
1017700000 1.028243e+000 -1.389533e+001 1.870586e-003 8.255458e+001 2.684769e-003 5.698057e+001 1.061627e+000 -2.315865e+001
1017850000 1.028188e+000 -1.391176e+001 1.436363e-003 9.087280e+001 2.635878e-003 6.630338e+001 1.063258e+000 -2.308836e+001
1018000000 1.026961e+000 -1.395189e+001 1.547895e-003 8.366451e+001 2.864692e-003 7.032807e+001 1.062992e+000 -2.302755e+001
1018150000 1.029106e+000 -1.389300e+001 1.680439e-003 8.434094e+001 2.836216e-003 7.540420e+001 1.060354e+000 -2.304919e+001
1018300000 1.029048e+000 -1.393065e+001 1.379493e-003 7.473930e+001 3.156889e-003 7.425544e+001 1.060564e+000 -2.318283e+001
1018450000 1.030163e+000 -1.385759e+001 1.487925e-003 8.531122e+001 2.463885e-003 6.614447e+001 1.058151e+000 -2.303155e+001
1018600000 1.030463e+000 -1.394421e+001 1.391448e-003 6.999752e+001 2.342637e-003 6.958450e+001 1.059639e+000 -2.300937e+001
1018750000 1.029923e+000 -1.395543e+001 9.983188e-004 8.147681e+001 2.594387e-003 6.413864e+001 1.060321e+000 -2.310276e+001
1018900000 1.030094e+000 -1.386699e+001 1.609238e-003 8.425397e+001 2.278618e-003 7.845133e+001 1.062154e+000 -2.329455e+001
1019050000 1.030402e+000 -1.394798e+001 1.336435e-003 8.080997e+001 2.594804e-003 6.319343e+001 1.060406e+000 -2.311502e+001
1019200000 1.030568e+000 -1.386411e+001 1.501311e-003 7.978060e+001 2.196817e-003 7.016390e+001 1.061775e+000 -2.317387e+001
1019350000 1.028841e+000 -1.394247e+001 1.638199e-003 7.630093e+001 2.724876e-003 5.847096e+001 1.061175e+000 -2.304856e+001
1019500000 1.029602e+000 -1.395119e+001 1.333637e-003 7.828022e+001 2.700397e-003 6.806985e+001 1.061599e+000 -2.315243e+001
1019650000 1.030241e+000 -1.400771e+001 1.707423e-003 7.532626e+001 2.659797e-003 7.588096e+001 1.060842e+000 -2.318135e+001
1019800000 1.029746e+000 -1.397086e+001 1.235525e-003 7.513399e+001 3.359609e-003 6.724717e+001 1.057636e+000 -2.327605e+001
1019950000 1.028563e+000 -1.403359e+001 1.409508e-003 7.880355e+001 3.280567e-003 5.806714e+001 1.056706e+000 -2.309328e+001
1020100000 1.029799e+000 -1.396143e+001 1.622546e-003 7.414803e+001 2.700187e-003 6.622983e+001 1.058652e+000 -2.329650e+001
1020250000 1.029430e+000 -1.394835e+001 1.479382e-003 7.104473e+001 2.884833e-003 6.182491e+001 1.059479e+000 -2.313858e+001
1020400000 1.030831e+000 -1.396443e+001 1.587406e-003 9.248676e+001 3.097374e-003 6.644196e+001 1.059060e+000 -2.328293e+001
1020550000 1.029221e+000 -1.392776e+001 1.516048e-003 8.461437e+001 2.829956e-003 7.126184e+001 1.065248e+000 -2.311428e+001
1020700000 1.029802e+000 -1.392760e+001 1.551726e-003 7.066282e+001 2.876094e-003 6.957610e+001 1.063727e+000 -2.317393e+001
1020850000 1.029603e+000 -1.401050e+001 1.625809e-003 6.955147e+001 2.549638e-003 6.894913e+001 1.064185e+000 -2.322670e+001
1021000000 1.030426e+000 -1.393188e+001 1.447008e-003 7.666734e+001 3.054983e-003 7.447566e+001 1.063532e+000 -2.308944e+001
1021150000 1.029694e+000 -1.394270e+001 1.709918e-003 8.435602e+001 3.231894e-003 7.788794e+001 1.066923e+000 -2.321131e+001
1021300000 1.028416e+000 -1.398848e+001 1.635235e-003 8.216949e+001 3.127077e-003 7.008377e+001 1.063080e+000 -2.312406e+001
1021450000 1.028419e+000 -1.394340e+001 1.458131e-003 7.680753e+001 2.657487e-003 6.854327e+001 1.059136e+000 -2.323593e+001
1021600000 1.027522e+000 -1.389280e+001 1.371642e-003 8.198436e+001 2.917381e-003 7.195422e+001 1.059983e+000 -2.319532e+001
1021750000 1.028639e+000 -1.388231e+001 1.542372e-003 8.801978e+001 2.725033e-003 7.122420e+001 1.060674e+000 -2.314340e+001
1021900000 1.029466e+000 -1.399852e+001 1.391136e-003 8.359772e+001 2.742385e-003 7.709068e+001 1.062265e+000 -2.327896e+001
1022050000 1.029132e+000 -1.395352e+001 1.601475e-003 8.384346e+001 3.298253e-003 6.198631e+001 1.059378e+000 -2.326602e+001
1022200000 1.028650e+000 -1.385370e+001 1.437693e-003 7.596790e+001 2.893991e-003 6.581087e+001 1.059175e+000 -2.304496e+001
1022350000 1.029740e+000 -1.403582e+001 1.427289e-003 7.888705e+001 2.762426e-003 6.791086e+001 1.060466e+000 -2.327693e+001
1022500000 1.028856e+000 -1.393020e+001 1.436491e-003 7.352185e+001 3.125358e-003 5.963793e+001 1.060802e+000 -2.325909e+001
1022650000 1.029386e+000 -1.390132e+001 1.479294e-003 7.764713e+001 2.741738e-003 6.732698e+001 1.059660e+000 -2.315060e+001
1022800000 1.030171e+000 -1.395209e+001 1.571061e-003 7.846931e+001 2.474641e-003 7.462318e+001 1.058406e+000 -2.323149e+001
1022950000 1.030361e+000 -1.395022e+001 1.561668e-003 7.907631e+001 2.789757e-003 6.848948e+001 1.058818e+000 -2.298141e+001
1023100000 1.030336e+000 -1.389608e+001 1.422721e-003 7.373352e+001 2.168754e-003 7.814898e+001 1.058853e+000 -2.320456e+001
1023250000 1.029786e+000 -1.392165e+001 1.445860e-003 8.782298e+001 2.658963e-003 5.910381e+001 1.060031e+000 -2.325252e+001
