!Agilent Technologies,N5230C,SG49000117,A.08.50.07
!Agilent N5230C: A.08.50.07
!Date: Thursday, May 16, 2024 18:06:24
!Correction: S11(Full 2 Port(1,2)) 
!S21(Full 2 Port(1,2)) 
!S12(Full 2 Port(1,2)) 
!S22(Full 2 Port(1,2)) 
!S2P File: Measurements: S11, S21, S12, S22:
# Hz S  MA   R 50
300000 1.008379e+000 -5.918462e-001 2.325575e-004 8.362868e+001 4.197995e-004 -8.602128e+001 1.016696e+000 -6.823022e-001
599985 9.834126e-001 2.781875e-001 8.515122e-005 -1.173909e+002 1.335529e-004 -1.667203e+002 9.651533e-001 3.070931e-001
899970 9.975604e-001 -5.960782e-002 2.525390e-005 -1.297554e+002 2.254518e-004 -1.686286e+002 9.854295e-001 -4.195548e-001
1199955 9.982713e-001 -5.333545e-002 8.080610e-005 1.699701e+002 2.265470e-004 -1.358357e+001 9.950339e-001 -1.416786e-001
1499940 9.941232e-001 1.128455e-001 8.791688e-005 1.244968e+002 2.467401e-004 6.646975e+001 9.916458e-001 8.943944e-002
1799925 9.923745e-001 2.295802e-001 1.351504e-004 -1.302600e+002 1.085118e-004 4.101307e+001 9.890741e-001 4.463020e-002
2099910 9.986185e-001 1.788119e-003 1.375093e-004 -1.603433e+002 1.443427e-004 -1.407266e+002 9.983175e-001 -8.498288e-003
2399895 9.993960e-001 -1.319868e-001 4.811133e-005 8.144329e+001 1.538129e-004 1.389723e+002 1.003371e+000 -1.581587e-002
2699880 9.994575e-001 -2.408303e-001 3.956446e-005 5.788912e+000 1.451735e-004 7.282616e+001 9.954121e-001 -2.461575e-001
2999865 9.997726e-001 -1.399264e-001 1.875331e-005 -1.853121e+001 1.278763e-004 -7.069933e+001 9.987878e-001 -2.186564e-001
3299850 1.000262e+000 -1.135373e-001 8.593899e-006 1.917429e+001 7.263925e-005 5.298225e+000 9.984304e-001 -2.546000e-001
3599835 1.000462e+000 -1.352745e-001 3.553481e-005 -3.889489e+001 1.410739e-004 9.497163e+001 9.973801e-001 -2.338451e-001
3899820 9.992856e-001 -1.269605e-001 3.619011e-006 -1.457179e+002 9.938498e-005 -3.686849e+001 9.988942e-001 -1.655858e-001
4199805 1.000257e+000 -1.512700e-001 1.989498e-005 1.635246e+002 1.338128e-004 3.550238e+001 9.999554e-001 -2.743693e-001
4499790 1.000381e+000 -1.662555e-001 8.432191e-005 -1.545942e+002 9.967796e-005 1.574453e+002 9.999921e-001 -2.893857e-001
4799775 1.000635e+000 -1.551181e-001 4.040782e-005 1.695174e+002 1.939194e-004 1.733205e+002 9.997117e-001 -2.254766e-001
5099760 1.000743e+000 -1.414890e-001 4.373858e-005 -9.548080e+001 1.794964e-004 -1.484893e+002 1.000889e+000 -2.065555e-001
5399745 1.000762e+000 -1.145815e-001 8.422456e-005 -2.879766e+001 5.644278e-005 -9.111089e+001 9.994954e-001 -2.006803e-001
5699730 1.000546e+000 -1.142022e-001 4.431267e-005 1.696545e+002 1.276604e-004 9.539044e+001 1.000411e+000 -2.450827e-001
5999715 9.995179e-001 -1.139614e-001 6.545545e-005 1.062199e+002 3.249001e-004 1.404471e+002 9.999544e-001 -2.037936e-001
6299700 1.000023e+000 -1.109057e-001 5.434502e-005 -9.496286e+001 2.124624e-004 3.962244e+001 9.995511e-001 -2.732352e-001
6599685 9.999722e-001 -1.260507e-001 9.437785e-006 -1.575153e+002 5.195282e-005 9.075090e+000 9.998733e-001 -2.752780e-001
6899670 9.994379e-001 -1.300898e-001 1.774923e-005 -3.467695e+001 1.642334e-004 1.522158e+002 1.000680e+000 -2.819798e-001
7199655 9.995660e-001 -1.466268e-001 1.161202e-005 1.503879e+002 3.030388e-004 7.695239e+001 9.994819e-001 -2.784918e-001
7499640 1.000367e+000 -1.667056e-001 8.598479e-005 -2.570987e+000 7.055869e-005 -1.631984e+002 9.997349e-001 -4.096231e-001
7799625 9.997725e-001 -1.561096e-001 2.243826e-005 -1.395300e+002 1.880153e-004 -6.151913e+001 9.994075e-001 -3.073558e-001
8099610 1.000287e+000 -1.516438e-001 8.414298e-005 -1.377896e+002 8.348449e-005 -1.608403e+002 9.985584e-001 -4.066446e-001
8399595 9.999204e-001 -1.403165e-001 7.182116e-005 8.344393e+001 1.511349e-005 4.166915e+001 9.992382e-001 -3.502745e-001
8699580 9.998623e-001 -1.422592e-001 4.157380e-005 -3.170893e+001 2.091263e-004 1.373512e+002 9.993842e-001 -3.617351e-001
8999565 1.000847e+000 -1.393927e-001 9.312627e-005 -1.162924e+002 2.245463e-004 -5.152260e+001 9.987117e-001 -3.604848e-001
9299550 9.997315e-001 -1.677990e-001 5.195070e-005 1.784786e+002 1.435209e-004 -1.150487e+001 9.983311e-001 -2.945172e-001
9599535 1.000274e+000 -1.894805e-001 5.591640e-005 -6.239862e-001 1.019017e-004 -1.627046e+002 9.972868e-001 -4.954732e-001
9899520 9.999101e-001 -2.580326e-001 5.257713e-005 1.053383e+002 5.289280e-005 7.196021e+001 9.975589e-001 -6.088206e-001
10199505 9.998358e-001 -1.657694e-001 1.868004e-005 -4.303881e+001 1.574068e-004 -7.881560e+000 9.980519e-001 -3.398066e-001
10499490 9.995450e-001 -1.448084e-001 1.105831e-005 1.735226e+002 6.846440e-005 1.168571e+002 9.994119e-001 -3.625108e-001
10799475 1.000034e+000 -1.390699e-001 6.123036e-005 -1.030038e+002 2.161743e-004 -5.990456e+001 9.985943e-001 -3.623706e-001
11099460 9.996845e-001 -1.345307e-001 3.693250e-005 1.761330e+000 2.319340e-004 -4.612685e+001 9.991198e-001 -2.873973e-001
11399445 1.000319e+000 -1.425902e-001 7.002918e-005 -5.422101e+001 1.624656e-004 -3.451780e+001 9.985482e-001 -3.989766e-001
11699430 9.998188e-001 -1.614573e-001 2.966059e-005 -7.941496e+001 1.146303e-004 -1.628116e+002 9.995291e-001 -3.207621e-001
11999415 9.999813e-001 -1.689040e-001 2.879129e-005 1.483160e+002 2.487907e-004 1.605871e+002 9.999652e-001 -3.935957e-001
12299400 1.000241e+000 -1.597125e-001 1.691800e-005 4.711045e+001 2.952818e-004 9.353537e+001 1.000151e+000 -3.697083e-001
12599385 1.000461e+000 -1.523618e-001 2.743129e-005 7.447273e+001 2.356187e-004 1.288982e+002 9.992236e-001 -4.753958e-001
12899370 1.000148e+000 -1.861827e-001 4.252306e-005 -5.251846e+001 2.156196e-004 -1.159716e+002 9.992824e-001 -5.462168e-001
13199355 1.000174e+000 -1.778643e-001 6.274977e-005 1.197480e+002 2.094065e-004 -9.782844e+001 9.986227e-001 -4.087767e-001
13499340 1.000453e+000 -2.244165e-001 2.532888e-005 5.321206e+001 1.904668e-004 -4.902887e+001 9.968883e-001 -4.435651e-001
13799325 1.000192e+000 -1.758072e-001 2.612325e-005 1.776187e+002 2.410627e-004 -8.776813e+001 9.980250e-001 -3.661279e-001
14099310 9.999620e-001 -1.690249e-001 3.771525e-005 -1.650242e+002 2.145615e-004 1.640344e+002 9.989715e-001 -4.198539e-001
14399295 9.999570e-001 -2.088055e-001 4.299765e-005 1.164739e+002 7.687252e-005 -8.569061e+001 1.000502e+000 -3.972951e-001
14699280 1.000488e+000 -1.962889e-001 7.651318e-005 -1.389318e+002 2.363446e-004 -1.736359e-001 9.999475e-001 -4.359694e-001
14999265 9.995722e-001 -1.718625e-001 1.836061e-005 2.644014e+001 3.751074e-004 -1.120018e+002 9.984019e-001 -4.772421e-001
15299250 9.996791e-001 -1.918776e-001 3.633971e-005 -1.736711e+002 5.320140e-005 4.561849e+001 9.986241e-001 -4.818569e-001
15599235 1.000128e+000 -1.759348e-001 7.259834e-005 -3.140228e+001 2.205439e-004 -1.172261e+002 9.987863e-001 -4.566005e-001
15899220 9.998595e-001 -1.758422e-001 1.517367e-004 8.435841e+001 2.840769e-004 -1.398579e+001 9.994991e-001 -3.593431e-001
16199205 9.998196e-001 -1.738300e-001 5.393820e-005 -9.035777e+001 9.171858e-005 -1.401798e+002 1.000052e+000 -4.455201e-001
16499190 1.000009e+000 -1.661320e-001 1.445871e-006 -2.249939e+000 3.156844e-004 -5.799559e+001 9.996226e-001 -4.617273e-001
16799175 9.999583e-001 -1.816816e-001 9.811134e-006 9.544218e+001 1.416729e-004 8.221972e+001 9.998385e-001 -5.240391e-001
17099160 9.998723e-001 -2.345006e-001 2.994852e-005 9.448061e+001 1.153104e-004 -1.213806e+002 1.000498e+000 -5.190955e-001
17399145 1.000307e+000 -2.446647e-001 5.380926e-005 1.138736e+002 8.706619e-005 2.326591e+001 1.000740e+000 -5.091714e-001
17699130 1.000147e+000 -2.170454e-001 1.608934e-004 4.539466e-001 1.187371e-004 8.242953e+001 1.001751e+000 -5.083646e-001
17999115 1.000305e+000 -2.122589e-001 1.215248e-004 -7.154137e+001 1.589031e-004 -2.007415e+001 1.000383e+000 -5.186353e-001
18299100 1.000084e+000 -1.883333e-001 9.459470e-005 -8.913583e+001 1.460518e-005 6.562955e+001 1.000432e+000 -5.217130e-001
18599085 9.998673e-001 -2.692693e-001 2.528529e-005 -3.778270e+001 1.286660e-004 -1.689525e+001 9.995670e-001 -5.743567e-001
18899070 1.000253e+000 -2.051909e-001 1.032184e-004 -1.220994e+002 1.691147e-004 -1.370778e+002 9.987958e-001 -4.792846e-001
19199055 1.000586e+000 -2.399054e-001 3.681398e-005 5.103526e+001 8.817989e-005 -6.198803e+001 9.995438e-001 -4.768015e-001
19499040 1.000477e+000 -2.412360e-001 4.139872e-005 -1.122202e+002 4.077896e-004 3.734301e+001 9.984695e-001 -4.993433e-001
19799025 1.000908e+000 -2.360759e-001 2.267530e-005 -1.429200e+002 9.278458e-005 -1.451659e+002 9.986394e-001 -5.231700e-001
20099010 1.000105e+000 -2.510155e-001 1.579759e-004 -1.128190e+002 3.797756e-004 8.376794e+001 9.987221e-001 -4.815492e-001
20398995 9.994100e-001 -2.099698e-001 1.237860e-004 -1.536116e+001 4.012007e-004 -1.637946e+002 9.984313e-001 -5.517931e-001
20698980 9.994264e-001 -2.014538e-001 6.471940e-005 -9.295055e+001 2.437288e-004 1.239615e+002 9.985911e-001 -6.110041e-001
20998965 9.995316e-001 -2.277321e-001 1.094679e-004 -7.675200e+000 5.444330e-005 -1.054263e+002 9.969153e-001 -5.300667e-001
21298950 9.994851e-001 -2.174530e-001 6.432212e-005 6.168658e+001 1.456349e-004 -3.805613e+001 9.970548e-001 -3.728532e-001
21598935 9.994686e-001 -2.350748e-001 3.367299e-005 -1.504103e+002 2.302343e-004 4.550074e+001 9.988764e-001 -5.570701e-001
21898920 9.999516e-001 -2.479157e-001 9.543839e-005 -6.775496e+001 3.461543e-004 -1.550583e+002 9.986227e-001 -5.346302e-001
22198905 1.000072e+000 -2.386654e-001 1.254883e-004 8.738725e+001 1.103547e-004 1.696908e+002 1.000631e+000 -5.086304e-001
22498890 1.000128e+000 -2.512459e-001 1.030754e-005 -1.141365e+001 1.353044e-004 -1.982805e+001 9.989402e-001 -5.485854e-001
22798875 9.998500e-001 -2.010580e-001 1.689398e-005 -1.244501e+002 2.463179e-004 3.146416e+000 9.995841e-001 -6.578189e-001
23098860 1.000644e+000 -2.475449e-001 1.073704e-004 1.625743e+002 2.561284e-004 1.029776e+002 1.000258e+000 -6.160136e-001
23398845 1.000200e+000 -2.776925e-001 3.969916e-005 -1.389287e+002 2.392867e-004 -7.590435e+001 9.994665e-001 -5.824900e-001
23698830 9.999056e-001 -2.787372e-001 2.999837e-005 1.269128e+002 2.018321e-004 1.261480e+002 1.000124e+000 -6.162891e-001
23998815 1.000169e+000 -2.376250e-001 9.031854e-005 -5.979490e+001 3.179248e-004 -7.283752e+001 9.983219e-001 -6.340122e-001
24298800 1.000137e+000 -2.818589e-001 7.456097e-005 -8.714461e+001 9.441254e-005 7.863151e+001 9.969457e-001 -6.232688e-001
24598785 1.000275e+000 -2.777953e-001 7.351779e-005 -2.291111e+001 3.962809e-004 -1.765513e+002 9.974312e-001 -6.712140e-001
24898770 1.000001e+000 -3.094285e-001 8.491256e-005 -1.729495e+002 2.240444e-004 1.201249e+000 9.994467e-001 -6.623745e-001
25198755 1.000781e+000 -3.102250e-001 5.183130e-005 1.598085e+002 1.467431e-004 1.386832e+002 9.989429e-001 -6.785747e-001
25498740 1.000126e+000 -2.803293e-001 2.278268e-005 1.749287e+002 8.500048e-005 5.195924e+001 1.000169e+000 -6.220672e-001
25798725 1.000284e+000 -2.815422e-001 1.048822e-004 -1.492818e+002 1.648902e-004 1.754038e+002 9.985651e-001 -7.308528e-001
26098710 9.998959e-001 -2.940840e-001 6.149986e-005 1.305859e+002 3.040285e-004 -1.661365e+002 9.993768e-001 -6.962256e-001
26398695 1.000408e+000 -2.533360e-001 1.372532e-004 -4.978561e+001 6.149329e-005 7.331423e+001 9.991806e-001 -7.364641e-001
26698680 1.000379e+000 -2.841453e-001 1.310823e-004 -1.439471e+002 3.263369e-004 -1.675514e+002 9.987090e-001 -6.608171e-001
26998665 1.000968e+000 -2.725661e-001 6.124201e-005 6.816662e+001 2.338105e-004 -5.224200e+001 9.992625e-001 -7.148659e-001
27298650 1.000306e+000 -3.052272e-001 4.279784e-005 -9.454991e+001 1.234299e-005 1.474432e+002 1.000449e+000 -7.410858e-001
27598635 9.999395e-001 -3.051997e-001 3.750635e-005 -9.596571e+001 6.468730e-005 -8.293501e+001 9.998644e-001 -7.474187e-001
27898620 1.000235e+000 -2.605198e-001 3.843662e-005 1.038137e+002 1.571616e-004 1.228811e+002 1.001079e+000 -7.189199e-001
28198605 9.997854e-001 -3.196076e-001 4.389470e-005 1.504669e+002 1.433866e-004 -8.966019e+001 9.997488e-001 -8.069913e-001
28498590 1.000615e+000 -3.353048e-001 6.418468e-005 -5.896446e+001 2.857572e-004 7.358281e+001 9.993264e-001 -7.290618e-001
28798575 9.996762e-001 -3.636456e-001 2.988802e-005 1.535153e+002 3.199843e-004 -1.746154e+002 9.987381e-001 -8.410783e-001
29098560 9.999582e-001 -3.249289e-001 2.338743e-005 2.649216e+000 2.170680e-004 3.163854e+001 9.992283e-001 -6.713626e-001
29398545 1.000543e+000 -3.166755e-001 5.864633e-005 -4.860981e+000 1.729819e-005 -7.515215e+001 9.995228e-001 -7.700719e-001
29698530 1.000186e+000 -2.725735e-001 5.086973e-005 1.097877e+002 1.918700e-004 -9.090650e+000 9.994686e-001 -6.548091e-001
29998515 1.000486e+000 -2.894607e-001 1.649211e-005 -1.205113e+002 2.196662e-004 7.028643e+001 1.000509e+000 -7.156774e-001
30298500 1.000503e+000 -3.404824e-001 1.255920e-004 -8.536271e+001 2.377786e-004 -8.439317e+001 1.001265e+000 -8.042769e-001
30598485 1.000511e+000 -3.186491e-001 9.372273e-005 -2.083153e+001 1.860882e-004 6.360919e+001 9.997241e-001 -8.082414e-001
30898470 1.000980e+000 -3.128358e-001 9.103873e-005 -8.476006e+001 1.822281e-004 1.688336e+002 1.000400e+000 -8.209696e-001
31198455 1.000178e+000 -2.812937e-001 1.693803e-005 2.392643e+001 3.227498e-004 4.078569e+001 9.995168e-001 -7.725753e-001
31498440 1.000221e+000 -2.959888e-001 5.248635e-005 4.546785e+001 2.372536e-004 1.442581e+002 9.999705e-001 -8.450155e-001
31798425 1.000938e+000 -3.702627e-001 1.297993e-004 -5.345978e+001 1.082678e-004 5.633708e+000 9.996606e-001 -7.587621e-001
32098410 1.000403e+000 -3.577575e-001 1.218001e-004 -1.420922e+002 2.723254e-004 1.260869e+002 9.993777e-001 -7.337924e-001
32398395 1.001099e+000 -3.788726e-001 1.015195e-004 -1.185918e+002 1.601400e-004 3.805539e+000 1.000356e+000 -8.090568e-001
32698380 1.001100e+000 -3.452451e-001 5.238750e-005 5.884857e+001 1.039014e-004 4.702750e+001 1.000398e+000 -8.200535e-001
32998365 1.000725e+000 -3.785612e-001 5.925252e-005 -1.141434e+002 1.139147e-004 -1.026272e+002 9.993000e-001 -7.819009e-001
33298350 1.000484e+000 -3.415907e-001 9.197952e-005 1.440995e+002 1.053199e-004 1.406257e+002 9.996821e-001 -8.550659e-001
33598335 9.997767e-001 -3.439716e-001 8.769840e-005 1.703462e+002 1.441568e-004 -1.005509e+002 9.997381e-001 -7.670060e-001
33898320 1.000303e+000 -3.435190e-001 6.493062e-005 1.236977e+002 1.947444e-004 2.843096e+001 9.995099e-001 -8.789754e-001
34198305 9.995607e-001 -3.433244e-001 4.874681e-005 -1.771818e+001 9.416342e-005 -1.691642e+002 9.986263e-001 -8.178161e-001
34498290 9.997677e-001 -4.108049e-001 7.800899e-005 -2.722396e+001 1.783510e-004 -8.208100e+001 9.981869e-001 -8.580140e-001
34798275 9.997005e-001 -3.548462e-001 5.523503e-005 -1.760853e+002 1.263174e-004 4.161451e+001 9.977562e-001 -8.615953e-001
35098260 1.000551e+000 -3.661134e-001 9.844814e-005 -4.343677e+001 8.521973e-005 -1.591405e+002 9.993896e-001 -8.015273e-001
35398245 9.999258e-001 -3.888532e-001 5.916735e-005 5.155566e+001 2.277980e-004 7.619267e+001 9.995903e-001 -8.070633e-001
35698230 1.000054e+000 -4.215217e-001 1.074512e-004 -5.364267e+001 1.822063e-004 -1.142130e+002 9.996017e-001 -8.859741e-001
35998215 1.000698e+000 -4.139000e-001 8.897180e-005 1.239232e+001 2.018426e-004 4.994135e+001 9.993217e-001 -9.097560e-001
36298200 9.996749e-001 -4.392951e-001 5.001212e-005 -2.780364e+001 7.835417e-005 1.426325e+001 9.996619e-001 -9.156369e-001
36598185 9.999501e-001 -3.525177e-001 3.542985e-005 8.813722e+001 1.151431e-004 -4.348575e+001 9.986395e-001 -9.397760e-001
36898170 1.000584e+000 -3.777262e-001 4.539798e-005 -2.683089e+001 1.236012e-004 -1.275642e+002 9.990731e-001 -9.178754e-001
37198155 1.000454e+000 -4.094882e-001 7.612777e-005 7.887978e+001 2.872463e-004 -1.047340e+002 1.000778e+000 -9.618950e-001
37498140 1.000184e+000 -4.268600e-001 9.739882e-005 -1.391627e+002 9.974583e-005 -3.184471e+000 9.991959e-001 -9.371281e-001
37798125 1.000076e+000 -3.876740e-001 7.681025e-005 2.673841e+001 1.762198e-004 -1.434501e+002 9.996080e-001 -8.846427e-001
38098110 1.000843e+000 -4.086984e-001 5.720608e-005 -1.250812e+001 1.438034e-004 6.084328e+001 9.991406e-001 -9.853805e-001
38398095 1.000112e+000 -4.042718e-001 1.985339e-004 6.624670e+001 2.445252e-004 -1.365722e+002 9.984958e-001 -9.978547e-001
38698080 9.999571e-001 -3.770025e-001 1.435535e-004 -1.241403e+001 1.812669e-004 7.602728e+001 9.975665e-001 -1.002185e+000
38998065 1.000018e+000 -3.832714e-001 7.804990e-005 1.662666e+002 1.581761e-004 2.195710e+001 9.987243e-001 -9.378288e-001
39298050 9.999484e-001 -4.186031e-001 1.077901e-005 -3.376298e+001 2.451846e-004 1.669750e+001 9.993662e-001 -9.463361e-001
39598035 1.001063e+000 -4.014222e-001 4.435444e-005 -1.174611e+002 6.194739e-005 1.127125e+002 9.999654e-001 -8.888320e-001
39898020 1.001311e+000 -3.814762e-001 6.281542e-005 6.239517e+001 2.086373e-004 -2.219041e+001 1.001047e+000 -8.627890e-001
40198005 1.000102e+000 -4.412874e-001 8.944333e-005 -7.793794e+001 4.663795e-004 3.937449e+001 1.000232e+000 -9.808874e-001
40497990 1.000382e+000 -4.794127e-001 1.955816e-005 -9.061629e+000 2.099857e-004 -5.840681e+001 1.000631e+000 -1.024872e+000
40797975 1.001261e+000 -4.350310e-001 1.013587e-004 -4.817884e+001 1.408362e-004 8.708636e+001 1.001918e+000 -1.073016e+000
41097960 1.000230e+000 -3.620601e-001 1.382800e-005 -6.887574e+001 1.812373e-004 -1.349876e+002 9.985052e-001 -9.956918e-001
41397945 1.000086e+000 -3.326779e-001 1.837366e-004 6.485012e+001 6.673727e-005 -1.242369e+001 1.000257e+000 -9.772127e-001
41697930 9.998639e-001 -3.176098e-001 7.187406e-005 -1.407360e+002 9.169934e-005 2.448425e+001 1.000419e+000 -1.009606e+000
41997915 1.000553e+000 -3.753195e-001 2.291321e-004 -1.019647e+002 3.076872e-004 1.166049e+001 9.995776e-001 -9.048564e-001
42297900 9.991156e-001 -4.116061e-001 1.685842e-004 1.618253e+002 2.001894e-004 -2.440690e+001 1.000222e+000 -9.910955e-001
42597885 1.000750e+000 -4.206422e-001 6.953433e-005 1.099570e+002 1.260397e-004 -1.082503e+001 1.000409e+000 -9.956399e-001
42897870 1.000852e+000 -3.826936e-001 2.249904e-004 6.190059e+001 6.632260e-005 3.398234e+001 1.000579e+000 -9.846619e-001
43197855 1.000621e+000 -4.765927e-001 8.403482e-005 1.630861e+002 2.013242e-004 -5.396292e+001 9.996116e-001 -1.102987e+000
43497840 1.000402e+000 -4.490095e-001 1.932309e-004 8.466933e+001 2.703646e-004 9.020486e+001 9.997938e-001 -1.117761e+000
43797825 9.996480e-001 -4.594047e-001 6.592693e-005 1.331691e+002 1.637534e-004 2.143064e+001 9.997094e-001 -1.092686e+000
44097810 1.000497e+000 -4.552385e-001 1.911661e-004 -6.632600e+001 2.268192e-004 1.138852e+002 9.998940e-001 -1.113581e+000
44397795 1.000920e+000 -4.515591e-001 1.406299e-004 -9.960751e+000 1.048640e-004 4.725235e+001 1.000082e+000 -1.140290e+000
44697780 1.000773e+000 -4.018319e-001 1.003609e-004 1.277048e+001 3.144616e-004 -2.962973e+001 1.000570e+000 -1.190990e+000
44997765 1.001476e+000 -4.585975e-001 8.545115e-005 9.345485e+001 4.543356e-005 2.005894e+001 1.000945e+000 -1.204093e+000
45297750 1.000664e+000 -4.945394e-001 2.136571e-004 4.156142e+001 2.097427e-004 -7.702850e+001 1.001145e+000 -1.209901e+000
45597735 1.001268e+000 -4.476849e-001 9.513285e-005 1.259803e+002 1.455205e-004 -4.992034e+001 1.002398e+000 -1.105687e+000
45897720 1.000328e+000 -4.636213e-001 4.594394e-005 -1.381349e+002 2.544823e-004 1.516067e+002 1.000258e+000 -1.119072e+000
46197705 1.000884e+000 -4.136827e-001 1.757954e-004 4.832354e+001 7.540316e-005 1.275983e+002 9.998401e-001 -1.141654e+000
46497690 1.001439e+000 -4.219561e-001 7.854558e-005 1.372172e+002 2.738961e-004 4.408215e+001 1.000457e+000 -1.204775e+000
46797675 1.001283e+000 -4.807630e-001 1.234044e-004 -1.251326e+001 6.100585e-004 6.493243e+001 1.000452e+000 -1.159199e+000
47097660 1.001235e+000 -4.945281e-001 8.952863e-005 -4.615210e+001 3.265306e-004 -1.074645e+001 1.000404e+000 -1.318573e+000
