!Agilent Technologies,N5230C,SG49000117,A.08.50.07
!Agilent N5230C: A.08.50.07
!Date: Thursday, May 16, 2024 18:07:18
!Correction: S11(Full 2 Port(1,2)) 
!S21(Full 2 Port(1,2)) 
!S12(Full 2 Port(1,2)) 
!S22(Full 2 Port(1,2)) 
!S2P File: Measurements: S11, S21, S12, S22:
# Hz S  MA   R 50
300000 1.005417e+000 -5.406929e-001 1.619114e-004 -1.328514e+001 2.251489e-004 -1.229458e+002 1.011647e+000 -7.577184e-001
599985 9.824952e-001 2.614409e-001 4.492423e-005 -1.217546e+002 1.503925e-004 -1.298627e+002 9.634427e-001 2.500016e-001
899970 9.971374e-001 -5.227835e-002 4.454349e-005 -1.521768e+002 5.587851e-005 -9.185283e+000 9.856303e-001 -3.686870e-001
1199955 9.980376e-001 -1.030567e-001 6.902249e-005 -2.028438e+001 1.582845e-004 5.749293e+001 9.940595e-001 -2.405610e-001
1499940 9.941211e-001 1.412250e-001 4.417519e-005 -9.803108e+001 4.807303e-005 -1.049016e+002 9.933887e-001 8.152213e-002
1799925 9.919787e-001 2.235551e-001 5.218548e-005 -7.709285e+000 3.503299e-004 6.629525e+001 9.902087e-001 -1.855960e-002
2099910 9.986987e-001 -2.715122e-002 8.378606e-005 -9.200591e+001 1.113887e-004 1.721943e+002 9.980205e-001 9.051043e-003
2399895 9.994299e-001 -1.489413e-001 3.131560e-005 4.253899e+001 1.799121e-004 1.315918e+002 1.003473e+000 -7.987670e-002
2699880 9.999521e-001 -2.514723e-001 5.000502e-005 -6.239825e+001 4.944300e-005 -1.213750e+001 9.946736e-001 -2.583354e-001
2999865 9.999023e-001 -1.329455e-001 1.127707e-005 -7.791919e+001 6.263317e-005 -3.440255e+001 9.977710e-001 -1.965932e-001
3299850 1.000108e+000 -1.017746e-001 6.311572e-005 4.647019e+001 1.565666e-004 -1.641542e+002 9.978601e-001 -2.399921e-001
3599835 1.000345e+000 -9.903322e-002 4.806904e-005 -1.064871e+001 6.324077e-005 2.405501e+001 9.979351e-001 -2.292021e-001
3899820 9.999009e-001 -1.083353e-001 2.940247e-005 7.490491e+001 4.191333e-005 -1.627232e+002 9.979748e-001 -2.431074e-001
4199805 1.000496e+000 -1.918354e-001 1.042590e-004 -4.938601e+001 1.318049e-004 5.497602e+001 9.993291e-001 -3.427015e-001
4499790 1.000359e+000 -1.415589e-001 7.833933e-005 1.015463e+002 1.096639e-004 -8.784405e+000 9.983588e-001 -2.565362e-001
4799775 1.000723e+000 -1.360320e-001 7.958562e-005 -1.475294e+002 7.136699e-005 1.758730e+002 1.000989e+000 -2.337667e-001
5099760 1.000831e+000 -1.194245e-001 6.030013e-005 1.001827e+002 1.103561e-004 4.459860e+001 9.996468e-001 -2.045324e-001
5399745 1.000970e+000 -1.338637e-001 3.318045e-005 1.152037e+002 6.614222e-005 -1.726612e+002 9.997355e-001 -2.700378e-001
5699730 1.000359e+000 -1.344485e-001 2.570160e-005 1.386454e+002 7.105347e-005 1.724263e+002 1.000641e+000 -2.608960e-001
5999715 9.992473e-001 -9.308887e-002 7.157952e-005 1.781517e+002 8.273240e-005 -1.226540e+002 9.993344e-001 -1.531705e-001
6299700 9.999504e-001 -1.302324e-001 2.845620e-005 -2.120642e+001 2.891443e-004 -1.505309e+002 1.000057e+000 -2.544110e-001
6599685 9.997328e-001 -1.458706e-001 5.143347e-005 8.297383e+001 2.030644e-004 1.353311e+002 1.000174e+000 -2.500029e-001
6899670 9.997601e-001 -1.384622e-001 7.430509e-005 1.380517e+002 1.961245e-004 2.500324e+000 9.997898e-001 -2.913344e-001
7199655 1.000147e+000 -1.598182e-001 6.588540e-005 2.986342e+001 1.430737e-004 -1.075646e+002 9.998292e-001 -3.272661e-001
7499640 9.999994e-001 -1.597867e-001 2.705901e-005 7.485030e+001 7.314727e-005 -2.727036e+001 9.995298e-001 -3.785163e-001
7799625 1.000180e+000 -1.516205e-001 8.157058e-005 1.640539e+002 1.695681e-004 1.582742e+002 9.977071e-001 -2.950508e-001
8099610 9.997680e-001 -1.567782e-001 5.699596e-005 -1.054989e+002 2.448561e-004 4.324647e+000 9.987604e-001 -3.339579e-001
8399595 1.000078e+000 -1.564786e-001 3.325352e-005 -3.661444e+001 2.775219e-004 1.753905e+002 9.990917e-001 -3.333480e-001
8699580 1.000546e+000 -1.607249e-001 7.492473e-005 -1.444187e+002 1.295358e-004 -1.642846e+002 9.986916e-001 -3.357640e-001
8999565 1.000205e+000 -1.169678e-001 5.703448e-005 9.582198e+001 9.222716e-005 1.088863e+002 9.992774e-001 -4.154216e-001
9299550 9.998550e-001 -1.483843e-001 8.289864e-005 -1.194486e+002 2.026625e-004 -1.115105e+002 9.975918e-001 -3.447984e-001
9599535 1.000491e+000 -1.887174e-001 4.761912e-005 4.987555e+001 2.069992e-004 -1.176849e+002 9.984121e-001 -5.110049e-001
9899520 1.000320e+000 -2.403248e-001 7.447727e-006 -6.504387e+001 8.860140e-005 4.784266e+001 9.961698e-001 -5.611348e-001
10199505 9.993455e-001 -1.642513e-001 6.448435e-005 1.288200e+002 1.310214e-004 1.066263e+002 9.980859e-001 -3.843689e-001
10499490 9.998488e-001 -1.318993e-001 7.214250e-005 4.962561e+001 1.753570e-004 1.235170e+002 9.987477e-001 -3.429121e-001
10799475 1.000112e+000 -1.319916e-001 2.870610e-005 1.703526e+002 2.047536e-004 -2.770119e+001 9.996403e-001 -3.109494e-001
11099460 9.999609e-001 -1.173302e-001 9.037407e-005 6.365232e+001 1.405648e-004 -8.814916e+001 1.000022e+000 -3.875169e-001
11399445 1.000400e+000 -1.635260e-001 9.313325e-005 -9.375452e+001 1.519494e-004 -8.352083e+000 9.977996e-001 -3.919323e-001
11699430 1.000282e+000 -1.328832e-001 4.575995e-005 7.345115e+001 1.188833e-005 4.283111e+001 9.988403e-001 -3.245487e-001
11999415 9.999108e-001 -1.748255e-001 5.993442e-005 2.124327e+001 1.533607e-004 -1.354995e+002 9.999787e-001 -3.721738e-001
12299400 9.998767e-001 -1.634428e-001 5.964781e-005 -7.213499e+001 1.340715e-004 1.474527e+002 1.001254e+000 -3.155103e-001
12599385 1.000066e+000 -1.914880e-001 3.173423e-005 1.054171e+002 3.224611e-005 1.935306e+001 1.000245e+000 -4.994636e-001
12899370 1.000019e+000 -2.163517e-001 2.617007e-005 1.173792e+002 7.435546e-005 2.910110e+001 9.983427e-001 -5.774518e-001
13199355 9.999554e-001 -1.953135e-001 4.350985e-005 -9.558591e+001 3.266839e-004 -1.326849e+002 9.993622e-001 -4.424417e-001
13499340 1.000869e+000 -2.297094e-001 2.786495e-005 -1.539455e+002 2.622569e-004 -1.055571e+002 9.969254e-001 -4.606805e-001
13799325 1.000144e+000 -1.845415e-001 2.299965e-005 -2.549081e+001 2.895450e-004 -5.329065e+001 9.987082e-001 -3.979326e-001
14099310 1.000505e+000 -2.132705e-001 1.062118e-004 8.300325e+001 1.699865e-004 1.790729e+002 9.992021e-001 -4.715343e-001
14399295 1.000949e+000 -2.048421e-001 4.465279e-005 1.274465e+002 2.458929e-004 -9.833125e+001 9.998550e-001 -4.170588e-001
14699280 9.998587e-001 -2.243181e-001 7.248359e-005 -1.082499e+002 1.418322e-004 6.196696e+001 9.991590e-001 -4.881172e-001
14999265 9.998738e-001 -2.065665e-001 3.689397e-005 2.799533e+000 2.729632e-004 -1.189373e+002 9.984877e-001 -4.190305e-001
15299250 9.995189e-001 -1.761274e-001 2.738386e-005 3.458143e+001 2.593895e-004 8.424255e+001 9.987881e-001 -5.181143e-001
15599235 9.997751e-001 -1.952543e-001 6.063315e-005 -1.153675e+002 3.541698e-004 1.383356e+002 9.988096e-001 -4.834155e-001
15899220 9.997693e-001 -1.792217e-001 3.727030e-005 -1.529027e+002 9.784567e-005 -2.205902e+001 9.990458e-001 -5.168987e-001
16199205 1.000149e+000 -1.523754e-001 1.545689e-005 -1.171648e+002 7.884228e-005 1.196911e+002 1.000628e+000 -4.976337e-001
16499190 1.000067e+000 -1.681703e-001 8.951333e-005 1.633710e+002 2.876713e-004 -1.200142e+002 1.001102e+000 -4.380139e-001
16799175 1.000236e+000 -1.955694e-001 1.673348e-005 1.332144e+002 2.304290e-004 4.601594e+001 1.001840e+000 -5.202345e-001
17099160 1.000209e+000 -2.211940e-001 9.920699e-005 -3.526343e+001 2.061892e-004 -1.439660e+002 9.996588e-001 -4.951782e-001
17399145 1.000074e+000 -2.369222e-001 1.180189e-004 -1.418173e+000 1.886307e-004 4.156958e+001 9.990807e-001 -4.209457e-001
17699130 9.999104e-001 -2.445032e-001 1.545262e-004 2.915799e+001 3.164351e-004 -9.720127e+001 9.998341e-001 -4.464561e-001
17999115 9.996813e-001 -2.240748e-001 2.401695e-005 1.120901e+002 3.344132e-004 1.151357e+002 1.000304e+000 -5.897057e-001
18299100 1.000223e+000 -2.121989e-001 9.175095e-005 -1.483292e+002 1.671174e-004 9.271696e+001 9.986262e-001 -5.256100e-001
18599085 1.000743e+000 -2.255430e-001 1.097123e-004 -1.342525e+002 2.878956e-004 -1.040624e+002 9.978994e-001 -5.439869e-001
18899070 1.000580e+000 -2.572020e-001 1.378265e-004 3.575200e+001 2.613860e-004 3.267957e+001 9.991797e-001 -4.501351e-001
19199055 1.000396e+000 -2.340783e-001 6.599173e-005 5.867630e+001 2.591890e-004 -1.094662e+002 9.996545e-001 -5.617825e-001
19499040 1.000943e+000 -2.302966e-001 3.256802e-005 -1.786314e+002 2.528070e-004 7.546172e+001 9.997544e-001 -4.787047e-001
19799025 1.000594e+000 -2.047113e-001 9.335072e-005 4.215608e+001 1.387262e-004 -1.480405e+002 9.992497e-001 -5.588548e-001
20099010 1.000137e+000 -2.117952e-001 7.728538e-005 -1.516344e+002 6.243985e-005 8.219810e+001 9.970279e-001 -5.533639e-001
20398995 1.000302e+000 -2.268483e-001 5.595165e-005 -1.618537e+002 2.150187e-004 1.484028e+002 9.980194e-001 -5.803935e-001
20698980 9.994375e-001 -2.112567e-001 1.254882e-004 -1.477562e+002 2.341592e-004 8.488002e+000 9.983154e-001 -6.425135e-001
20998965 9.999791e-001 -2.601980e-001 1.146516e-004 1.535794e+002 2.374467e-004 -1.731502e+002 9.975120e-001 -5.293127e-001
21298950 9.996394e-001 -2.135193e-001 4.701823e-005 3.195404e+001 2.023690e-004 -4.978904e+001 9.980993e-001 -4.240914e-001
21598935 9.999313e-001 -2.463708e-001 1.141091e-004 -1.203662e+002 2.203368e-004 2.428448e+001 9.979057e-001 -6.093004e-001
21898920 1.000017e+000 -2.451039e-001 1.044523e-004 1.084457e+002 1.830131e-004 9.136502e+001 9.967580e-001 -5.450007e-001
22198905 9.995023e-001 -2.559730e-001 1.227928e-004 2.126198e+000 1.719887e-004 -7.356264e+001 9.990039e-001 -5.612946e-001
22498890 1.000186e+000 -2.463664e-001 4.852853e-005 3.355957e+001 1.873996e-004 -5.572156e+001 9.996679e-001 -6.741078e-001
22798875 1.000164e+000 -2.002989e-001 9.249953e-005 1.767208e+002 1.670176e-004 -8.170130e+001 1.000417e+000 -7.163663e-001
23098860 1.000593e+000 -2.721085e-001 3.898626e-005 2.688215e+001 1.893596e-004 -7.615703e+000 9.992942e-001 -6.378731e-001
23398845 1.001063e+000 -2.833076e-001 9.647624e-005 -2.912038e+001 1.758140e-004 1.734568e+002 9.992635e-001 -6.023293e-001
23698830 1.000089e+000 -2.592348e-001 8.624807e-005 1.342510e+002 3.833734e-004 -2.451820e+001 9.988298e-001 -6.109610e-001
23998815 1.000498e+000 -3.110565e-001 8.168869e-005 -1.388740e+002 1.970867e-004 1.192689e+002 9.972091e-001 -6.537164e-001
24298800 1.000222e+000 -2.988195e-001 6.567602e-005 6.880447e+001 1.412442e-004 1.669978e+002 9.983756e-001 -7.060750e-001
24598785 9.995657e-001 -2.835198e-001 5.176057e-005 -1.651169e+002 3.193408e-004 3.849543e+000 9.973421e-001 -6.843596e-001
24898770 1.000678e+000 -2.866209e-001 1.427976e-004 -1.424585e+002 6.477830e-005 -8.254126e+001 9.979551e-001 -7.676526e-001
25198755 1.000105e+000 -2.975335e-001 4.933582e-005 1.624568e+002 1.884305e-004 -5.078669e+001 9.987178e-001 -7.342540e-001
25498740 1.000331e+000 -2.550140e-001 8.251111e-005 -1.572875e+002 1.909708e-004 1.402860e+002 9.991331e-001 -7.140467e-001
25798725 1.000248e+000 -2.810971e-001 1.802606e-004 1.202600e+002 1.551192e-004 -5.819380e+001 9.986541e-001 -7.847890e-001
26098710 1.000397e+000 -3.058278e-001 1.357802e-004 -1.375877e+002 1.939621e-004 1.366085e+002 9.997051e-001 -7.491117e-001
26398695 1.000571e+000 -3.013045e-001 8.991936e-005 -8.066786e+000 1.269058e-004 4.583615e+000 9.996981e-001 -7.662462e-001
26698680 1.001014e+000 -3.153020e-001 4.558199e-005 1.362033e+002 2.596649e-004 1.028772e+002 1.000048e+000 -7.627159e-001
26998665 1.001062e+000 -2.964565e-001 7.385634e-005 -1.499197e+002 1.468556e-004 -2.217241e+001 9.992701e-001 -7.526262e-001
27298650 9.997980e-001 -2.924356e-001 8.133378e-005 1.217395e+002 7.714190e-005 -1.102500e+002 9.982440e-001 -7.632954e-001
27598635 1.000357e+000 -2.872195e-001 5.420989e-005 8.191181e+001 1.226774e-004 -5.867271e+001 9.993355e-001 -7.573758e-001
27898620 1.000438e+000 -2.884092e-001 1.962818e-004 -1.534740e+002 1.878576e-004 9.298174e+000 1.000380e+000 -7.178669e-001
28198605 9.997777e-001 -3.200434e-001 1.183265e-004 -4.989531e+001 3.292665e-004 -1.257754e+002 9.994978e-001 -8.381324e-001
28498590 9.999731e-001 -3.188069e-001 1.546450e-004 4.801265e+001 9.536139e-005 1.401670e+001 9.988530e-001 -8.112037e-001
28798575 9.998552e-001 -3.258263e-001 1.425380e-004 1.651092e+001 2.456806e-004 1.515717e+002 9.987781e-001 -8.727654e-001
29098560 9.998437e-001 -3.136070e-001 4.515040e-005 1.677395e+002 1.314526e-004 -8.319040e+001 9.985749e-001 -8.038589e-001
29398545 9.999385e-001 -2.929443e-001 6.568497e-005 -1.127541e+002 1.054270e-004 -1.462392e+002 9.985468e-001 -8.009267e-001
29698530 1.000134e+000 -3.168514e-001 6.888489e-005 -1.452010e+002 1.948828e-004 -1.760958e+001 9.992566e-001 -7.612625e-001
29998515 1.000148e+000 -2.789027e-001 6.515867e-005 -1.619378e+002 1.591683e-004 1.430974e+002 1.000380e+000 -8.078654e-001
30298500 1.000108e+000 -3.417691e-001 1.401416e-004 3.502319e+001 1.143728e-004 -9.416031e+001 1.001344e+000 -8.712267e-001
30598485 9.999724e-001 -3.042292e-001 1.341399e-004 -2.047523e+001 4.056139e-005 1.526336e+002 9.995623e-001 -8.792175e-001
30898470 9.997405e-001 -2.709410e-001 5.194117e-005 -7.115274e+000 2.106655e-004 -1.783841e+002 9.996365e-001 -8.997278e-001
31198455 1.000455e+000 -2.724828e-001 1.303016e-004 -1.364495e+002 3.277129e-004 2.737778e+001 9.978644e-001 -8.796143e-001
31498440 1.000406e+000 -3.539621e-001 7.402735e-005 -8.778239e+001 1.920096e-004 1.583046e+002 9.993142e-001 -8.264791e-001
31798425 1.000489e+000 -3.671885e-001 3.765188e-005 -6.484719e+001 1.002238e-004 -4.866244e+001 1.000008e+000 -8.423638e-001
32098410 1.000529e+000 -3.656880e-001 3.447730e-005 -1.722550e+002 2.360996e-004 9.707334e+001 1.000540e+000 -7.966700e-001
32398395 1.001232e+000 -3.457434e-001 3.497755e-005 -7.869412e+001 1.865020e-004 -3.272302e+001 9.990989e-001 -8.221824e-001
32698380 1.001278e+000 -3.693450e-001 8.057821e-005 -1.749371e+002 2.200656e-004 1.535997e+002 9.997675e-001 -8.606243e-001
32998365 1.000655e+000 -3.379430e-001 3.022795e-005 1.253501e+002 2.813500e-004 -1.182475e+002 9.986728e-001 -8.516276e-001
33298350 1.000804e+000 -3.395694e-001 2.143873e-005 -4.722366e+001 1.815939e-004 8.428500e+001 9.997042e-001 -9.236559e-001
33598335 1.000046e+000 -3.456064e-001 4.081745e-005 1.123099e+001 1.685533e-004 -5.511039e+001 9.986679e-001 -8.722920e-001
33898320 9.995297e-001 -3.799409e-001 4.571735e-005 1.570910e+002 2.215011e-004 4.904582e+001 9.988918e-001 -8.548301e-001
34198305 9.996542e-001 -3.837889e-001 9.234312e-005 -9.561188e+001 1.460243e-004 -1.046819e+002 9.985051e-001 -8.631371e-001
34498290 9.997650e-001 -4.079129e-001 1.649784e-004 -1.130198e+002 6.674568e-005 5.092525e+001 9.977697e-001 -9.168958e-001
34798275 9.999515e-001 -3.574679e-001 8.544845e-005 -4.659298e+001 2.319264e-004 1.744655e+002 9.975439e-001 -9.083688e-001
35098260 9.999121e-001 -4.221768e-001 5.363670e-005 5.960716e+001 1.814026e-004 1.387778e+001 9.985388e-001 -8.797968e-001
35398245 1.000453e+000 -3.880349e-001 9.316450e-005 -9.626012e+001 1.907608e-004 -1.345191e+002 1.000411e+000 -8.703430e-001
35698230 9.998340e-001 -3.788124e-001 7.899605e-005 1.114138e+002 1.418386e-004 -1.514568e-001 1.000408e+000 -9.045403e-001
35998215 1.000774e+000 -3.673386e-001 7.607709e-005 -1.257918e+002 2.402432e-004 4.700868e+001 9.998304e-001 -9.428049e-001
36298200 9.998909e-001 -4.145835e-001 6.654324e-005 1.608964e+002 1.575879e-004 -1.716482e+002 9.990389e-001 -9.672980e-001
36598185 1.000037e+000 -4.272555e-001 8.737607e-005 1.024139e+002 2.898631e-005 3.970694e+001 9.989269e-001 -9.727897e-001
36898170 1.001226e+000 -3.697067e-001 7.124069e-005 1.613359e+002 7.642585e-005 -1.771779e+002 9.984624e-001 -9.591274e-001
37198155 1.000696e+000 -3.217283e-001 5.730984e-005 -1.650318e+001 2.584531e-004 -6.468141e+001 9.992986e-001 -9.792979e-001
37498140 1.000037e+000 -4.142263e-001 7.972890e-005 1.210202e+002 1.563113e-004 1.507768e+002 9.988985e-001 -9.283112e-001
37798125 9.998960e-001 -3.941857e-001 6.289481e-005 1.336985e+002 1.241471e-004 -1.200727e+002 9.984348e-001 -1.014181e+000
38098110 1.000230e+000 -3.793716e-001 3.460232e-005 -1.786983e+002 1.070865e-004 1.551660e+002 9.980740e-001 -1.032744e+000
38398095 9.994168e-001 -4.036383e-001 1.779775e-005 -1.545518e+002 5.173997e-005 2.505331e+001 9.995027e-001 -1.044005e+000
38698080 1.000042e+000 -4.437151e-001 1.283215e-004 -1.708017e+002 6.334011e-005 -1.737472e+002 9.982485e-001 -1.036955e+000
38998065 1.000753e+000 -4.272647e-001 1.508447e-005 1.156335e+002 9.777898e-005 -6.995534e+001 9.980363e-001 -1.040927e+000
39298050 1.000966e+000 -4.013056e-001 1.468259e-004 5.958986e+001 2.110757e-004 4.581761e+001 9.980709e-001 -1.005922e+000
39598035 1.001180e+000 -4.006516e-001 5.176352e-005 9.203311e+001 1.831198e-004 -1.336376e+002 9.999273e-001 -9.549837e-001
39898020 1.000667e+000 -4.044514e-001 2.924191e-005 -3.732487e+001 1.577059e-004 -1.797007e+001 1.000565e+000 -9.166571e-001
40198005 1.000482e+000 -4.040505e-001 1.402236e-004 5.659819e+000 1.014043e-004 1.080573e+002 1.000905e+000 -1.112466e+000
40497990 1.000546e+000 -4.555231e-001 3.174827e-004 1.678123e+001 3.508953e-004 -4.468331e+001 9.997148e-001 -1.139535e+000
40797975 1.001608e+000 -4.495950e-001 1.099790e-005 -3.698381e+001 3.585749e-004 -4.363534e+001 9.992977e-001 -1.098452e+000
41097960 1.000193e+000 -3.793761e-001 2.421635e-005 1.317890e+002 4.474405e-004 -1.165141e+002 9.992796e-001 -1.017184e+000
41397945 1.000045e+000 -3.821922e-001 7.144237e-005 -1.791177e+002 2.200980e-004 -4.320878e+001 9.994036e-001 -1.032968e+000
41697930 9.996428e-001 -3.125199e-001 1.050134e-004 1.639060e+002 2.068004e-004 9.323669e+000 9.991251e-001 -9.175826e-001
41997915 9.995098e-001 -3.439397e-001 7.721096e-005 -2.148081e+001 2.565706e-004 -5.020272e+001 1.000155e+000 -1.145498e+000
42297900 1.000939e+000 -4.759244e-001 9.979062e-005 1.629343e+002 2.185986e-004 1.410127e+002 9.991578e-001 -1.068409e+000
42597885 1.000533e+000 -3.911979e-001 2.144584e-004 -1.677674e+002 3.627546e-004 -1.053820e+002 9.995865e-001 -1.035819e+000
42897870 1.000301e+000 -4.021983e-001 1.589042e-004 -6.176896e+001 2.421409e-004 -1.280769e+002 9.977881e-001 -1.205212e+000
43197855 1.001404e+000 -4.072349e-001 8.719036e-005 -1.401249e+002 3.041993e-004 1.475773e+002 9.998792e-001 -1.276216e+000
43497840 1.001176e+000 -4.488332e-001 1.491447e-004 1.278865e+002 1.858800e-004 -1.508248e+002 9.987571e-001 -1.175902e+000
43797825 1.000566e+000 -4.498877e-001 1.059429e-004 2.866279e+001 2.735986e-004 7.059741e+001 9.994379e-001 -1.215944e+000
44097810 1.000291e+000 -4.036354e-001 7.878170e-005 1.596365e+002 1.433448e-004 -7.273283e+001 9.991047e-001 -1.296333e+000
44397795 1.000588e+000 -4.319619e-001 6.650608e-005 -1.711875e+002 3.656375e-004 -7.893776e+001 1.000301e+000 -1.242452e+000
44697780 1.002277e+000 -4.804822e-001 7.043321e-005 1.135286e+001 2.635850e-004 9.894537e+001 1.000443e+000 -1.245624e+000
44997765 1.001338e+000 -4.728314e-001 1.125312e-004 1.770903e+002 1.595198e-004 -8.743376e+001 1.001536e+000 -1.185312e+000
45297750 1.002494e+000 -4.761849e-001 1.688434e-004 -7.812260e+001 2.744361e-004 -1.204520e+002 1.001586e+000 -1.265353e+000
45597735 1.002109e+000 -4.727723e-001 2.206097e-004 3.477963e+001 2.862818e-004 -2.102901e+001 1.002499e+000 -1.226113e+000
45897720 9.997177e-001 -4.462659e-001 1.053107e-004 -4.780651e+001 1.902858e-004 -1.144012e+002 1.001849e+000 -1.198663e+000
46197705 1.002453e+000 -4.413956e-001 1.593797e-004 8.570644e+000 2.212757e-004 1.413869e+002 1.001302e+000 -1.262057e+000
46497690 1.001479e+000 -4.680007e-001 1.300032e-004 -7.912064e+001 1.677772e-004 1.369281e+002 1.000806e+000 -1.250300e+000
46797675 1.001297e+000 -4.643036e-001 1.122952e-004 7.787655e+001 2.779736e-005 -4.014061e+001 1.000150e+000 -1.315126e+000
47097660 1.001256e+000 -4.607413e-001 9.364686e-005 7.567380e+001 2.046866e-004 7.424082e+001 1.000239e+000 -1.315421e+000
