!Agilent Technologies,N5230C,SG49000117,A.08.50.07
!Agilent N5230C: A.08.50.07
!Date: Thursday, May 16, 2024 18:08:13
!Correction: S11(Full 2 Port(1,2)) 
!S21(Full 2 Port(1,2)) 
!S12(Full 2 Port(1,2)) 
!S22(Full 2 Port(1,2)) 
!S2P File: Measurements: S11, S21, S12, S22:
# Hz S  MA   R 50
300000 1.009098e+000 -6.484796e-001 2.074567e-004 4.776745e+000 2.792062e-004 6.526461e+001 1.011562e+000 -7.139445e-001
599985 9.829214e-001 3.107914e-001 2.594863e-005 -1.133798e+002 1.186694e-004 -1.095133e+002 9.649799e-001 3.869354e-001
899970 9.980770e-001 -1.222593e-001 6.055423e-005 -1.341682e+002 1.693688e-004 -1.333064e+002 9.832627e-001 -3.800158e-001
1199955 9.979911e-001 -6.802086e-002 2.025127e-005 9.204746e+001 1.037611e-004 -4.323362e+001 9.962159e-001 -1.896188e-001
1499940 9.935732e-001 1.540784e-001 6.334982e-005 7.843637e+001 3.221726e-005 -4.017521e+001 9.917737e-001 9.410684e-002
1799925 9.921606e-001 2.044265e-001 8.093516e-005 8.761068e+001 7.880789e-005 3.160197e+001 9.893677e-001 -2.701903e-002
2099910 9.988608e-001 -2.339940e-002 1.233507e-004 2.157266e+000 2.438959e-004 1.019831e+001 9.976627e-001 -2.525844e-003
2399895 9.990938e-001 -9.636214e-002 1.029994e-004 1.875261e+001 1.696967e-004 1.607784e+002 1.002956e+000 -4.399184e-002
2699880 9.997109e-001 -2.509617e-001 7.295248e-005 -7.830337e+001 9.995275e-005 9.252624e+001 9.953748e-001 -2.818297e-001
2999865 1.000221e+000 -1.100888e-001 7.359188e-005 1.571355e+001 9.171203e-005 1.331939e+002 9.975463e-001 -1.938947e-001
3299850 1.000647e+000 -1.299265e-001 8.100407e-005 1.230105e+002 8.999629e-005 -1.193312e+002 9.961599e-001 -2.759482e-001
3599835 1.000124e+000 -1.264149e-001 1.335509e-005 -6.876502e+001 1.464383e-004 1.123736e+002 9.976066e-001 -2.651946e-001
3899820 9.996336e-001 -1.607424e-001 4.946960e-005 -6.353867e+001 5.375154e-005 1.674737e+002 9.980544e-001 -2.453334e-001
4199805 1.000530e+000 -1.970311e-001 4.472644e-005 6.563957e+001 6.732783e-005 6.057535e+000 1.000770e+000 -3.092509e-001
4499790 1.000182e+000 -1.792645e-001 3.056627e-005 -1.032418e+002 4.667546e-005 -3.825595e+000 9.988853e-001 -2.923033e-001
4799775 1.000578e+000 -1.396036e-001 1.313083e-004 1.689334e+002 1.267239e-004 1.378734e+001 9.999996e-001 -2.532222e-001
5099760 1.000290e+000 -1.202463e-001 4.654030e-005 -1.412587e+002 1.315854e-004 -5.496088e+001 9.996642e-001 -2.456877e-001
5399745 1.000511e+000 -1.051957e-001 9.072047e-005 1.090767e+002 1.749880e-004 -1.232617e+002 9.996407e-001 -2.285969e-001
5699730 9.999936e-001 -1.080766e-001 5.496403e-005 1.860297e+000 1.246101e-004 9.508184e+000 1.001216e+000 -2.299877e-001
5999715 9.998577e-001 -1.033718e-001 6.461612e-005 1.134720e+002 1.304531e-004 -3.989308e+001 9.997118e-001 -2.194159e-001
6299700 1.000091e+000 -1.316393e-001 8.951574e-006 1.319452e+002 1.726871e-004 4.974380e+001 1.000225e+000 -2.896493e-001
6599685 9.999882e-001 -1.083029e-001 6.462084e-005 1.223645e+002 2.233900e-004 1.789147e+002 1.000687e+000 -2.601674e-001
6899670 9.999651e-001 -1.457369e-001 9.876414e-005 1.393832e+002 8.445692e-005 -2.716725e+001 9.992765e-001 -3.084418e-001
7199655 9.998336e-001 -1.602766e-001 6.814561e-005 -9.459550e-001 3.765880e-005 -1.025564e+002 9.996427e-001 -3.274895e-001
7499640 9.998676e-001 -1.858608e-001 1.112763e-005 8.251202e+001 9.779581e-005 1.320455e+002 9.997790e-001 -3.804176e-001
7799625 9.999792e-001 -1.657643e-001 1.519703e-004 -1.692721e+002 4.825403e-005 -1.124261e+002 9.988745e-001 -3.518215e-001
8099610 9.999110e-001 -1.578573e-001 4.587616e-005 -2.169589e+001 1.096849e-004 -1.027882e+002 9.984809e-001 -3.245944e-001
8399595 1.000172e+000 -1.704299e-001 3.009928e-005 8.500686e+001 2.533805e-004 3.668863e+001 9.992693e-001 -3.728386e-001
8699580 1.000213e+000 -1.736080e-001 1.561229e-005 1.318237e+002 1.861861e-004 1.313215e+002 9.989964e-001 -3.708483e-001
8999565 1.000277e+000 -9.092929e-002 5.346692e-005 -7.322825e+001 1.052642e-004 6.956116e+001 9.986008e-001 -4.292865e-001
9299550 9.999503e-001 -1.824505e-001 4.625024e-005 -1.408081e+002 3.993979e-005 7.513787e+001 9.991097e-001 -3.500878e-001
9599535 1.000022e+000 -2.194903e-001 2.311843e-005 -1.304325e+002 3.370277e-005 1.633795e+002 9.979321e-001 -5.099839e-001
9899520 1.000443e+000 -2.631859e-001 3.652100e-005 -4.500097e+001 1.825268e-004 -1.745547e+002 9.960062e-001 -6.413493e-001
10199505 9.995379e-001 -1.840041e-001 1.301469e-004 8.520873e+001 1.429183e-004 7.297164e+001 9.987222e-001 -3.818851e-001
10499490 9.998544e-001 -1.283805e-001 1.012282e-004 1.879485e+001 2.150961e-004 -9.364867e+000 9.990104e-001 -4.704388e-001
10799475 1.000277e+000 -1.287357e-001 3.806530e-005 1.504379e+002 7.215246e-005 -1.131834e+002 9.987597e-001 -3.083099e-001
11099460 1.000060e+000 -1.226477e-001 7.832196e-005 -1.211313e+001 3.439382e-005 -4.552995e+001 9.987381e-001 -3.235669e-001
11399445 1.000130e+000 -1.393835e-001 2.928678e-005 -5.578760e+001 1.872239e-004 1.068218e+002 9.995427e-001 -3.500929e-001
11699430 9.999247e-001 -1.684838e-001 1.241233e-004 -9.282735e+001 3.238216e-004 8.536018e+001 9.991699e-001 -4.003083e-001
11999415 9.999533e-001 -1.525701e-001 1.002993e-004 -1.730182e+002 1.577477e-004 2.469682e+001 9.993962e-001 -3.917062e-001
12299400 9.998913e-001 -1.404907e-001 5.593749e-005 -4.299226e+001 9.171887e-005 -1.547005e+002 1.000200e+000 -3.899300e-001
12599385 1.000121e+000 -1.734818e-001 1.058012e-004 1.458378e+002 8.481871e-005 8.515775e+001 9.993933e-001 -5.434903e-001
12899370 1.000067e+000 -1.878776e-001 3.120869e-005 -1.378898e+002 2.733386e-005 4.138588e+001 9.991897e-001 -6.771233e-001
13199355 9.997718e-001 -2.069205e-001 5.712573e-005 -4.496533e+001 5.042441e-005 1.743020e+002 9.982687e-001 -4.930257e-001
13499340 1.000093e+000 -1.616339e-001 2.225267e-005 -1.484879e+002 3.828341e-004 1.444986e+002 9.978618e-001 -4.560049e-001
13799325 9.998332e-001 -1.923852e-001 8.976467e-005 5.959324e+001 7.884101e-005 -8.024755e+001 9.979846e-001 -5.069922e-001
14099310 1.000515e+000 -1.802613e-001 4.944502e-005 -1.767510e+000 1.561266e-004 1.716760e+002 9.983937e-001 -4.618883e-001
14399295 9.999720e-001 -1.790294e-001 6.490456e-005 -2.531962e+001 2.000459e-004 -3.993830e+001 1.000197e+000 -4.236127e-001
14699280 1.000747e+000 -1.630369e-001 1.023965e-004 4.841722e+001 2.804334e-004 1.095802e+002 9.996440e-001 -4.492202e-001
14999265 1.000162e+000 -1.752058e-001 5.667166e-005 -1.265672e+002 3.498729e-004 -1.293980e+002 9.995304e-001 -5.014445e-001
15299250 1.000029e+000 -1.907717e-001 1.048161e-004 1.404912e+002 2.607474e-004 -2.339000e+001 9.978569e-001 -5.244508e-001
15599235 1.000502e+000 -1.726947e-001 8.403086e-005 5.715382e+001 1.431187e-004 -1.583371e+002 9.986436e-001 -5.174966e-001
15899220 9.997268e-001 -1.690650e-001 4.055189e-005 3.958600e+001 3.087595e-004 -4.612827e+001 9.991022e-001 -5.118183e-001
16199205 1.000381e+000 -2.027759e-001 7.916119e-005 1.204814e+002 2.004169e-004 8.084058e+001 9.997430e-001 -4.627658e-001
16499190 1.000046e+000 -1.664156e-001 1.197561e-004 -1.218763e+002 2.380150e-004 9.575898e+001 1.000877e+000 -5.556323e-001
16799175 1.000338e+000 -1.975408e-001 1.184015e-004 -5.340093e+001 2.698586e-004 -3.253030e-001 1.000912e+000 -5.228510e-001
17099160 9.994334e-001 -2.168740e-001 5.834137e-005 1.022324e+002 2.416587e-004 1.493056e+002 1.000252e+000 -5.313468e-001
17399145 9.997461e-001 -2.428186e-001 4.504957e-005 1.530373e+002 2.319647e-004 4.230443e+001 1.000115e+000 -5.227499e-001
17699130 1.000459e+000 -2.400434e-001 8.574067e-005 1.622580e+002 1.296412e-004 6.076895e+001 9.992746e-001 -5.653163e-001
17999115 1.000076e+000 -2.286329e-001 9.235775e-005 1.587611e+002 2.337726e-004 1.570055e+002 9.981367e-001 -6.030366e-001
18299100 9.999229e-001 -1.831132e-001 1.313792e-005 6.324233e+001 2.924192e-004 1.171824e+002 9.981845e-001 -6.257281e-001
18599085 1.000454e+000 -2.416149e-001 5.088107e-005 2.387545e+001 2.283297e-004 1.327854e+002 9.983802e-001 -6.214021e-001
18899070 1.000123e+000 -1.985055e-001 6.714925e-005 -1.088145e+002 1.711219e-005 1.295188e+002 9.991375e-001 -4.924726e-001
19199055 1.000719e+000 -1.994217e-001 6.578210e-005 1.025211e+002 1.975932e-004 1.190214e+002 9.995686e-001 -5.703087e-001
19499040 1.001077e+000 -2.185341e-001 8.825742e-005 1.069519e+002 2.907546e-004 -6.402347e+001 9.991881e-001 -5.802618e-001
19799025 1.000431e+000 -2.249449e-001 7.508280e-005 7.605976e+001 3.602479e-004 1.177522e+002 9.999906e-001 -5.767201e-001
20099010 1.000250e+000 -2.231388e-001 4.491275e-005 1.089020e+002 7.328210e-005 -1.564483e+002 9.989867e-001 -5.399969e-001
20398995 9.996306e-001 -2.068659e-001 6.160270e-005 1.102608e+002 1.552334e-004 5.854631e+001 9.978317e-001 -6.168544e-001
20698980 9.993416e-001 -2.368967e-001 9.820763e-005 1.302262e+001 2.546194e-004 -8.042084e+001 9.989688e-001 -5.862082e-001
20998965 1.000388e+000 -2.401890e-001 3.142927e-005 -3.696133e+001 2.693703e-004 1.199836e+002 9.990789e-001 -6.448420e-001
21298950 9.997079e-001 -2.237788e-001 1.800799e-005 -1.222096e+002 2.861510e-004 -1.793182e+002 9.978560e-001 -5.597894e-001
21598935 9.994346e-001 -2.240841e-001 1.033509e-004 1.266661e+002 9.255462e-005 -8.456493e+001 9.977717e-001 -6.040506e-001
21898920 9.993521e-001 -2.452848e-001 2.437392e-005 1.407520e+002 2.812464e-004 1.103773e+002 9.983278e-001 -6.064363e-001
22198905 9.993865e-001 -2.412786e-001 4.555031e-006 -1.162869e+002 5.917291e-005 -9.444671e+001 9.978845e-001 -5.853890e-001
22498890 1.000465e+000 -2.416113e-001 8.599117e-005 -1.115025e+002 1.723801e-004 -3.507764e+001 9.992046e-001 -7.178363e-001
22798875 1.000823e+000 -2.341912e-001 1.579759e-004 -7.494340e+001 7.403562e-005 4.350010e+001 1.001010e+000 -6.749011e-001
23098860 1.000440e+000 -2.378008e-001 7.738295e-005 -1.763339e+001 3.111686e-004 9.792853e+001 9.993290e-001 -6.470414e-001
23398845 1.000905e+000 -2.990710e-001 1.078156e-004 -1.356560e+002 1.942146e-004 -1.037338e+002 9.994546e-001 -6.336539e-001
23698830 1.000434e+000 -2.741319e-001 9.205735e-005 -1.589105e+002 2.309113e-004 -5.692936e+001 9.975011e-001 -6.950606e-001
23998815 1.000025e+000 -2.258066e-001 3.062007e-005 -2.811955e+001 2.376176e-004 -9.799813e+001 9.988780e-001 -7.054107e-001
24298800 1.000342e+000 -2.857187e-001 1.240515e-004 4.420510e+001 2.677441e-004 3.831396e+001 9.986600e-001 -6.623845e-001
24598785 9.999203e-001 -2.989081e-001 5.576342e-005 -6.175878e+001 2.096925e-004 1.503027e+002 9.990259e-001 -6.897594e-001
24898770 1.000879e+000 -2.825620e-001 7.718685e-005 3.528096e+001 5.367184e-005 1.760791e+002 9.986842e-001 -7.432028e-001
25198755 1.000300e+000 -2.824807e-001 1.604106e-005 1.642520e+002 2.009191e-005 -7.499313e+001 9.987970e-001 -8.075339e-001
25498740 1.000749e+000 -3.487508e-001 4.100047e-005 8.633865e+001 2.445560e-004 -1.636956e+000 9.996662e-001 -7.895957e-001
25798725 1.000365e+000 -2.835808e-001 4.526165e-005 -9.342743e+001 2.780207e-004 4.060900e+001 9.989037e-001 -7.423164e-001
26098710 9.998539e-001 -3.008484e-001 8.106177e-005 1.777870e+002 2.379483e-004 -7.792299e+001 9.995438e-001 -7.899326e-001
26398695 1.001039e+000 -3.054371e-001 3.530742e-005 -8.918851e+001 3.380661e-004 1.049488e+002 9.991358e-001 -7.492073e-001
26698680 1.001281e+000 -2.392858e-001 8.445353e-005 1.600804e+002 1.890582e-004 -1.508937e+002 9.993998e-001 -7.674584e-001
26998665 1.000773e+000 -2.840990e-001 7.441259e-005 4.749965e+001 1.204500e-004 -4.583455e+001 9.992214e-001 -8.021863e-001
27298650 1.000593e+000 -2.754383e-001 6.898732e-005 1.491966e+002 2.019333e-004 8.111446e+001 9.983963e-001 -7.853859e-001
27598635 1.000168e+000 -2.751778e-001 9.567403e-005 1.119420e+002 1.626044e-004 -7.058846e+001 1.000019e+000 -8.388821e-001
27898620 9.994037e-001 -2.854255e-001 1.241485e-004 -4.540676e+001 1.582638e-004 -1.382195e+002 1.000095e+000 -7.884464e-001
28198605 9.999994e-001 -2.848897e-001 6.558696e-005 -1.295481e+002 2.071390e-004 -4.802436e+001 9.998721e-001 -8.138161e-001
28498590 9.998322e-001 -3.201208e-001 6.705249e-005 -1.269574e+002 1.757376e-004 -2.862217e+001 9.984586e-001 -8.584633e-001
28798575 9.993885e-001 -3.271686e-001 1.115651e-004 1.137996e+002 1.617679e-004 1.434497e+002 9.981603e-001 -9.224508e-001
29098560 9.996883e-001 -2.819750e-001 3.465147e-005 5.494820e+001 1.373849e-004 -1.174387e+002 9.998741e-001 -8.110057e-001
29398545 1.000002e+000 -2.858174e-001 2.986103e-005 1.292603e+002 2.855177e-004 1.217112e+002 9.996837e-001 -8.641199e-001
29698530 1.000029e+000 -3.088592e-001 1.215515e-004 -2.421125e+001 4.011443e-004 -3.904379e+001 1.000538e+000 -9.043753e-001
29998515 9.999809e-001 -2.574758e-001 1.097039e-004 5.509492e+001 1.226506e-004 1.371904e+002 9.998122e-001 -8.550128e-001
30298500 9.999706e-001 -3.411134e-001 4.508271e-005 1.270687e+001 1.842925e-004 -3.127975e+001 9.996392e-001 -9.278570e-001
30598485 1.000601e+000 -2.986704e-001 9.941643e-005 5.381664e+001 2.018813e-004 4.378284e+001 9.990217e-001 -8.472940e-001
30898470 1.001105e+000 -2.889646e-001 5.140535e-005 1.727604e+002 3.111342e-004 -1.461346e+002 9.990331e-001 -8.999903e-001
31198455 1.000058e+000 -3.109351e-001 1.124222e-004 -2.042763e+000 2.220755e-004 1.289234e+002 9.983469e-001 -8.731828e-001
31498440 9.998479e-001 -3.391038e-001 1.763568e-004 4.380353e+001 1.082935e-004 -1.508329e+002 9.998703e-001 -9.159589e-001
31798425 1.000264e+000 -3.359656e-001 1.335800e-004 -1.509637e+002 1.648622e-004 -3.208563e+001 1.000223e+000 -9.252807e-001
32098410 1.001107e+000 -3.618791e-001 4.137128e-005 1.829086e+001 2.345275e-004 7.884205e+001 9.997845e-001 -8.881879e-001
32398395 1.000744e+000 -3.700342e-001 2.598889e-005 -1.258601e+002 2.293758e-004 -2.280300e+001 1.000356e+000 -8.565173e-001
32698380 1.001234e+000 -3.321996e-001 9.044342e-005 -1.192215e+002 1.511244e-004 1.089600e+002 9.989663e-001 -8.805362e-001
32998365 1.000364e+000 -3.191662e-001 7.822404e-005 1.671029e+002 2.222589e-004 -1.228081e+002 9.995676e-001 -8.943888e-001
33298350 9.999769e-001 -3.434719e-001 1.814394e-005 -1.033583e+002 2.068790e-004 6.648334e+001 9.990262e-001 -9.271340e-001
33598335 1.000469e+000 -3.421707e-001 4.802263e-005 9.795327e+001 2.213760e-004 -1.102934e+002 9.990942e-001 -9.703757e-001
33898320 9.995131e-001 -3.696414e-001 8.986326e-005 8.198992e+001 3.253238e-004 -3.411860e+000 9.988402e-001 -9.749246e-001
34198305 1.000125e+000 -3.754882e-001 8.214504e-005 1.981044e+001 2.727227e-004 1.724234e+002 9.985271e-001 -9.604787e-001
34498290 1.000014e+000 -3.887337e-001 3.406599e-005 9.800013e+001 1.066785e-004 -3.099637e+001 9.975300e-001 -9.575778e-001
34798275 9.994642e-001 -4.053142e-001 2.409661e-005 -1.508631e+002 7.998086e-006 -1.349926e+001 9.981828e-001 -9.772013e-001
35098260 1.000200e+000 -4.319108e-001 3.044860e-005 7.046353e+001 3.231559e-004 -1.677757e+002 9.973144e-001 -9.503188e-001
35398245 9.995667e-001 -3.924565e-001 8.576697e-005 -4.155862e+001 6.973018e-005 1.231380e+002 9.989967e-001 -9.505225e-001
35698230 1.000549e+000 -4.151439e-001 5.958269e-005 -3.196212e+001 1.431905e-004 -1.719068e+002 1.000540e+000 -9.840171e-001
35998215 1.000182e+000 -4.240046e-001 8.018899e-005 1.268293e+002 1.813005e-004 -4.660059e+001 9.997351e-001 -1.074466e+000
36298200 1.000086e+000 -4.022768e-001 1.028839e-004 4.528276e+001 4.168019e-005 1.702183e+002 9.997315e-001 -1.050877e+000
36598185 1.000687e+000 -4.155709e-001 5.101737e-005 1.668067e+002 3.088115e-004 -1.191163e+002 9.985485e-001 -1.033209e+000
36898170 1.000364e+000 -4.096957e-001 2.032036e-004 1.595256e+002 2.514698e-004 7.535371e+001 9.986043e-001 -1.019841e+000
37198155 1.000273e+000 -3.810224e-001 2.687276e-005 1.659481e+002 1.704810e-004 -1.334922e+002 9.990224e-001 -1.044183e+000
37498140 1.000164e+000 -3.892366e-001 5.646533e-005 6.661726e+001 1.424964e-004 -2.550847e+001 9.993522e-001 -1.001362e+000
37798125 1.000159e+000 -4.086461e-001 1.329672e-004 6.237805e+001 7.341289e-005 7.188796e+001 9.982266e-001 -1.007766e+000
38098110 1.000150e+000 -3.984917e-001 5.795092e-005 5.786320e+001 1.123552e-004 -1.946902e+001 9.985173e-001 -1.060119e+000
38398095 9.996932e-001 -4.063958e-001 9.153933e-005 2.443838e+001 1.135637e-004 1.527496e+002 9.986951e-001 -1.114152e+000
38698080 9.995980e-001 -4.141881e-001 4.704758e-005 -1.053103e+002 6.202564e-005 8.557320e+001 9.985921e-001 -1.123352e+000
38998065 1.000150e+000 -4.075853e-001 4.159862e-005 1.352016e+002 1.971819e-004 5.964405e+001 9.986280e-001 -1.098309e+000
39298050 1.000332e+000 -4.232301e-001 4.220509e-005 5.737389e+001 2.075290e-004 1.353944e+002 9.993924e-001 -1.039019e+000
39598035 1.000707e+000 -3.613140e-001 8.930712e-005 -1.160788e+002 1.584313e-004 -1.866916e+000 9.988316e-001 -1.019714e+000
39898020 1.001383e+000 -3.701106e-001 1.373852e-004 4.503650e-001 1.450520e-004 1.754188e+002 1.000343e+000 -1.015822e+000
40198005 9.997841e-001 -4.177348e-001 1.699758e-004 1.433157e+002 4.358690e-004 1.509411e+002 9.999431e-001 -1.176993e+000
40497990 9.996997e-001 -4.246232e-001 8.948497e-005 8.600333e+001 1.860928e-004 9.075536e+001 1.000295e+000 -1.143278e+000
40797975 1.001306e+000 -4.470330e-001 1.287487e-004 1.797970e+002 2.091038e-004 8.997375e+001 9.995925e-001 -1.135502e+000
41097960 1.000269e+000 -3.774811e-001 1.408157e-004 1.079067e+001 4.525779e-004 5.498541e+001 9.992136e-001 -1.098925e+000
41397945 1.000090e+000 -3.352013e-001 1.192861e-004 1.397482e+002 3.172282e-004 -1.510405e+001 9.998531e-001 -1.191235e+000
41697930 9.999906e-001 -4.010998e-001 9.826040e-005 -1.436061e+002 2.717645e-004 1.577729e+002 9.990553e-001 -1.046602e+000
41997915 1.000215e+000 -3.813251e-001 1.196920e-004 7.583093e+001 1.841928e-004 1.566764e+002 1.000134e+000 -1.055193e+000
42297900 9.998431e-001 -3.862768e-001 5.323339e-005 -1.182124e+002 3.253404e-004 1.771062e+001 9.999855e-001 -1.087622e+000
42597885 1.000576e+000 -3.473842e-001 9.152436e-005 1.498301e+002 1.120454e-004 -6.979303e+001 1.001107e+000 -1.124376e+000
42897870 1.000524e+000 -4.457529e-001 7.114342e-005 1.569999e+002 3.430885e-004 -3.219733e+001 9.985573e-001 -1.184514e+000
43197855 1.000789e+000 -4.058300e-001 9.793618e-005 -1.235134e+002 4.996173e-004 -7.711327e+001 9.999456e-001 -1.296741e+000
43497840 1.001197e+000 -4.397946e-001 1.075231e-004 -3.607744e+001 1.061718e-004 -1.518941e+002 9.997683e-001 -1.311611e+000
43797825 9.997461e-001 -4.195552e-001 8.808215e-005 -1.686480e+002 1.813522e-004 -1.427077e+002 9.990721e-001 -1.223119e+000
44097810 1.000431e+000 -4.221045e-001 1.194483e-004 1.454665e+002 3.835352e-004 -1.405079e+002 9.999365e-001 -1.235965e+000
44397795 1.001498e+000 -3.910493e-001 2.906235e-004 -3.990655e+001 2.214853e-004 1.113282e+002 9.997330e-001 -1.320226e+000
44697780 1.000518e+000 -4.551608e-001 3.416567e-005 1.422557e+002 9.988556e-005 2.163604e+000 1.001752e+000 -1.317025e+000
44997765 1.001029e+000 -3.969277e-001 7.325561e-005 -1.827052e+001 2.600115e-004 5.401408e+001 1.000400e+000 -1.272949e+000
45297750 1.000811e+000 -4.599025e-001 1.730379e-004 2.061050e+001 2.243464e-004 -6.152145e+001 1.001796e+000 -1.254702e+000
45597735 1.001893e+000 -4.399796e-001 1.302832e-004 -2.693343e+001 2.122065e-004 3.989901e+001 1.000638e+000 -1.271762e+000
45897720 1.001369e+000 -4.581878e-001 3.146146e-005 -3.453691e+001 1.255986e-004 1.486105e+001 1.000273e+000 -1.232474e+000
46197705 1.001676e+000 -4.409944e-001 9.442736e-005 3.587224e+001 3.174880e-004 -1.144744e+002 1.001137e+000 -1.242024e+000
46497690 1.000404e+000 -4.883503e-001 1.367422e-004 2.046903e+001 2.741522e-004 1.260798e+002 1.002655e+000 -1.387253e+000
46797675 1.000612e+000 -4.758747e-001 1.651402e-004 1.454947e+001 2.751884e-004 -1.025454e+002 1.001702e+000 -1.298628e+000
47097660 1.000991e+000 -5.111494e-001 1.138023e-004 1.268544e+002 2.318473e-004 -1.157245e+002 1.000829e+000 -1.440588e+000
47397645 1.001331e+000 -4.856170e-001 7.279626e-005 4.687870e+000 8.846838e-005 1.380859e+002 9.985744e-001 -1.382937e+000
