!Agilent Technologies,N5230C,SG49000117,A.08.50.07
!Agilent N5230C: A.08.50.07
!Date: Thursday, May 16, 2024 18:10:16
!Correction: S11(Full 2 Port(1,2)) 
!S21(Full 2 Port(1,2)) 
!S12(Full 2 Port(1,2)) 
!S22(Full 2 Port(1,2)) 
!S2P File: Measurements: S11, S21, S12, S22:
# Hz S  MA   R 50
300000 1.008037e+000 -6.337901e-001 1.830862e-004 1.400316e+001 4.615467e-004 -3.714746e+001 1.013390e+000 -7.138581e-001
599985 9.821066e-001 2.918891e-001 4.195549e-005 7.928741e+001 2.536340e-004 -1.076746e+002 9.655601e-001 3.091731e-001
899970 9.974494e-001 -8.075743e-002 3.426574e-005 1.264682e+002 2.224336e-004 -1.148104e+002 9.832065e-001 -3.737272e-001
1199955 9.979616e-001 -8.147413e-002 4.664496e-005 -1.709622e+002 9.124250e-005 -1.713112e+001 9.961493e-001 -1.874020e-001
1499940 9.940905e-001 1.234633e-001 8.169287e-005 7.053992e+001 1.878035e-005 -1.049155e+002 9.921247e-001 7.302421e-002
1799925 9.923761e-001 2.269239e-001 2.842884e-005 5.059922e+001 7.184544e-005 8.368970e+001 9.898965e-001 -3.719794e-002
2099910 9.989483e-001 -3.399409e-002 4.259059e-005 -1.639170e+002 3.321331e-004 -1.531817e+002 9.985896e-001 4.355684e-003
2399895 9.990838e-001 -1.157012e-001 3.637374e-005 -1.728412e+002 3.462800e-004 1.517708e+002 1.003406e+000 -7.383782e-002
2699880 9.998032e-001 -2.374296e-001 5.799317e-005 -1.496699e+002 5.433404e-005 5.073326e+001 9.949954e-001 -2.892708e-001
2999865 1.000035e+000 -1.265388e-001 2.113367e-005 -1.500101e+002 7.658819e-005 5.667091e+001 9.982438e-001 -2.380111e-001
3299850 1.000442e+000 -1.281768e-001 7.095696e-005 -1.655766e+002 8.612440e-005 7.501898e+000 9.984623e-001 -2.702036e-001
3599835 1.000534e+000 -1.162572e-001 7.383294e-005 5.969193e+001 2.833984e-005 8.150748e+001 9.971330e-001 -2.001212e-001
3899820 1.000084e+000 -1.597201e-001 7.878886e-005 -4.519918e+000 4.840922e-005 1.582438e+002 9.986736e-001 -2.466658e-001
4199805 1.000593e+000 -1.788199e-001 6.475856e-005 -3.023985e+001 2.074087e-004 1.779649e+001 9.996339e-001 -3.098019e-001
4499790 9.998936e-001 -1.362285e-001 3.386878e-005 -2.877506e+000 2.015589e-004 8.590171e+001 9.996027e-001 -3.273380e-001
4799775 1.000528e+000 -1.521543e-001 3.441828e-005 -2.251425e+001 1.626188e-004 -1.355181e+002 9.993657e-001 -2.699424e-001
5099760 1.000502e+000 -1.373087e-001 3.554814e-005 7.130803e+001 1.717475e-004 -1.257715e+002 1.000425e+000 -2.835545e-001
5399745 1.000411e+000 -1.474471e-001 7.739066e-005 -9.618154e+001 2.626527e-004 1.266792e+002 9.995593e-001 -2.377656e-001
5699730 1.000283e+000 -1.307478e-001 1.544648e-005 -1.358681e+002 1.661711e-004 -8.525489e+001 1.000150e+000 -2.593305e-001
5999715 9.994869e-001 -8.036203e-002 7.398669e-005 5.951368e+001 1.529213e-004 1.186676e+002 1.000896e+000 -2.284377e-001
6299700 1.000040e+000 -1.166866e-001 2.689726e-005 2.459265e+001 2.831619e-004 1.421074e+000 9.993981e-001 -2.494784e-001
6599685 9.998611e-001 -9.150041e-002 7.746401e-005 -1.529583e+002 2.240417e-004 1.778239e+002 9.998755e-001 -3.236735e-001
6899670 1.000023e+000 -1.461556e-001 5.319490e-005 1.168595e+002 3.505841e-005 1.325770e+002 9.997983e-001 -3.020417e-001
7199655 1.000250e+000 -1.429338e-001 1.077515e-004 -2.908673e+001 6.195056e-005 -1.758786e+002 9.993860e-001 -3.688035e-001
7499640 9.998686e-001 -1.793805e-001 1.121201e-004 -1.642224e+001 1.292837e-004 -8.686481e+001 9.992495e-001 -4.335617e-001
7799625 1.000379e+000 -1.531627e-001 4.413147e-005 1.285693e+002 1.885229e-004 -6.678062e+001 9.976930e-001 -3.436578e-001
8099610 1.000132e+000 -1.389498e-001 4.774793e-005 -1.245710e+002 2.178983e-005 8.299223e+001 9.981530e-001 -3.936619e-001
8399595 9.993799e-001 -1.537027e-001 9.152985e-005 2.191366e+000 4.762288e-005 -5.650429e+001 9.989687e-001 -3.734489e-001
8699580 9.999089e-001 -1.347282e-001 5.867370e-005 4.354667e+001 1.517792e-004 4.264613e+001 9.987109e-001 -3.735311e-001
8999565 9.998544e-001 -1.437374e-001 5.085053e-005 1.502467e+001 2.600167e-005 -1.345571e+002 9.986497e-001 -4.132201e-001
9299550 9.999559e-001 -1.538808e-001 6.369010e-005 -1.301101e+001 1.895494e-004 1.892508e+001 9.987894e-001 -3.526822e-001
9599535 9.999135e-001 -2.085109e-001 7.238246e-005 -5.581013e+001 5.915861e-005 3.362310e+001 9.973239e-001 -5.462238e-001
9899520 1.000384e+000 -2.409332e-001 3.918475e-005 -3.973803e+001 8.162837e-005 1.078597e+002 9.969136e-001 -6.693455e-001
10199505 9.993093e-001 -1.687259e-001 6.420026e-005 -9.841712e+000 1.577786e-004 -7.058086e+001 9.990655e-001 -3.990117e-001
10499490 9.994305e-001 -1.391043e-001 1.266444e-004 1.082542e+002 1.096365e-005 7.188012e+000 9.970546e-001 -4.057375e-001
10799475 9.991927e-001 -1.233938e-001 1.280760e-004 -1.041695e+002 1.045333e-004 1.792375e+001 9.979948e-001 -4.255810e-001
11099460 1.000272e+000 -1.286036e-001 3.624058e-005 -4.229129e+001 3.423461e-004 -1.929075e+001 9.981614e-001 -3.683341e-001
11399445 1.000143e+000 -1.354683e-001 1.237620e-004 -3.971739e+001 1.693314e-004 1.094210e+002 9.985869e-001 -4.140510e-001
11699430 1.000182e+000 -1.528394e-001 2.800130e-005 2.174186e+001 3.522188e-005 -1.424374e+002 9.985134e-001 -4.305025e-001
11999415 1.000011e+000 -1.124403e-001 5.828450e-005 -1.432668e+002 1.375551e-004 -1.638138e+002 1.000169e+000 -4.260677e-001
12299400 9.996934e-001 -1.824243e-001 7.442058e-005 1.472061e+002 1.098590e-004 -1.507007e+002 9.995485e-001 -3.786364e-001
12599385 1.000461e+000 -1.635932e-001 6.085781e-005 6.975931e+001 1.289324e-004 8.948705e+001 9.997157e-001 -5.654587e-001
12899370 1.000710e+000 -2.035113e-001 3.780127e-005 5.310150e+001 2.403035e-004 7.607816e+001 9.989594e-001 -6.095565e-001
13199355 1.000469e+000 -2.072298e-001 5.142008e-005 3.021842e+001 1.563939e-004 1.075561e+002 9.979597e-001 -5.058111e-001
13499340 1.000331e+000 -1.935330e-001 9.390615e-005 -7.907641e+001 4.084503e-005 -1.265277e+002 9.976602e-001 -4.750219e-001
13799325 1.000322e+000 -1.897584e-001 7.544761e-005 -1.069332e+002 2.096231e-004 1.437821e+002 9.970883e-001 -4.849526e-001
14099310 1.000462e+000 -2.066593e-001 4.726851e-005 4.855952e+001 1.307204e-004 -3.052271e+001 9.986894e-001 -4.973052e-001
14399295 1.000604e+000 -2.498816e-001 3.342023e-005 1.638936e+002 1.990501e-004 1.021111e+002 9.992554e-001 -6.062314e-001
14699280 1.000110e+000 -2.184175e-001 7.258618e-005 5.218724e+001 2.730954e-004 -9.613834e+001 1.001250e+000 -4.892394e-001
14999265 9.998217e-001 -2.012262e-001 6.661528e-005 1.205628e+002 2.646488e-004 1.418947e+002 9.991069e-001 -5.101841e-001
15299250 9.993396e-001 -2.032853e-001 3.565401e-005 1.146968e+002 1.252358e-004 1.759199e+002 9.989802e-001 -5.060563e-001
15599235 9.995028e-001 -2.018178e-001 8.208624e-005 9.356815e+001 1.516463e-004 7.458610e+001 9.998394e-001 -5.066652e-001
15899220 1.001079e+000 -1.916586e-001 3.818487e-005 -1.608678e+002 3.160932e-004 -1.491410e+002 9.992012e-001 -5.608326e-001
16199205 1.000347e+000 -2.176321e-001 5.352358e-005 3.770868e+001 7.170418e-005 5.495897e+001 9.998496e-001 -5.680490e-001
16499190 1.000591e+000 -1.627384e-001 5.663541e-005 6.654881e+001 1.787322e-004 -1.527347e+002 9.999185e-001 -5.719548e-001
16799175 1.000668e+000 -1.815998e-001 4.314497e-005 -2.158788e+001 4.967338e-005 -3.941117e+001 1.001390e+000 -5.358539e-001
17099160 1.000181e+000 -2.264918e-001 1.456505e-004 -9.241932e+001 1.705553e-004 1.675483e+002 9.994826e-001 -5.763502e-001
17399145 1.000084e+000 -2.544196e-001 4.975653e-005 -1.216349e+002 2.427094e-004 1.883642e+000 1.000147e+000 -5.912776e-001
17699130 9.998668e-001 -2.141816e-001 6.058723e-005 -2.004278e+001 1.641032e-004 8.206921e+001 1.001520e+000 -5.984502e-001
17999115 9.998617e-001 -2.050141e-001 5.512562e-005 7.612918e+001 1.732786e-004 -5.739363e+001 9.981213e-001 -5.913473e-001
18299100 1.000154e+000 -2.279232e-001 4.310948e-005 1.679544e+002 2.988444e-004 -1.030128e+001 9.986954e-001 -6.842795e-001
18599085 9.998039e-001 -1.907982e-001 2.053525e-005 -1.722762e+002 3.294284e-004 1.500432e+002 9.989785e-001 -6.438826e-001
18899070 1.000833e+000 -2.253511e-001 2.579729e-005 1.272131e+002 1.983924e-004 -2.312829e+001 9.994966e-001 -5.961763e-001
19199055 1.000647e+000 -1.945549e-001 9.807542e-005 -4.332309e+001 1.688929e-004 1.446783e+001 9.981784e-001 -6.080621e-001
19499040 1.000867e+000 -2.394937e-001 6.398724e-005 8.503593e+001 2.660791e-004 -6.820527e+001 9.978242e-001 -6.438070e-001
19799025 1.000658e+000 -2.254156e-001 5.149580e-005 -7.346176e+001 1.489449e-004 4.056239e+001 9.986234e-001 -5.484092e-001
20099010 1.000750e+000 -2.106838e-001 6.560828e-005 -6.214933e+001 2.622342e-004 1.747590e+002 9.987170e-001 -6.198310e-001
20398995 1.000166e+000 -2.103650e-001 1.461962e-004 -4.420780e+001 1.902653e-004 1.464790e+001 9.993150e-001 -6.619161e-001
20698980 9.994181e-001 -2.342737e-001 6.152073e-005 1.700773e+002 3.410273e-004 1.073331e+002 9.992492e-001 -6.996147e-001
20998965 9.994615e-001 -1.992622e-001 4.643618e-005 1.180093e+001 1.937135e-004 -4.520890e+000 9.983515e-001 -6.691734e-001
21298950 9.999471e-001 -2.116157e-001 7.662103e-005 -3.150138e-002 1.745493e-004 1.854918e+001 9.990584e-001 -6.865721e-001
21598935 9.994378e-001 -2.559125e-001 2.749507e-005 -1.341010e+002 1.479573e-004 -6.679697e+001 9.974619e-001 -7.128589e-001
21898920 9.998829e-001 -2.430817e-001 1.116279e-004 -1.426781e+002 2.953605e-004 7.990690e+000 9.986526e-001 -6.851781e-001
22198905 9.999802e-001 -2.592132e-001 7.054966e-005 7.672353e+001 2.089426e-004 1.050709e+002 9.979547e-001 -7.073951e-001
22498890 9.999893e-001 -2.371639e-001 8.922164e-005 -1.579098e+002 2.166346e-004 -3.444888e+001 9.993863e-001 -6.820906e-001
22798875 1.000491e+000 -2.399046e-001 1.354983e-004 6.317480e+001 1.349406e-005 4.251662e+001 9.989334e-001 -7.309471e-001
23098860 1.000833e+000 -2.369864e-001 9.189234e-005 1.048246e+002 1.471617e-004 -9.022133e+001 9.991315e-001 -7.399285e-001
23398845 1.000767e+000 -2.778122e-001 8.412971e-005 1.605607e+002 6.271407e-005 1.037734e+002 9.990182e-001 -7.579213e-001
23698830 1.000248e+000 -2.973074e-001 4.568784e-005 -1.650127e+002 2.885739e-004 -8.393475e+001 9.983050e-001 -7.015138e-001
23998815 1.000064e+000 -2.749743e-001 9.429341e-005 1.592140e+002 2.700753e-004 4.592755e+001 9.974540e-001 -7.379813e-001
24298800 9.996021e-001 -2.884793e-001 5.410802e-005 6.024432e+001 1.336156e-004 -1.685291e+002 9.965038e-001 -7.886921e-001
24598785 1.000858e+000 -3.151120e-001 7.773124e-005 1.423295e+002 1.420522e-004 -7.085180e+000 9.978030e-001 -7.687132e-001
24898770 1.000064e+000 -3.017460e-001 8.039925e-005 7.646215e+001 1.200371e-004 -1.602573e+002 9.996090e-001 -8.263269e-001
25198755 1.000558e+000 -3.099864e-001 4.120028e-005 1.650211e+002 2.956388e-004 6.641448e+001 9.986002e-001 -8.667096e-001
25498740 1.000136e+000 -2.727864e-001 7.121772e-005 -1.190429e+002 1.760283e-004 -1.758200e+002 9.977420e-001 -8.382952e-001
25798725 9.997614e-001 -2.818893e-001 5.463748e-005 1.255383e+002 1.023717e-004 1.046162e+001 9.977708e-001 -9.218755e-001
26098710 1.000846e+000 -3.017259e-001 1.180097e-004 -1.100480e+002 1.278427e-004 1.279112e+002 9.997851e-001 -8.797360e-001
26398695 1.001224e+000 -2.696062e-001 9.656236e-005 1.580394e+002 1.192440e-004 -7.125716e+001 1.001377e+000 -8.483966e-001
26698680 1.000855e+000 -3.210812e-001 3.227351e-005 1.333949e+002 1.569620e-004 -2.868379e+000 1.000627e+000 -8.643486e-001
26998665 1.000908e+000 -3.131680e-001 7.608478e-005 6.548457e+001 2.129604e-004 -6.709631e+001 9.995283e-001 -8.918023e-001
27298650 1.000349e+000 -2.788168e-001 1.219788e-004 -1.730766e+002 8.144911e-005 4.092712e+001 9.982280e-001 -8.756509e-001
27598635 9.998287e-001 -2.949298e-001 1.122594e-004 -3.435269e+001 2.196468e-004 1.715548e+002 9.994458e-001 -8.697609e-001
27898620 9.994450e-001 -3.022204e-001 6.016779e-005 -3.990350e+000 2.633210e-004 8.623489e+001 1.000848e+000 -9.353579e-001
28198605 9.999753e-001 -2.953399e-001 1.119800e-004 -3.880724e+001 3.316685e-004 -1.384906e+002 9.999694e-001 -9.086583e-001
28498590 9.996927e-001 -3.002234e-001 6.243857e-005 -1.052285e+001 2.594923e-004 2.499835e+001 9.991996e-001 -9.606055e-001
28798575 1.000476e+000 -3.370700e-001 5.519893e-005 1.256826e+001 1.727146e-004 1.587699e+002 9.978520e-001 -1.027761e+000
29098560 9.997400e-001 -3.259943e-001 1.187667e-004 1.616075e+002 2.528576e-004 -6.709520e+001 9.991671e-001 -9.489319e-001
29398545 1.000406e+000 -2.952311e-001 1.383505e-004 -1.744124e+002 2.880398e-004 2.710508e+001 9.981135e-001 -9.002734e-001
29698530 9.998120e-001 -3.370625e-001 2.458475e-005 -4.763171e+001 4.736164e-005 2.431425e+001 1.000647e+000 -9.409971e-001
29998515 1.000118e+000 -2.974916e-001 8.705772e-006 1.232867e+001 4.725891e-004 -9.605611e-001 1.000358e+000 -9.405783e-001
30298500 9.999026e-001 -3.301774e-001 6.673183e-005 -1.003815e+002 1.952492e-004 -1.268290e+002 1.000170e+000 -1.039597e+000
30598485 1.000327e+000 -2.997637e-001 7.019180e-005 1.116631e+002 2.937131e-004 -7.220959e+001 9.993494e-001 -1.023931e+000
30898470 1.000235e+000 -2.690879e-001 8.433818e-005 7.832923e+000 2.183732e-004 7.541084e+001 9.989225e-001 -9.875036e-001
31198455 1.000267e+000 -3.216150e-001 1.379461e-004 -5.660913e+001 1.555501e-004 -1.278604e+002 9.985980e-001 -1.005168e+000
31498440 1.000267e+000 -3.368194e-001 3.496890e-005 -1.507308e+002 1.158300e-004 1.885782e+001 9.999272e-001 -9.339304e-001
31798425 1.000278e+000 -3.977328e-001 7.737874e-005 -6.741868e+001 1.427350e-004 -1.529702e+002 9.997333e-001 -9.560836e-001
32098410 1.000942e+000 -3.665774e-001 6.264237e-005 1.697088e+002 1.737796e-004 5.014945e+001 1.000068e+000 -9.355285e-001
32398395 1.001665e+000 -3.803918e-001 5.896304e-005 -1.906268e+001 1.380564e-004 6.163113e+001 9.999123e-001 -9.704450e-001
32698380 1.001061e+000 -3.347208e-001 1.002818e-005 -3.458581e+001 1.311148e-004 -5.179495e+001 1.000049e+000 -1.003181e+000
32998365 1.000708e+000 -3.776983e-001 6.832018e-005 1.737035e+001 1.818582e-004 5.781427e+001 9.989535e-001 -1.017804e+000
33298350 1.000685e+000 -3.343798e-001 8.947646e-005 -6.871519e+001 1.325723e-004 -8.400382e+001 9.985508e-001 -1.049051e+000
33598335 9.999443e-001 -3.467014e-001 1.203166e-004 1.724007e+002 1.260152e-004 8.790365e+001 9.995995e-001 -1.063140e+000
33898320 9.999928e-001 -3.855356e-001 7.377507e-005 2.686992e+001 1.923991e-004 -1.358365e+002 9.990024e-001 -9.761958e-001
34198305 1.000035e+000 -3.453175e-001 4.004293e-005 -6.298885e+001 9.036409e-005 7.097234e+001 9.970692e-001 -9.988994e-001
34498290 9.999412e-001 -3.786065e-001 4.079730e-005 -1.599716e+002 7.528010e-005 1.369505e+001 9.983481e-001 -1.072749e+000
34798275 9.998264e-001 -3.889496e-001 3.935554e-005 1.375387e+002 2.039552e-004 9.677098e+000 9.988639e-001 -1.056632e+000
35098260 1.000250e+000 -3.980208e-001 8.166453e-005 -1.093675e+002 2.666145e-004 1.462095e+002 9.993613e-001 -9.960759e-001
35398245 1.000326e+000 -4.021084e-001 7.148937e-005 -2.317476e+001 1.246870e-004 -1.271388e+002 9.990659e-001 -1.046333e+000
35698230 1.000439e+000 -4.124914e-001 8.012794e-005 -1.262888e+002 1.854526e-004 1.320201e+002 9.997021e-001 -1.116709e+000
35998215 1.000285e+000 -4.072884e-001 9.253988e-005 -6.387877e+001 1.662521e-004 -1.070005e+002 9.998533e-001 -1.140698e+000
36298200 1.000330e+000 -4.242885e-001 6.218890e-005 4.528063e+001 1.781761e-004 1.319688e+002 9.987491e-001 -1.180836e+000
36598185 1.000275e+000 -4.128879e-001 6.237700e-005 -6.759913e+001 1.002708e-004 8.403111e+001 9.990938e-001 -1.105035e+000
36898170 1.000637e+000 -3.893308e-001 1.335160e-004 -7.293894e+001 1.552222e-004 5.566902e+001 9.988386e-001 -1.103887e+000
37198155 1.000614e+000 -3.887312e-001 1.002944e-004 1.010299e+002 1.909035e-004 -8.526137e+001 9.991907e-001 -1.205684e+000
37498140 1.000253e+000 -3.830762e-001 4.259942e-005 -8.107529e+001 2.326804e-004 7.457054e+001 9.988599e-001 -1.170033e+000
37798125 1.000131e+000 -3.564150e-001 4.578080e-005 7.571418e+001 1.105140e-004 -1.505295e+002 9.991823e-001 -1.157948e+000
38098110 1.000185e+000 -3.675962e-001 4.604850e-005 -2.840236e+001 1.524946e-004 1.111289e+001 9.985780e-001 -1.175111e+000
38398095 1.000269e+000 -3.907965e-001 4.396484e-005 1.332220e+001 6.871516e-005 1.186222e+002 9.993458e-001 -1.218175e+000
38698080 1.000321e+000 -4.024791e-001 1.967446e-005 1.728721e+002 1.976720e-004 5.448560e+001 9.971959e-001 -1.267043e+000
38998065 1.000520e+000 -4.073287e-001 1.026804e-005 -5.979378e+001 7.595521e-005 -1.532709e+002 9.972693e-001 -1.211009e+000
39298050 9.996935e-001 -4.384064e-001 2.778682e-005 4.651745e+001 8.760605e-005 7.451911e+001 9.991861e-001 -1.184782e+000
39598035 1.000838e+000 -4.025472e-001 7.480232e-005 -1.078907e+002 1.781146e-005 9.336258e+001 9.987449e-001 -1.189439e+000
39898020 1.001548e+000 -3.368240e-001 1.197024e-004 -9.027857e+001 2.251638e-004 -3.860041e+001 9.999309e-001 -1.165482e+000
40198005 1.001118e+000 -4.142269e-001 5.023979e-005 1.095057e+001 1.813533e-004 -9.758402e+001 1.000221e+000 -1.245661e+000
40497990 1.000908e+000 -4.164604e-001 3.352911e-004 1.778118e+002 2.845101e-004 1.285343e+002 9.992186e-001 -1.266876e+000
40797975 1.000458e+000 -4.382380e-001 2.903017e-005 -7.053574e+001 3.741879e-004 5.799847e+001 9.986660e-001 -1.310344e+000
41097960 1.001429e+000 -3.729588e-001 1.238808e-004 5.154291e+001 1.575507e-004 -1.617622e+002 9.989938e-001 -1.301376e+000
41397945 9.994251e-001 -3.233296e-001 1.280754e-004 1.638671e+002 5.027033e-004 8.097449e+001 9.991859e-001 -1.247530e+000
41697930 1.000743e+000 -3.630696e-001 2.926322e-004 -1.119313e+002 1.974214e-004 1.002660e+002 9.991826e-001 -1.174440e+000
41997915 1.000372e+000 -4.081221e-001 1.545737e-004 8.431425e+000 1.913382e-004 8.560962e+001 9.984848e-001 -1.255865e+000
42297900 1.000162e+000 -3.319500e-001 1.703262e-004 -1.265333e+002 9.358660e-005 7.740215e+001 1.000280e+000 -1.240704e+000
42597885 1.000569e+000 -4.286620e-001 1.521166e-004 -2.401370e+001 1.203548e-004 -2.797116e+001 9.997967e-001 -1.327588e+000
42897870 1.001083e+000 -4.471402e-001 1.360851e-004 -5.331391e+001 2.273762e-004 -1.272203e+002 1.000179e+000 -1.310502e+000
43197855 1.002131e+000 -4.731623e-001 5.325070e-005 -1.106095e+002 4.428097e-004 1.681844e+002 9.997945e-001 -1.356618e+000
43497840 1.000705e+000 -4.560156e-001 1.133196e-004 -7.248447e+000 7.460211e-005 -3.601120e+001 9.986981e-001 -1.315106e+000
43797825 1.000880e+000 -4.216507e-001 9.828887e-006 -1.075737e+002 1.646437e-004 -9.555565e+001 9.983830e-001 -1.362506e+000
44097810 1.000026e+000 -4.112807e-001 1.414682e-004 -1.318731e+002 2.628666e-004 -1.552358e+002 9.978197e-001 -1.335159e+000
44397795 1.000150e+000 -3.785084e-001 1.070505e-004 -2.865282e+001 1.746994e-004 1.004138e+002 9.994934e-001 -1.390551e+000
44697780 1.002198e+000 -4.036298e-001 7.697377e-005 -1.612977e+002 4.808915e-005 1.680808e+002 1.000099e+000 -1.443908e+000
44997765 1.001566e+000 -4.348206e-001 7.914793e-005 -2.537594e+001 3.846266e-004 -1.323936e+002 1.001663e+000 -1.468109e+000
45297750 1.002363e+000 -4.404618e-001 1.384956e-004 -1.091595e+002 1.082298e-004 1.619832e+002 1.001640e+000 -1.411268e+000
45597735 1.000817e+000 -4.780618e-001 1.026162e-004 -1.524703e+002 1.435650e-004 -1.232563e+002 1.001357e+000 -1.379335e+000
45897720 1.001027e+000 -4.366857e-001 1.694022e-004 1.256650e+002 1.756539e-004 8.599925e+001 9.995435e-001 -1.408845e+000
46197705 1.001625e+000 -4.779273e-001 7.570767e-005 -1.616709e+002 4.186616e-004 1.772096e+002 1.000941e+000 -1.386207e+000
46497690 1.001452e+000 -4.398157e-001 8.514027e-005 -4.761016e+001 3.164177e-004 1.330046e+002 1.000341e+000 -1.431006e+000
46797675 1.001935e+000 -4.658727e-001 6.105223e-005 1.668089e+002 4.826973e-005 7.017420e+000 9.989351e-001 -1.411451e+000
47097660 1.000919e+000 -4.890623e-001 5.144201e-005 -9.923585e+000 2.270806e-004 1.266399e+002 9.987952e-001 -1.464863e+000
