!Agilent Technologies,N5230C,SG49000117,A.08.50.07
!Agilent N5230C: A.08.50.07
!Date: Thursday, May 16, 2024 18:12:13
!Correction: S11(Full 2 Port(1,2)) 
!S21(Full 2 Port(1,2)) 
!S12(Full 2 Port(1,2)) 
!S22(Full 2 Port(1,2)) 
!S2P File: Measurements: S11, S21, S12, S22:
# Hz S  MA   R 50
300000 1.005175e+000 -6.119136e-001 2.084771e-004 -8.228973e+001 2.480980e-004 -1.353948e+002 1.013875e+000 -5.982794e-001
599985 9.829761e-001 3.010377e-001 6.115326e-005 1.743511e+002 2.111589e-004 -8.169070e+001 9.649695e-001 3.057018e-001
899970 9.971166e-001 -8.410691e-002 3.832167e-005 1.164455e+002 3.973973e-005 -3.769791e+000 9.861532e-001 -2.846601e-001
1199955 9.977892e-001 -6.460536e-002 5.314840e-005 4.484381e+001 8.520133e-005 -7.753647e+001 9.954663e-001 -2.615832e-001
1499940 9.942715e-001 1.471471e-001 4.812127e-005 1.622629e+002 4.889876e-005 -8.126078e+001 9.917691e-001 5.416774e-002
1799925 9.922076e-001 2.051543e-001 7.634846e-005 -4.273436e+001 9.420855e-005 -4.336014e+001 9.899312e-001 1.246685e-002
2099910 9.985266e-001 -1.772733e-003 4.721897e-005 -5.231207e+001 1.782484e-004 -1.334585e+002 9.981081e-001 4.408725e-002
2399895 9.993675e-001 -1.291326e-001 1.164678e-004 1.521328e+002 1.727557e-004 1.209115e+002 1.002740e+000 -9.926487e-002
2699880 9.994063e-001 -2.239694e-001 3.794824e-005 9.618202e+001 1.346844e-004 -8.401530e+001 9.944231e-001 -2.303932e-001
2999865 9.999620e-001 -1.366332e-001 5.240641e-005 2.596978e+001 9.487365e-005 3.640180e+001 9.969868e-001 -2.370746e-001
3299850 1.000273e+000 -1.297511e-001 5.275512e-005 1.148437e+002 4.728082e-005 3.474451e+001 9.967664e-001 -3.099377e-001
3599835 1.000043e+000 -1.078515e-001 7.519871e-005 1.521326e+002 2.553488e-004 8.238862e+001 9.971917e-001 -3.050501e-001
3899820 9.997318e-001 -1.173953e-001 8.467251e-005 -1.148634e+002 6.887081e-005 7.441694e+001 9.974967e-001 -2.646562e-001
4199805 1.000208e+000 -1.805929e-001 1.105771e-004 -8.908938e+001 4.748289e-005 -5.629833e+001 9.987908e-001 -3.092299e-001
4499790 1.000224e+000 -1.458213e-001 1.327138e-004 1.044297e+002 2.295422e-004 -1.130098e+002 9.983928e-001 -3.085313e-001
4799775 1.000534e+000 -1.379929e-001 8.251275e-005 1.556694e+002 1.071574e-004 -6.836045e+001 9.984455e-001 -2.865007e-001
5099760 1.000379e+000 -1.262183e-001 1.056198e-004 -1.560565e+002 1.521248e-004 -8.601841e+001 9.993771e-001 -3.125639e-001
5399745 1.000906e+000 -1.358615e-001 1.623270e-005 7.815804e+001 1.217249e-004 1.290416e+002 9.996672e-001 -2.507304e-001
5699730 1.000305e+000 -1.314298e-001 4.798355e-005 -5.829298e+001 9.193458e-005 -8.369517e+001 1.000673e+000 -2.662177e-001
5999715 9.997672e-001 -9.314944e-002 8.245080e-005 -1.488325e+002 3.106190e-005 -4.363815e+001 1.000021e+000 -2.763591e-001
6299700 1.000450e+000 -9.609659e-002 7.320770e-005 9.204401e+001 2.269477e-004 3.791329e+001 9.996289e-001 -3.299743e-001
6599685 9.998341e-001 -1.228455e-001 1.125979e-004 -9.771783e+001 1.226196e-004 1.281920e+002 9.987758e-001 -3.271995e-001
6899670 1.000023e+000 -1.364432e-001 1.327702e-004 9.834780e+001 1.720854e-004 -1.691907e+002 9.993278e-001 -4.162243e-001
7199655 1.000073e+000 -1.683723e-001 1.400081e-004 -6.113473e+001 8.517459e-005 1.677270e+002 9.992142e-001 -3.725817e-001
7499640 9.998852e-001 -1.834437e-001 1.201135e-004 -9.186658e+001 1.456420e-005 1.361084e+002 9.995319e-001 -4.165401e-001
7799625 9.998191e-001 -1.763832e-001 4.000071e-005 1.165232e+002 8.545446e-005 1.114642e+002 9.978218e-001 -3.356760e-001
8099610 1.000482e+000 -1.596302e-001 3.115380e-005 8.759562e+001 7.099126e-005 -1.620184e+002 9.992040e-001 -4.096409e-001
8399595 1.000175e+000 -1.478134e-001 3.246190e-005 9.699619e+000 2.013007e-004 -7.459136e+001 9.985129e-001 -4.331966e-001
8699580 1.000270e+000 -1.307015e-001 7.523480e-005 1.242047e+002 1.648138e-004 -1.398454e+002 9.994854e-001 -5.070438e-001
8999565 1.000337e+000 -1.266023e-001 4.710807e-005 9.989988e+001 5.318999e-005 -5.807069e+001 9.987066e-001 -4.157768e-001
9299550 1.000132e+000 -1.584030e-001 7.538933e-005 -1.470276e+002 1.738258e-004 -1.019166e+002 9.988191e-001 -4.606237e-001
9599535 1.000154e+000 -2.069716e-001 6.791432e-005 -1.366471e+002 8.222175e-005 -4.770276e+001 9.972267e-001 -5.769968e-001
9899520 1.000186e+000 -2.287745e-001 3.472556e-005 -6.091406e+000 3.006970e-004 1.448291e+002 9.957574e-001 -6.343918e-001
10199505 1.000064e+000 -1.386855e-001 6.778962e-005 -1.731146e+002 9.456372e-005 1.740776e+002 9.977852e-001 -4.591489e-001
10499490 1.000290e+000 -1.186799e-001 4.083324e-005 -1.170310e+002 2.778083e-004 -1.501247e+002 9.983574e-001 -4.084231e-001
10799475 9.997922e-001 -1.220279e-001 4.821365e-005 -4.487532e+001 1.582832e-004 4.659988e+001 9.984822e-001 -4.250252e-001
11099460 9.993016e-001 -9.519640e-002 6.208667e-005 -1.586052e+002 6.015801e-005 3.856196e+001 9.998807e-001 -4.542458e-001
11399445 1.000009e+000 -1.819261e-001 1.943765e-005 -2.971018e+001 1.389157e-004 -9.446541e+001 9.966344e-001 -4.804895e-001
11699430 9.998915e-001 -1.362554e-001 4.502356e-005 9.558737e+001 1.803066e-004 -6.401507e+001 9.992753e-001 -3.958198e-001
11999415 9.998421e-001 -1.579274e-001 9.697468e-005 -5.319342e+001 7.449652e-005 1.271681e+002 9.979275e-001 -5.127237e-001
12299400 9.998425e-001 -1.449147e-001 1.045322e-004 -4.491872e+001 1.098977e-004 -2.414054e+001 9.995171e-001 -4.329264e-001
12599385 9.997570e-001 -1.692765e-001 7.336227e-005 -3.835161e+001 2.939667e-004 -4.962970e+001 9.990913e-001 -5.706764e-001
12899370 1.000092e+000 -1.871401e-001 6.933763e-005 -5.174394e+000 1.865395e-004 -1.317768e+002 9.993616e-001 -6.715776e-001
13199355 1.000530e+000 -2.161361e-001 8.521484e-005 9.456414e+001 1.234115e-004 1.147062e+002 9.976383e-001 -5.145978e-001
13499340 1.000439e+000 -1.750886e-001 5.671167e-005 -4.616544e+001 2.436091e-004 -2.638715e+001 9.983251e-001 -6.063275e-001
13799325 1.000431e+000 -1.923538e-001 5.933083e-005 1.073897e+002 3.104177e-004 5.919763e+001 9.980332e-001 -5.106699e-001
14099310 1.000151e+000 -1.837432e-001 7.023036e-005 -1.610730e+002 2.686617e-004 -7.932145e+001 9.991410e-001 -4.760904e-001
14399295 1.000046e+000 -2.203654e-001 3.164149e-005 1.012550e+002 5.777923e-005 7.095861e+001 9.996197e-001 -4.653727e-001
14699280 1.000375e+000 -1.787423e-001 6.911449e-005 -1.616600e+001 1.666505e-004 1.396063e+002 9.984044e-001 -5.779690e-001
14999265 1.000244e+000 -2.099137e-001 9.270362e-005 -1.039704e+001 3.143032e-004 1.010535e+001 9.990761e-001 -5.928069e-001
15299250 9.998423e-001 -2.096914e-001 4.493758e-005 1.200118e+002 2.315787e-004 -1.740744e+002 9.989578e-001 -6.231008e-001
15599235 1.000384e+000 -1.941461e-001 1.006041e-005 1.387647e+001 2.462744e-004 -7.645677e+001 9.989045e-001 -6.206025e-001
15899220 1.000154e+000 -1.986772e-001 1.295735e-004 8.465909e+000 2.131531e-004 4.264755e+001 9.988030e-001 -6.057345e-001
16199205 9.998729e-001 -1.571507e-001 4.853705e-005 1.384409e+002 1.073979e-004 1.908531e+001 9.993728e-001 -6.018752e-001
16499190 1.000421e+000 -2.070070e-001 2.071844e-005 9.036369e+001 2.165011e-004 2.597218e+001 9.996607e-001 -6.225050e-001
16799175 9.999797e-001 -1.822430e-001 1.258111e-004 1.150960e+002 2.560942e-004 1.714995e+002 9.987935e-001 -6.162570e-001
17099160 1.000225e+000 -2.080344e-001 9.546780e-005 -1.548929e+002 2.220025e-004 -4.139253e+001 1.000589e+000 -7.100720e-001
17399145 9.999694e-001 -2.208661e-001 7.758629e-005 5.187628e+001 1.705921e-004 7.166971e+001 9.991899e-001 -6.326786e-001
17699130 1.000020e+000 -2.387889e-001 6.206267e-005 1.096497e+002 2.538856e-004 -1.069342e+002 9.993271e-001 -6.788682e-001
17999115 1.000010e+000 -1.886338e-001 6.010694e-005 8.207458e+001 1.969977e-004 5.825844e+001 9.984543e-001 -6.524896e-001
18299100 1.000267e+000 -1.979769e-001 9.083386e-005 1.371640e+002 2.238358e-004 1.617431e+002 9.996710e-001 -7.138460e-001
18599085 1.000696e+000 -2.082960e-001 1.245342e-004 -4.759773e+001 3.154692e-004 1.924435e+001 9.984962e-001 -7.383116e-001
18899070 1.000305e+000 -2.366930e-001 9.359325e-005 3.362310e+001 1.884684e-004 1.377016e+002 9.992892e-001 -7.031150e-001
19199055 1.000219e+000 -2.135410e-001 1.131610e-004 1.192471e+002 2.551243e-004 -5.138569e+001 9.999554e-001 -6.958753e-001
19499040 1.000725e+000 -2.237702e-001 2.908479e-005 -2.489559e+001 2.539440e-004 1.084007e+002 9.985787e-001 -6.770972e-001
19799025 1.001216e+000 -2.028875e-001 1.267649e-004 -1.224022e+001 3.196019e-004 -9.559151e+001 9.987966e-001 -5.842394e-001
20099010 1.000571e+000 -2.553352e-001 3.884172e-005 1.036833e+002 9.264262e-005 1.474093e+002 9.973590e-001 -7.368636e-001
20398995 1.000152e+000 -1.948794e-001 9.175444e-005 2.989189e+001 1.237753e-004 -1.439328e+002 9.973989e-001 -7.490940e-001
20698980 9.990199e-001 -1.919823e-001 6.439133e-005 1.114056e+002 1.550160e-004 -3.978368e+001 9.991196e-001 -7.286345e-001
20998965 9.995233e-001 -2.234760e-001 4.279918e-005 -1.039648e+002 1.873358e-004 1.487412e+002 9.978334e-001 -7.401965e-001
21298950 9.994795e-001 -2.262913e-001 6.362532e-005 1.794753e+002 1.090972e-004 -7.693611e+001 9.977683e-001 -6.196984e-001
21598935 9.998248e-001 -2.194067e-001 4.241465e-005 -6.448818e+001 3.213886e-004 1.020668e+002 9.989244e-001 -6.854984e-001
21898920 9.999142e-001 -2.775263e-001 3.230277e-005 -1.254712e+002 2.438811e-004 -5.456544e+001 9.974228e-001 -8.158082e-001
22198905 9.999529e-001 -2.235609e-001 8.664483e-005 -8.409153e+001 2.285384e-004 1.254051e+002 9.988099e-001 -8.237026e-001
22498890 1.000299e+000 -2.371591e-001 2.214702e-005 -1.655428e+001 1.726781e-004 -7.840865e+001 1.000415e+000 -7.891404e-001
22798875 1.000943e+000 -1.853679e-001 1.015247e-004 1.457526e+002 1.458881e-004 2.734606e+001 9.990458e-001 -8.443866e-001
23098860 1.000812e+000 -2.615105e-001 4.159340e-005 9.403235e+001 1.224540e-004 1.576835e+002 9.993489e-001 -8.139092e-001
23398845 1.000746e+000 -3.050037e-001 3.522985e-005 -1.074346e+002 7.981969e-005 -9.523278e+001 9.997295e-001 -7.886472e-001
23698830 1.000740e+000 -2.685834e-001 6.937361e-005 9.538409e+001 3.869898e-004 2.427470e+001 9.979414e-001 -8.374627e-001
23998815 1.000094e+000 -2.812258e-001 8.199023e-005 1.716308e+002 1.491417e-004 -1.361086e+002 9.974725e-001 -8.417910e-001
24298800 9.997052e-001 -2.870409e-001 9.057547e-005 -5.648166e+001 2.343295e-004 3.973322e+000 9.971610e-001 -8.190558e-001
24598785 1.000358e+000 -2.902267e-001 1.026743e-004 1.304804e+002 2.362584e-004 -8.424983e+001 9.977212e-001 -8.387412e-001
24898770 9.998807e-001 -3.213943e-001 1.047571e-004 6.424101e+001 1.572347e-004 -1.060373e+001 9.983894e-001 -8.955463e-001
25198755 1.000031e+000 -3.241420e-001 5.343465e-005 1.123887e+002 2.135346e-004 1.686638e+001 9.993529e-001 -9.697445e-001
25498740 9.998838e-001 -2.868880e-001 1.261116e-004 -4.617853e+001 2.470253e-004 -1.036013e+002 9.983864e-001 -9.328097e-001
25798725 9.996938e-001 -3.286138e-001 5.486452e-005 1.293988e+001 1.546642e-004 7.042240e+001 9.985092e-001 -9.583194e-001
26098710 1.000496e+000 -2.867754e-001 4.014412e-005 1.240241e+001 1.688283e-004 -1.325079e+002 9.991907e-001 -9.660347e-001
26398695 1.000809e+000 -2.793769e-001 1.729986e-005 1.342288e+002 1.838333e-004 4.269573e+001 9.997384e-001 -9.724261e-001
26698680 1.000965e+000 -2.488562e-001 1.564165e-004 5.054314e+001 2.214183e-004 1.670181e+002 1.000575e+000 -9.045101e-001
26998665 1.000719e+000 -3.215169e-001 5.234293e-005 -5.882001e+001 1.154162e-004 -1.247397e+002 9.991906e-001 -8.850210e-001
27298650 9.999472e-001 -2.712824e-001 5.835768e-005 9.888896e+001 2.313325e-004 2.810820e+001 9.987318e-001 -9.835157e-001
27598635 1.000263e+000 -2.818768e-001 7.774265e-005 -1.397702e+001 1.430283e-004 1.132975e+002 9.988586e-001 -9.792120e-001
27898620 1.000139e+000 -2.716860e-001 4.578595e-005 1.369993e+002 2.643201e-004 1.663852e+002 9.998063e-001 -1.038339e+000
28198605 9.997714e-001 -2.944999e-001 7.495090e-005 8.821112e+001 1.438809e-004 -1.344780e+002 9.996165e-001 -1.013542e+000
28498590 9.993461e-001 -2.977646e-001 4.029968e-005 1.671021e+002 2.980431e-004 2.858185e+001 9.987320e-001 -9.825544e-001
28798575 9.995895e-001 -3.793415e-001 5.782059e-005 1.511726e+002 1.363709e-004 1.734696e+002 9.980124e-001 -1.023398e+000
29098560 1.000472e+000 -3.437061e-001 1.232904e-004 6.790894e+001 2.767603e-004 4.022884e+000 9.979199e-001 -9.208920e-001
29398545 1.000591e+000 -2.941531e-001 4.866742e-005 -1.259030e+002 2.023687e-004 1.145079e+002 9.995630e-001 -9.307645e-001
29698530 1.000580e+000 -2.618913e-001 6.618138e-005 -1.064017e+002 9.880058e-005 -5.268101e+000 9.985505e-001 -9.532555e-001
29998515 9.999420e-001 -3.109994e-001 9.764865e-005 -6.694577e+001 7.785902e-005 7.866132e+001 1.000294e+000 -1.039688e+000
30298500 1.000271e+000 -3.051361e-001 3.986645e-006 7.801112e+001 1.137146e-004 -1.713494e+002 1.000217e+000 -1.085002e+000
30598485 1.000843e+000 -2.799075e-001 1.462846e-004 5.000922e+001 2.369857e-004 5.998967e+000 9.994907e-001 -1.050264e+000
30898470 1.000254e+000 -2.957281e-001 8.840906e-005 -5.428442e+001 2.937813e-004 1.465135e+002 9.989439e-001 -1.042109e+000
31198455 1.000909e+000 -3.082582e-001 3.327775e-005 8.945361e+001 1.512031e-004 2.800929e+001 9.986560e-001 -1.114147e+000
31498440 1.000219e+000 -3.276261e-001 3.199216e-005 -3.883206e+001 2.617021e-004 7.544065e+001 9.993935e-001 -1.068131e+000
31798425 1.000239e+000 -3.831339e-001 4.826071e-005 -2.876379e+001 2.576923e-005 -1.617341e+001 9.988499e-001 -1.100279e+000
32098410 1.000694e+000 -3.972073e-001 1.362991e-004 1.684557e+002 3.196513e-004 -4.650421e+000 9.994661e-001 -1.058154e+000
32398395 1.001140e+000 -3.342461e-001 6.852020e-005 3.487396e+000 1.505040e-004 1.047514e+002 9.999438e-001 -1.071332e+000
32698380 1.001311e+000 -3.755364e-001 1.433955e-004 -1.328415e+002 2.291260e-004 2.843208e+000 9.984722e-001 -1.097361e+000
32998365 9.999830e-001 -3.825953e-001 1.268270e-004 1.009342e+002 1.521315e-004 5.043742e+001 9.991581e-001 -1.130245e+000
33298350 1.000483e+000 -3.439688e-001 3.514075e-005 -1.221477e+002 1.988916e-004 -1.208938e+002 9.986573e-001 -1.156955e+000
33598335 1.000387e+000 -3.806770e-001 6.605607e-005 -3.791679e+001 2.824155e-004 -2.099061e+001 9.989632e-001 -1.159223e+000
33898320 9.995791e-001 -3.642378e-001 5.114735e-005 -4.946649e+001 1.342499e-004 -1.698322e+002 9.983579e-001 -1.158514e+000
34198305 9.997634e-001 -4.118011e-001 3.783747e-005 -4.860620e+001 1.174012e-004 -5.719411e+001 9.989427e-001 -1.118486e+000
34498290 1.000226e+000 -3.711414e-001 1.213861e-005 8.689693e+001 8.272770e-005 4.219785e+000 9.985963e-001 -1.178489e+000
34798275 9.998618e-001 -3.410095e-001 4.727058e-005 -1.210334e+002 1.377700e-004 -5.730370e+001 9.967433e-001 -1.131945e+000
35098260 9.998789e-001 -4.102815e-001 5.369545e-005 1.785142e+002 2.214476e-004 1.434151e+001 9.991955e-001 -1.137012e+000
35398245 9.999592e-001 -4.067523e-001 9.952470e-005 -2.386764e+001 1.404689e-004 -1.663427e+002 9.994134e-001 -1.154803e+000
35698230 1.000232e+000 -4.201019e-001 7.837090e-005 1.459452e+002 5.695767e-005 8.871212e+001 9.992625e-001 -1.224662e+000
35998215 1.000662e+000 -4.223921e-001 5.036756e-005 -3.591400e+001 1.621136e-004 1.577015e+002 9.989830e-001 -1.178241e+000
36298200 1.000124e+000 -4.152495e-001 6.342527e-005 -3.136506e+001 2.114618e-004 -7.323210e+001 9.994233e-001 -1.244350e+000
36598185 1.000522e+000 -3.927153e-001 4.512485e-005 -1.159878e+001 1.833864e-004 1.063058e+002 9.991579e-001 -1.207153e+000
36898170 1.001086e+000 -4.212188e-001 2.938799e-005 -5.569385e+001 5.536661e-005 1.566590e+002 9.986546e-001 -1.233593e+000
37198155 1.000387e+000 -3.986577e-001 9.067573e-005 1.396240e+002 1.885554e-004 5.521893e+001 9.981553e-001 -1.266710e+000
37498140 1.000309e+000 -3.788471e-001 1.430613e-004 -8.196112e+001 8.378819e-005 -1.303759e+002 9.987844e-001 -1.212980e+000
37798125 9.992676e-001 -3.968206e-001 2.437638e-005 1.490598e+002 3.401864e-005 2.367104e+001 9.986125e-001 -1.285603e+000
38098110 1.000119e+000 -4.089744e-001 1.137840e-004 5.670829e+001 2.053656e-004 1.778708e+002 9.989691e-001 -1.315741e+000
38398095 1.000192e+000 -4.090663e-001 1.629654e-004 -1.380159e+002 1.488098e-004 -3.692653e+001 9.974168e-001 -1.280083e+000
38698080 1.000475e+000 -4.109481e-001 1.580808e-004 -6.312968e+001 2.384101e-004 1.353423e+002 9.975268e-001 -1.348810e+000
38998065 9.998400e-001 -4.014682e-001 8.719844e-005 1.208028e+002 1.460522e-004 1.493117e+002 9.982964e-001 -1.303765e+000
39298050 1.000547e+000 -4.220927e-001 7.588667e-005 -1.115838e+002 5.266515e-005 -5.333133e+001 9.975870e-001 -1.294962e+000
39598035 1.001248e+000 -4.007985e-001 8.799459e-005 -5.302508e+001 8.894083e-005 3.005567e+001 9.990244e-001 -1.280202e+000
39898020 1.001143e+000 -3.521595e-001 8.964964e-005 -5.912594e+001 5.107858e-005 1.083805e+002 1.000820e+000 -1.211877e+000
40198005 9.998218e-001 -4.166746e-001 5.246398e-005 1.062170e+002 1.562474e-004 -1.405240e+002 1.000388e+000 -1.390749e+000
40497990 1.000259e+000 -4.611652e-001 5.724376e-005 1.617623e+002 1.218129e-004 -6.612293e+001 1.000597e+000 -1.375624e+000
40797975 1.001563e+000 -4.505450e-001 1.957109e-004 -1.373948e+002 1.689014e-004 -1.366677e+002 9.994797e-001 -1.398031e+000
41097960 1.001109e+000 -3.578935e-001 1.430457e-004 8.067890e+001 3.124125e-004 -7.078920e+001 9.983670e-001 -1.464370e+000
41397945 9.999261e-001 -3.375700e-001 9.529980e-005 9.114196e+000 1.935721e-004 -1.292392e+002 9.991747e-001 -1.302659e+000
41697930 9.994701e-001 -3.097631e-001 1.711826e-004 -1.342430e+002 1.229733e-004 -1.077446e+002 9.991883e-001 -1.265650e+000
41997915 9.986377e-001 -3.852969e-001 1.914877e-005 -6.114207e+001 3.091011e-004 -1.361728e+002 9.984869e-001 -1.383042e+000
42297900 1.001323e+000 -4.222736e-001 2.214095e-004 8.591858e+001 4.050686e-004 -4.680793e+001 9.974246e-001 -1.316923e+000
42597885 9.998947e-001 -3.616087e-001 1.289096e-005 1.311829e+002 2.509829e-004 1.860452e+001 9.980864e-001 -1.333828e+000
42897870 1.001024e+000 -3.819829e-001 1.371880e-004 3.097284e+001 1.525802e-004 -6.625619e+001 9.979509e-001 -1.496396e+000
43197855 1.001330e+000 -4.284890e-001 2.245932e-004 8.338852e+001 3.205039e-004 -1.256916e+002 9.997190e-001 -1.434198e+000
43497840 1.001086e+000 -4.816556e-001 1.509815e-004 7.591215e+001 1.860960e-004 2.389427e+001 9.983786e-001 -1.506257e+000
43797825 1.000676e+000 -3.956582e-001 1.156065e-004 1.742011e+002 1.435874e-004 6.485190e+001 9.986470e-001 -1.515128e+000
44097810 1.000912e+000 -4.278941e-001 8.918457e-005 -1.315396e+002 1.052109e-004 1.297550e+002 9.992636e-001 -1.521613e+000
44397795 1.001470e+000 -4.193635e-001 1.422013e-004 -1.701939e+002 7.931314e-005 -1.236255e+002 1.000319e+000 -1.520124e+000
44697780 1.000645e+000 -4.625422e-001 5.067473e-005 -1.173368e+002 3.257135e-004 8.906198e+001 9.992335e-001 -1.564416e+000
44997765 1.001749e+000 -4.692084e-001 1.550367e-004 -1.427210e+002 1.152619e-004 -4.544156e+001 1.000660e+000 -1.567700e+000
45297750 1.000969e+000 -4.476316e-001 1.904084e-004 -1.482882e+001 2.646768e-004 9.044371e+001 1.001089e+000 -1.528236e+000
45597735 1.001731e+000 -4.705333e-001 1.271108e-004 -1.174424e+002 3.872655e-004 -5.476603e+001 1.001199e+000 -1.555431e+000
45897720 1.001024e+000 -4.656984e-001 1.522552e-004 -1.263355e+002 9.534509e-005 -8.667632e+001 1.000633e+000 -1.620834e+000
46197705 1.000907e+000 -4.329875e-001 3.188113e-005 -1.047770e+002 1.831350e-004 -3.191429e+001 1.000731e+000 -1.553792e+000
46497690 1.002673e+000 -4.959882e-001 8.553453e-005 -5.136745e+001 2.743727e-004 8.357458e+001 1.000682e+000 -1.571617e+000
46797675 1.000853e+000 -4.473371e-001 1.763758e-004 1.664314e+002 9.748508e-005 -6.505460e+001 1.000262e+000 -1.606362e+000
47097660 1.000842e+000 -4.430209e-001 1.017083e-004 -7.504991e+001 4.365611e-005 1.081307e+002 1.000449e+000 -1.568711e+000
