!Agilent Technologies,N5230C,SG49000117,A.08.50.07
!Agilent N5230C: A.08.50.07
!Date: Sunday, March 17, 2024 08:59:21
!Correction: S11(Off) 
!S21(Off) 
!S12(Off) 
!S22(Full 1 Port(2)) 
!S2P File: Measurements: S11, S21, S12, S22:
# Hz S  RI   R 50
300000000 1.474210e-004 2.832270e-005 -5.969200e-001 -6.822323e-001 -3.975687e-006 -1.995878e-005 1.023317e+000 -6.968077e-002
300285000 1.687391e-004 1.052987e-004 -6.138690e-001 -6.603873e-001 -1.339447e-004 4.552690e-005 1.024960e+000 -7.040487e-002
300570000 -2.293779e-005 3.053155e-005 -6.296040e-001 -6.362731e-001 2.153043e-005 -9.903353e-005 1.024963e+000 -7.139271e-002
300855000 8.241355e-005 -8.808001e-006 -6.448905e-001 -6.130719e-001 -1.067627e-004 3.963794e-005 1.024496e+000 -6.884469e-002
301140000 -6.002801e-005 6.292975e-005 -6.585361e-001 -5.896831e-001 -1.477969e-004 -7.516627e-005 1.023283e+000 -7.085793e-002
301425000 5.496732e-007 1.750266e-005 -6.718237e-001 -5.665620e-001 -5.408643e-005 -3.608354e-005 1.025880e+000 -6.935917e-002
301710000 -7.264864e-005 4.089474e-005 -6.843429e-001 -5.432141e-001 -5.813304e-005 -4.935083e-005 1.025786e+000 -7.161728e-002
301995000 -1.982425e-005 6.496315e-005 -6.954507e-001 -5.193714e-001 1.898346e-005 -8.623031e-005 1.023216e+000 -6.913473e-002
302280000 -9.357992e-005 1.920598e-006 -7.064720e-001 -4.960650e-001 -2.758152e-006 -1.939979e-005 1.025983e+000 -7.104537e-002
302565000 1.525116e-005 -1.991710e-005 -7.161159e-001 -4.730764e-001 -2.018955e-006 -1.222027e-004 1.026367e+000 -7.047181e-002
302850000 -1.691817e-005 1.835340e-005 -7.249395e-001 -4.490743e-001 4.138674e-005 -1.470326e-004 1.024866e+000 -7.052495e-002
303135000 2.107551e-005 -8.169443e-005 -7.336617e-001 -4.260173e-001 -2.418688e-005 -3.311848e-005 1.024951e+000 -7.079417e-002
303420000 5.675207e-005 -3.607723e-005 -7.412941e-001 -4.031371e-001 1.261330e-004 -1.171650e-005 1.025283e+000 -7.150853e-002
303705000 8.386487e-005 7.369907e-005 -7.487305e-001 -3.797238e-001 5.983771e-005 -2.158716e-005 1.026186e+000 -7.167559e-002
303990000 8.328518e-005 1.065259e-005 -7.548380e-001 -3.569956e-001 2.118826e-005 -5.941522e-005 1.023940e+000 -7.056686e-002
304275000 6.206497e-005 1.114303e-005 -7.606512e-001 -3.341865e-001 5.203874e-005 1.074123e-005 1.025043e+000 -7.133035e-002
304560000 2.957194e-005 3.649487e-005 -7.654769e-001 -3.116235e-001 2.005115e-004 -2.260017e-005 1.025230e+000 -7.203911e-002
304845000 -6.218484e-005 -5.689366e-005 -7.707723e-001 -2.882827e-001 7.178017e-005 8.219944e-005 1.024990e+000 -7.016777e-002
305130000 -5.944978e-005 5.659242e-005 -7.747750e-001 -2.664648e-001 -1.835666e-005 9.818290e-005 1.022887e+000 -7.059681e-002
305415000 -8.848488e-005 7.579778e-005 -7.781038e-001 -2.438228e-001 5.888461e-005 2.339219e-005 1.025084e+000 -7.076057e-002
305700000 -6.418824e-005 3.311012e-005 -7.814183e-001 -2.214612e-001 -1.425025e-004 3.822301e-005 1.025135e+000 -6.975577e-002
305985000 -6.293276e-005 7.613557e-006 -7.832593e-001 -1.998594e-001 -8.024640e-005 8.714114e-005 1.025805e+000 -7.116857e-002
306270000 -1.867648e-005 -8.937238e-005 -7.855995e-001 -1.780574e-001 -1.514256e-005 6.891500e-005 1.026319e+000 -7.087627e-002
306555000 -7.304353e-005 -4.649948e-005 -7.876890e-001 -1.567350e-001 -7.682105e-005 -1.463427e-005 1.025308e+000 -7.223353e-002
306840000 7.101340e-005 -9.214100e-005 -7.883298e-001 -1.346857e-001 -9.776792e-005 2.271058e-005 1.025023e+000 -7.003602e-002
307125000 4.954078e-006 -5.115048e-005 -7.895477e-001 -1.132163e-001 -7.573900e-006 -5.406719e-005 1.026246e+000 -7.175075e-002
307410000 3.312974e-005 -1.646625e-004 -7.892427e-001 -9.195869e-002 3.174840e-005 -5.403991e-005 1.026311e+000 -7.210569e-002
307695000 1.554647e-004 -5.966498e-005 -7.889290e-001 -7.099128e-002 1.191978e-006 5.566425e-005 1.026198e+000 -7.296685e-002
307980000 7.056474e-005 3.672425e-005 -7.883153e-001 -4.965865e-002 1.311973e-004 -2.995854e-005 1.024487e+000 -7.267223e-002
308265000 6.348234e-005 2.058637e-005 -7.871548e-001 -2.967829e-002 9.335565e-005 8.989712e-005 1.024793e+000 -7.178856e-002
308550000 6.939692e-005 -3.843173e-006 -7.859115e-001 -8.232297e-003 5.735147e-005 2.504097e-005 1.025499e+000 -7.128214e-002
308835000 1.820778e-004 6.294542e-005 -7.839956e-001 1.202787e-002 6.552168e-005 6.647180e-005 1.025175e+000 -7.292067e-002
309120000 -2.484343e-006 -1.126992e-005 -7.819824e-001 3.217112e-002 -3.141284e-005 7.802380e-005 1.024792e+000 -7.242927e-002
309405000 2.154693e-005 1.374203e-004 -7.794737e-001 5.252897e-002 1.004666e-004 4.256162e-005 1.027110e+000 -7.270263e-002
309690000 6.970372e-005 1.086496e-004 -7.765435e-001 7.257578e-002 -1.042063e-005 5.886867e-005 1.024677e+000 -7.329569e-002
309975000 1.148553e-005 2.711958e-006 -7.729284e-001 9.270699e-002 -9.751700e-005 1.187558e-004 1.024964e+000 -7.218641e-002
310260000 3.785780e-005 -2.843626e-005 -7.694461e-001 1.127102e-001 -3.040390e-007 3.596087e-005 1.026610e+000 -7.137725e-002
310545000 8.619261e-005 -4.347895e-005 -7.650877e-001 1.328807e-001 5.740827e-005 -1.196091e-004 1.027357e+000 -7.276134e-002
310830000 -3.661620e-005 -3.261515e-005 -7.608625e-001 1.521703e-001 -2.594200e-005 4.981592e-005 1.025773e+000 -7.421897e-002
311115000 -3.403682e-005 -6.170624e-005 -7.563026e-001 1.716617e-001 1.148357e-005 -2.202608e-005 1.024218e+000 -7.321030e-002
311400000 -1.273614e-004 -7.043523e-005 -7.509069e-001 1.911356e-001 7.376610e-005 -6.067195e-005 1.026848e+000 -7.349781e-002
311685000 -2.861766e-005 -9.013643e-005 -7.461788e-001 2.107059e-001 -3.973154e-006 -5.827836e-005 1.023991e+000 -7.138113e-002
311970000 -6.936352e-005 -1.149863e-005 -7.399318e-001 2.301238e-001 1.051422e-004 -5.043971e-005 1.024402e+000 -7.297023e-002
312255000 1.263409e-005 -1.526388e-005 -7.336350e-001 2.493381e-001 -1.895698e-007 -2.438271e-005 1.025834e+000 -7.216268e-002
312540000 -1.331399e-005 -1.207811e-004 -7.273112e-001 2.685042e-001 8.184781e-005 -4.596252e-005 1.024426e+000 -7.274175e-002
312825000 1.730876e-005 5.265026e-005 -7.202051e-001 2.871527e-001 1.491342e-004 9.928942e-006 1.027007e+000 -7.465476e-002
313110000 8.133665e-005 -1.897113e-005 -7.131852e-001 3.066055e-001 4.116892e-006 -1.064098e-004 1.025199e+000 -7.417292e-002
313395000 -3.224237e-005 2.187375e-005 -7.058240e-001 3.249640e-001 4.605460e-005 1.877550e-004 1.025128e+000 -7.354482e-002
313680000 3.395178e-005 4.310604e-005 -6.972915e-001 3.440381e-001 -1.811157e-005 4.095238e-005 1.026049e+000 -7.167681e-002
313965000 3.447415e-007 4.372324e-005 -6.891705e-001 3.626937e-001 4.596395e-005 -5.462615e-005 1.026328e+000 -7.251263e-002
314250000 5.662541e-005 -4.494650e-005 -6.803540e-001 3.811890e-001 -5.612872e-005 3.910346e-005 1.024911e+000 -7.382833e-002
314535000 6.466599e-005 9.916194e-005 -6.711974e-001 3.995777e-001 -6.082296e-005 -3.057357e-005 1.025776e+000 -7.392084e-002
314820000 -7.247324e-006 -3.115334e-005 -6.617219e-001 4.183067e-001 5.879438e-005 -1.373909e-005 1.025492e+000 -7.428555e-002
315105000 2.583531e-005 4.491574e-005 -6.518115e-001 4.367145e-001 -6.896540e-005 2.291640e-005 1.024516e+000 -7.442436e-002
315390000 1.333248e-005 5.277150e-005 -6.413760e-001 4.549625e-001 -3.749005e-005 -2.822401e-005 1.025540e+000 -7.528395e-002
315675000 -1.362267e-004 -4.579866e-005 -6.307330e-001 4.729916e-001 1.987805e-005 3.067385e-005 1.024743e+000 -7.301562e-002
315960000 1.166799e-005 3.170652e-005 -6.195269e-001 4.915737e-001 9.045083e-005 3.438049e-005 1.024805e+000 -7.349747e-002
316245000 -7.482288e-005 -9.696699e-005 -6.073254e-001 5.094401e-001 2.118700e-004 -6.422111e-005 1.024286e+000 -7.367671e-002
316530000 7.562428e-005 -8.540953e-005 -5.953175e-001 5.273899e-001 -1.612621e-005 -3.258737e-005 1.025397e+000 -7.544854e-002
316815000 -2.398539e-005 9.061753e-006 -5.828152e-001 5.453310e-001 -2.212407e-005 -6.269901e-005 1.025463e+000 -7.302527e-002
317100000 -6.909049e-005 -2.114435e-005 -5.696070e-001 5.630017e-001 -1.096536e-004 -4.142880e-006 1.025529e+000 -7.223418e-002
317385000 4.940556e-005 6.661918e-006 -5.556638e-001 5.802895e-001 -4.207738e-005 2.030132e-005 1.027869e+000 -7.304408e-002
317670000 5.236564e-005 -9.445127e-005 -5.418092e-001 5.979141e-001 4.476032e-005 4.544111e-005 1.026961e+000 -7.412567e-002
317955000 1.910371e-004 -3.232595e-005 -5.266468e-001 6.156322e-001 -3.641412e-005 1.675579e-004 1.027952e+000 -7.342998e-002
318240000 7.603742e-005 1.686251e-005 -5.119365e-001 6.325843e-001 -4.306091e-005 -3.980906e-005 1.024574e+000 -7.476578e-002
318525000 -3.535148e-005 1.425076e-004 -4.957739e-001 6.494803e-001 -9.871630e-006 -5.740327e-005 1.025948e+000 -7.293891e-002
318810000 9.489790e-005 3.136706e-005 -4.790989e-001 6.662146e-001 2.394545e-005 -4.187167e-005 1.024433e+000 -7.454920e-002
319095000 1.422500e-004 6.140615e-005 -4.624480e-001 6.829824e-001 7.749906e-005 2.117166e-005 1.025215e+000 -7.406238e-002
319380000 -3.892681e-005 2.022889e-005 -4.445786e-001 6.999162e-001 2.448995e-005 -1.352477e-004 1.026610e+000 -7.598178e-002
319665000 -3.956077e-005 6.275661e-007 -4.262075e-001 7.158937e-001 1.161978e-004 2.075432e-005 1.026329e+000 -7.374368e-002
319950000 -5.154210e-005 7.346776e-005 -4.076082e-001 7.316480e-001 -7.538446e-005 -3.653263e-005 1.026974e+000 -7.480507e-002
320235000 -3.870321e-005 3.873110e-005 -3.875727e-001 7.476451e-001 2.271265e-005 -4.682485e-005 1.026029e+000 -7.670098e-002
320520000 4.688613e-006 1.126986e-004 -3.672328e-001 7.623617e-001 8.120231e-005 4.899187e-005 1.027268e+000 -7.474542e-002
320805000 4.760899e-005 -2.194948e-006 -3.462149e-001 7.776052e-001 -9.773565e-005 6.732759e-005 1.026190e+000 -7.452903e-002
321090000 8.337468e-005 -3.471974e-005 -3.241038e-001 7.917877e-001 1.115599e-004 -1.279969e-004 1.026088e+000 -7.454444e-002
321375000 4.938842e-005 -7.151374e-005 -3.021361e-001 8.064082e-001 1.405977e-005 1.028583e-004 1.025801e+000 -7.418930e-002
321660000 1.073207e-004 -9.020448e-005 -2.791438e-001 8.203067e-001 1.378192e-004 6.541660e-006 1.026696e+000 -7.480565e-002
321945000 3.688375e-005 -7.579883e-005 -2.552707e-001 8.331295e-001 -8.526523e-005 1.864664e-005 1.026607e+000 -7.517376e-002
322230000 1.228171e-004 -1.757521e-006 -2.302314e-001 8.461731e-001 -9.157623e-005 4.212666e-005 1.025818e+000 -7.552812e-002
322515000 -2.398283e-005 -4.591453e-005 -2.049401e-001 8.582029e-001 3.472087e-005 4.042811e-005 1.024833e+000 -7.638796e-002
322800000 3.070059e-005 6.745110e-005 -1.787673e-001 8.694216e-001 1.445417e-006 -9.925551e-005 1.027536e+000 -7.473701e-002
323085000 6.483452e-008 1.069622e-004 -1.522993e-001 8.801969e-001 1.282257e-005 -4.996214e-005 1.025698e+000 -7.535981e-002
323370000 -3.447997e-005 3.214600e-005 -1.246236e-001 8.907086e-001 -2.754848e-006 -2.257213e-005 1.026906e+000 -7.643594e-002
323655000 -4.861276e-005 2.184418e-005 -9.602848e-002 8.995041e-001 3.170150e-005 3.788193e-005 1.024989e+000 -7.701091e-002
323940000 -7.062576e-005 -4.676577e-005 -6.703455e-002 9.083364e-001 5.784277e-005 4.681923e-005 1.025695e+000 -7.692584e-002
324225000 -1.531218e-005 -4.425542e-005 -3.686060e-002 9.156805e-001 6.203540e-005 1.926972e-005 1.025150e+000 -7.649314e-002
324510000 -1.035569e-004 -5.364647e-005 -6.409897e-003 9.225591e-001 -3.622683e-005 -3.278177e-006 1.027763e+000 -7.741063e-002
324795000 1.509040e-006 1.846744e-005 2.501345e-002 9.280618e-001 -8.286635e-005 1.131904e-004 1.026620e+000 -7.632963e-002
325080000 2.745017e-005 1.767619e-005 5.695803e-002 9.325672e-001 -6.788041e-005 -7.631390e-005 1.025880e+000 -7.706529e-002
325365000 2.577367e-006 -1.708803e-004 8.967622e-002 9.359404e-001 -2.766979e-005 8.246923e-005 1.026927e+000 -7.458419e-002
325650000 1.084717e-004 8.473355e-006 1.231973e-001 9.385702e-001 -6.593606e-005 5.677563e-005 1.026615e+000 -7.571054e-002
325935000 4.500315e-005 -9.421355e-005 1.570844e-001 9.391934e-001 -3.902801e-005 -1.698440e-006 1.025676e+000 -7.639680e-002
326220000 2.347693e-005 -5.428341e-005 1.908063e-001 9.387619e-001 1.774988e-005 1.157066e-005 1.027175e+000 -7.558402e-002
326505000 6.369191e-005 -5.462164e-005 2.252786e-001 9.370297e-001 2.910072e-006 3.188889e-005 1.027272e+000 -7.775299e-002
326790000 8.821527e-005 1.139257e-004 2.605641e-001 9.335590e-001 -1.011913e-004 2.161792e-005 1.025397e+000 -7.639118e-002
327075000 4.542462e-005 7.138203e-005 2.960138e-001 9.291654e-001 9.031808e-006 -4.420076e-005 1.026204e+000 -7.744926e-002
327360000 1.790299e-005 9.735690e-005 3.315753e-001 9.226808e-001 2.862448e-005 -8.050627e-008 1.029100e+000 -7.702383e-002
327645000 4.587377e-005 2.688680e-005 3.680066e-001 9.148847e-001 1.317118e-005 -1.190734e-005 1.027157e+000 -7.791533e-002
327930000 -1.123357e-005 3.820315e-005 4.034201e-001 9.054467e-001 3.132501e-005 -8.685207e-007 1.026836e+000 -7.680262e-002
328215000 -7.005036e-005 -6.283044e-006 4.392966e-001 8.938684e-001 5.119286e-005 8.360551e-005 1.026774e+000 -7.709701e-002
328500000 1.752479e-005 -1.759776e-005 4.748406e-001 8.813281e-001 -4.655882e-005 7.636088e-006 1.026767e+000 -7.771510e-002
328785000 2.494935e-005 -4.483675e-005 5.102874e-001 8.662972e-001 -5.955769e-005 -6.320044e-005 1.025619e+000 -7.650205e-002
329070000 8.798950e-005 -3.886810e-005 5.442201e-001 8.491572e-001 -8.527252e-006 4.298523e-005 1.025262e+000 -7.784584e-002
329355000 1.149391e-004 -2.263531e-005 5.794917e-001 8.315679e-001 -1.365688e-005 -1.785796e-007 1.025956e+000 -7.781246e-002
329640000 8.513100e-006 9.926889e-005 6.131819e-001 8.115549e-001 8.594579e-005 -2.176892e-005 1.026881e+000 -7.761493e-002
329925000 -3.013514e-006 -4.675734e-005 6.466295e-001 7.889152e-001 -3.421886e-005 -1.429614e-004 1.026636e+000 -7.737844e-002
330210000 6.947409e-005 -9.129903e-006 6.794090e-001 7.657232e-001 8.778268e-005 -7.714427e-005 1.026347e+000 -7.801598e-002
330495000 7.304283e-005 2.249983e-006 7.098548e-001 7.407014e-001 1.071195e-004 -4.759640e-005 1.025872e+000 -7.736475e-002
330780000 3.037719e-005 6.206283e-005 7.405992e-001 7.138547e-001 2.899462e-005 -2.986599e-005 1.026617e+000 -7.846051e-002
331065000 -2.589196e-006 5.145886e-005 7.695221e-001 6.856326e-001 1.091342e-005 -6.513559e-005 1.025211e+000 -7.661638e-002
331350000 -4.778199e-006 -2.789255e-005 7.973645e-001 6.554747e-001 4.560823e-005 2.632139e-005 1.025558e+000 -7.719559e-002
331635000 -4.489259e-005 2.824797e-006 8.227593e-001 6.247520e-001 2.692542e-005 -5.629567e-005 1.027789e+000 -7.754830e-002
331920000 2.114142e-005 7.921642e-005 8.482171e-001 5.915612e-001 3.482766e-005 -4.823880e-005 1.026705e+000 -7.695673e-002
332205000 4.801057e-005 -2.647428e-005 8.712978e-001 5.577576e-001 -4.060316e-006 -1.886758e-005 1.025089e+000 -7.906228e-002
332490000 -6.225938e-005 -6.277473e-005 8.929139e-001 5.231067e-001 4.400679e-006 -2.165169e-005 1.028108e+000 -7.791637e-002
332775000 -6.218215e-005 -6.607505e-005 9.121526e-001 4.868567e-001 -1.818240e-005 -5.934891e-006 1.026413e+000 -7.897612e-002
333060000 -3.494181e-005 -9.782902e-006 9.302062e-001 4.504968e-001 1.011898e-006 2.148536e-005 1.025975e+000 -7.894026e-002
333345000 -7.988524e-005 -2.210381e-005 9.468591e-001 4.127762e-001 -5.037866e-005 -1.636327e-005 1.027170e+000 -7.724357e-002
333630000 1.344946e-005 1.145923e-005 9.602503e-001 3.745348e-001 -9.599623e-005 -4.761923e-005 1.026935e+000 -7.999871e-002
333915000 -1.181378e-005 -3.613954e-006 9.726809e-001 3.363674e-001 8.161031e-007 -2.852481e-005 1.027015e+000 -8.029108e-002
334200000 -3.481716e-005 -1.064608e-004 9.831830e-001 2.969812e-001 -6.074663e-005 9.822716e-006 1.026870e+000 -7.968650e-002
334485000 -2.561797e-005 -5.106764e-005 9.913157e-001 2.581021e-001 -1.813444e-005 -2.845917e-005 1.026425e+000 -7.851430e-002
334770000 4.107804e-005 5.569881e-005 9.978645e-001 2.185725e-001 1.487157e-005 5.201406e-005 1.027152e+000 -7.816187e-002
335055000 -2.481620e-005 1.069210e-005 1.002439e+000 1.792434e-001 -1.113206e-005 -2.734286e-005 1.027898e+000 -7.777853e-002
335340000 -7.304189e-005 3.814634e-005 1.004688e+000 1.400910e-001 -7.613763e-005 4.903579e-005 1.027887e+000 -7.947259e-002
335625000 -8.645406e-005 8.363045e-005 1.005618e+000 1.015592e-001 3.762730e-006 -1.020684e-004 1.027224e+000 -8.000392e-002
335910000 3.623427e-005 5.013441e-005 1.004346e+000 6.307290e-002 -4.154965e-005 -3.248629e-005 1.025888e+000 -7.928345e-002
336195000 -6.452443e-005 -3.000543e-005 1.001607e+000 2.528134e-002 6.927731e-005 -8.904581e-005 1.025154e+000 -7.835308e-002
336480000 1.879397e-005 1.461571e-005 9.978024e-001 -1.219266e-002 7.903315e-005 -1.877825e-007 1.026525e+000 -7.919649e-002
336765000 -1.012735e-005 -4.530068e-005 9.921581e-001 -4.946099e-002 1.072809e-004 3.144161e-005 1.027276e+000 -7.922744e-002
337050000 4.982614e-005 2.314076e-005 9.840251e-001 -8.510155e-002 4.259837e-005 9.367742e-005 1.026489e+000 -7.874968e-002
337335000 -2.794002e-005 -1.137156e-004 9.754843e-001 -1.203917e-001 1.739063e-006 6.755736e-005 1.025766e+000 -8.137892e-002
337620000 -1.656633e-005 -1.664959e-005 9.649374e-001 -1.547053e-001 -1.469449e-005 8.325051e-005 1.026670e+000 -8.157814e-002
337905000 -1.477562e-005 2.366761e-005 9.534102e-001 -1.881065e-001 -1.644926e-004 -7.784066e-005 1.026031e+000 -7.949216e-002
338190000 5.286024e-005 -7.832699e-005 9.410416e-001 -2.213309e-001 -1.535866e-005 -1.288315e-005 1.026214e+000 -8.034830e-002
338475000 1.215035e-004 -7.122855e-005 9.275566e-001 -2.524886e-001 -3.943382e-005 -1.771379e-005 1.026749e+000 -7.910838e-002
338760000 2.301517e-005 -2.831502e-005 9.121761e-001 -2.828852e-001 8.072059e-005 5.950789e-005 1.027264e+000 -8.016063e-002
339045000 8.272100e-005 -8.748491e-005 8.970694e-001 -3.123834e-001 -2.484991e-005 -7.889961e-005 1.026440e+000 -8.003163e-002
339330000 3.214670e-005 5.719817e-005 8.802127e-001 -3.402591e-001 -1.096644e-006 -6.272818e-005 1.027189e+000 -7.808045e-002
339615000 -1.940616e-005 3.049462e-005 8.627607e-001 -3.682876e-001 -3.403360e-005 -1.047574e-004 1.027838e+000 -8.023854e-002
339900000 -4.307402e-006 1.456460e-004 8.444667e-001 -3.939623e-001 -1.160328e-005 -8.954856e-005 1.026232e+000 -8.136337e-002
340185000 3.419261e-006 5.362467e-005 8.257009e-001 -4.202348e-001 -3.419558e-006 -1.973999e-005 1.027130e+000 -8.172700e-002
340470000 -1.880776e-005 1.047143e-004 8.056625e-001 -4.439401e-001 5.884887e-005 6.412363e-005 1.025926e+000 -7.894241e-002
340755000 -5.303983e-005 1.903824e-004 7.864258e-001 -4.668777e-001 -1.547185e-005 -4.786798e-005 1.026307e+000 -8.149364e-002
341040000 -3.967830e-005 -7.049364e-005 7.656322e-001 -4.892574e-001 -6.116900e-005 -1.091522e-005 1.025917e+000 -8.131009e-002
341325000 -6.219628e-005 -3.841945e-005 7.450638e-001 -5.106590e-001 -1.070645e-004 -2.801370e-005 1.027834e+000 -7.910921e-002
341610000 -4.818749e-005 -4.608462e-005 7.237870e-001 -5.306268e-001 4.519876e-005 -7.226155e-006 1.028364e+000 -8.010815e-002
341895000 3.172044e-006 -2.266291e-005 7.023387e-001 -5.498815e-001 -3.115707e-005 -4.923106e-005 1.025636e+000 -8.200414e-002
342180000 5.322658e-005 -4.920112e-005 6.807547e-001 -5.683959e-001 -6.621022e-005 -7.205360e-005 1.027189e+000 -8.173181e-002
342465000 1.063827e-004 -5.546023e-006 6.592676e-001 -5.852460e-001 3.493891e-005 -1.445333e-005 1.027707e+000 -8.099151e-002
342750000 3.209446e-005 -2.070450e-005 6.363434e-001 -6.019693e-001 7.368602e-005 -2.181578e-005 1.028277e+000 -7.916687e-002
343035000 6.860864e-005 7.300911e-006 6.142019e-001 -6.167986e-001 -5.566331e-005 1.195500e-004 1.026037e+000 -8.348906e-002
343320000 3.833382e-005 1.243708e-004 5.921475e-001 -6.314351e-001 1.186085e-004 -1.539986e-005 1.025322e+000 -8.130017e-002
343605000 -1.795166e-005 1.106211e-004 5.694157e-001 -6.453348e-001 -6.741090e-005 4.389223e-005 1.027086e+000 -8.174002e-002
343890000 -8.000425e-005 3.403638e-005 5.471733e-001 -6.583178e-001 3.971439e-005 2.175603e-005 1.026431e+000 -8.299082e-002
