!Agilent Technologies,N5230C,SG49000117,A.08.50.07
!Agilent N5230C: A.08.50.07
!Date: Sunday, March 17, 2024 09:01:59
!Correction: S11(Off) 
!S21(Off) 
!S12(Off) 
!S22(Full 1 Port(2)) 
!S2P File: Measurements: S11, S21, S12, S22:
# Hz S  RI   R 50
300000000 1.588121e-005 6.560421e-005 -6.053154e-001 -6.720283e-001 -2.728239e-005 6.598167e-005 1.019897e+000 -9.977211e-002
300285000 2.657988e-005 -1.286494e-005 -6.217224e-001 -6.498026e-001 -2.034818e-005 8.476351e-005 1.020224e+000 -1.007967e-001
300570000 -7.188361e-005 1.227038e-006 -6.365523e-001 -6.263729e-001 -2.133039e-005 4.739885e-006 1.021929e+000 -1.002180e-001
300855000 -1.616642e-005 9.130168e-005 -6.511023e-001 -6.031608e-001 3.047004e-005 4.478370e-005 1.022041e+000 -1.002093e-001
301140000 3.672001e-005 -1.631804e-005 -6.647451e-001 -5.795879e-001 1.163724e-004 8.200020e-005 1.021220e+000 -1.004699e-001
301425000 5.001200e-005 4.554660e-005 -6.776630e-001 -5.555701e-001 3.332626e-006 4.516635e-005 1.022856e+000 -1.015743e-001
301710000 1.915018e-005 6.193359e-007 -6.897219e-001 -5.322586e-001 3.492616e-005 -1.638281e-005 1.024173e+000 -1.007924e-001
301995000 9.684237e-006 1.118689e-004 -7.006317e-001 -5.092110e-001 -5.086117e-005 -3.472756e-005 1.020762e+000 -1.003782e-001
302280000 -2.236604e-005 -1.079133e-004 -7.115578e-001 -4.851991e-001 -4.576788e-005 -5.777079e-005 1.022119e+000 -1.006093e-001
302565000 2.118834e-005 -7.555204e-005 -7.207841e-001 -4.615192e-001 8.338473e-005 4.077722e-006 1.022456e+000 -1.023358e-001
302850000 1.124404e-005 -4.257694e-005 -7.294072e-001 -4.383855e-001 -2.213199e-005 -3.629874e-005 1.020244e+000 -9.963120e-002
303135000 -5.367046e-006 -9.082934e-005 -7.377297e-001 -4.151976e-001 -5.933078e-005 -2.436216e-005 1.022632e+000 -1.013285e-001
303420000 1.307822e-004 -2.099359e-006 -7.450413e-001 -3.918148e-001 5.494793e-005 2.301972e-006 1.020816e+000 -1.026473e-001
303705000 -3.150943e-005 -1.602439e-004 -7.522779e-001 -3.692074e-001 1.467671e-006 -6.088472e-005 1.023372e+000 -1.030042e-001
303990000 -4.912535e-006 -5.718789e-006 -7.587056e-001 -3.465482e-001 8.409358e-005 -1.576673e-004 1.021271e+000 -1.013534e-001
304275000 -1.325255e-005 1.952456e-005 -7.639732e-001 -3.235691e-001 -1.719239e-005 -1.702330e-005 1.022724e+000 -1.022173e-001
304560000 1.928380e-004 -7.119434e-005 -7.683282e-001 -3.006712e-001 -5.909945e-005 3.023348e-005 1.021097e+000 -1.022811e-001
304845000 1.785775e-004 2.339367e-005 -7.731293e-001 -2.782850e-001 5.741609e-005 -1.044209e-004 1.021367e+000 -1.013555e-001
305130000 -7.217795e-005 -2.775790e-005 -7.768993e-001 -2.554431e-001 6.148194e-005 -4.680576e-005 1.019952e+000 -1.013201e-001
305415000 1.135516e-004 4.644518e-005 -7.802213e-001 -2.337307e-001 2.166688e-005 -1.105580e-005 1.020731e+000 -1.025211e-001
305700000 1.457937e-005 6.772714e-005 -7.832792e-001 -2.111617e-001 9.551799e-005 -4.094806e-005 1.020666e+000 -1.017910e-001
305985000 5.736692e-005 -5.570549e-005 -7.854268e-001 -1.891098e-001 1.005116e-004 -3.435069e-005 1.023389e+000 -1.025467e-001
306270000 -7.233566e-005 1.304479e-004 -7.869748e-001 -1.675677e-001 -1.475604e-006 -8.372193e-005 1.024369e+000 -1.016058e-001
306555000 -3.193215e-005 5.086685e-005 -7.882832e-001 -1.460230e-001 -1.000898e-005 -5.880147e-005 1.022938e+000 -1.033039e-001
306840000 -4.198773e-005 3.203741e-005 -7.891050e-001 -1.243245e-001 -3.877800e-005 4.570567e-005 1.022699e+000 -1.011051e-001
307125000 -6.045002e-006 1.446291e-005 -7.893881e-001 -1.031982e-001 -1.533716e-005 6.169351e-005 1.022282e+000 -1.029510e-001
307410000 4.838713e-005 4.766165e-005 -7.893909e-001 -8.159330e-002 -1.170191e-004 4.745162e-005 1.021908e+000 -1.046235e-001
307695000 -1.617909e-005 -1.514582e-004 -7.887239e-001 -6.060319e-002 -2.304790e-005 -6.663905e-005 1.022532e+000 -1.033598e-001
307980000 -2.420532e-005 5.230288e-005 -7.878932e-001 -3.988490e-002 -9.838410e-005 -9.876766e-005 1.021009e+000 -1.036531e-001
308265000 4.139244e-005 -2.969407e-005 -7.869798e-001 -1.871553e-002 2.265042e-005 -2.019984e-005 1.020218e+000 -1.031332e-001
308550000 1.556173e-005 -2.704341e-005 -7.849696e-001 1.517632e-003 -4.718625e-005 -6.166047e-005 1.021459e+000 -1.035980e-001
308835000 3.800001e-005 -7.168985e-005 -7.832713e-001 2.205588e-002 -3.070329e-005 -1.791488e-005 1.019683e+000 -1.047202e-001
309120000 6.906639e-005 3.642375e-005 -7.813647e-001 4.217668e-002 4.787786e-005 -5.471957e-005 1.022531e+000 -1.049999e-001
309405000 -7.991554e-006 3.024538e-005 -7.780196e-001 6.258562e-002 2.235840e-005 -8.372911e-006 1.023399e+000 -1.026154e-001
309690000 6.953916e-005 9.943548e-006 -7.746691e-001 8.238753e-002 8.415281e-005 -6.010806e-005 1.022164e+000 -1.041439e-001
309975000 6.182039e-005 -3.171834e-006 -7.717507e-001 1.031808e-001 1.543903e-005 -1.013475e-005 1.021455e+000 -1.053346e-001
310260000 8.104308e-006 9.604372e-006 -7.673641e-001 1.230965e-001 4.745434e-005 4.518267e-005 1.022537e+000 -1.030151e-001
310545000 2.892698e-005 -4.163880e-006 -7.632927e-001 1.421850e-001 -7.949339e-005 -9.742004e-005 1.022955e+000 -1.056297e-001
310830000 -3.209824e-005 3.550943e-005 -7.585185e-001 1.620534e-001 1.332468e-005 3.911402e-005 1.023787e+000 -1.040729e-001
311115000 -4.619854e-005 9.212222e-006 -7.537327e-001 1.812809e-001 4.363526e-005 5.522975e-005 1.022316e+000 -1.045202e-001
311400000 3.052564e-005 4.695716e-005 -7.484825e-001 2.008520e-001 2.032536e-005 2.583871e-005 1.021713e+000 -1.047137e-001
311685000 -1.429803e-005 4.225477e-006 -7.422991e-001 2.204117e-001 7.922270e-005 5.083985e-005 1.022957e+000 -1.033337e-001
311970000 -8.551481e-006 9.304598e-005 -7.371845e-001 2.396733e-001 -1.043913e-005 -7.515590e-006 1.021556e+000 -1.040348e-001
312255000 -2.956011e-005 5.541335e-005 -7.302682e-001 2.584851e-001 3.748402e-005 5.321834e-005 1.021899e+000 -1.044838e-001
312540000 9.781308e-005 1.005350e-004 -7.240716e-001 2.782093e-001 -8.444421e-005 2.595008e-005 1.021889e+000 -1.054622e-001
312825000 -3.621459e-005 1.129366e-004 -7.163071e-001 2.971169e-001 -1.532970e-005 3.170009e-005 1.022776e+000 -1.046234e-001
313110000 1.148932e-005 -4.064539e-005 -7.092604e-001 3.159300e-001 -8.351071e-005 1.633353e-005 1.021391e+000 -1.071439e-001
313395000 -2.714813e-005 5.802495e-005 -7.010787e-001 3.344851e-001 -1.420694e-004 7.264765e-005 1.021551e+000 -1.042977e-001
313680000 -1.697400e-004 8.160581e-006 -6.931458e-001 3.532820e-001 6.483562e-005 -1.143798e-004 1.023718e+000 -1.044631e-001
313965000 -3.373221e-005 4.283349e-006 -6.846017e-001 3.723948e-001 1.042038e-004 -7.495114e-005 1.022795e+000 -1.033839e-001
314250000 -1.199074e-004 -9.720728e-005 -6.751224e-001 3.904433e-001 4.907667e-005 4.285529e-005 1.022401e+000 -1.051229e-001
314535000 1.780315e-005 2.217990e-005 -6.662985e-001 4.090774e-001 -1.347165e-005 6.708859e-005 1.021301e+000 -1.045875e-001
314820000 -7.019493e-005 -3.186041e-005 -6.562973e-001 4.275591e-001 -3.591805e-006 -3.010666e-005 1.022179e+000 -1.051365e-001
315105000 3.648027e-005 8.159614e-006 -6.460468e-001 4.460952e-001 -2.684667e-005 2.882696e-005 1.019636e+000 -1.055830e-001
315390000 -2.180498e-005 -2.956270e-005 -6.355624e-001 4.640360e-001 2.131044e-005 -7.629669e-006 1.022559e+000 -1.068809e-001
315675000 1.422256e-005 1.660912e-005 -6.243768e-001 4.815716e-001 1.167761e-004 9.216608e-005 1.021772e+000 -1.054928e-001
315960000 4.987256e-005 -1.693404e-005 -6.131808e-001 4.999401e-001 1.024880e-004 -3.805152e-005 1.021228e+000 -1.060094e-001
316245000 6.511815e-005 5.508860e-005 -6.010894e-001 5.178498e-001 4.551367e-005 6.984275e-005 1.022404e+000 -1.056174e-001
316530000 -2.138387e-005 -6.162999e-006 -5.885742e-001 5.360118e-001 1.246302e-007 -3.751930e-006 1.024019e+000 -1.050335e-001
316815000 -1.798316e-005 3.077026e-005 -5.755394e-001 5.539486e-001 2.955167e-005 1.011050e-004 1.022617e+000 -1.055318e-001
317100000 -4.672016e-005 9.839759e-005 -5.621167e-001 5.714264e-001 9.869303e-005 1.128366e-004 1.022068e+000 -1.049846e-001
317385000 -6.789602e-005 6.020035e-005 -5.478029e-001 5.891407e-001 7.136116e-005 9.047668e-005 1.023484e+000 -1.046488e-001
317670000 -9.794350e-005 4.608761e-005 -5.339384e-001 6.059796e-001 -1.082942e-005 -6.084891e-005 1.023391e+000 -1.063317e-001
317955000 -9.945920e-005 8.131106e-005 -5.188889e-001 6.234278e-001 -8.770204e-005 2.351956e-005 1.023356e+000 -1.051885e-001
318240000 -1.167348e-004 -1.145138e-005 -5.031368e-001 6.409448e-001 -3.550112e-005 2.066574e-005 1.021678e+000 -1.058520e-001
318525000 5.242062e-005 1.343882e-005 -4.871105e-001 6.572607e-001 -8.410870e-005 3.597909e-005 1.021990e+000 -1.063133e-001
318810000 -2.563840e-005 -6.820398e-005 -4.705548e-001 6.745715e-001 -3.513273e-005 1.162722e-004 1.022450e+000 -1.057388e-001
319095000 -1.138137e-004 1.020586e-005 -4.526983e-001 6.908917e-001 6.919837e-005 -6.018497e-005 1.019557e+000 -1.060524e-001
319380000 5.370661e-006 2.698867e-005 -4.348000e-001 7.068847e-001 -1.256447e-004 -6.412665e-005 1.023024e+000 -1.070427e-001
319665000 -2.054533e-005 -2.550029e-005 -4.164057e-001 7.225816e-001 -5.594087e-005 -1.405250e-005 1.022571e+000 -1.077211e-001
319950000 8.799450e-006 -1.918074e-005 -3.969772e-001 7.385233e-001 -4.355338e-005 3.127173e-005 1.021373e+000 -1.083104e-001
320235000 -3.571781e-005 -9.253145e-006 -3.773758e-001 7.539634e-001 4.202225e-005 -5.197438e-005 1.022617e+000 -1.078343e-001
320520000 7.301431e-005 2.308410e-006 -3.566262e-001 7.688019e-001 3.074236e-005 -8.757815e-006 1.022723e+000 -1.072600e-001
320805000 3.496189e-005 2.961985e-005 -3.355926e-001 7.836590e-001 7.092721e-005 7.248574e-005 1.021743e+000 -1.063882e-001
321090000 4.713830e-005 -6.465295e-006 -3.135794e-001 7.982772e-001 5.879248e-005 -9.712265e-005 1.022065e+000 -1.061939e-001
321375000 1.650952e-004 -2.398207e-005 -2.905798e-001 8.123716e-001 4.238662e-005 1.125112e-004 1.022730e+000 -1.061822e-001
321660000 5.678171e-005 1.091580e-004 -2.669089e-001 8.252007e-001 4.568030e-005 4.316652e-005 1.024405e+000 -1.056143e-001
321945000 4.097004e-006 3.251574e-005 -2.427218e-001 8.384896e-001 -1.948631e-005 6.229329e-005 1.021403e+000 -1.074810e-001
322230000 -7.082834e-005 1.030210e-004 -2.178497e-001 8.512270e-001 -7.331286e-006 -8.584954e-006 1.022232e+000 -1.089150e-001
322515000 5.862305e-005 3.683451e-005 -1.919951e-001 8.628513e-001 -2.535848e-005 -9.664502e-005 1.022291e+000 -1.090689e-001
322800000 5.665510e-006 3.517132e-005 -1.648944e-001 8.740466e-001 5.522553e-006 -6.596190e-005 1.023244e+000 -1.069242e-001
323085000 3.524200e-005 7.006079e-005 -1.381271e-001 8.848480e-001 -8.481987e-006 -4.179178e-005 1.022545e+000 -1.089355e-001
323370000 -3.360800e-005 -1.031365e-005 -1.101144e-001 8.946041e-001 -2.067736e-005 -4.909008e-005 1.022578e+000 -1.089238e-001
323655000 -4.612081e-005 8.990031e-005 -8.125629e-002 9.026976e-001 -6.455331e-005 -7.569374e-005 1.021605e+000 -1.095948e-001
323940000 -2.560567e-005 1.570539e-005 -5.190609e-002 9.112810e-001 -1.877410e-005 -9.517892e-005 1.022548e+000 -1.088956e-001
324225000 1.336673e-006 1.028305e-005 -2.145017e-002 9.184026e-001 -2.014376e-005 -1.140764e-004 1.020327e+000 -1.091465e-001
324510000 3.692944e-005 4.644284e-005 9.704348e-003 9.245555e-001 7.036897e-005 7.193206e-005 1.024727e+000 -1.100321e-001
324795000 -1.595179e-006 -1.772006e-005 4.040183e-002 9.298488e-001 -1.220218e-004 6.330852e-005 1.023032e+000 -1.085386e-001
325080000 -5.899295e-005 4.922604e-006 7.279525e-002 9.338722e-001 -1.408078e-005 1.210698e-004 1.023050e+000 -1.085132e-001
325365000 1.027332e-004 -6.186349e-006 1.059521e-001 9.362400e-001 -2.302982e-005 -7.737495e-006 1.022758e+000 -1.099899e-001
325650000 -5.870745e-005 3.060971e-005 1.392800e-001 9.378910e-001 8.137190e-005 3.506326e-005 1.022610e+000 -1.089229e-001
325935000 -9.302195e-006 9.367737e-005 1.734645e-001 9.379028e-001 -8.832326e-005 9.982754e-005 1.023371e+000 -1.094054e-001
326220000 7.602404e-005 1.980666e-005 2.076230e-001 9.371560e-001 -2.163675e-006 -6.736534e-005 1.023216e+000 -1.102747e-001
326505000 4.103456e-005 1.144505e-005 2.425388e-001 9.350396e-001 -7.002375e-005 -3.404656e-005 1.022804e+000 -1.089419e-001
326790000 3.298672e-005 2.223468e-005 2.776907e-001 9.309550e-001 5.420050e-005 -1.026752e-005 1.021608e+000 -1.091698e-001
327075000 -8.021003e-005 3.030928e-005 3.134300e-001 9.251052e-001 9.963787e-005 -1.439007e-004 1.022237e+000 -1.099741e-001
327360000 -2.882335e-005 -2.806281e-005 3.484088e-001 9.184548e-001 3.011592e-005 -1.073065e-004 1.024642e+000 -1.109426e-001
327645000 -3.933020e-006 -3.684144e-005 3.845350e-001 9.094799e-001 7.216125e-005 2.805528e-005 1.022407e+000 -1.101981e-001
327930000 -2.075287e-005 -2.348700e-005 4.200371e-001 8.988173e-001 5.253598e-005 3.036069e-005 1.021970e+000 -1.100589e-001
328215000 5.697199e-005 -2.615166e-005 4.560831e-001 8.871983e-001 1.290712e-006 -3.571533e-005 1.021907e+000 -1.105360e-001
328500000 4.814898e-006 -1.076304e-004 4.917282e-001 8.729564e-001 5.477205e-005 4.438587e-005 1.022302e+000 -1.103397e-001
328785000 3.294138e-005 -2.469736e-005 5.271976e-001 8.576759e-001 -3.321116e-005 2.923810e-005 1.022320e+000 -1.104387e-001
329070000 6.526240e-005 6.564439e-005 5.616443e-001 8.403345e-001 -5.232216e-005 -1.658143e-005 1.022276e+000 -1.093183e-001
329355000 8.774449e-005 -9.280083e-005 5.955468e-001 8.211106e-001 1.722783e-005 2.678155e-005 1.023481e+000 -1.108597e-001
329640000 1.160089e-004 4.204985e-005 6.290479e-001 8.001148e-001 -1.198918e-005 -7.985193e-005 1.023095e+000 -1.107729e-001
329925000 7.290281e-006 1.724159e-005 6.613123e-001 7.774468e-001 -4.498550e-005 -2.010288e-006 1.022111e+000 -1.108022e-001
330210000 -6.167744e-005 4.825160e-005 6.939134e-001 7.532631e-001 5.407112e-005 7.135318e-005 1.022564e+000 -1.115822e-001
330495000 -1.137572e-005 3.321752e-005 7.243687e-001 7.275731e-001 1.062274e-004 -5.372756e-005 1.022325e+000 -1.111105e-001
330780000 -6.223108e-005 7.035404e-005 7.544340e-001 7.001239e-001 7.130818e-005 -9.532925e-005 1.023419e+000 -1.117423e-001
331065000 1.967724e-005 4.302875e-005 7.824077e-001 6.701175e-001 -1.886357e-004 -1.764678e-005 1.020519e+000 -1.099950e-001
331350000 1.763601e-005 -5.924232e-006 8.095292e-001 6.400268e-001 2.905870e-005 7.344696e-005 1.021989e+000 -1.109176e-001
331635000 8.126062e-006 4.762852e-005 8.348948e-001 6.086806e-001 1.030282e-005 5.898306e-005 1.023364e+000 -1.113263e-001
331920000 -6.565500e-005 -1.519192e-004 8.588673e-001 5.750187e-001 -2.629941e-005 2.486953e-005 1.022674e+000 -1.105027e-001
332205000 4.222779e-005 -7.834388e-005 8.820084e-001 5.408669e-001 -1.193039e-004 3.490160e-005 1.023220e+000 -1.133949e-001
332490000 -5.272395e-006 1.013297e-005 9.028345e-001 5.047571e-001 -5.362197e-005 3.846667e-005 1.023365e+000 -1.121165e-001
332775000 3.575598e-005 -8.410959e-005 9.212418e-001 4.689227e-001 1.659789e-005 1.433935e-005 1.022642e+000 -1.132126e-001
333060000 -5.858564e-005 -6.671911e-005 9.384996e-001 4.320536e-001 1.033237e-004 6.784504e-006 1.023348e+000 -1.118840e-001
333345000 1.358161e-005 -1.873913e-005 9.527740e-001 3.944226e-001 -5.328296e-005 -2.432378e-005 1.023789e+000 -1.114265e-001
333630000 4.427674e-005 -3.672124e-005 9.666734e-001 3.555481e-001 2.969751e-006 -2.397115e-005 1.022743e+000 -1.135252e-001
333915000 1.285050e-004 -4.207601e-005 9.777752e-001 3.165752e-001 -7.591702e-005 -1.277181e-004 1.022767e+000 -1.125907e-001
334200000 6.453980e-005 7.575042e-006 9.869242e-001 2.782476e-001 -6.401502e-005 -4.690537e-005 1.022965e+000 -1.143356e-001
334485000 -4.439791e-005 -1.810688e-005 9.953206e-001 2.383025e-001 1.178075e-006 3.298905e-005 1.022410e+000 -1.125079e-001
334770000 1.524563e-005 -7.191223e-005 1.000388e+000 1.988015e-001 -5.458651e-005 -5.955672e-005 1.022261e+000 -1.126170e-001
335055000 5.973583e-006 -7.994479e-005 1.004184e+000 1.606625e-001 -4.664672e-005 -3.257304e-005 1.023765e+000 -1.125636e-001
335340000 1.183238e-004 -2.704820e-005 1.005953e+000 1.209877e-001 3.533546e-005 -3.302499e-005 1.022735e+000 -1.145805e-001
335625000 1.622515e-005 -4.193565e-005 1.006062e+000 8.208872e-002 5.668681e-006 1.107456e-004 1.022129e+000 -1.138922e-001
335910000 -6.558753e-005 8.008802e-005 1.003281e+000 4.417591e-002 -9.295946e-005 -3.078159e-005 1.021708e+000 -1.128481e-001
336195000 -8.316805e-005 8.073977e-005 1.000066e+000 6.811521e-003 3.665280e-005 3.646813e-005 1.021213e+000 -1.143557e-001
336480000 -6.500452e-005 -9.828144e-005 9.943960e-001 -3.067086e-002 -5.960465e-006 -5.568903e-005 1.022994e+000 -1.126878e-001
336765000 -3.949490e-005 -6.222630e-005 9.887314e-001 -6.683145e-002 -2.089985e-005 4.844570e-006 1.023005e+000 -1.143539e-001
337050000 -1.037268e-004 4.940196e-005 9.802499e-001 -1.026889e-001 2.762425e-005 2.012685e-005 1.022836e+000 -1.134139e-001
337335000 2.905943e-005 -4.538280e-005 9.706460e-001 -1.377653e-001 7.265426e-005 5.676207e-005 1.021935e+000 -1.149143e-001
337620000 7.958978e-006 -4.508252e-005 9.598861e-001 -1.717319e-001 -7.519808e-005 -1.801398e-006 1.022123e+000 -1.163859e-001
337905000 -7.616521e-005 4.355638e-005 9.478047e-001 -2.049490e-001 -1.267178e-005 -2.350480e-005 1.021109e+000 -1.140295e-001
338190000 -5.976969e-005 -6.017366e-006 9.339519e-001 -2.369965e-001 -8.225205e-005 1.004792e-005 1.022608e+000 -1.146234e-001
338475000 7.869263e-006 3.175382e-005 9.200701e-001 -2.681671e-001 1.764455e-005 5.620558e-005 1.023536e+000 -1.136360e-001
338760000 2.718984e-006 8.970543e-005 9.045734e-001 -2.977671e-001 -1.264091e-005 -9.501438e-005 1.023432e+000 -1.138918e-001
339045000 -9.997625e-006 4.737165e-005 8.884452e-001 -3.266683e-001 8.355334e-005 1.889361e-005 1.022710e+000 -1.140416e-001
339330000 6.441449e-006 6.787844e-005 8.712534e-001 -3.553583e-001 -5.889710e-005 2.575774e-005 1.023180e+000 -1.140226e-001
339615000 -4.179528e-005 3.600710e-005 8.537679e-001 -3.819784e-001 6.745857e-006 -4.654924e-005 1.023136e+000 -1.151666e-001
339900000 2.895229e-006 -1.839233e-005 8.346950e-001 -4.075695e-001 -2.331450e-005 5.363075e-005 1.022348e+000 -1.155759e-001
340185000 -2.581747e-005 -7.817104e-005 8.156406e-001 -4.326718e-001 7.072145e-005 -1.081481e-004 1.023314e+000 -1.158388e-001
340470000 5.088667e-005 -8.748603e-005 7.955359e-001 -4.563443e-001 -3.154578e-005 5.314538e-005 1.022205e+000 -1.144463e-001
340755000 6.283005e-005 -8.451177e-006 7.754481e-001 -4.789839e-001 5.318272e-005 -5.991983e-005 1.022311e+000 -1.156444e-001
341040000 3.879886e-005 1.520496e-005 7.554086e-001 -5.008394e-001 3.693579e-005 -4.655916e-005 1.021648e+000 -1.154381e-001
341325000 7.553565e-005 -2.031176e-005 7.340528e-001 -5.215533e-001 7.901012e-006 -3.180527e-005 1.022454e+000 -1.141712e-001
341610000 1.471014e-004 1.314845e-005 7.132573e-001 -5.412152e-001 1.280066e-004 1.066522e-006 1.022707e+000 -1.135440e-001
341895000 5.229668e-005 -1.701661e-005 6.907281e-001 -5.597998e-001 -5.391939e-006 -3.763300e-005 1.022638e+000 -1.161164e-001
342180000 1.329985e-004 1.879230e-005 6.696578e-001 -5.768817e-001 -5.604898e-005 -2.954305e-006 1.024507e+000 -1.162215e-001
342465000 -6.623681e-006 4.213486e-005 6.476613e-001 -5.942179e-001 -6.674265e-007 6.473714e-005 1.021818e+000 -1.162766e-001
342750000 -8.063724e-005 4.698969e-005 6.253703e-001 -6.104034e-001 7.416446e-005 1.082770e-005 1.024966e+000 -1.153322e-001
343035000 -8.707220e-006 7.405044e-005 6.026439e-001 -6.251156e-001 6.667506e-005 3.240646e-005 1.021727e+000 -1.173507e-001
343320000 -1.572225e-005 6.351811e-005 5.798255e-001 -6.393970e-001 -4.560088e-005 3.965789e-005 1.022726e+000 -1.168815e-001
343605000 -4.583030e-005 8.341924e-006 5.582904e-001 -6.524389e-001 1.697524e-005 2.112756e-005 1.022031e+000 -1.156914e-001
343890000 -1.157636e-005 1.186292e-005 5.351397e-001 -6.653096e-001 -6.937651e-005 -1.665692e-005 1.023092e+000 -1.166395e-001
