!Agilent Technologies,N5230C,SG49000117,A.08.50.07
!Agilent N5230C: A.08.50.07
!Date: Sunday, March 17, 2024 02:33:12
!Correction: S11(Off) 
!S21(Off) 
!S12(Off) 
!S22(Off) 
!S2P File: Measurements: S11, S21, S12, S22:
# Hz S  RI   R 50
300000000 1.304745e-006 -6.232929e-005 -5.971689e-001 -6.826376e-001 2.710327e-005 1.525637e-004 -5.994400e-001 -6.849784e-001
300285000 -9.016714e-005 3.072044e-005 -6.139140e-001 -6.602314e-001 4.762403e-005 9.698131e-005 -6.161606e-001 -6.620781e-001
300570000 5.533901e-005 -4.686257e-005 -6.294281e-001 -6.368673e-001 -4.745950e-005 1.676024e-004 -6.323107e-001 -6.393166e-001
300855000 1.389021e-005 -2.793874e-005 -6.443881e-001 -6.134767e-001 3.931982e-005 7.881465e-005 -6.471364e-001 -6.158869e-001
301140000 -7.913519e-005 9.103402e-005 -6.585588e-001 -5.900586e-001 2.001845e-005 4.903153e-005 -6.612931e-001 -5.924663e-001
301425000 -4.526502e-005 7.916186e-005 -6.720843e-001 -5.663746e-001 2.993445e-005 1.151889e-004 -6.748016e-001 -5.688409e-001
301710000 -5.226845e-005 -9.558077e-006 -6.840570e-001 -5.434850e-001 2.278032e-005 9.417212e-005 -6.865249e-001 -5.447419e-001
301995000 -7.914336e-006 9.195693e-005 -6.957015e-001 -5.195534e-001 -8.219887e-005 -2.461667e-005 -6.982321e-001 -5.215037e-001
302280000 -9.001720e-005 -1.659940e-005 -7.064054e-001 -4.959863e-001 -3.763306e-006 5.869889e-005 -7.089742e-001 -4.977792e-001
302565000 -8.039516e-005 6.852130e-005 -7.162400e-001 -4.727997e-001 -1.516166e-005 -2.040984e-005 -7.189844e-001 -4.749373e-001
302850000 -4.274448e-005 -1.894478e-005 -7.253239e-001 -4.496898e-001 -7.231074e-005 -1.103132e-004 -7.279255e-001 -4.512987e-001
303135000 4.967067e-005 -3.431979e-005 -7.340422e-001 -4.266749e-001 -3.528020e-005 -9.618673e-005 -7.364995e-001 -4.276922e-001
303420000 4.934969e-005 -8.840220e-005 -7.413683e-001 -4.034416e-001 4.307219e-005 -8.600068e-005 -7.443060e-001 -4.045668e-001
303705000 2.917165e-005 2.347252e-005 -7.484672e-001 -3.803635e-001 1.202335e-004 -7.188896e-005 -7.511281e-001 -3.811067e-001
303990000 -7.187836e-005 -3.134230e-005 -7.551034e-001 -3.569121e-001 1.081881e-004 -3.537591e-005 -7.582063e-001 -3.584822e-001
304275000 1.465525e-004 4.224676e-005 -7.606639e-001 -3.338632e-001 1.128599e-004 -6.056152e-006 -7.642722e-001 -3.355915e-001
304560000 4.716847e-005 -4.530381e-005 -7.660741e-001 -3.115719e-001 -3.896851e-005 2.569445e-005 -7.691016e-001 -3.125488e-001
304845000 1.810356e-004 1.060227e-004 -7.709016e-001 -2.888832e-001 8.758365e-005 7.262023e-006 -7.733851e-001 -2.904508e-001
305130000 7.226774e-005 -3.713395e-005 -7.746880e-001 -2.665310e-001 1.314492e-005 -2.496947e-005 -7.778511e-001 -2.674743e-001
305415000 -4.232998e-005 -3.507025e-005 -7.784109e-001 -2.443036e-001 8.870361e-005 2.549073e-005 -7.817345e-001 -2.447550e-001
305700000 5.526199e-005 1.937390e-005 -7.819328e-001 -2.222328e-001 -2.994436e-005 4.875468e-005 -7.843542e-001 -2.229571e-001
305985000 -2.895802e-005 1.240322e-004 -7.834629e-001 -1.999292e-001 4.790143e-005 -2.569135e-005 -7.872083e-001 -2.006698e-001
306270000 -3.271461e-005 -4.511283e-005 -7.863501e-001 -1.782116e-001 -1.228503e-004 3.514973e-005 -7.889469e-001 -1.790409e-001
306555000 -4.645870e-005 4.523014e-005 -7.875310e-001 -1.566840e-001 -8.522360e-005 2.427458e-005 -7.903264e-001 -1.565818e-001
306840000 -1.918701e-005 -9.279676e-006 -7.888199e-001 -1.347830e-001 -1.240187e-004 1.274384e-004 -7.916794e-001 -1.352372e-001
307125000 9.052299e-005 -4.275548e-005 -7.892516e-001 -1.134355e-001 1.960042e-005 -5.578648e-005 -7.924241e-001 -1.138728e-001
307410000 6.041100e-005 -6.105309e-005 -7.894889e-001 -9.223893e-002 2.524471e-005 2.915383e-005 -7.923194e-001 -9.248862e-002
307695000 5.975591e-005 -9.358158e-005 -7.888172e-001 -7.133199e-002 -6.359330e-005 8.427836e-006 -7.921037e-001 -7.086853e-002
307980000 -7.027811e-006 1.133340e-005 -7.888080e-001 -5.006415e-002 -6.852326e-006 7.803310e-006 -7.920225e-001 -5.024422e-002
308265000 1.044965e-006 -6.727054e-005 -7.876161e-001 -2.934914e-002 3.651184e-006 -1.515852e-005 -7.906268e-001 -2.990189e-002
308550000 -7.405037e-005 -6.883666e-005 -7.862059e-001 -8.514365e-003 -1.154079e-005 5.929190e-005 -7.891606e-001 -8.702618e-003
308835000 1.077521e-004 -6.556265e-005 -7.841639e-001 1.163166e-002 -4.830409e-005 -5.100470e-005 -7.873372e-001 1.184678e-002
309120000 1.628522e-005 -6.031059e-005 -7.823476e-001 3.232120e-002 -1.924353e-005 -7.083257e-005 -7.851710e-001 3.253864e-002
309405000 -2.566159e-005 1.131188e-006 -7.794152e-001 5.240477e-002 6.626569e-005 -1.288969e-004 -7.823976e-001 5.259639e-002
309690000 9.616362e-005 1.025840e-004 -7.761748e-001 7.280654e-002 4.043070e-006 3.739044e-005 -7.798383e-001 7.253853e-002
309975000 5.786239e-005 -3.029770e-005 -7.734501e-001 9.255099e-002 1.779892e-005 -1.364609e-004 -7.763414e-001 9.334487e-002
310260000 -3.296898e-005 1.025938e-004 -7.699203e-001 1.128941e-001 9.704161e-005 1.508227e-006 -7.725135e-001 1.132062e-001
310545000 4.341757e-005 -3.928762e-005 -7.657511e-001 1.324665e-001 9.125481e-007 6.416493e-005 -7.688893e-001 1.330133e-001
310830000 -1.040428e-004 -1.037925e-005 -7.612951e-001 1.521745e-001 8.271656e-005 1.874268e-006 -7.637612e-001 1.528559e-001
311115000 -2.598028e-005 -3.711303e-005 -7.564464e-001 1.718507e-001 -1.090762e-005 1.151515e-004 -7.598649e-001 1.724653e-001
311400000 -5.933517e-005 1.043741e-004 -7.511671e-001 1.908842e-001 5.150790e-005 3.282347e-005 -7.543732e-001 1.920468e-001
311685000 4.088573e-006 -2.403433e-006 -7.463229e-001 2.109580e-001 4.159073e-005 7.752463e-006 -7.484894e-001 2.120914e-001
311970000 -3.732288e-005 -8.751886e-005 -7.407283e-001 2.299962e-001 1.202399e-004 2.880198e-005 -7.429598e-001 2.305708e-001
312255000 1.627768e-005 -5.526582e-005 -7.333996e-001 2.490700e-001 -5.501670e-005 -4.993622e-005 -7.368529e-001 2.503105e-001
312540000 -4.045861e-005 5.661111e-005 -7.274240e-001 2.682924e-001 3.206110e-005 -1.581687e-004 -7.301913e-001 2.690960e-001
312825000 -3.426922e-005 -9.547289e-005 -7.206460e-001 2.874823e-001 -4.690276e-005 -4.505485e-005 -7.230564e-001 2.884114e-001
313110000 1.279759e-007 -1.065742e-005 -7.135636e-001 3.056604e-001 -5.299921e-005 -3.478607e-005 -7.158520e-001 3.079243e-001
313395000 -1.788477e-006 -5.062431e-005 -7.056296e-001 3.251146e-001 -1.022811e-004 -2.411297e-005 -7.084122e-001 3.263060e-001
313680000 8.266286e-005 6.862461e-006 -6.982894e-001 3.440472e-001 -9.130460e-005 -8.400506e-005 -7.003893e-001 3.456011e-001
313965000 5.269608e-005 -8.545860e-005 -6.888788e-001 3.625485e-001 3.826621e-005 3.727477e-005 -6.923273e-001 3.641269e-001
314250000 1.904239e-005 -2.638575e-005 -6.807211e-001 3.809388e-001 1.184103e-004 -2.117722e-005 -6.833752e-001 3.826205e-001
314535000 -3.668090e-005 -1.020905e-005 -6.715001e-001 3.994611e-001 2.426289e-006 9.582732e-005 -6.742665e-001 4.021241e-001
314820000 -1.493897e-005 -7.298533e-005 -6.622688e-001 4.180146e-001 1.524064e-004 -4.013591e-005 -6.645907e-001 4.201898e-001
315105000 1.120741e-004 1.231183e-004 -6.517940e-001 4.364198e-001 2.670621e-005 1.038496e-004 -6.548197e-001 4.382277e-001
315390000 1.099082e-004 -2.333902e-005 -6.413825e-001 4.554318e-001 5.073216e-005 6.434052e-006 -6.441821e-001 4.568542e-001
315675000 2.018559e-005 5.030810e-005 -6.302643e-001 4.730365e-001 -2.341858e-005 3.804998e-005 -6.330845e-001 4.749860e-001
315960000 -7.561237e-005 -2.533267e-005 -6.190290e-001 4.915569e-001 5.526169e-006 1.583184e-004 -6.216271e-001 4.934780e-001
316245000 1.808824e-005 -1.151203e-005 -6.077728e-001 5.091786e-001 -3.593531e-005 -3.602132e-005 -6.102701e-001 5.108783e-001
316530000 -6.571155e-005 -3.660467e-005 -5.958191e-001 5.275567e-001 -9.822037e-005 -2.683657e-005 -5.981080e-001 5.292596e-001
316815000 -9.601975e-005 5.809475e-005 -5.826045e-001 5.450730e-001 4.314185e-005 -1.161322e-004 -5.854937e-001 5.475197e-001
317100000 -3.432768e-005 -9.426753e-005 -5.699123e-001 5.630480e-001 8.689454e-005 2.870383e-005 -5.721999e-001 5.650365e-001
317385000 1.056933e-005 -7.150899e-005 -5.556585e-001 5.803370e-001 1.177682e-004 -1.131555e-004 -5.581167e-001 5.826541e-001
317670000 -1.130761e-004 -1.731678e-005 -5.416902e-001 5.976759e-001 4.301216e-005 5.803082e-005 -5.438371e-001 6.006777e-001
317955000 7.691460e-006 -4.346043e-005 -5.266786e-001 6.152074e-001 -3.342933e-005 6.494291e-005 -5.292219e-001 6.182228e-001
318240000 7.349170e-006 -9.469222e-005 -5.116384e-001 6.327950e-001 -1.931659e-005 7.588400e-005 -5.140054e-001 6.348996e-001
318525000 -1.182896e-006 2.892007e-006 -4.959450e-001 6.497336e-001 -2.944037e-006 -6.349817e-005 -4.977733e-001 6.526560e-001
318810000 5.482744e-006 2.675634e-005 -4.791571e-001 6.661325e-001 3.295437e-005 -2.013021e-006 -4.810346e-001 6.686688e-001
319095000 -8.428871e-006 -9.019722e-005 -4.624533e-001 6.831452e-001 8.275434e-006 -1.455383e-005 -4.646763e-001 6.856015e-001
319380000 -7.495155e-005 1.889395e-005 -4.446959e-001 6.993412e-001 3.386690e-005 -7.227887e-005 -4.463742e-001 7.026491e-001
319665000 1.078176e-005 -2.716445e-005 -4.264967e-001 7.156797e-001 1.100886e-004 -3.594529e-005 -4.279660e-001 7.184787e-001
319950000 -4.588373e-005 -7.717081e-006 -4.073729e-001 7.309849e-001 2.480409e-005 5.181524e-005 -4.092660e-001 7.337953e-001
320235000 4.936830e-005 -1.401868e-005 -3.881948e-001 7.469977e-001 7.575051e-005 -9.427956e-005 -3.897977e-001 7.499964e-001
320520000 3.887104e-005 -6.495059e-005 -3.674013e-001 7.629579e-001 6.669175e-007 -1.994306e-005 -3.690543e-001 7.656541e-001
320805000 -1.162845e-004 2.697427e-005 -3.468496e-001 7.773361e-001 -2.708782e-005 1.077461e-004 -3.480901e-001 7.805213e-001
321090000 3.344149e-005 -1.270116e-004 -3.251028e-001 7.917363e-001 -2.785524e-006 1.755573e-005 -3.260288e-001 7.953719e-001
321375000 -8.726583e-006 3.815298e-006 -3.027317e-001 8.063287e-001 -1.155495e-006 9.753375e-005 -3.039303e-001 8.095689e-001
321660000 7.428841e-005 -7.063500e-005 -2.794540e-001 8.199435e-001 2.788400e-005 4.468607e-005 -2.805949e-001 8.231760e-001
321945000 -2.365711e-005 -4.713200e-007 -2.555178e-001 8.332109e-001 -7.443921e-005 -2.288488e-005 -2.566572e-001 8.363881e-001
322230000 -6.888989e-005 -1.246648e-005 -2.308828e-001 8.457708e-001 -4.533796e-005 -6.590671e-005 -2.321260e-001 8.491693e-001
322515000 -7.913632e-005 1.803571e-005 -2.053172e-001 8.579944e-001 3.758514e-006 8.478202e-005 -2.060904e-001 8.621683e-001
322800000 -6.387723e-005 2.207345e-005 -1.790965e-001 8.695313e-001 -1.017997e-004 -3.146143e-005 -1.800262e-001 8.733196e-001
323085000 -4.508887e-005 -1.018120e-004 -1.523971e-001 8.802471e-001 1.862420e-006 5.464327e-005 -1.529766e-001 8.838281e-001
323370000 3.779346e-005 -3.145634e-005 -1.248417e-001 8.906133e-001 4.379212e-006 3.602720e-006 -1.253846e-001 8.942518e-001
323655000 1.074090e-004 3.727892e-005 -9.625310e-002 9.000325e-001 6.395097e-005 -7.253718e-006 -9.653940e-002 9.036452e-001
323940000 1.495850e-005 -2.699830e-005 -6.702089e-002 9.085842e-001 -1.782028e-005 -2.355754e-005 -6.765977e-002 9.119754e-001
324225000 2.353682e-005 9.420831e-005 -3.688174e-002 9.161726e-001 3.160859e-005 5.814798e-005 -3.710927e-002 9.200243e-001
324510000 9.959270e-005 -5.863019e-005 -6.270957e-003 9.228167e-001 6.342227e-005 1.877139e-005 -6.288838e-003 9.260836e-001
324795000 -1.066185e-005 -9.948046e-005 2.490414e-002 9.287565e-001 -2.104029e-005 6.496318e-005 2.490624e-002 9.327646e-001
325080000 -7.116731e-005 1.104919e-004 5.679820e-002 9.327446e-001 2.204037e-005 -8.720423e-006 5.681387e-002 9.371277e-001
325365000 2.404070e-005 7.018352e-006 8.973226e-002 9.364670e-001 1.297227e-005 -6.310960e-005 9.007204e-002 9.400669e-001
325650000 7.273967e-005 1.672617e-006 1.226880e-001 9.385408e-001 3.131252e-005 1.148987e-004 1.230358e-001 9.420626e-001
325935000 -8.722734e-005 4.438421e-005 1.561476e-001 9.399167e-001 -1.713138e-005 3.630930e-005 1.569489e-001 9.432560e-001
326220000 -2.816803e-005 -4.962260e-005 1.905762e-001 9.395695e-001 4.452933e-005 2.033677e-005 1.919364e-001 9.431878e-001
326505000 9.966183e-005 4.894373e-005 2.256556e-001 9.378079e-001 -6.071984e-005 -1.217320e-005 2.267402e-001 9.415683e-001
326790000 -1.128540e-005 3.692116e-005 2.606817e-001 9.345128e-001 -1.162875e-004 -3.200573e-005 2.615429e-001 9.378608e-001
327075000 -5.274005e-005 3.236056e-005 2.961425e-001 9.296775e-001 -4.994961e-005 9.543333e-006 2.972211e-001 9.325904e-001
327360000 4.111441e-005 -3.185784e-006 3.316311e-001 9.226658e-001 -6.027224e-005 -9.722377e-006 3.326153e-001 9.267680e-001
327645000 9.147132e-005 6.219423e-006 3.675302e-001 9.151483e-001 6.772822e-005 -1.269030e-005 3.685617e-001 9.191356e-001
327930000 9.624871e-007 -1.834309e-005 4.031666e-001 9.056361e-001 -2.295622e-005 3.318415e-005 4.050822e-001 9.092710e-001
328215000 1.306512e-005 -3.393439e-005 4.386033e-001 8.941939e-001 9.416737e-005 4.987296e-005 4.405437e-001 8.977076e-001
328500000 -3.129988e-006 1.280293e-005 4.744715e-001 8.810291e-001 -1.137104e-005 8.367776e-005 4.761156e-001 8.850221e-001
328785000 -2.906811e-005 1.122352e-004 5.099550e-001 8.662589e-001 -7.695877e-005 4.177589e-005 5.121475e-001 8.698847e-001
329070000 1.041919e-004 1.112201e-004 5.446061e-001 8.496490e-001 -4.347610e-005 1.496170e-005 5.471283e-001 8.534114e-001
329355000 -5.111498e-005 -2.973041e-005 5.796844e-001 8.315188e-001 -8.755636e-005 1.591290e-005 5.809171e-001 8.349627e-001
329640000 -3.485784e-005 -2.233054e-005 6.132934e-001 8.118387e-001 -3.102175e-005 -5.306730e-005 6.156288e-001 8.151464e-001
329925000 -4.357840e-006 7.044906e-005 6.469308e-001 7.891684e-001 -5.626053e-005 8.930059e-005 6.495728e-001 7.929640e-001
330210000 -6.835838e-005 -1.195572e-004 6.789922e-001 7.660754e-001 2.410047e-005 -4.184117e-005 6.818749e-001 7.693037e-001
330495000 -1.634689e-004 1.000725e-004 7.100825e-001 7.412171e-001 -5.869307e-005 -1.228192e-004 7.128395e-001 7.441201e-001
330780000 -5.532604e-005 -5.672888e-005 7.405507e-001 7.142557e-001 4.035535e-005 -2.598068e-005 7.430403e-001 7.172095e-001
331065000 -4.227801e-005 -3.854300e-005 7.692567e-001 6.857300e-001 7.215160e-005 -3.794169e-005 7.720699e-001 6.893321e-001
331350000 7.414918e-005 -4.827049e-005 7.965736e-001 6.558116e-001 8.624457e-005 1.941113e-005 7.998244e-001 6.582862e-001
331635000 7.253667e-006 -5.751464e-005 8.225853e-001 6.244017e-001 -5.632419e-006 9.792221e-005 8.271320e-001 6.278126e-001
331920000 6.380452e-005 -2.181122e-005 8.485278e-001 5.919870e-001 3.430217e-005 1.177102e-004 8.519692e-001 5.942640e-001
332205000 5.146445e-005 -1.708970e-005 8.717306e-001 5.579802e-001 -1.369874e-005 2.399032e-005 8.753631e-001 5.606591e-001
332490000 9.308914e-006 3.668437e-005 8.929034e-001 5.238333e-001 -1.096831e-005 -2.092751e-005 8.966811e-001 5.257634e-001
332775000 1.147949e-004 -8.074372e-005 9.122108e-001 4.876635e-001 1.813866e-005 1.098873e-004 9.162851e-001 4.900639e-001
333060000 -8.325417e-005 -2.659003e-005 9.306995e-001 4.505630e-001 -2.226491e-005 -1.820024e-005 9.346009e-001 4.530538e-001
333345000 -7.356177e-005 2.366076e-005 9.462159e-001 4.128299e-001 -6.051026e-005 3.596793e-005 9.502570e-001 4.151672e-001
333630000 -1.097166e-005 9.871105e-005 9.606268e-001 3.748958e-001 8.157990e-005 2.786196e-006 9.647159e-001 3.763494e-001
333915000 2.762164e-005 2.886745e-005 9.729182e-001 3.363915e-001 -9.833900e-005 3.660690e-005 9.767072e-001 3.378571e-001
334200000 4.356446e-006 -2.898548e-006 9.830695e-001 2.975060e-001 -6.615227e-006 6.823846e-005 9.868989e-001 2.986323e-001
334485000 9.345193e-005 -5.416909e-005 9.919230e-001 2.578216e-001 -7.507366e-005 2.747214e-005 9.958593e-001 2.593902e-001
334770000 1.163755e-004 -1.170039e-005 9.978346e-001 2.185958e-001 3.462309e-005 -5.107872e-006 1.002505e+000 2.197747e-001
335055000 7.967584e-005 -2.874462e-005 1.002488e+000 1.794532e-001 -4.007575e-005 -5.814002e-005 1.006677e+000 1.809931e-001
335340000 7.761183e-005 5.638705e-005 1.004883e+000 1.409910e-001 -8.133052e-005 5.868059e-005 1.009316e+000 1.410998e-001
335625000 2.989191e-005 2.161153e-005 1.005556e+000 1.018449e-001 -1.294800e-004 -1.201769e-005 1.010058e+000 1.020808e-001
335910000 -3.509113e-005 -5.236434e-005 1.004930e+000 6.327201e-002 1.137737e-004 1.783177e-005 1.009172e+000 6.369937e-002
336195000 -5.604342e-005 5.958309e-005 1.002535e+000 2.598144e-002 -3.867741e-005 -5.808325e-005 1.006345e+000 2.559033e-002
336480000 8.342976e-005 -3.219119e-005 9.982036e-001 -1.184143e-002 -3.457205e-005 3.191141e-005 1.002006e+000 -1.184182e-002
336765000 -3.789063e-005 -1.807810e-006 9.919593e-001 -4.887429e-002 -4.367936e-005 1.765715e-006 9.969901e-001 -4.916078e-002
337050000 3.728927e-005 8.920489e-006 9.847674e-001 -8.531080e-002 -7.094113e-006 -5.868720e-005 9.884572e-001 -8.514700e-002
337335000 -7.041457e-005 7.641735e-005 9.756981e-001 -1.198757e-001 8.305828e-005 1.144079e-004 9.793631e-001 -1.206112e-001
337620000 1.087223e-004 -3.045063e-005 9.657832e-001 -1.547334e-001 2.350871e-005 -5.618504e-005 9.696717e-001 -1.548242e-001
337905000 2.839303e-006 -4.163258e-006 9.542187e-001 -1.881648e-001 -1.326116e-004 -1.208452e-005 9.580353e-001 -1.887172e-001
338190000 -2.116791e-005 -4.071671e-006 9.417096e-001 -2.201076e-001 -1.296727e-005 -2.390938e-005 9.453249e-001 -2.213945e-001
338475000 -4.498483e-005 2.479791e-005 9.283777e-001 -2.516048e-001 1.645236e-005 4.383654e-006 9.312166e-001 -2.533318e-001
338760000 -2.414547e-005 6.481062e-006 9.125800e-001 -2.822559e-001 6.145724e-005 7.982935e-005 9.166260e-001 -2.835990e-001
339045000 -3.396391e-005 1.041567e-005 8.969492e-001 -3.119528e-001 2.713835e-005 -2.573509e-006 9.007865e-001 -3.131674e-001
339330000 -5.192508e-005 -1.017345e-005 8.801929e-001 -3.408685e-001 1.998687e-005 -3.686693e-005 8.841075e-001 -3.414916e-001
339615000 4.283921e-005 -5.296103e-005 8.626638e-001 -3.679934e-001 -4.563404e-006 3.835427e-005 8.666828e-001 -3.693305e-001
339900000 -1.477373e-005 -1.285518e-004 8.446974e-001 -3.945021e-001 -2.514785e-005 3.658597e-005 8.484424e-001 -3.957559e-001
340185000 3.236039e-005 -1.554406e-004 8.261647e-001 -4.199595e-001 1.124089e-005 6.447686e-005 8.291262e-001 -4.210585e-001
340470000 7.400645e-005 -7.184935e-005 8.066877e-001 -4.438084e-001 -7.096987e-005 -5.331311e-005 8.102524e-001 -4.456551e-001
340755000 -2.587792e-005 1.067707e-004 7.866368e-001 -4.671894e-001 9.171788e-005 3.870688e-005 7.897888e-001 -4.694943e-001
341040000 7.616509e-005 8.080897e-005 7.663029e-001 -4.890003e-001 -8.558216e-005 -3.738119e-005 7.702883e-001 -4.914877e-001
341325000 -1.232419e-004 2.715569e-006 7.451611e-001 -5.106337e-001 -5.399779e-005 -1.028850e-004 7.485994e-001 -5.125013e-001
341610000 -7.659809e-005 2.215964e-006 7.240593e-001 -5.306194e-001 8.171952e-005 -7.351882e-005 7.277364e-001 -5.325757e-001
341895000 -4.977789e-005 2.849899e-005 7.023168e-001 -5.499265e-001 -5.054980e-005 -9.991181e-006 7.056660e-001 -5.520959e-001
342180000 -8.799844e-005 3.255423e-005 6.805318e-001 -5.677796e-001 5.183905e-005 -1.635754e-005 6.838327e-001 -5.705264e-001
342465000 9.068209e-005 -1.806522e-005 6.592228e-001 -5.849361e-001 1.457441e-004 -1.894318e-005 6.616967e-001 -5.876210e-001
342750000 -1.091995e-005 9.113599e-006 6.366253e-001 -6.018670e-001 -1.962885e-005 8.704597e-005 6.398174e-001 -6.035303e-001
343035000 1.890197e-005 -5.101513e-005 6.145089e-001 -6.172500e-001 3.849345e-005 5.019349e-005 6.176234e-001 -6.192711e-001
343320000 7.988834e-006 -7.068920e-005 5.920148e-001 -6.316428e-001 9.322815e-005 1.052316e-004 5.949607e-001 -6.340923e-001
343605000 9.260722e-005 2.598100e-005 5.695391e-001 -6.453489e-001 -1.041734e-004 -1.370338e-005 5.722288e-001 -6.479532e-001
343890000 7.341147e-005 1.169646e-004 5.477400e-001 -6.581476e-001 9.149819e-006 8.555196e-006 5.496615e-001 -6.611524e-001
