!Agilent Technologies,N5230C,SG49000117,A.08.50.07
!Agilent N5230C: A.08.50.07
!Date: Sunday, March 17, 2024 02:36:43
!Correction: S11(Off) 
!S21(Off) 
!S12(Off) 
!S22(Off) 
!S2P File: Measurements: S11, S21, S12, S22:
# Hz S  RI   R 50
300000000 -2.561596e-005 -5.970641e-005 -6.125385e-001 -6.637116e-001 5.814653e-005 5.414095e-006 -6.146773e-001 -6.660051e-001
300285000 -8.782499e-005 -1.058309e-004 -6.285216e-001 -6.406631e-001 -9.710932e-005 7.848182e-005 -6.309827e-001 -6.427586e-001
300570000 -2.521503e-006 8.575335e-006 -6.441754e-001 -6.167119e-001 -8.619794e-005 3.339853e-005 -6.464665e-001 -6.194566e-001
300855000 5.939501e-005 -5.546179e-005 -6.573778e-001 -5.940604e-001 5.599366e-005 9.279350e-005 -6.603580e-001 -5.956312e-001
301140000 3.885719e-005 6.373892e-006 -6.710444e-001 -5.701520e-001 3.245920e-005 1.722171e-004 -6.738582e-001 -5.718991e-001
301425000 8.282194e-006 -5.098316e-006 -6.839454e-001 -5.466441e-001 -8.370840e-006 -4.277277e-006 -6.863671e-001 -5.486293e-001
301710000 1.034353e-004 -2.793579e-005 -6.952635e-001 -5.231045e-001 2.677235e-005 6.045078e-005 -6.976318e-001 -5.249091e-001
301995000 5.803449e-005 -4.001343e-005 -7.065941e-001 -4.990307e-001 -8.695152e-006 -1.159201e-004 -7.088450e-001 -5.014532e-001
302280000 3.418807e-005 1.448400e-005 -7.160892e-001 -4.754960e-001 -1.822784e-005 5.401916e-005 -7.183563e-001 -4.775289e-001
302565000 -1.061571e-005 2.794715e-005 -7.252713e-001 -4.525133e-001 1.115238e-004 -2.597271e-005 -7.281532e-001 -4.543462e-001
302850000 -6.710065e-005 1.354979e-004 -7.333598e-001 -4.287596e-001 6.150272e-006 -4.109037e-006 -7.370278e-001 -4.311337e-001
303135000 1.813768e-005 7.610129e-005 -7.416648e-001 -4.057621e-001 -2.842159e-005 -5.168231e-005 -7.444663e-001 -4.073717e-001
303420000 -9.405873e-005 -1.915206e-006 -7.493553e-001 -3.826604e-001 1.925340e-005 -8.558488e-006 -7.520930e-001 -3.842033e-001
303705000 -4.393175e-005 -1.434368e-005 -7.559438e-001 -3.596070e-001 7.273837e-005 3.417155e-005 -7.581218e-001 -3.606100e-001
303990000 -2.390674e-005 5.611329e-005 -7.613527e-001 -3.373586e-001 7.256120e-005 -5.455930e-005 -7.639840e-001 -3.382028e-001
304275000 -5.551281e-005 9.069168e-005 -7.659818e-001 -3.137679e-001 -3.773954e-005 1.311575e-004 -7.698524e-001 -3.149694e-001
304560000 -8.340504e-005 1.630397e-005 -7.715185e-001 -2.913942e-001 1.204498e-004 -2.777365e-005 -7.739528e-001 -2.923192e-001
304845000 1.007810e-004 1.769360e-005 -7.756314e-001 -2.689306e-001 7.295204e-005 -3.566721e-005 -7.782084e-001 -2.695909e-001
305130000 -6.761834e-005 -1.433722e-004 -7.794332e-001 -2.467011e-001 5.744319e-005 3.382622e-007 -7.814885e-001 -2.469823e-001
305415000 4.928525e-005 2.022763e-005 -7.822485e-001 -2.240371e-001 3.909351e-005 7.574119e-005 -7.851754e-001 -2.246115e-001
305700000 1.154988e-004 -6.365949e-005 -7.847302e-001 -2.019060e-001 4.522085e-005 1.535179e-005 -7.875544e-001 -2.029318e-001
305985000 1.318423e-004 1.462680e-005 -7.871057e-001 -1.804423e-001 -1.606474e-004 6.802476e-005 -7.898104e-001 -1.807997e-001
306270000 6.862660e-005 1.012032e-004 -7.879799e-001 -1.583344e-001 -7.158963e-005 6.925372e-006 -7.913708e-001 -1.586273e-001
306555000 -1.854932e-005 -4.126472e-005 -7.890380e-001 -1.366466e-001 -6.000211e-006 -5.929906e-005 -7.921723e-001 -1.372913e-001
306840000 1.065136e-004 -4.258027e-005 -7.898809e-001 -1.152285e-001 -3.741010e-005 -5.678571e-005 -7.928575e-001 -1.159380e-001
307125000 4.154920e-006 -1.752691e-005 -7.898936e-001 -9.396144e-002 -1.853002e-005 5.587630e-006 -7.930900e-001 -9.402336e-002
307410000 -4.009068e-005 1.714966e-005 -7.894415e-001 -7.269365e-002 -2.594045e-006 6.864217e-005 -7.926233e-001 -7.275277e-002
307695000 -5.767795e-005 4.932661e-005 -7.889100e-001 -5.183290e-002 1.098357e-005 -4.128772e-005 -7.922400e-001 -5.214504e-002
307980000 1.203650e-005 7.523630e-005 -7.880759e-001 -3.057943e-002 6.236391e-005 1.156822e-004 -7.909880e-001 -3.087263e-002
308265000 -1.164903e-004 -9.618342e-005 -7.863649e-001 -9.798770e-003 -1.316163e-004 2.888414e-006 -7.897649e-001 -1.016694e-002
308550000 -1.285520e-004 -2.766345e-005 -7.846894e-001 1.039905e-002 7.566786e-005 2.787412e-005 -7.873706e-001 1.072417e-002
308835000 1.121683e-004 -7.715716e-005 -7.828651e-001 3.084515e-002 4.950769e-005 -3.596886e-005 -7.857233e-001 3.113819e-002
309120000 3.044208e-005 -3.099064e-005 -7.800270e-001 5.170431e-002 -6.616874e-006 -8.549418e-005 -7.827096e-001 5.162629e-002
309405000 -9.373760e-005 -2.836440e-005 -7.770556e-001 7.185631e-002 -8.412229e-005 -3.115055e-005 -7.802959e-001 7.180306e-002
309690000 -3.160138e-005 -6.452780e-005 -7.733799e-001 9.176496e-002 9.393454e-006 6.497444e-005 -7.763994e-001 9.210704e-002
309975000 -5.180802e-005 -5.867894e-005 -7.702506e-001 1.115814e-001 3.190902e-005 -8.423924e-005 -7.725928e-001 1.122803e-001
310260000 -5.557659e-005 -9.056320e-005 -7.657949e-001 1.315545e-001 6.276966e-005 6.690590e-005 -7.690378e-001 1.323186e-001
310545000 1.244955e-004 -4.857097e-005 -7.615993e-001 1.511729e-001 2.083379e-005 -7.354139e-005 -7.642036e-001 1.520558e-001
310830000 3.236079e-006 -1.651614e-004 -7.567163e-001 1.710199e-001 -7.248929e-005 -2.319877e-005 -7.594070e-001 1.712620e-001
311115000 -1.987250e-005 -9.171769e-005 -7.516745e-001 1.898607e-001 -5.539656e-005 9.104676e-005 -7.543471e-001 1.910638e-001
311400000 6.028647e-005 -1.145446e-004 -7.463029e-001 2.099516e-001 -3.610448e-005 1.739944e-006 -7.489216e-001 2.102429e-001
311685000 -8.004610e-006 -6.246310e-007 -7.403914e-001 2.293452e-001 -8.110170e-006 3.497268e-005 -7.431542e-001 2.303037e-001
311970000 1.234061e-004 -7.655070e-007 -7.339991e-001 2.483362e-001 9.045075e-006 -5.107888e-005 -7.369971e-001 2.486844e-001
312255000 2.712620e-005 1.359035e-004 -7.275990e-001 2.672391e-001 -2.459186e-005 8.909384e-006 -7.307230e-001 2.685271e-001
312540000 2.857138e-005 1.752072e-004 -7.208543e-001 2.862237e-001 6.392051e-005 -6.137874e-005 -7.234567e-001 2.876422e-001
312825000 -2.305383e-005 1.162439e-004 -7.135910e-001 3.051300e-001 -3.669730e-005 -1.300987e-004 -7.160731e-001 3.068149e-001
313110000 3.609051e-005 -1.902878e-005 -7.057655e-001 3.242166e-001 -7.800906e-005 -1.896082e-005 -7.085068e-001 3.257107e-001
313395000 2.395979e-005 5.802494e-005 -6.975325e-001 3.430768e-001 -3.213922e-005 3.332109e-005 -6.999060e-001 3.443627e-001
313680000 -1.337252e-005 -5.074243e-005 -6.898866e-001 3.618842e-001 -2.312951e-005 5.168733e-005 -6.921495e-001 3.630515e-001
313965000 8.249380e-006 -4.794196e-005 -6.803508e-001 3.805853e-001 3.839247e-007 5.761393e-005 -6.834927e-001 3.819336e-001
314250000 -3.940746e-005 -1.908113e-005 -6.714051e-001 3.986121e-001 2.158597e-005 1.295625e-004 -6.740542e-001 4.001633e-001
314535000 -9.221384e-005 -6.540676e-005 -6.619363e-001 4.173417e-001 -5.138644e-005 1.491574e-005 -6.645777e-001 4.189990e-001
314820000 -1.409681e-005 -9.994482e-005 -6.520454e-001 4.358098e-001 -6.974654e-005 -1.830653e-005 -6.540949e-001 4.375572e-001
315105000 -1.332954e-004 -3.776779e-005 -6.417729e-001 4.538776e-001 -1.874862e-005 1.036384e-004 -6.442417e-001 4.554794e-001
315390000 2.160008e-006 -8.908900e-005 -6.307693e-001 4.722265e-001 -7.853844e-005 7.043857e-005 -6.333611e-001 4.742611e-001
315675000 5.210612e-006 -7.392324e-005 -6.194721e-001 4.903561e-001 2.013190e-005 7.613163e-005 -6.213769e-001 4.921764e-001
315960000 6.969432e-005 -5.477320e-006 -6.078260e-001 5.082492e-001 -6.128340e-005 -9.973808e-005 -6.099777e-001 5.108518e-001
316245000 8.544130e-005 4.927176e-007 -5.960303e-001 5.265346e-001 2.183387e-005 1.991770e-005 -5.975080e-001 5.282411e-001
316530000 1.418825e-005 3.321848e-005 -5.826458e-001 5.437551e-001 7.068057e-005 6.930234e-006 -5.851561e-001 5.464283e-001
316815000 -7.542010e-005 -7.412359e-005 -5.699949e-001 5.614362e-001 3.480696e-005 -7.381219e-005 -5.722294e-001 5.639686e-001
317100000 -4.458861e-005 3.892180e-005 -5.559320e-001 5.795466e-001 4.733580e-005 -8.422500e-005 -5.579422e-001 5.816061e-001
317385000 1.164676e-005 6.654030e-005 -5.418410e-001 5.969173e-001 1.432833e-005 4.918030e-005 -5.441394e-001 5.992897e-001
317670000 -2.785501e-005 7.296781e-005 -5.270922e-001 6.135573e-001 6.920067e-005 -5.468853e-005 -5.290745e-001 6.166964e-001
317955000 3.924769e-006 8.801663e-005 -5.114720e-001 6.314396e-001 5.773140e-005 -2.882971e-005 -5.140748e-001 6.340395e-001
318240000 5.999163e-005 1.414707e-005 -4.958288e-001 6.481756e-001 8.392368e-005 -2.127359e-005 -4.980676e-001 6.513624e-001
318525000 -5.932364e-005 2.224540e-005 -4.793600e-001 6.646929e-001 8.352904e-005 -2.925762e-007 -4.813914e-001 6.673740e-001
318810000 2.763383e-005 -3.814085e-005 -4.619114e-001 6.811005e-001 -7.165290e-005 -5.375638e-005 -4.640604e-001 6.838922e-001
319095000 1.211496e-004 1.088968e-005 -4.452761e-001 6.980371e-001 1.952112e-005 -8.013487e-005 -4.469579e-001 7.008476e-001
319380000 -5.147157e-005 -2.962240e-005 -4.265434e-001 7.139823e-001 6.369779e-005 -4.031554e-006 -4.284908e-001 7.167816e-001
319665000 -4.098592e-005 -6.201085e-005 -4.078407e-001 7.292881e-001 3.636559e-005 -3.040187e-006 -4.089024e-001 7.326719e-001
319950000 -1.271488e-004 -6.958743e-005 -3.881941e-001 7.452558e-001 7.250861e-005 2.041097e-005 -3.896435e-001 7.481058e-001
320235000 -5.689115e-005 5.947003e-005 -3.681578e-001 7.603472e-001 6.319189e-005 -1.274634e-005 -3.692183e-001 7.633225e-001
320520000 -6.342417e-005 2.059492e-005 -3.469919e-001 7.758555e-001 2.452191e-005 2.452428e-005 -3.482064e-001 7.790758e-001
320805000 3.774984e-005 2.180740e-005 -3.249239e-001 7.903756e-001 3.241902e-005 6.302551e-005 -3.268678e-001 7.932091e-001
321090000 5.343375e-005 2.524599e-005 -3.036054e-001 8.042381e-001 7.000976e-005 2.695603e-005 -3.039356e-001 8.079039e-001
321375000 1.005998e-004 3.261102e-006 -2.797480e-001 8.181006e-001 7.471662e-005 -3.281426e-005 -2.811524e-001 8.213444e-001
321660000 -2.881219e-005 -2.918156e-005 -2.559186e-001 8.313124e-001 4.825056e-005 -2.955192e-005 -2.572790e-001 8.347771e-001
321945000 3.082926e-005 5.785704e-005 -2.318363e-001 8.440880e-001 8.739132e-005 7.895652e-005 -2.329241e-001 8.478892e-001
322230000 5.309899e-005 -6.603827e-006 -2.061139e-001 8.558356e-001 -3.081224e-005 6.240874e-005 -2.073709e-001 8.594385e-001
322515000 -4.440179e-005 -8.557346e-006 -1.804120e-001 8.674979e-001 6.410785e-005 8.005535e-005 -1.808997e-001 8.708519e-001
322800000 -3.109351e-005 -4.297406e-005 -1.537600e-001 8.786060e-001 1.158270e-005 -1.217871e-004 -1.542544e-001 8.820458e-001
323085000 5.844763e-005 2.326452e-005 -1.260902e-001 8.882744e-001 -6.871358e-005 -1.144322e-004 -1.264464e-001 8.923092e-001
323370000 -1.004873e-004 1.487497e-005 -9.780821e-002 8.980592e-001 -5.488121e-005 1.134882e-005 -9.829249e-002 9.015526e-001
323655000 -1.975462e-006 -4.905556e-005 -6.851891e-002 9.058343e-001 -2.808442e-005 -1.405670e-004 -6.841100e-002 9.101544e-001
323940000 -1.288368e-005 -1.416773e-005 -3.834070e-002 9.143970e-001 -1.239296e-005 -9.922198e-005 -3.917566e-002 9.179505e-001
324225000 -3.422942e-005 -2.621889e-005 -8.742088e-003 9.214540e-001 1.187946e-004 -5.652900e-005 -8.402538e-003 9.250394e-001
324510000 -1.039223e-004 -3.254064e-006 2.327030e-002 9.268038e-001 -2.826241e-005 -2.028009e-005 2.308246e-002 9.306437e-001
324795000 -6.072460e-005 4.626538e-005 5.508343e-002 9.309856e-001 5.277169e-005 -3.220360e-005 5.507338e-002 9.349670e-001
325080000 -8.779331e-005 -6.331225e-005 8.767392e-002 9.345731e-001 -3.171927e-005 3.972618e-005 8.729722e-002 9.386440e-001
325365000 1.074789e-004 -4.471766e-005 1.200480e-001 9.370409e-001 5.563924e-005 8.889486e-006 1.211217e-001 9.414581e-001
325650000 7.218856e-006 2.184947e-006 1.542164e-001 9.376862e-001 1.018389e-005 6.174139e-005 1.541741e-001 9.420284e-001
325935000 5.240996e-005 7.726020e-005 1.878198e-001 9.378177e-001 -1.137665e-004 -1.352485e-005 1.887510e-001 9.416857e-001
326220000 6.328721e-006 -2.951451e-005 2.228981e-001 9.360226e-001 -7.545651e-005 -4.944058e-006 2.233678e-001 9.403863e-001
326505000 -1.226123e-005 6.185233e-006 2.577630e-001 9.325637e-001 -7.313693e-005 -2.187486e-005 2.591934e-001 9.365497e-001
326790000 4.816852e-005 -4.243241e-005 2.931340e-001 9.280016e-001 -4.691583e-005 -4.087492e-005 2.946112e-001 9.322726e-001
327075000 4.175145e-005 -5.434861e-005 3.286402e-001 9.215024e-001 -1.278250e-005 -5.940712e-005 3.298822e-001 9.258810e-001
327360000 -4.689200e-005 -4.365493e-006 3.642778e-001 9.150581e-001 5.915189e-005 3.256699e-005 3.658494e-001 9.183630e-001
327645000 -1.347009e-005 -1.069065e-004 3.996112e-001 9.052685e-001 -3.057898e-005 -1.128426e-004 4.016574e-001 9.083866e-001
327930000 8.217857e-006 -2.969873e-005 4.352240e-001 8.940832e-001 3.262903e-005 -1.735721e-005 4.375096e-001 8.975685e-001
328215000 1.077622e-004 -8.566577e-005 4.711764e-001 8.806443e-001 1.623069e-005 9.593533e-005 4.743230e-001 8.844081e-001
328500000 -1.898127e-005 1.212120e-004 5.069814e-001 8.659281e-001 3.386524e-005 1.082095e-004 5.089297e-001 8.698031e-001
328785000 -6.229884e-005 -4.110057e-005 5.411571e-001 8.498218e-001 -2.847747e-005 1.276561e-004 5.437211e-001 8.534166e-001
329070000 5.972649e-006 -2.564408e-005 5.764365e-001 8.322322e-001 -8.588401e-005 4.104569e-005 5.786100e-001 8.354008e-001
329355000 -6.215078e-005 2.158898e-006 6.101263e-001 8.122776e-001 -4.993824e-005 2.963867e-006 6.125085e-001 8.157405e-001
329640000 4.548659e-005 4.430511e-005 6.430719e-001 7.903426e-001 -2.791255e-005 4.704264e-005 6.464341e-001 7.945662e-001
329925000 8.659756e-005 -1.015820e-005 6.758006e-001 7.676031e-001 -6.530470e-005 -9.603918e-005 6.780566e-001 7.708079e-001
330210000 2.073963e-005 -3.014896e-006 7.066137e-001 7.426215e-001 2.070465e-005 -1.042853e-005 7.096642e-001 7.456280e-001
330495000 -9.499975e-005 -1.866025e-005 7.375942e-001 7.157685e-001 9.186083e-006 1.155739e-005 7.405009e-001 7.183003e-001
330780000 -3.385257e-006 1.142766e-005 7.664694e-001 6.875667e-001 1.989115e-005 -8.777816e-005 7.696624e-001 6.904901e-001
331065000 1.145395e-005 6.410316e-005 7.941909e-001 6.578536e-001 2.963222e-005 8.477625e-005 7.979124e-001 6.604698e-001
331350000 -1.689583e-005 -1.490140e-005 8.211327e-001 6.266243e-001 1.726151e-004 -2.690273e-005 8.243859e-001 6.292927e-001
331635000 1.178834e-004 -8.325465e-005 8.463706e-001 5.941136e-001 4.886620e-005 -9.677316e-006 8.495827e-001 5.968902e-001
331920000 7.419143e-005 -4.138911e-005 8.690554e-001 5.606062e-001 -2.890122e-006 -3.870302e-005 8.726279e-001 5.631732e-001
332205000 -3.125991e-005 -4.893264e-006 8.907216e-001 5.252763e-001 5.467903e-005 -1.381261e-004 8.945401e-001 5.280652e-001
332490000 -2.608910e-005 -3.232331e-005 9.104951e-001 4.899969e-001 7.793267e-005 -5.439642e-005 9.143245e-001 4.920744e-001
332775000 1.187429e-005 -6.776988e-006 9.292060e-001 4.524772e-001 -4.979407e-005 8.308505e-005 9.326839e-001 4.552500e-001
333060000 -7.491625e-005 3.404926e-005 9.449322e-001 4.158027e-001 1.193128e-005 -2.863955e-005 9.484547e-001 4.169092e-001
333345000 3.763942e-005 9.365218e-005 9.600841e-001 3.780391e-001 2.622720e-005 -1.140161e-005 9.637637e-001 3.788104e-001
333630000 6.980719e-005 7.506384e-006 9.719548e-001 3.389291e-001 4.733593e-005 -1.616298e-004 9.762823e-001 3.403965e-001
333915000 -2.039215e-005 2.350434e-005 9.828058e-001 2.999313e-001 -5.590896e-005 -1.656186e-005 9.866682e-001 3.012015e-001
334200000 1.914651e-005 7.777050e-006 9.912287e-001 2.610513e-001 2.882947e-005 -4.217775e-005 9.949895e-001 2.612552e-001
334485000 1.034293e-004 3.347555e-005 9.979658e-001 2.213935e-001 -8.778998e-006 6.585180e-005 1.002419e+000 2.224689e-001
334770000 2.524920e-005 5.452433e-006 1.002952e+000 1.822695e-001 -6.844588e-005 1.833707e-005 1.006566e+000 1.828143e-001
335055000 -1.815167e-006 -7.091077e-006 1.005088e+000 1.431695e-001 -2.451135e-005 6.109808e-005 1.009503e+000 1.434015e-001
335340000 7.727637e-006 -3.450812e-006 1.006035e+000 1.038271e-001 4.906278e-005 1.089555e-004 1.011259e+000 1.040474e-001
335625000 -6.745684e-006 -5.832730e-005 1.005537e+000 6.534692e-002 -8.985126e-006 5.419450e-006 1.009907e+000 6.489446e-002
335910000 6.784392e-005 6.789463e-006 1.002575e+000 2.741791e-002 5.948796e-005 1.181782e-004 1.007368e+000 2.730197e-002
336195000 -2.480338e-006 4.546966e-005 9.987344e-001 -1.035649e-002 3.078931e-005 6.901498e-005 1.002816e+000 -9.983483e-003
336480000 1.713968e-005 -5.725399e-005 9.926411e-001 -4.695420e-002 -6.103172e-005 7.196972e-005 9.969317e-001 -4.693713e-002
336765000 -6.276029e-005 1.057187e-004 9.859449e-001 -8.325313e-002 -1.445791e-005 8.204397e-005 9.898303e-001 -8.376819e-002
337050000 -2.592469e-005 1.517050e-004 9.775051e-001 -1.185780e-001 1.387639e-005 -3.112116e-005 9.812471e-001 -1.187153e-001
337335000 9.673311e-005 3.548448e-008 9.664394e-001 -1.530386e-001 -4.187547e-005 -4.194225e-005 9.706081e-001 -1.543839e-001
337620000 -4.386449e-006 5.804434e-005 9.553843e-001 -1.872015e-001 -1.829299e-005 -1.930635e-005 9.592946e-001 -1.873118e-001
337905000 -3.238609e-005 -2.577005e-005 9.425816e-001 -2.194750e-001 -5.358842e-005 -4.625715e-005 9.465693e-001 -2.215584e-001
338190000 1.148925e-004 5.607455e-006 9.284788e-001 -2.516402e-001 1.241121e-005 1.142353e-005 9.328856e-001 -2.523485e-001
338475000 -3.857435e-005 -6.045623e-005 9.144942e-001 -2.822849e-001 -1.472761e-005 -7.735240e-005 9.182466e-001 -2.831517e-001
338760000 -7.787346e-006 -3.800721e-005 8.981283e-001 -3.120879e-001 4.733489e-005 3.158534e-005 9.023079e-001 -3.131049e-001
339045000 -3.478631e-005 -8.705119e-005 8.815284e-001 -3.400295e-001 -9.697219e-006 -6.842904e-005 8.856755e-001 -3.414612e-001
339330000 8.361607e-006 -1.996816e-005 8.638036e-001 -3.676919e-001 3.276541e-005 1.945759e-006 8.672844e-001 -3.693259e-001
339615000 -5.667028e-005 -2.317823e-005 8.455959e-001 -3.945168e-001 1.344725e-004 -8.685622e-005 8.494970e-001 -3.959007e-001
339900000 1.252802e-004 -6.399368e-005 8.271499e-001 -4.196510e-001 9.272705e-005 -1.495266e-005 8.303472e-001 -4.216060e-001
340185000 2.753554e-005 -4.171889e-005 8.077201e-001 -4.440079e-001 3.825627e-005 -3.348671e-006 8.112065e-001 -4.461227e-001
340470000 8.519562e-006 9.369635e-006 7.873554e-001 -4.672391e-001 -1.457480e-004 -5.237313e-006 7.909989e-001 -4.696810e-001
340755000 3.841929e-005 1.005328e-005 7.672297e-001 -4.896735e-001 -8.644511e-006 1.151433e-004 7.704473e-001 -4.915633e-001
341040000 -1.070270e-005 -4.154034e-006 7.458845e-001 -5.111644e-001 2.527002e-005 8.840592e-005 7.492804e-001 -5.129882e-001
341325000 -3.771777e-005 4.307351e-005 7.247039e-001 -5.313129e-001 -6.425160e-005 2.052564e-005 7.284217e-001 -5.333318e-001
341610000 -6.735577e-005 -1.772289e-005 7.036223e-001 -5.505797e-001 -1.796527e-005 5.188019e-005 7.065735e-001 -5.532536e-001
341895000 -9.916849e-005 6.268832e-005 6.819749e-001 -5.683756e-001 -8.509217e-005 -5.536085e-005 6.839157e-001 -5.711280e-001
342180000 4.550104e-006 -3.893446e-005 6.596662e-001 -5.857408e-001 -4.725812e-005 -6.884384e-005 6.621241e-001 -5.883543e-001
342465000 -1.630549e-005 8.824356e-005 6.371174e-001 -6.022574e-001 -2.085350e-005 -2.717100e-005 6.398781e-001 -6.048785e-001
342750000 -5.344013e-005 5.208358e-005 6.149306e-001 -6.182936e-001 5.154972e-005 -9.252105e-006 6.178361e-001 -6.207242e-001
343035000 1.317268e-006 -1.162450e-004 5.927215e-001 -6.327776e-001 5.608849e-005 -3.283654e-005 5.954896e-001 -6.352001e-001
343320000 -2.877164e-005 3.282247e-006 5.701155e-001 -6.464797e-001 1.953034e-005 2.021646e-005 5.726198e-001 -6.492606e-001
343605000 6.899971e-005 2.806723e-005 5.472974e-001 -6.594591e-001 8.774838e-005 -3.977723e-005 5.495695e-001 -6.618308e-001
343890000 -1.468342e-005 -5.280874e-005 5.246488e-001 -6.710982e-001 8.426452e-005 1.686172e-004 5.269409e-001 -6.738654e-001
