!Agilent Technologies,N5230C,SG49000117,A.08.50.07
!Agilent N5230C: A.08.50.07
!Date: Sunday, March 17, 2024 02:39:55
!Correction: S11(Off) 
!S21(Off) 
!S12(Off) 
!S22(Off) 
!S2P File: Measurements: S11, S21, S12, S22:
# Hz S  RI   R 50
300000000 -4.545740e-005 1.514510e-004 -6.264417e-001 -6.445456e-001 2.989085e-005 4.026656e-005 -6.282663e-001 -6.466888e-001
300285000 -3.703135e-006 -5.332782e-005 -6.410131e-001 -6.215073e-001 -5.591858e-005 -2.211316e-006 -6.437525e-001 -6.232349e-001
300570000 -9.427991e-005 -1.720112e-005 -6.559038e-001 -5.983753e-001 -5.564244e-005 -3.255722e-005 -6.579497e-001 -6.001148e-001
300855000 -7.898905e-007 -2.803637e-005 -6.688411e-001 -5.745323e-001 -4.564897e-006 -9.905705e-005 -6.717418e-001 -5.765669e-001
301140000 1.035775e-004 -1.805510e-004 -6.816642e-001 -5.506346e-001 -1.891554e-005 -7.024382e-005 -6.837431e-001 -5.529416e-001
301425000 -2.267389e-005 -3.813415e-005 -6.932719e-001 -5.271930e-001 8.308335e-005 -5.916815e-005 -6.958651e-001 -5.295874e-001
301710000 1.802865e-005 -3.092296e-005 -7.042107e-001 -5.042000e-001 6.147837e-005 -9.881955e-006 -7.068537e-001 -5.056700e-001
301995000 -2.171767e-005 5.243986e-005 -7.149845e-001 -4.800492e-001 2.829231e-005 -6.233926e-005 -7.169855e-001 -4.820612e-001
302280000 1.513003e-005 -2.270679e-005 -7.238787e-001 -4.562893e-001 4.705243e-005 5.971374e-005 -7.270105e-001 -4.579064e-001
302565000 7.728306e-005 -2.417632e-006 -7.329412e-001 -4.333110e-001 1.744301e-004 -1.419731e-005 -7.353311e-001 -4.343835e-001
302850000 6.489737e-005 -4.331561e-005 -7.407013e-001 -4.097030e-001 4.227197e-005 -2.896096e-005 -7.431306e-001 -4.112215e-001
303135000 5.399632e-005 -1.101902e-005 -7.475088e-001 -3.865575e-001 -2.539128e-005 1.028193e-004 -7.511183e-001 -3.877684e-001
303420000 -1.356726e-005 3.528396e-005 -7.548164e-001 -3.632734e-001 1.057528e-004 -8.086516e-006 -7.571523e-001 -3.648879e-001
303705000 -1.205616e-005 2.097677e-005 -7.606226e-001 -3.402646e-001 -2.657881e-005 -2.898410e-005 -7.637691e-001 -3.416696e-001
303990000 -5.273043e-005 -3.340433e-005 -7.658899e-001 -3.171511e-001 -1.777711e-004 -7.530683e-005 -7.686855e-001 -3.182059e-001
304275000 6.281700e-005 6.969558e-005 -7.705206e-001 -2.947786e-001 6.845605e-007 3.341220e-005 -7.734498e-001 -2.958646e-001
304560000 -1.053978e-004 -1.890966e-005 -7.749585e-001 -2.722226e-001 -8.987904e-005 -2.922332e-005 -7.780014e-001 -2.731938e-001
304845000 -8.621076e-005 2.264052e-005 -7.787277e-001 -2.497400e-001 -1.122421e-004 2.364882e-005 -7.816910e-001 -2.505125e-001
305130000 -3.846209e-005 -4.680124e-005 -7.816327e-001 -2.270374e-001 -4.018581e-005 -5.401242e-005 -7.843490e-001 -2.279609e-001
305415000 -3.043358e-005 -2.998431e-005 -7.848254e-001 -2.051566e-001 -2.885965e-005 -6.439273e-005 -7.870606e-001 -2.055640e-001
305700000 6.348388e-005 -2.389281e-005 -7.867176e-001 -1.828399e-001 1.577675e-005 -7.073944e-005 -7.895591e-001 -1.839988e-001
305985000 2.359529e-005 4.839813e-005 -7.882774e-001 -1.615904e-001 1.452813e-004 -1.583717e-005 -7.909754e-001 -1.616027e-001
306270000 -6.831405e-005 4.737586e-005 -7.892774e-001 -1.395101e-001 3.591429e-005 -3.984076e-005 -7.922425e-001 -1.398980e-001
306555000 8.579224e-005 -3.723159e-005 -7.898632e-001 -1.177472e-001 4.723309e-005 2.570814e-005 -7.932133e-001 -1.184563e-001
306840000 4.246852e-005 -4.740936e-005 -7.900233e-001 -9.663444e-002 1.525545e-005 -5.191138e-005 -7.931978e-001 -9.682330e-002
307125000 1.261101e-005 5.781175e-005 -7.901102e-001 -7.543545e-002 3.711627e-006 1.725055e-004 -7.927456e-001 -7.519216e-002
307410000 -1.065908e-004 -1.250281e-004 -7.890013e-001 -5.417806e-002 -6.047165e-005 1.910745e-005 -7.921546e-001 -5.415042e-002
307695000 -9.185735e-006 7.684088e-005 -7.879929e-001 -3.323485e-002 -6.192715e-005 4.629111e-005 -7.910792e-001 -3.304637e-002
307980000 -5.990082e-005 -3.120788e-005 -7.866534e-001 -1.214082e-002 8.387389e-005 -5.159672e-005 -7.897154e-001 -1.255201e-002
308265000 -4.128717e-005 9.410466e-007 -7.849785e-001 7.783851e-003 6.801019e-005 2.545127e-005 -7.880126e-001 8.522133e-003
308550000 2.522343e-005 7.341709e-005 -7.824380e-001 2.902823e-002 1.328719e-005 -2.744778e-005 -7.855095e-001 2.836781e-002
308835000 1.448948e-004 6.790030e-006 -7.796588e-001 4.894794e-002 1.673862e-004 1.424941e-005 -7.831368e-001 4.911325e-002
309120000 9.106518e-005 2.268593e-005 -7.774528e-001 6.919029e-002 2.464950e-005 -1.299080e-005 -7.802981e-001 6.942547e-002
309405000 2.460011e-005 6.648467e-005 -7.734616e-001 8.954317e-002 -6.405726e-005 2.399347e-005 -7.766635e-001 9.001759e-002
309690000 4.508363e-005 8.927545e-006 -7.696587e-001 1.098832e-001 2.466027e-005 9.110023e-006 -7.730119e-001 1.096274e-001
309975000 -1.202126e-005 -7.231500e-005 -7.658679e-001 1.289306e-001 -4.528049e-005 -7.411861e-005 -7.689981e-001 1.304888e-001
310260000 -2.536554e-005 4.273319e-005 -7.615131e-001 1.486090e-001 -4.431186e-005 5.600674e-005 -7.648245e-001 1.498895e-001
310545000 -1.021638e-005 -2.412833e-005 -7.569658e-001 1.687801e-001 -5.411285e-005 -2.426311e-004 -7.598934e-001 1.691644e-001
310830000 -8.829409e-005 -7.561501e-007 -7.518869e-001 1.880676e-001 -2.045723e-006 -1.502137e-004 -7.546332e-001 1.888915e-001
311115000 -1.543667e-005 1.790436e-005 -7.461981e-001 2.073421e-001 -5.132566e-005 -1.160551e-005 -7.490835e-001 2.086653e-001
311400000 -1.159168e-004 -3.102968e-005 -7.404409e-001 2.269423e-001 6.998907e-005 -2.223974e-007 -7.434095e-001 2.273783e-001
311685000 -1.399028e-004 -9.639857e-005 -7.340686e-001 2.460360e-001 5.524081e-005 -6.518678e-005 -7.374843e-001 2.468203e-001
311970000 -5.519847e-005 -1.091313e-004 -7.274693e-001 2.650830e-001 7.091650e-005 -2.474651e-005 -7.306129e-001 2.663761e-001
312255000 -8.455144e-005 -3.976737e-005 -7.204599e-001 2.846955e-001 1.135338e-005 -1.257415e-005 -7.236568e-001 2.856026e-001
312540000 -4.495755e-006 -1.345915e-005 -7.135661e-001 3.036220e-001 1.042571e-004 -2.708575e-005 -7.160096e-001 3.037787e-001
312825000 -2.378417e-005 -8.504756e-005 -7.055206e-001 3.225942e-001 -1.252632e-005 6.033274e-005 -7.086149e-001 3.231420e-001
313110000 4.074061e-005 -7.526900e-005 -6.979523e-001 3.410431e-001 7.007338e-005 6.954809e-005 -7.009803e-001 3.423685e-001
313395000 1.469007e-004 -7.147878e-005 -6.893454e-001 3.595109e-001 7.465770e-005 6.288365e-005 -6.926510e-001 3.608059e-001
313680000 9.431053e-005 -4.197963e-005 -6.805797e-001 3.780562e-001 5.525256e-005 5.530673e-005 -6.836355e-001 3.791838e-001
313965000 1.859639e-006 -5.267582e-005 -6.715772e-001 3.964384e-001 -1.200136e-004 3.949487e-007 -6.740414e-001 3.979214e-001
314250000 5.993141e-005 -9.097355e-005 -6.622863e-001 4.146214e-001 -2.630481e-005 7.175991e-005 -6.648124e-001 4.163113e-001
314535000 -2.856527e-005 -9.452688e-007 -6.518073e-001 4.335161e-001 -9.405057e-005 5.972786e-005 -6.548386e-001 4.347365e-001
314820000 1.312214e-005 -1.025930e-005 -6.413964e-001 4.515160e-001 2.244550e-006 6.678572e-005 -6.443281e-001 4.535668e-001
315105000 6.642167e-005 2.991298e-005 -6.309455e-001 4.696373e-001 4.230029e-005 -1.641875e-006 -6.336101e-001 4.717706e-001
315390000 4.560429e-005 -6.961264e-005 -6.197833e-001 4.883552e-001 2.715039e-005 2.308437e-005 -6.221153e-001 4.896539e-001
315675000 -8.957726e-005 -7.746019e-005 -6.076688e-001 5.060275e-001 -4.186024e-005 -1.331314e-004 -6.099976e-001 5.080231e-001
315960000 4.525615e-005 -9.373549e-005 -5.961502e-001 5.235160e-001 9.032068e-005 3.225743e-006 -5.982348e-001 5.253044e-001
316245000 -1.221597e-005 -2.449383e-005 -5.830142e-001 5.412725e-001 2.277032e-005 -5.577311e-005 -5.852817e-001 5.432219e-001
316530000 -3.455040e-005 5.776832e-005 -5.695979e-001 5.586699e-001 -8.072873e-005 1.675958e-006 -5.719931e-001 5.612655e-001
316815000 -5.758650e-005 -8.828890e-005 -5.561824e-001 5.765826e-001 1.064632e-004 -7.417472e-005 -5.584743e-001 5.787395e-001
317100000 3.023687e-005 -1.567494e-005 -5.423365e-001 5.938725e-001 7.255900e-006 -3.438047e-005 -5.441691e-001 5.965810e-001
317385000 -8.238368e-006 3.688755e-005 -5.275577e-001 6.111065e-001 -5.394404e-005 -5.010325e-005 -5.302542e-001 6.137894e-001
317670000 -5.127530e-005 -1.878559e-006 -5.121804e-001 6.282637e-001 1.296286e-005 8.087727e-006 -5.142292e-001 6.308461e-001
317955000 2.008955e-005 4.748821e-005 -4.963033e-001 6.452240e-001 -1.210423e-004 -9.049826e-006 -4.984715e-001 6.479880e-001
318240000 3.468445e-005 -1.660081e-004 -4.799249e-001 6.620085e-001 1.306916e-004 -4.355119e-005 -4.819577e-001 6.646482e-001
318525000 1.211425e-004 2.843759e-005 -4.632554e-001 6.784226e-001 9.028456e-005 -1.475607e-004 -4.650246e-001 6.814352e-001
318810000 -3.769221e-006 -1.211998e-004 -4.456849e-001 6.945823e-001 -1.123880e-005 -1.071409e-004 -4.473421e-001 6.974374e-001
319095000 -8.689934e-006 3.664023e-005 -4.273091e-001 7.108073e-001 -9.523466e-005 6.683725e-005 -4.291779e-001 7.139716e-001
319380000 -6.264535e-005 3.774567e-005 -4.086106e-001 7.265412e-001 3.687462e-005 -2.040865e-005 -4.108378e-001 7.295763e-001
319665000 2.977958e-005 3.393678e-005 -3.895234e-001 7.424677e-001 7.448773e-005 -1.237773e-004 -3.909072e-001 7.453057e-001
319950000 9.796582e-005 1.171010e-005 -3.691062e-001 7.575459e-001 -1.878659e-004 -8.515321e-005 -3.704129e-001 7.606823e-001
320235000 4.767782e-005 1.651145e-004 -3.481829e-001 7.723792e-001 1.011752e-004 -1.337660e-004 -3.495104e-001 7.760795e-001
320520000 7.810472e-005 -4.685489e-005 -3.262538e-001 7.872820e-001 -1.650880e-005 -7.564067e-005 -3.281498e-001 7.903095e-001
320805000 5.180138e-005 -1.539504e-005 -3.044040e-001 8.007573e-001 9.027775e-005 -5.449062e-005 -3.059972e-001 8.047259e-001
321090000 -1.529282e-005 1.043006e-004 -2.816533e-001 8.148539e-001 -3.855918e-005 1.217749e-004 -2.831025e-001 8.183602e-001
321375000 -1.143466e-004 6.951424e-005 -2.580866e-001 8.282661e-001 -2.544194e-005 8.224015e-005 -2.587440e-001 8.312998e-001
321660000 -4.021108e-005 -1.678075e-005 -2.337046e-001 8.408036e-001 1.476716e-004 1.491450e-007 -2.347360e-001 8.446864e-001
321945000 6.765934e-005 -1.033562e-005 -2.086076e-001 8.524072e-001 5.040750e-005 1.468798e-004 -2.087407e-001 8.563976e-001
322230000 4.047999e-005 9.680341e-005 -1.829356e-001 8.644732e-001 7.163122e-005 1.985460e-005 -1.834655e-001 8.676840e-001
322515000 8.379580e-005 -4.955547e-005 -1.554070e-001 8.753647e-001 6.470569e-005 -7.072651e-005 -1.560878e-001 8.783798e-001
322800000 -4.764863e-005 -2.735886e-005 -1.286214e-001 8.855474e-001 -1.145520e-004 1.057671e-004 -1.289827e-001 8.887132e-001
323085000 5.650183e-005 -7.161338e-005 -1.007943e-001 8.946987e-001 2.725283e-005 -9.659320e-006 -1.008619e-001 8.986052e-001
323370000 7.927333e-005 5.163339e-005 -7.145732e-002 9.028745e-001 -5.182701e-005 3.236144e-005 -7.131488e-002 9.071330e-001
323655000 1.568139e-005 -2.633080e-005 -4.160956e-002 9.111738e-001 -1.010168e-004 2.583303e-006 -4.269885e-002 9.146869e-001
323940000 6.547437e-005 -3.404092e-005 -1.124514e-002 9.175181e-001 2.061424e-005 4.497019e-006 -1.132994e-002 9.216833e-001
324225000 2.191195e-005 1.699043e-005 1.960583e-002 9.241328e-001 -8.548639e-005 -7.709127e-005 1.916877e-002 9.275616e-001
324510000 -4.706392e-005 1.991924e-005 5.126652e-002 9.283136e-001 -9.342867e-006 2.849123e-005 5.133013e-002 9.325380e-001
324795000 -6.049610e-005 5.204428e-006 8.285003e-002 9.320689e-001 5.552235e-005 -9.534598e-005 8.381136e-002 9.359288e-001
325080000 1.192478e-005 1.508828e-004 1.164639e-001 9.341257e-001 -1.626911e-006 -5.299046e-005 1.164841e-001 9.381303e-001
325365000 -5.813342e-006 3.111102e-006 1.497154e-001 9.356084e-001 1.513258e-005 6.338965e-005 1.502563e-001 9.395191e-001
325650000 -7.806155e-005 1.271184e-004 1.836457e-001 9.351203e-001 -1.179611e-004 2.553666e-006 1.845974e-001 9.395097e-001
325935000 -1.152280e-004 -4.517009e-005 2.182371e-001 9.340675e-001 -5.084426e-005 6.816191e-005 2.187445e-001 9.377810e-001
326220000 1.266408e-004 1.066030e-004 2.526911e-001 9.316472e-001 3.053229e-005 5.604727e-005 2.538508e-001 9.353574e-001
326505000 -1.134281e-005 -8.605607e-005 2.885171e-001 9.269495e-001 5.968300e-005 8.666730e-005 2.894672e-001 9.309838e-001
326790000 2.233207e-005 -1.535029e-005 3.231735e-001 9.209558e-001 1.792707e-005 5.747847e-005 3.251762e-001 9.249804e-001
327075000 6.383455e-005 -9.942844e-005 3.582934e-001 9.138404e-001 -2.789041e-005 7.114581e-005 3.602638e-001 9.168216e-001
327360000 -1.259885e-005 -4.518265e-005 3.949109e-001 9.041302e-001 -1.387415e-005 -1.917877e-005 3.967742e-001 9.078491e-001
327645000 1.160242e-005 -4.182208e-005 4.303474e-001 8.932126e-001 1.529879e-005 -1.635486e-005 4.324931e-001 8.966946e-001
327930000 6.377918e-005 -1.569980e-005 4.657706e-001 8.800651e-001 -7.994127e-005 -2.139631e-005 4.681174e-001 8.850735e-001
328215000 3.173499e-005 7.853541e-005 5.010850e-001 8.666693e-001 5.733381e-005 -1.091489e-005 5.036538e-001 8.698776e-001
328500000 -5.402291e-005 3.837733e-006 5.360121e-001 8.506668e-001 -3.785560e-005 8.434491e-005 5.377552e-001 8.537919e-001
328785000 -9.973383e-005 -1.121393e-005 5.708503e-001 8.331861e-001 1.323113e-004 9.569887e-005 5.730678e-001 8.361216e-001
329070000 4.428255e-005 -3.356277e-005 6.043012e-001 8.136363e-001 3.547616e-005 -5.591027e-005 6.070845e-001 8.164738e-001
329355000 -3.432398e-005 -1.735937e-005 6.380994e-001 7.919349e-001 -4.956739e-005 6.564033e-005 6.412891e-001 7.943837e-001
329640000 6.446691e-005 2.379889e-005 6.705046e-001 7.690333e-001 -7.322901e-005 7.820781e-005 6.736881e-001 7.720390e-001
329925000 -3.898665e-005 -1.006705e-004 7.019054e-001 7.441562e-001 -5.963474e-006 6.861293e-005 7.046808e-001 7.472252e-001
330210000 9.318061e-006 -9.532977e-005 7.318209e-001 7.183250e-001 -8.203230e-005 -8.907230e-007 7.355360e-001 7.205710e-001
330495000 -4.531489e-006 6.700264e-005 7.611368e-001 6.899796e-001 -1.107759e-004 1.085007e-004 7.645898e-001 6.924135e-001
330780000 -2.946439e-005 1.835200e-005 7.901309e-001 6.603969e-001 -1.317349e-004 -2.506851e-005 7.926167e-001 6.635627e-001
331065000 -1.290103e-005 -8.235523e-005 8.157520e-001 6.295333e-001 5.690833e-005 -8.584571e-005 8.198654e-001 6.325489e-001
331350000 -3.015781e-005 -3.314110e-005 8.419700e-001 5.972186e-001 -8.181423e-005 -2.492926e-005 8.451084e-001 6.001341e-001
331635000 -1.362595e-004 -1.708195e-004 8.651929e-001 5.636357e-001 3.401800e-006 -5.509488e-006 8.689358e-001 5.662388e-001
331920000 -8.621159e-006 -1.034365e-004 8.868906e-001 5.296233e-001 1.032873e-004 3.161536e-005 8.907385e-001 5.315717e-001
332205000 -6.243645e-005 4.687766e-005 9.076256e-001 4.935607e-001 4.099825e-005 -8.541276e-005 9.113850e-001 4.960414e-001
332490000 -9.631088e-005 9.861641e-005 9.256084e-001 4.569276e-001 4.646268e-005 8.012589e-005 9.296262e-001 4.587158e-001
332775000 -5.124305e-005 -2.682935e-005 9.415085e-001 4.200746e-001 4.880341e-005 4.749568e-005 9.460857e-001 4.216443e-001
333060000 -5.230693e-005 -3.708645e-005 9.565095e-001 3.818902e-001 7.267194e-005 -1.941366e-005 9.609854e-001 3.830986e-001
333345000 4.042435e-005 -7.004281e-005 9.695907e-001 3.427497e-001 1.356032e-005 9.846412e-005 9.738014e-001 3.447565e-001
333630000 -2.305354e-005 1.141779e-005 9.801241e-001 3.040942e-001 -1.979486e-005 -1.238311e-006 9.844211e-001 3.057826e-001
333915000 -3.229356e-005 -7.382769e-005 9.892321e-001 2.658018e-001 1.170896e-005 7.044376e-005 9.933999e-001 2.665994e-001
334200000 2.281660e-005 -3.915373e-005 9.960306e-001 2.258627e-001 2.613813e-005 9.412030e-005 1.000055e+000 2.270850e-001
334485000 -7.130407e-005 -1.792090e-005 1.000945e+000 1.862646e-001 1.570204e-004 2.575247e-005 1.005376e+000 1.877299e-001
334770000 -5.889804e-005 -8.957075e-006 1.004425e+000 1.463742e-001 2.146299e-007 1.330836e-004 1.008630e+000 1.479245e-001
335055000 -3.233026e-005 4.084296e-005 1.005196e+000 1.079757e-001 1.065476e-004 3.696750e-005 1.010111e+000 1.087600e-001
335340000 -3.703833e-005 -4.283363e-005 1.004817e+000 6.976760e-002 2.300438e-005 3.029773e-005 1.009573e+000 6.948140e-002
335625000 4.591655e-005 -6.720224e-005 1.002723e+000 3.170995e-002 9.907804e-005 3.287593e-005 1.006871e+000 3.165106e-002
335910000 -5.056613e-005 -2.177144e-005 9.985885e-001 -6.528922e-003 -8.258156e-006 3.532429e-005 1.003141e+000 -5.896076e-003
336195000 6.244230e-005 -6.073252e-005 9.927561e-001 -4.328371e-002 5.663385e-005 -7.077224e-005 9.974599e-001 -4.355554e-002
336480000 8.787964e-005 -3.940244e-005 9.862300e-001 -7.970630e-002 -8.638643e-005 2.309914e-005 9.903531e-001 -8.011771e-002
336765000 -1.667593e-005 4.421871e-005 9.769542e-001 -1.148171e-001 -1.490300e-004 1.423161e-005 9.816684e-001 -1.161827e-001
337050000 5.989779e-005 -5.228341e-005 9.671558e-001 -1.492738e-001 -3.580923e-005 -6.875629e-005 9.720725e-001 -1.501077e-001
337335000 6.243876e-005 4.539381e-005 9.560603e-001 -1.834598e-001 -7.942110e-006 -1.737048e-005 9.597356e-001 -1.846422e-001
337620000 -9.173182e-005 -4.810370e-005 9.436048e-001 -2.170268e-001 -5.509970e-005 -2.867011e-005 9.470823e-001 -2.173649e-001
337905000 1.755072e-005 -5.613567e-005 9.298769e-001 -2.483827e-001 -8.659918e-005 1.650020e-005 9.337443e-001 -2.497899e-001
338190000 -1.616903e-005 -2.127856e-005 9.152379e-001 -2.796181e-001 1.398483e-006 -5.317618e-005 9.186092e-001 -2.802826e-001
338475000 1.286651e-005 -1.967278e-005 8.995315e-001 -3.092358e-001 -1.284455e-005 7.363300e-005 9.038597e-001 -3.106029e-001
338760000 2.653874e-005 -1.292285e-004 8.825682e-001 -3.379714e-001 1.973727e-005 -9.638923e-005 8.862176e-001 -3.393604e-001
339045000 -5.297346e-006 2.176549e-005 8.653502e-001 -3.654993e-001 -3.672477e-005 1.889533e-005 8.689792e-001 -3.674496e-001
339330000 2.228678e-005 -8.045170e-005 8.475421e-001 -3.918155e-001 -3.331329e-005 -1.801167e-004 8.503882e-001 -3.935889e-001
339615000 3.609682e-005 1.346680e-005 8.284878e-001 -4.181511e-001 -7.231634e-005 3.557092e-006 8.319905e-001 -4.197608e-001
339900000 -1.689565e-005 8.074497e-005 8.087929e-001 -4.427840e-001 7.584367e-005 4.941484e-005 8.123766e-001 -4.442119e-001
340185000 -8.563901e-006 4.332256e-005 7.886066e-001 -4.658949e-001 4.641929e-005 -3.865184e-005 7.916106e-001 -4.674939e-001
340470000 2.910245e-005 7.127968e-005 7.683791e-001 -4.882963e-001 -4.838989e-005 5.460195e-005 7.716815e-001 -4.903136e-001
340755000 8.215626e-005 -2.361010e-005 7.476939e-001 -5.094156e-001 -2.687897e-005 -4.183994e-005 7.503145e-001 -5.119457e-001
341040000 -6.190476e-006 -3.454127e-005 7.256979e-001 -5.303928e-001 3.014287e-005 1.789054e-005 7.292302e-001 -5.323175e-001
341325000 5.732207e-006 -1.244149e-004 7.039787e-001 -5.497324e-001 4.442989e-005 5.713728e-005 7.075809e-001 -5.517691e-001
341610000 -5.454963e-007 4.434096e-005 6.827971e-001 -5.673738e-001 -2.932734e-005 4.524147e-005 6.854168e-001 -5.696665e-001
341895000 5.379464e-005 -8.420227e-005 6.606777e-001 -5.844682e-001 1.393104e-005 2.908435e-005 6.629898e-001 -5.877518e-001
342180000 8.756620e-005 -3.041024e-005 6.381763e-001 -6.007417e-001 -1.893568e-005 8.584136e-005 6.412024e-001 -6.038312e-001
342465000 -4.283662e-005 8.195455e-005 6.157066e-001 -6.172055e-001 3.547948e-005 1.431003e-005 6.183866e-001 -6.194067e-001
342750000 4.532787e-005 8.771913e-005 5.933931e-001 -6.319886e-001 -2.216711e-005 -1.309476e-004 5.957665e-001 -6.341379e-001
343035000 -4.056588e-005 -1.392581e-005 5.712529e-001 -6.456524e-001 -3.332648e-005 -6.276368e-006 5.732025e-001 -6.483848e-001
343320000 -1.667267e-005 5.854916e-005 5.477006e-001 -6.589347e-001 -1.063712e-005 -5.684824e-005 5.504553e-001 -6.614977e-001
343605000 6.150312e-005 6.532380e-007 5.252758e-001 -6.708775e-001 2.526764e-005 8.519656e-006 5.279651e-001 -6.738610e-001
343890000 1.625172e-005 -2.226894e-005 5.031685e-001 -6.817688e-001 1.228720e-004 -5.691545e-005 5.052700e-001 -6.847520e-001
