!Agilent Technologies,N5230C,SG49000117,A.08.50.07
!Agilent N5230C: A.08.50.07
!Date: Sunday, March 17, 2024 02:41:05
!Correction: S11(Off) 
!S21(Off) 
!S12(Off) 
!S22(Off) 
!S2P File: Measurements: S11, S21, S12, S22:
# Hz S  RI   R 50
300000000 -1.410435e-005 3.241618e-005 -6.338317e-001 -6.343329e-001 -2.760652e-005 6.462361e-005 -6.361183e-001 -6.360178e-001
300285000 -1.188009e-005 -7.732165e-005 -6.486503e-001 -6.108548e-001 -1.469527e-005 -4.869213e-005 -6.506825e-001 -6.126800e-001
300570000 -2.314733e-005 1.868120e-005 -6.620241e-001 -5.866693e-001 -1.302883e-006 -1.027954e-006 -6.646519e-001 -5.891601e-001
300855000 1.171421e-004 7.972377e-005 -6.749224e-001 -5.629932e-001 1.111302e-005 -2.433745e-005 -6.776783e-001 -5.657424e-001
301140000 -3.854541e-005 -2.166299e-005 -6.876777e-001 -5.397608e-001 1.007058e-004 -4.192803e-005 -6.901672e-001 -5.414194e-001
301425000 -5.972483e-005 1.190606e-004 -6.989405e-001 -5.156187e-001 1.754697e-004 7.008546e-006 -7.016382e-001 -5.178717e-001
301710000 1.218297e-004 2.022872e-005 -7.096380e-001 -4.928094e-001 6.552138e-006 3.787124e-005 -7.121621e-001 -4.942927e-001
301995000 9.997952e-005 8.184368e-005 -7.197686e-001 -4.692047e-001 -2.225690e-005 3.613535e-005 -7.220950e-001 -4.703600e-001
302280000 -3.306561e-005 7.155516e-005 -7.288725e-001 -4.448676e-001 8.149721e-005 -5.272423e-005 -7.312074e-001 -4.466500e-001
302565000 5.177498e-005 -3.935194e-005 -7.367724e-001 -4.221086e-001 -9.409320e-005 7.286500e-005 -7.400030e-001 -4.229460e-001
302850000 2.040649e-005 5.274510e-005 -7.444972e-001 -3.983239e-001 -6.320142e-005 -1.889305e-005 -7.474756e-001 -4.003221e-001
303135000 -5.236873e-005 3.648396e-005 -7.512705e-001 -3.748602e-001 -7.674740e-005 7.505255e-005 -7.540925e-001 -3.766227e-001
303420000 2.308849e-005 -6.074636e-005 -7.579222e-001 -3.521345e-001 -1.261889e-004 -4.406549e-005 -7.606909e-001 -3.534903e-001
303705000 1.699524e-005 -3.700142e-005 -7.630618e-001 -3.291939e-001 -1.345931e-004 -7.639715e-005 -7.663134e-001 -3.304994e-001
303990000 -6.599632e-005 -2.074820e-005 -7.687076e-001 -3.061368e-001 -3.359035e-005 -5.786989e-006 -7.715313e-001 -3.073705e-001
304275000 1.184728e-004 -9.516130e-005 -7.731257e-001 -2.834072e-001 -9.733004e-006 -4.182876e-005 -7.761302e-001 -2.844480e-001
304560000 -7.519984e-006 -1.070467e-004 -7.761835e-001 -2.610260e-001 5.358819e-005 -1.416625e-004 -7.803190e-001 -2.621194e-001
304845000 2.877980e-005 -2.350594e-004 -7.801834e-001 -2.383882e-001 1.738269e-005 -6.692530e-006 -7.832851e-001 -2.393475e-001
305130000 -1.452684e-006 2.856751e-006 -7.830026e-001 -2.159762e-001 -2.317502e-005 3.700590e-005 -7.862098e-001 -2.167696e-001
305415000 2.012615e-005 -1.441761e-005 -7.856287e-001 -1.939923e-001 4.299955e-005 -2.940791e-005 -7.886820e-001 -1.948989e-001
305700000 -4.283118e-005 4.053130e-005 -7.875506e-001 -1.720251e-001 2.040176e-005 3.623536e-005 -7.903639e-001 -1.725194e-001
305985000 4.421199e-005 -2.001140e-005 -7.886162e-001 -1.503898e-001 6.763821e-005 3.015739e-005 -7.919899e-001 -1.510188e-001
306270000 6.585109e-005 9.483382e-005 -7.893754e-001 -1.288666e-001 3.795639e-005 3.159885e-005 -7.924414e-001 -1.295540e-001
306555000 4.142311e-005 7.839026e-005 -7.903368e-001 -1.070272e-001 6.969702e-005 -6.716314e-005 -7.931893e-001 -1.080168e-001
306840000 -6.072973e-006 6.661554e-005 -7.902164e-001 -8.615724e-002 6.793798e-005 -5.480717e-005 -7.931519e-001 -8.633425e-002
307125000 -2.399672e-005 5.948163e-005 -7.898117e-001 -6.448935e-002 3.536885e-005 5.026033e-005 -7.924322e-001 -6.508181e-002
307410000 -7.676741e-005 6.855299e-005 -7.889464e-001 -4.330372e-002 -2.078784e-005 7.924510e-005 -7.919042e-001 -4.416278e-002
307695000 1.233269e-004 3.676345e-005 -7.876902e-001 -2.305361e-002 -3.644427e-005 2.001376e-006 -7.903663e-001 -2.281907e-002
307980000 -7.217994e-005 7.396089e-005 -7.858629e-001 -2.307283e-003 1.628167e-005 -6.337468e-005 -7.888886e-001 -1.831295e-003
308265000 -9.418822e-006 5.290120e-005 -7.835751e-001 1.850283e-002 6.635315e-006 -1.705043e-005 -7.869265e-001 1.846848e-002
308550000 -2.654559e-005 -4.155657e-005 -7.819041e-001 3.912909e-002 4.195164e-005 -8.888582e-005 -7.840462e-001 3.891350e-002
308835000 -1.350556e-004 -2.571122e-005 -7.784659e-001 5.886691e-002 6.622351e-005 4.730784e-005 -7.817614e-001 5.998896e-002
309120000 -5.615400e-005 -6.334651e-005 -7.750959e-001 7.967556e-002 8.361156e-005 1.976469e-005 -7.784686e-001 7.970057e-002
309405000 -1.303887e-004 -2.294861e-007 -7.722715e-001 9.900816e-002 1.054844e-004 -6.528316e-005 -7.745114e-001 1.003604e-001
309690000 -1.217727e-004 -6.503815e-005 -7.676423e-001 1.196823e-001 6.506740e-005 3.930427e-005 -7.708730e-001 1.198660e-001
309975000 -4.860361e-005 -4.842860e-005 -7.635581e-001 1.393135e-001 -2.455914e-005 8.273288e-005 -7.665058e-001 1.396478e-001
310260000 -3.121081e-005 1.102192e-005 -7.588849e-001 1.591229e-001 6.642754e-005 1.383967e-005 -7.620035e-001 1.593604e-001
310545000 7.246806e-005 -2.644836e-005 -7.536372e-001 1.787535e-001 -3.961301e-005 5.474994e-005 -7.572235e-001 1.793570e-001
310830000 9.611114e-005 -7.531654e-006 -7.490037e-001 1.977744e-001 4.299550e-005 -1.551432e-004 -7.516599e-001 1.990134e-001
311115000 1.042426e-004 -9.413710e-006 -7.431107e-001 2.175439e-001 5.340066e-005 5.935270e-005 -7.458167e-001 2.184662e-001
311400000 7.535081e-005 8.828710e-005 -7.371168e-001 2.366543e-001 -1.097141e-004 3.622628e-005 -7.398524e-001 2.380696e-001
311685000 3.722656e-005 4.063969e-005 -7.304397e-001 2.561976e-001 -1.181750e-005 -4.144763e-005 -7.338061e-001 2.569301e-001
311970000 3.090926e-005 4.341491e-006 -7.240481e-001 2.752064e-001 4.306170e-005 -1.288306e-004 -7.266679e-001 2.764172e-001
312255000 -4.641650e-005 1.231959e-005 -7.167370e-001 2.940085e-001 -1.271367e-004 -6.433533e-005 -7.202340e-001 2.951496e-001
312540000 -1.445128e-005 1.353249e-004 -7.089881e-001 3.128303e-001 4.323194e-005 2.364144e-005 -7.122180e-001 3.143257e-001
312825000 -2.999706e-005 8.083804e-005 -7.009889e-001 3.316201e-001 -6.413988e-005 5.112711e-005 -7.041969e-001 3.328452e-001
313110000 9.437553e-007 -6.120814e-006 -6.934861e-001 3.509079e-001 1.159663e-004 -4.684791e-006 -6.957194e-001 3.514479e-001
313395000 -1.119704e-004 3.985666e-005 -6.845039e-001 3.686115e-001 9.924029e-005 3.564533e-005 -6.876795e-001 3.703167e-001
313680000 -5.947235e-006 -9.865781e-005 -6.757519e-001 3.870272e-001 -5.698332e-005 7.679336e-006 -6.782381e-001 3.886685e-001
313965000 -2.508539e-005 -7.266968e-005 -6.658721e-001 4.060702e-001 4.123744e-005 -1.559773e-005 -6.687715e-001 4.070314e-001
314250000 8.038863e-005 8.435649e-006 -6.565034e-001 4.240581e-001 -1.001359e-004 -7.036961e-005 -6.581614e-001 4.254537e-001
314535000 -1.375060e-006 -4.102450e-005 -6.463115e-001 4.428376e-001 -4.016250e-006 -8.421242e-006 -6.491712e-001 4.444229e-001
314820000 4.241921e-005 -8.826633e-006 -6.357962e-001 4.608485e-001 -5.222144e-005 -1.185849e-004 -6.382416e-001 4.625918e-001
315105000 7.746233e-005 -6.310947e-005 -6.242238e-001 4.787901e-001 3.930899e-005 4.819451e-007 -6.272913e-001 4.805549e-001
315390000 8.994107e-005 -2.309384e-006 -6.131170e-001 4.967872e-001 1.279846e-004 6.812558e-005 -6.156227e-001 4.983440e-001
315675000 -4.814708e-005 3.108781e-005 -6.012427e-001 5.142406e-001 5.573734e-005 5.802291e-005 -6.038213e-001 5.163800e-001
315960000 -4.209495e-005 2.736496e-005 -5.887532e-001 5.322590e-001 -3.483549e-005 -2.969112e-005 -5.910709e-001 5.346699e-001
316245000 6.761732e-006 2.532256e-005 -5.757905e-001 5.501086e-001 -3.879090e-005 1.139765e-004 -5.780141e-001 5.520367e-001
316530000 2.182679e-005 -1.010600e-004 -5.629722e-001 5.675426e-001 -3.232630e-005 9.046293e-005 -5.644177e-001 5.699933e-001
316815000 6.600751e-006 -9.992928e-005 -5.480359e-001 5.851088e-001 6.357711e-006 -1.845140e-005 -5.507525e-001 5.872236e-001
317100000 -3.279347e-005 -9.466375e-005 -5.340829e-001 6.025010e-001 -6.146786e-005 -5.881803e-005 -5.363182e-001 6.050129e-001
317385000 -4.417376e-005 -3.468830e-005 -5.190105e-001 6.197116e-001 -2.931134e-005 5.704019e-005 -5.214273e-001 6.224727e-001
317670000 -3.811202e-005 9.760946e-005 -5.034716e-001 6.367478e-001 1.976179e-005 1.352427e-004 -5.055904e-001 6.391157e-001
317955000 -6.497854e-005 -9.633746e-005 -4.874677e-001 6.533881e-001 -1.152774e-005 2.138380e-005 -4.895248e-001 6.555682e-001
318240000 1.580720e-005 1.774253e-005 -4.711583e-001 6.701449e-001 -3.682218e-005 1.253178e-005 -4.728390e-001 6.725166e-001
318525000 3.698918e-005 -9.072853e-005 -4.533171e-001 6.858062e-001 3.625392e-005 -4.057947e-005 -4.556110e-001 6.886908e-001
318810000 6.429410e-005 -1.290731e-004 -4.359972e-001 7.024525e-001 1.467800e-006 2.022303e-005 -4.378221e-001 7.056010e-001
319095000 7.593729e-005 -2.977394e-005 -4.171083e-001 7.181606e-001 -1.226931e-005 3.750448e-005 -4.194366e-001 7.211889e-001
319380000 7.291894e-006 -1.044847e-004 -3.978977e-001 7.340335e-001 1.411802e-004 -7.620073e-005 -4.000290e-001 7.373974e-001
319665000 -5.015421e-005 3.952552e-005 -3.783840e-001 7.493980e-001 1.119818e-004 7.559844e-005 -3.802066e-001 7.521750e-001
319950000 6.839713e-005 6.950138e-005 -3.582664e-001 7.643232e-001 1.118304e-005 1.293403e-005 -3.596411e-001 7.674102e-001
320235000 1.428572e-004 -1.328857e-005 -3.371065e-001 7.789993e-001 5.783999e-006 1.536764e-005 -3.383633e-001 7.820492e-001
320520000 2.098398e-005 -2.622179e-005 -3.152922e-001 7.934295e-001 1.873940e-005 7.976447e-005 -3.167081e-001 7.964619e-001
320805000 -8.761838e-005 8.978519e-006 -2.927586e-001 8.070507e-001 -1.411787e-004 4.006593e-005 -2.939205e-001 8.105391e-001
321090000 -5.780043e-005 -9.046485e-006 -2.696143e-001 8.206620e-001 -5.923160e-005 5.706277e-006 -2.701844e-001 8.240154e-001
321375000 -3.125953e-006 -3.884962e-005 -2.452817e-001 8.333588e-001 -2.087744e-005 -4.278258e-005 -2.458258e-001 8.374161e-001
321660000 6.286618e-005 -5.704788e-007 -2.205897e-001 8.457343e-001 -5.141666e-005 -5.206202e-005 -2.213375e-001 8.495223e-001
321945000 -4.014831e-005 -5.427479e-005 -1.948267e-001 8.575541e-001 5.057414e-005 -3.590564e-005 -1.959501e-001 8.617432e-001
322230000 -1.736044e-005 7.899879e-005 -1.689594e-001 8.691546e-001 4.356254e-005 -3.013984e-005 -1.694073e-001 8.722940e-001
322515000 -9.910551e-005 3.148662e-005 -1.415672e-001 8.791105e-001 -3.919405e-005 -2.779475e-005 -1.421047e-001 8.832381e-001
322800000 -1.359785e-004 -2.079569e-005 -1.137876e-001 8.885235e-001 -4.898293e-005 -4.260322e-005 -1.142294e-001 8.923241e-001
323085000 -3.692186e-005 -1.206253e-004 -8.565735e-002 8.982626e-001 -1.341345e-005 -2.706722e-005 -8.568389e-002 9.014423e-001
323370000 -9.144658e-006 -4.996311e-005 -5.656439e-002 9.058062e-001 4.550052e-005 8.878783e-005 -5.684162e-002 9.097535e-001
323655000 -5.877292e-005 -8.335973e-005 -2.654769e-002 9.133912e-001 3.773947e-005 1.012257e-006 -2.609112e-002 9.169457e-001
323940000 2.550869e-006 9.341240e-006 3.430712e-003 9.190255e-001 1.056669e-004 -2.766753e-005 3.929420e-003 9.233380e-001
324225000 5.238060e-005 3.609655e-005 3.546016e-002 9.249461e-001 4.970244e-005 1.874773e-005 3.600908e-002 9.289338e-001
324510000 1.188508e-004 2.173471e-005 6.795341e-002 9.289185e-001 -1.012659e-005 7.101521e-005 6.725449e-002 9.328876e-001
324795000 -3.345334e-005 8.758408e-005 9.923043e-002 9.319119e-001 -3.755851e-005 2.386053e-005 1.005705e-001 9.362389e-001
325080000 5.998658e-005 1.578750e-004 1.329136e-001 9.340458e-001 -1.961165e-006 3.102218e-005 1.339606e-001 9.374791e-001
325365000 1.366439e-005 -8.451789e-006 1.662190e-001 9.344052e-001 1.330946e-005 -5.750863e-005 1.673593e-001 9.386295e-001
325650000 -2.392943e-005 1.154655e-005 2.006349e-001 9.335802e-001 1.030247e-006 1.159251e-004 2.015994e-001 9.375226e-001
325935000 4.964989e-005 4.863930e-005 2.354994e-001 9.315032e-001 1.933858e-005 2.457950e-005 2.365772e-001 9.349581e-001
326220000 -5.931903e-005 -6.550054e-005 2.703111e-001 9.286222e-001 -7.019800e-005 4.919728e-005 2.721691e-001 9.315452e-001
326505000 -8.032127e-005 -6.265764e-007 3.055403e-001 9.221703e-001 8.851797e-005 8.495963e-005 3.064519e-001 9.266527e-001
326790000 -5.252954e-005 -4.543339e-005 3.414350e-001 9.162152e-001 6.060106e-006 8.476077e-005 3.423043e-001 9.200172e-001
327075000 -3.866681e-005 1.410299e-005 3.769031e-001 9.074238e-001 7.491731e-005 -1.870593e-005 3.781770e-001 9.113380e-001
327360000 2.039749e-005 3.340316e-005 4.122662e-001 8.979519e-001 -1.164320e-005 3.969235e-005 4.134244e-001 9.015799e-001
327645000 4.217108e-005 -2.968555e-005 4.477144e-001 8.858520e-001 4.094071e-005 8.002692e-005 4.495561e-001 8.895962e-001
327930000 -8.298091e-005 -4.159383e-006 4.837343e-001 8.727025e-001 1.088789e-005 3.466959e-006 4.847907e-001 8.764879e-001
328215000 6.241272e-005 -5.577551e-005 5.182381e-001 8.579481e-001 -4.501440e-005 1.149220e-004 5.204592e-001 8.606237e-001
328500000 -8.893945e-006 5.952417e-005 5.531282e-001 8.402091e-001 -4.796432e-005 2.860732e-005 5.553631e-001 8.444027e-001
328785000 -6.106227e-005 3.927729e-005 5.869861e-001 8.223385e-001 -1.205494e-006 -3.509946e-005 5.891669e-001 8.256898e-001
329070000 -2.839082e-005 2.596133e-005 6.205481e-001 8.016955e-001 -5.241134e-005 9.819573e-005 6.235768e-001 8.051724e-001
329355000 -7.866511e-005 4.074195e-005 6.537605e-001 7.794873e-001 9.091723e-005 -2.509365e-005 6.561738e-001 7.828047e-001
329640000 -4.694306e-005 9.563708e-005 6.853517e-001 7.553073e-001 -3.120175e-005 8.868411e-005 6.885542e-001 7.594072e-001
329925000 3.149543e-005 -8.331690e-005 7.165620e-001 7.298569e-001 -4.461201e-005 6.160477e-005 7.193540e-001 7.336134e-001
330210000 -4.927937e-005 -8.120095e-005 7.465568e-001 7.034647e-001 2.892234e-005 -3.131943e-005 7.496745e-001 7.061605e-001
330495000 3.264688e-005 -3.442071e-005 7.752098e-001 6.749376e-001 -3.555397e-005 -7.604497e-005 7.787183e-001 6.771479e-001
330780000 2.976626e-005 -4.310531e-005 8.029197e-001 6.448363e-001 4.549660e-005 -3.492656e-005 8.058764e-001 6.469967e-001
331065000 2.088185e-005 -8.729367e-005 8.288720e-001 6.128551e-001 8.298146e-005 -1.222858e-005 8.317291e-001 6.159765e-001
331350000 6.097063e-006 -5.089556e-005 8.528726e-001 5.800221e-001 4.328319e-005 -8.316680e-005 8.569510e-001 5.823843e-001
331635000 1.243732e-004 4.824490e-005 8.754951e-001 5.459469e-001 1.409488e-004 -6.136884e-005 8.798770e-001 5.486231e-001
331920000 2.158738e-005 2.509632e-006 8.961805e-001 5.111471e-001 5.960932e-005 1.512327e-004 9.006833e-001 5.132633e-001
332205000 1.813165e-005 1.621462e-004 9.156775e-001 4.747278e-001 -3.430771e-005 -2.700099e-005 9.198406e-001 4.768583e-001
332490000 9.747298e-005 1.749393e-005 9.334264e-001 4.381822e-001 4.304083e-005 -3.744035e-005 9.374785e-001 4.398236e-001
332775000 2.142937e-005 9.643708e-005 9.490732e-001 4.004879e-001 1.564037e-005 3.486626e-005 9.531211e-001 4.018250e-001
333060000 4.953001e-005 -3.477668e-005 9.628212e-001 3.621182e-001 -1.976962e-005 5.868479e-005 9.672779e-001 3.633073e-001
333345000 6.010905e-005 1.489430e-004 9.744473e-001 3.234868e-001 -8.194429e-005 1.078132e-004 9.790195e-001 3.242363e-001
333630000 -2.392948e-005 1.631881e-004 9.845604e-001 2.846008e-001 -4.878303e-006 4.772496e-005 9.884883e-001 2.859882e-001
333915000 1.500507e-005 1.094334e-004 9.918336e-001 2.452786e-001 2.739566e-005 -3.780856e-005 9.963818e-001 2.462008e-001
334200000 6.592994e-006 2.820017e-005 9.985212e-001 2.055277e-001 2.549026e-005 5.271283e-005 1.003002e+000 2.065621e-001
334485000 -8.231532e-005 1.053631e-004 1.002197e+000 1.665095e-001 9.035283e-006 6.031436e-005 1.006964e+000 1.671966e-001
334770000 -2.775361e-005 2.202337e-005 1.004884e+000 1.271452e-001 -3.425279e-005 3.525666e-005 1.009278e+000 1.279010e-001
335055000 3.983347e-005 -1.424567e-005 1.004885e+000 8.826999e-002 1.333446e-004 -5.657617e-005 1.009749e+000 8.886767e-002
335340000 6.171158e-005 -3.332653e-005 1.003316e+000 4.933219e-002 4.228301e-006 -2.524517e-005 1.008172e+000 5.007069e-002
335625000 -3.191187e-005 1.140616e-004 1.000993e+000 1.122673e-002 -9.723609e-006 1.377191e-005 1.004977e+000 1.217955e-002
335910000 -1.066697e-004 -3.985251e-005 9.958061e-001 -2.566528e-002 3.059107e-005 -8.360419e-005 1.000102e+000 -2.528730e-002
336195000 -6.105288e-005 -4.231869e-005 9.892982e-001 -6.166542e-002 1.100538e-006 -1.324646e-005 9.930275e-001 -6.226747e-002
336480000 -5.833266e-005 -2.930330e-005 9.812934e-001 -9.827835e-002 -3.450486e-005 8.734727e-005 9.857401e-001 -9.868453e-002
336765000 1.959611e-005 -3.695845e-005 9.722897e-001 -1.333341e-001 7.342894e-005 -9.149635e-006 9.766009e-001 -1.337340e-001
337050000 8.603072e-005 3.146861e-005 9.614277e-001 -1.673260e-001 -8.567722e-005 4.391456e-005 9.657018e-001 -1.683211e-001
337335000 -1.056481e-004 1.791695e-007 9.496255e-001 -2.005927e-001 -6.364256e-005 -6.279286e-006 9.532236e-001 -2.019456e-001
337620000 7.428639e-005 -2.928247e-005 9.361118e-001 -2.337483e-001 -3.074491e-005 9.717797e-006 9.400715e-001 -2.340378e-001
337905000 -2.534203e-005 -1.138608e-004 9.222754e-001 -2.648779e-001 -3.229889e-005 -3.149466e-005 9.260611e-001 -2.654995e-001
338190000 -1.964196e-005 -1.131465e-005 9.067348e-001 -2.950819e-001 6.475209e-005 -7.186357e-005 9.104543e-001 -2.961967e-001
338475000 -4.658768e-006 1.842675e-005 8.906943e-001 -3.237094e-001 -1.021381e-005 6.511260e-005 8.947939e-001 -3.254474e-001
338760000 2.082553e-005 -1.693413e-005 8.738182e-001 -3.525392e-001 1.223209e-005 6.762313e-005 8.777373e-001 -3.546664e-001
339045000 4.460914e-005 -6.307216e-006 8.555052e-001 -3.798191e-001 5.820182e-006 4.017547e-005 8.591568e-001 -3.814898e-001
339330000 1.228704e-004 8.232809e-006 8.368744e-001 -4.061400e-001 -1.492635e-006 -1.400200e-005 8.407277e-001 -4.078128e-001
339615000 -6.307495e-006 1.552498e-005 8.176266e-001 -4.307555e-001 1.044493e-004 8.934138e-005 8.211147e-001 -4.333519e-001
339900000 -4.454786e-005 6.125763e-005 7.983239e-001 -4.552298e-001 1.551883e-004 7.603529e-005 8.014251e-001 -4.571206e-001
340185000 2.173181e-005 -2.504017e-005 7.776817e-001 -4.774625e-001 2.091508e-005 6.892533e-005 7.811347e-001 -4.797055e-001
340470000 5.329351e-005 -4.493886e-006 7.574621e-001 -4.996058e-001 1.285571e-005 5.106412e-005 7.603380e-001 -5.020121e-001
340755000 6.855741e-005 -5.789716e-005 7.358317e-001 -5.210653e-001 2.815311e-005 1.256077e-004 7.388193e-001 -5.228891e-001
341040000 7.558024e-005 -7.124966e-006 7.143178e-001 -5.406419e-001 -5.716320e-005 4.244015e-005 7.178943e-001 -5.423959e-001
341325000 -1.107152e-004 -6.736351e-006 6.920909e-001 -5.594879e-001 -2.275726e-005 -2.577278e-005 6.957000e-001 -5.620456e-001
341610000 5.238031e-005 -1.016030e-004 6.712097e-001 -5.774637e-001 5.810504e-005 8.001850e-005 6.735771e-001 -5.792773e-001
341895000 6.563317e-005 3.648356e-005 6.485418e-001 -5.938409e-001 -7.662451e-005 4.522262e-005 6.509103e-001 -5.965219e-001
342180000 8.788151e-005 4.927659e-005 6.260464e-001 -6.102900e-001 2.433477e-005 -2.905234e-005 6.289768e-001 -6.124968e-001
342465000 -7.462807e-005 6.888339e-005 6.040047e-001 -6.254589e-001 -4.446269e-005 -1.242567e-004 6.071967e-001 -6.283892e-001
342750000 8.527489e-005 -2.096039e-005 5.813848e-001 -6.397408e-001 -8.881160e-005 -1.112189e-004 5.833594e-001 -6.422020e-001
343035000 8.461079e-005 2.280910e-005 5.584745e-001 -6.528654e-001 6.172078e-005 -5.942975e-005 5.604901e-001 -6.553254e-001
343320000 -7.480969e-005 1.706532e-005 5.356238e-001 -6.653743e-001 3.207356e-006 -1.698246e-005 5.380619e-001 -6.687888e-001
343605000 -7.789091e-006 -2.800524e-005 5.131842e-001 -6.771588e-001 1.317456e-004 -1.923128e-005 5.150931e-001 -6.797037e-001
343890000 -1.019690e-004 4.860584e-005 4.901953e-001 -6.883833e-001 -3.139999e-005 3.626650e-006 4.921373e-001 -6.914948e-001
