!Agilent Technologies,N5230C,SG49000117,A.08.50.07
!Agilent N5230C: A.08.50.07
!Date: Sunday, March 17, 2024 02:42:11
!Correction: S11(Off) 
!S21(Off) 
!S12(Off) 
!S22(Off) 
!S2P File: Measurements: S11, S21, S12, S22:
# Hz S  RI   R 50
300000000 1.396031e-005 5.035224e-005 -6.411346e-001 -6.239302e-001 -8.381828e-005 2.795060e-005 -6.433752e-001 -6.264508e-001
300285000 -2.375918e-005 -3.034231e-005 -6.553888e-001 -6.004811e-001 -6.796829e-005 -2.499343e-005 -6.576672e-001 -6.026018e-001
300570000 -2.653417e-005 3.784045e-005 -6.684366e-001 -5.771204e-001 3.832197e-005 1.981628e-005 -6.714740e-001 -5.785744e-001
300855000 1.340642e-005 -4.144770e-005 -6.812283e-001 -5.535844e-001 5.606945e-005 3.625421e-006 -6.838596e-001 -5.551774e-001
301140000 -3.642512e-005 -1.028598e-004 -6.929609e-001 -5.295289e-001 -8.283907e-005 5.380878e-005 -6.961428e-001 -5.318342e-001
301425000 -5.224233e-005 4.460879e-005 -7.041636e-001 -5.055571e-001 6.742900e-005 -3.310410e-005 -7.074547e-001 -5.080941e-001
301710000 -4.303899e-005 -1.485953e-004 -7.147001e-001 -4.823601e-001 2.026792e-005 2.381560e-006 -7.172436e-001 -4.842357e-001
301995000 -4.475390e-005 -7.231878e-005 -7.243894e-001 -4.587743e-001 1.094964e-004 -2.837674e-005 -7.266907e-001 -4.604812e-001
302280000 -2.190482e-005 1.523248e-006 -7.324007e-001 -4.348749e-001 -5.290454e-005 9.096932e-006 -7.360833e-001 -4.373566e-001
302565000 -1.428874e-004 -4.716893e-005 -7.410902e-001 -4.116577e-001 3.619271e-005 1.725969e-005 -7.441637e-001 -4.129582e-001
302850000 7.872273e-005 9.523757e-006 -7.485460e-001 -3.881802e-001 -4.056433e-005 5.896912e-005 -7.510046e-001 -3.897929e-001
303135000 9.361142e-005 5.184094e-005 -7.546895e-001 -3.648028e-001 5.320042e-005 -1.657226e-005 -7.579383e-001 -3.663634e-001
303420000 1.019718e-004 5.132223e-005 -7.613510e-001 -3.420810e-001 3.293988e-005 5.469911e-005 -7.635013e-001 -3.434167e-001
303705000 4.643945e-005 4.238971e-005 -7.663039e-001 -3.188687e-001 -2.045495e-005 7.501634e-005 -7.699469e-001 -3.200821e-001
303990000 -4.385762e-005 -8.108733e-005 -7.714686e-001 -2.961123e-001 1.398585e-005 -5.871275e-005 -7.736624e-001 -2.971277e-001
304275000 4.376692e-005 3.877009e-005 -7.758633e-001 -2.735184e-001 -8.370832e-005 -5.370910e-005 -7.785832e-001 -2.741899e-001
304560000 9.251359e-005 3.914403e-005 -7.791150e-001 -2.509677e-001 -5.391564e-005 4.512327e-005 -7.827007e-001 -2.510369e-001
304845000 6.385467e-005 -7.174937e-005 -7.826392e-001 -2.285291e-001 6.454646e-006 -1.183834e-004 -7.855216e-001 -2.294294e-001
305130000 3.468217e-005 4.101694e-006 -7.847777e-001 -2.058618e-001 5.564416e-005 -1.878873e-004 -7.878571e-001 -2.072982e-001
305415000 2.983819e-005 1.800899e-005 -7.873253e-001 -1.841963e-001 -8.230737e-005 -3.478996e-005 -7.904450e-001 -1.849466e-001
305700000 -7.082181e-005 -4.346214e-005 -7.891966e-001 -1.618422e-001 -3.338608e-005 1.575083e-005 -7.914816e-001 -1.630351e-001
305985000 -4.176932e-005 -1.166429e-005 -7.895123e-001 -1.405309e-001 5.147835e-005 -2.158009e-005 -7.924613e-001 -1.408740e-001
306270000 -3.451262e-005 -5.323057e-006 -7.903727e-001 -1.183768e-001 -1.440594e-005 4.520657e-005 -7.934152e-001 -1.194101e-001
306555000 3.378749e-005 4.278686e-005 -7.902612e-001 -9.739386e-002 3.337665e-005 -7.191565e-005 -7.942931e-001 -9.795878e-002
306840000 -5.439881e-005 4.254680e-006 -7.906051e-001 -7.607095e-002 5.445499e-005 -1.667227e-005 -7.931190e-001 -7.619555e-002
307125000 -8.345776e-006 2.981651e-005 -7.895860e-001 -5.457100e-002 8.834247e-005 7.643188e-006 -7.930068e-001 -5.480158e-002
307410000 3.128944e-005 -5.048257e-006 -7.881715e-001 -3.381707e-002 4.962184e-005 2.826217e-005 -7.919472e-001 -3.435566e-002
307695000 8.789919e-005 -1.557866e-005 -7.871338e-001 -1.288425e-002 7.091653e-005 -3.661622e-005 -7.900996e-001 -1.315203e-002
307980000 2.425954e-007 1.252335e-005 -7.853175e-001 7.387690e-003 9.412228e-005 2.000869e-005 -7.882751e-001 7.965591e-003
308265000 -5.520744e-005 8.129548e-005 -7.828563e-001 2.859530e-002 6.843350e-005 -6.638600e-005 -7.866760e-001 2.827246e-002
308550000 -3.099028e-005 -1.215380e-005 -7.807404e-001 4.844197e-002 3.002926e-005 5.014089e-005 -7.835783e-001 4.890570e-002
308835000 4.522392e-005 4.595362e-005 -7.772663e-001 6.870746e-002 -3.074722e-005 8.565345e-005 -7.807642e-001 6.927367e-002
309120000 4.939383e-005 -4.863023e-005 -7.740460e-001 8.912537e-002 -5.378872e-005 5.675136e-005 -7.769876e-001 8.957288e-002
309405000 6.079377e-005 -1.834146e-005 -7.702825e-001 1.092609e-001 -4.752385e-007 -1.144701e-005 -7.730957e-001 1.093695e-001
309690000 -5.515303e-005 1.379670e-004 -7.658910e-001 1.289086e-001 1.944403e-005 -7.193101e-006 -7.694482e-001 1.295461e-001
309975000 -1.473507e-005 2.346053e-005 -7.617931e-001 1.486996e-001 2.118905e-005 4.023135e-005 -7.648680e-001 1.499052e-001
310260000 -5.695939e-005 1.534372e-005 -7.569302e-001 1.681491e-001 -5.066685e-005 -1.779040e-005 -7.598367e-001 1.688872e-001
310545000 2.256289e-005 4.787779e-005 -7.517003e-001 1.877174e-001 -2.522488e-005 -8.301763e-005 -7.545643e-001 1.889898e-001
310830000 5.300876e-005 1.150243e-004 -7.463762e-001 2.073915e-001 -6.661177e-005 6.088445e-005 -7.496663e-001 2.078407e-001
311115000 9.288868e-005 1.010186e-005 -7.405182e-001 2.264598e-001 3.462022e-005 6.390019e-005 -7.435490e-001 2.275465e-001
311400000 -3.572809e-005 -3.326913e-005 -7.341547e-001 2.459316e-001 -1.387404e-004 -9.550762e-005 -7.372916e-001 2.471966e-001
311685000 -7.738157e-005 9.888425e-006 -7.275659e-001 2.651963e-001 -6.401981e-005 -1.262818e-005 -7.307009e-001 2.658446e-001
311970000 -1.297749e-004 -9.062091e-006 -7.206914e-001 2.841916e-001 1.205623e-004 1.811924e-005 -7.235515e-001 2.848458e-001
312255000 1.045099e-004 -9.350457e-006 -7.128541e-001 3.031844e-001 4.689250e-005 2.820564e-005 -7.158881e-001 3.044359e-001
312540000 -2.762268e-005 1.835093e-005 -7.055394e-001 3.223144e-001 -1.441349e-004 -3.857470e-005 -7.087598e-001 3.234585e-001
312825000 -1.478496e-004 -8.053213e-005 -6.977934e-001 3.407035e-001 1.273081e-004 -1.257645e-004 -7.007868e-001 3.420932e-001
313110000 6.680403e-005 -5.896368e-005 -6.891258e-001 3.591728e-001 -3.802360e-005 -8.493995e-005 -6.920695e-001 3.606468e-001
313395000 -5.397338e-005 -1.077036e-004 -6.801665e-001 3.776362e-001 -3.178618e-006 5.218292e-005 -6.833463e-001 3.790706e-001
313680000 -3.706727e-005 6.521438e-005 -6.712132e-001 3.966391e-001 8.085386e-005 -2.091378e-005 -6.742190e-001 3.979180e-001
313965000 5.445287e-006 1.581458e-005 -6.614534e-001 4.146512e-001 -2.360297e-005 1.347707e-005 -6.644751e-001 4.163523e-001
314250000 -1.046974e-004 -6.153287e-006 -6.511617e-001 4.330416e-001 -1.643683e-005 -2.184137e-006 -6.544697e-001 4.345629e-001
314535000 3.098267e-005 -2.262463e-005 -6.412215e-001 4.513871e-001 -3.276364e-005 1.242911e-004 -6.437749e-001 4.528073e-001
314820000 3.872190e-005 1.562341e-005 -6.304376e-001 4.692406e-001 -3.163005e-005 -5.552059e-006 -6.328706e-001 4.709590e-001
315105000 4.931953e-005 9.965620e-006 -6.189980e-001 4.878185e-001 -1.380977e-005 -1.106893e-004 -6.213053e-001 4.890575e-001
315390000 5.890885e-006 1.679291e-005 -6.070959e-001 5.052529e-001 5.373813e-005 2.901801e-005 -6.099148e-001 5.073653e-001
315675000 5.217258e-005 -6.681727e-007 -5.951560e-001 5.237513e-001 2.058284e-005 3.691385e-005 -5.975076e-001 5.250019e-001
315960000 -1.158300e-004 -2.412383e-005 -5.824339e-001 5.409636e-001 -3.737359e-005 -8.161459e-006 -5.850361e-001 5.431693e-001
316245000 -3.841742e-005 4.205825e-006 -5.694457e-001 5.584840e-001 8.383992e-006 -9.831559e-005 -5.714098e-001 5.608139e-001
316530000 -4.261552e-005 7.137089e-005 -5.558730e-001 5.759020e-001 -6.929509e-005 2.895770e-005 -5.578554e-001 5.781403e-001
316815000 9.323366e-005 5.582730e-005 -5.411891e-001 5.935014e-001 1.608833e-004 3.636161e-005 -5.437119e-001 5.959985e-001
317100000 -2.137934e-005 9.235814e-005 -5.269471e-001 6.100726e-001 -8.926435e-005 -5.262743e-005 -5.289687e-001 6.130939e-001
317385000 -2.071852e-005 -5.207762e-005 -5.114335e-001 6.278008e-001 -5.935196e-006 7.628544e-005 -5.137383e-001 6.300862e-001
317670000 -5.883834e-005 5.748777e-005 -4.958923e-001 6.441996e-001 4.439910e-005 -2.611602e-005 -4.976983e-001 6.469578e-001
317955000 -7.467042e-006 -6.634359e-005 -4.793145e-001 6.610447e-001 1.586717e-005 3.597932e-005 -4.816864e-001 6.634408e-001
318240000 -1.711187e-006 -4.394494e-005 -4.626830e-001 6.776684e-001 1.275256e-005 -2.365658e-005 -4.644410e-001 6.803237e-001
318525000 9.688745e-008 -1.159255e-004 -4.452164e-001 6.938201e-001 8.391889e-006 4.634029e-005 -4.470537e-001 6.968111e-001
318810000 -5.745182e-006 -8.440462e-005 -4.265747e-001 7.100789e-001 8.402819e-006 -1.064924e-005 -4.286776e-001 7.129270e-001
319095000 -1.780240e-005 6.325896e-005 -4.081711e-001 7.257829e-001 5.058895e-005 8.544599e-006 -4.094740e-001 7.286361e-001
319380000 1.914100e-005 -8.818894e-006 -3.887429e-001 7.409347e-001 5.261184e-006 -8.553181e-005 -3.901173e-001 7.442372e-001
319665000 2.338785e-005 -9.824680e-005 -3.689987e-001 7.564338e-001 -1.913651e-005 2.427849e-005 -3.706390e-001 7.595768e-001
319950000 3.010661e-005 2.219443e-005 -3.473186e-001 7.712311e-001 1.942162e-005 6.856998e-006 -3.489560e-001 7.745249e-001
320235000 9.767562e-005 1.423709e-004 -3.270276e-001 7.856091e-001 -3.408744e-005 -3.185470e-005 -3.279690e-001 7.883044e-001
320520000 3.182532e-005 -3.423034e-005 -3.042128e-001 7.994649e-001 -1.484535e-005 1.020244e-005 -3.058225e-001 8.031046e-001
320805000 1.425514e-004 -5.905526e-006 -2.810344e-001 8.134638e-001 -1.412130e-004 4.410632e-005 -2.828500e-001 8.164214e-001
321090000 -5.055972e-005 9.364798e-005 -2.579803e-001 8.265204e-001 1.029110e-004 -5.593680e-005 -2.588188e-001 8.297911e-001
321375000 4.143506e-005 -6.246842e-005 -2.332646e-001 8.390988e-001 1.246162e-004 2.355576e-005 -2.346117e-001 8.423217e-001
321660000 -1.275247e-004 3.920556e-006 -2.085031e-001 8.513168e-001 -2.451220e-006 5.429472e-005 -2.092753e-001 8.546692e-001
321945000 -5.016261e-005 7.209066e-005 -1.826675e-001 8.621893e-001 -8.131090e-005 1.047315e-004 -1.838500e-001 8.659499e-001
322230000 -3.901037e-005 8.246957e-005 -1.561388e-001 8.743082e-001 8.198705e-006 -1.001967e-005 -1.568551e-001 8.769606e-001
322515000 -4.976680e-005 3.383285e-005 -1.289774e-001 8.843341e-001 2.001910e-005 -9.249000e-005 -1.291942e-001 8.870732e-001
322800000 2.590686e-005 -4.291891e-005 -1.007635e-001 8.928974e-001 -2.669381e-005 2.299829e-006 -1.013030e-001 8.964918e-001
323085000 -2.143776e-006 -1.393763e-004 -7.211337e-002 9.010599e-001 4.884786e-005 -4.059129e-006 -7.197296e-002 9.054888e-001
323370000 4.441109e-005 -1.962842e-004 -4.234581e-002 9.092018e-001 3.627345e-005 -1.515975e-004 -4.256731e-002 9.126851e-001
323655000 -3.307484e-005 -4.518587e-005 -1.239279e-002 9.158927e-001 6.463048e-005 -3.019034e-005 -1.254612e-002 9.197522e-001
323940000 -3.815133e-005 -4.014383e-005 1.879724e-002 9.217080e-001 3.190980e-005 2.717274e-005 1.930978e-002 9.256335e-001
324225000 8.924981e-005 1.267892e-005 5.018352e-002 9.265658e-001 -5.396624e-005 -4.623553e-005 5.083688e-002 9.304059e-001
324510000 7.778576e-005 -1.048410e-005 8.247412e-002 9.305975e-001 1.007880e-004 -3.536334e-006 8.224282e-002 9.338890e-001
324795000 5.494204e-005 8.653589e-005 1.153247e-001 9.329461e-001 5.290890e-005 -2.095717e-005 1.158347e-001 9.366786e-001
325080000 -3.093314e-005 7.404516e-006 1.484652e-001 9.336440e-001 1.161459e-005 -2.246023e-005 1.495254e-001 9.375349e-001
325365000 7.855982e-005 4.882380e-005 1.820656e-001 9.346046e-001 5.280894e-005 -8.996342e-005 1.835568e-001 9.381471e-001
325650000 1.366338e-005 2.106393e-005 2.171085e-001 9.326261e-001 3.595654e-005 -1.317380e-004 2.179527e-001 9.370014e-001
325935000 7.726529e-005 -4.314179e-005 2.517151e-001 9.299380e-001 1.841335e-005 8.845156e-005 2.520992e-001 9.336898e-001
326220000 1.096028e-004 1.015013e-004 2.865208e-001 9.250604e-001 -2.780214e-005 -3.559289e-005 2.875945e-001 9.288648e-001
326505000 7.468773e-005 2.481171e-005 3.220104e-001 9.192836e-001 3.959379e-006 -1.882374e-005 3.235091e-001 9.231065e-001
326790000 -2.219718e-005 3.616473e-005 3.571779e-001 9.120967e-001 4.337252e-005 -1.532829e-005 3.587450e-001 9.161263e-001
327075000 -2.957265e-005 3.969699e-005 3.928907e-001 9.029941e-001 -6.931907e-005 -3.419094e-005 3.951103e-001 9.070547e-001
327360000 -1.158050e-005 -4.883984e-005 4.292672e-001 8.924051e-001 -5.051284e-005 -1.209657e-005 4.303913e-001 8.961635e-001
327645000 -4.662142e-005 5.767753e-005 4.642122e-001 8.797688e-001 6.187957e-005 6.383137e-007 4.656340e-001 8.839248e-001
327930000 -7.164087e-006 -1.007721e-004 4.996761e-001 8.654090e-001 -1.023075e-005 -1.462456e-006 5.012221e-001 8.694168e-001
328215000 6.445257e-006 -1.713199e-005 5.345545e-001 8.503914e-001 -1.168929e-004 5.200196e-005 5.369964e-001 8.538821e-001
328500000 2.883628e-005 7.285174e-005 5.689800e-001 8.323079e-001 5.262586e-005 1.945246e-005 5.712826e-001 8.353963e-001
328785000 -3.961881e-005 -9.149544e-006 6.022369e-001 8.128229e-001 -6.326761e-006 -1.235836e-005 6.048531e-001 8.156899e-001
329070000 -4.271626e-005 -2.266305e-005 6.365075e-001 7.919312e-001 -9.873933e-005 -7.259198e-006 6.382563e-001 7.950928e-001
329355000 3.209083e-005 1.691584e-005 6.685332e-001 7.689456e-001 -1.211830e-004 -4.528731e-005 6.713811e-001 7.721742e-001
329640000 2.515368e-006 5.589538e-005 7.003610e-001 7.437633e-001 6.244009e-005 -1.179712e-005 7.027462e-001 7.470793e-001
329925000 -7.409413e-005 4.074968e-006 7.306347e-001 7.183734e-001 -1.279723e-004 -1.403460e-005 7.330217e-001 7.210201e-001
330210000 -2.716717e-005 -1.451767e-004 7.606544e-001 6.905038e-001 1.168826e-004 6.971896e-005 7.627615e-001 6.925939e-001
330495000 -8.285836e-005 -3.778264e-005 7.881733e-001 6.609415e-001 -3.771468e-005 3.092818e-005 7.917119e-001 6.634992e-001
330780000 2.701712e-005 -9.589612e-005 8.151308e-001 6.301979e-001 5.912437e-005 3.767238e-005 8.179249e-001 6.326451e-001
331065000 1.527345e-005 2.574187e-005 8.400353e-001 5.978599e-001 -3.508992e-005 -2.172192e-005 8.435682e-001 6.001899e-001
331350000 6.168132e-005 5.174057e-006 8.636049e-001 5.642713e-001 -8.315958e-005 -3.478387e-005 8.676672e-001 5.670286e-001
331635000 5.743930e-005 4.365980e-005 8.849214e-001 5.304028e-001 -6.169870e-005 -1.083247e-005 8.897958e-001 5.327310e-001
331920000 -4.094157e-005 5.276047e-006 9.061082e-001 4.938954e-001 -5.854159e-005 1.481079e-005 9.102792e-001 4.969072e-001
332205000 1.184311e-004 2.969612e-005 9.247437e-001 4.587624e-001 4.037705e-005 -3.373436e-005 9.292860e-001 4.598953e-001
332490000 -7.255586e-005 9.433162e-005 9.415084e-001 4.205624e-001 -3.328557e-006 -3.842543e-005 9.451395e-001 4.223624e-001
332775000 1.343942e-005 -5.365219e-005 9.558347e-001 3.827705e-001 -1.445564e-004 -4.485126e-005 9.602290e-001 3.841496e-001
333060000 -2.484499e-005 7.189012e-005 9.693743e-001 3.443248e-001 -1.695225e-005 -4.299122e-005 9.737932e-001 3.458793e-001
333345000 6.441924e-005 1.138380e-004 9.794741e-001 3.052091e-001 2.492028e-005 6.250989e-005 9.840602e-001 3.064136e-001
333630000 1.925433e-005 4.708914e-005 9.889552e-001 2.653383e-001 5.321326e-005 5.729646e-005 9.933026e-001 2.674962e-001
333915000 -9.755726e-005 1.407625e-004 9.957467e-001 2.264068e-001 3.850950e-005 7.890017e-006 1.000571e+000 2.272926e-001
334200000 -1.702942e-005 1.621043e-005 1.001588e+000 1.871353e-001 -2.982504e-006 2.984115e-005 1.005915e+000 1.876232e-001
334485000 -1.424001e-006 1.232720e-005 1.004809e+000 1.477693e-001 -7.353038e-005 2.481060e-005 1.008830e+000 1.486154e-001
334770000 -4.902731e-005 4.984645e-005 1.005893e+000 1.087539e-001 1.082489e-004 -1.343600e-004 1.009986e+000 1.091450e-001
335055000 2.231529e-005 9.210124e-005 1.004859e+000 6.969768e-002 3.115903e-005 -8.173678e-005 1.009240e+000 7.062978e-002
335340000 9.706739e-005 7.070059e-005 1.003232e+000 3.218537e-002 7.258393e-005 7.877091e-005 1.007529e+000 3.232337e-002
335625000 5.746059e-005 7.816441e-006 9.986547e-001 -5.841749e-003 -4.148010e-005 -7.316589e-005 1.003165e+000 -5.921449e-003
335910000 5.542686e-005 6.192544e-005 9.929154e-001 -4.327282e-002 -8.136080e-005 -1.525223e-004 9.977038e-001 -4.376579e-002
336195000 -4.041480e-005 5.624118e-005 9.860117e-001 -7.950301e-002 -3.854190e-005 -1.266381e-004 9.904387e-001 -7.994057e-002
336480000 -1.044783e-004 9.112572e-005 9.776831e-001 -1.156298e-001 1.164904e-005 7.151755e-005 9.823778e-001 -1.157605e-001
336765000 -1.383071e-004 3.260540e-005 9.680229e-001 -1.501802e-001 -6.485277e-007 -7.122265e-005 9.721434e-001 -1.506581e-001
337050000 -4.270469e-005 -1.365943e-004 9.560196e-001 -1.836861e-001 -4.590001e-005 -1.085638e-004 9.604335e-001 -1.849591e-001
337335000 6.627983e-005 3.537488e-006 9.439614e-001 -2.168295e-001 -1.190737e-004 -6.978196e-005 9.483318e-001 -2.177711e-001
337620000 -1.797838e-005 -7.145618e-005 9.303759e-001 -2.485946e-001 -2.174763e-005 -1.330570e-005 9.345130e-001 -2.496121e-001
337905000 -2.288238e-005 3.835786e-005 9.154106e-001 -2.800959e-001 -1.034410e-005 -9.070464e-005 9.196007e-001 -2.816097e-001
338190000 -1.626327e-004 -2.256636e-005 8.996333e-001 -3.095045e-001 2.660269e-005 5.767524e-005 9.039187e-001 -3.108693e-001
338475000 -2.293569e-005 7.048496e-005 8.829281e-001 -3.388132e-001 -5.035588e-005 5.114384e-005 8.872084e-001 -3.396747e-001
338760000 2.115114e-005 2.786376e-005 8.657126e-001 -3.663135e-001 9.312606e-005 1.696896e-005 8.692732e-001 -3.681062e-001
339045000 -8.138908e-006 1.024010e-005 8.473647e-001 -3.936620e-001 -6.992420e-005 2.798566e-005 8.509589e-001 -3.952501e-001
339330000 -1.071086e-004 -8.482245e-005 8.284968e-001 -4.189481e-001 -1.017257e-004 -4.412429e-006 8.321210e-001 -4.205922e-001
339615000 -1.812647e-005 1.124792e-005 8.088620e-001 -4.435683e-001 -6.673144e-006 3.122635e-005 8.120629e-001 -4.454344e-001
339900000 6.026734e-005 1.869581e-005 7.888895e-001 -4.669612e-001 -6.278005e-006 1.312053e-005 7.923284e-001 -4.691640e-001
340185000 -3.392909e-005 3.013570e-005 7.681383e-001 -4.893574e-001 -6.596290e-005 3.369104e-006 7.714747e-001 -4.917677e-001
340470000 4.552851e-005 -6.355537e-005 7.474342e-001 -5.105436e-001 -4.005614e-005 -1.761395e-005 7.507752e-001 -5.129811e-001
340755000 -2.222507e-005 2.000220e-005 7.255865e-001 -5.315429e-001 -4.621287e-005 7.597475e-005 7.287740e-001 -5.336629e-001
341040000 -4.171335e-005 -2.113603e-005 7.045900e-001 -5.503452e-001 -2.933437e-005 2.971390e-005 7.071760e-001 -5.525922e-001
341325000 -1.458302e-004 -4.025827e-005 6.819984e-001 -5.693512e-001 5.891439e-005 -2.483439e-005 6.851334e-001 -5.715106e-001
341610000 7.740143e-005 -1.031446e-004 6.601582e-001 -5.863346e-001 -9.561497e-005 9.764143e-005 6.627049e-001 -5.888249e-001
341895000 6.007916e-005 -3.657128e-005 6.379387e-001 -6.033776e-001 -2.243701e-005 -2.593800e-005 6.408356e-001 -6.056047e-001
342180000 -1.090137e-004 6.048680e-005 6.152664e-001 -6.186417e-001 -3.367499e-005 -4.887866e-005 6.177173e-001 -6.210711e-001
342465000 -3.424966e-005 -1.909411e-005 5.925108e-001 -6.331256e-001 -1.061232e-004 1.174284e-005 5.951521e-001 -6.357626e-001
342750000 -1.946995e-005 -4.716141e-005 5.700653e-001 -6.470346e-001 -5.199671e-005 6.125835e-005 5.721275e-001 -6.497644e-001
343035000 -5.704196e-006 -8.280092e-006 5.472848e-001 -6.599830e-001 -3.855727e-005 -1.180564e-004 5.499921e-001 -6.629325e-001
343320000 3.132222e-006 -1.114424e-004 5.241050e-001 -6.722596e-001 1.189854e-004 -3.147332e-005 5.270634e-001 -6.747372e-001
343605000 -7.289479e-005 -8.032029e-005 5.013627e-001 -6.839318e-001 -2.903692e-005 -8.143185e-005 5.037366e-001 -6.866020e-001
343890000 5.964070e-005 6.065121e-005 4.791142e-001 -6.940642e-001 -9.772646e-006 3.691750e-006 4.808797e-001 -6.971954e-001
