!Agilent Technologies,N5230C,SG49000117,A.08.50.07
!Agilent N5230C: A.08.50.07
!Date: Thursday, December 07, 2023 02:53:48
!Correction: S11(Full 2 Port(1,2)) 
!S21(Full 2 Port(1,2)) 
!S12(Full 2 Port(1,2)) 
!S22(Full 2 Port(1,2)) 
!S2P File: Measurements: S11, S21, S12, S22:
# Hz S  RI   R 50
300000 1.019169e+000 -8.459933e-003 -1.872751e-004 -1.561646e-004 -1.609895e-004 -3.217409e-004 1.028629e+000 -1.759004e-002
374985 9.978080e-001 -5.572817e-003 5.031894e-005 6.259808e-005 -2.061279e-004 -1.486045e-004 9.828156e-001 -1.304799e-002
449970 9.892523e-001 2.921450e-004 -1.407042e-004 5.608911e-006 -8.188178e-005 7.541759e-005 9.588692e-001 -1.324656e-002
524955 9.779040e-001 5.644088e-003 8.030937e-005 -6.660477e-005 1.044654e-004 -1.305930e-004 9.299710e-001 -2.794892e-003
599940 9.797465e-001 3.863568e-003 -5.517800e-005 6.283974e-006 1.616785e-004 -7.923392e-005 9.411730e-001 5.569697e-003
674925 9.786591e-001 4.920173e-003 7.564625e-006 5.290202e-005 2.060170e-004 -1.342519e-004 9.364282e-001 -1.145636e-002
749910 9.786770e-001 4.811110e-003 -5.075823e-006 1.480728e-004 -1.815555e-005 8.100850e-005 9.314883e-001 -8.937942e-003
824895 9.836963e-001 4.069680e-003 9.720306e-006 1.938871e-005 5.070670e-004 2.562825e-005 9.376941e-001 -9.432456e-003
899880 9.875340e-001 5.741427e-004 8.863450e-005 2.376239e-005 -4.128516e-005 2.396683e-004 9.446285e-001 -1.273983e-002
974865 9.910426e-001 -8.519389e-005 4.702552e-005 -2.491082e-005 1.826306e-004 -4.688327e-005 9.506944e-001 -8.000383e-003
1049850 9.942082e-001 -3.261587e-003 -5.348722e-005 -6.977377e-005 -1.100117e-004 -3.228506e-004 9.576074e-001 -1.055933e-002
1124835 9.980682e-001 -5.912364e-003 1.040278e-004 -3.231435e-005 1.299864e-006 2.164164e-004 9.691423e-001 -1.082310e-002
1199820 1.002333e+000 -8.472997e-003 7.206104e-006 1.040080e-005 -6.035696e-005 1.285004e-004 9.777807e-001 -8.787269e-003
1274805 1.007896e+000 -1.293403e-002 -2.560246e-005 6.375001e-005 -7.221336e-006 -1.737071e-005 9.906561e-001 -8.999729e-003
1349790 1.000694e+000 -5.786476e-003 9.733041e-005 5.402999e-005 1.308526e-004 1.608456e-004 1.004967e+000 -1.122179e-002
1424775 9.994126e-001 -6.067649e-003 -3.197876e-005 1.106731e-004 1.765104e-004 -4.306979e-006 1.005812e+000 -1.198666e-002
1499760 9.990621e-001 -4.749851e-003 -3.964750e-005 2.000042e-005 1.282555e-004 2.234264e-004 1.007133e+000 -6.683988e-003
1574745 9.986323e-001 -3.530723e-003 -6.554507e-005 -1.242017e-004 3.196848e-005 -4.015983e-005 9.990758e-001 -7.853424e-003
1649730 9.987984e-001 -5.061193e-003 1.995834e-005 -1.035947e-004 -1.118891e-004 1.999880e-004 1.003113e+000 -1.051081e-002
1724715 9.978833e-001 -4.960180e-003 6.765364e-005 -1.052257e-005 7.505998e-005 -7.341323e-005 1.002834e+000 -1.169338e-002
1799700 9.969465e-001 -3.969396e-003 -2.225395e-005 -2.783251e-005 1.205044e-004 -2.058380e-004 1.004586e+000 -1.164368e-002
1874685 9.959069e-001 -2.598641e-003 -1.560931e-006 5.656213e-005 6.064133e-005 9.182301e-005 1.002974e+000 -8.111887e-003
1949670 9.951979e-001 -2.258467e-003 4.795809e-005 8.423724e-005 -2.701590e-004 1.356420e-005 1.002042e+000 -6.129040e-003
2024655 9.950816e-001 -1.875444e-003 1.110529e-006 -4.997322e-007 -1.431503e-004 -1.828031e-004 1.001160e+000 -6.359308e-003
2099640 9.947765e-001 -2.301179e-003 -6.988952e-005 4.317404e-005 -1.768409e-004 -2.700366e-004 1.000430e+000 -3.917178e-003
2174625 9.945425e-001 -2.028989e-003 -7.473218e-005 9.794781e-005 6.196223e-006 3.032504e-004 1.001938e+000 -7.876812e-003
2249610 9.957826e-001 -3.283265e-003 -1.189662e-004 1.659728e-005 -7.928700e-005 4.244141e-004 1.001720e+000 -6.359776e-003
2324595 1.001023e+000 -4.237812e-003 2.745476e-005 5.898264e-005 7.491491e-005 6.622617e-005 1.002669e+000 -7.256526e-003
2399580 1.000255e+000 -5.356901e-003 -3.969803e-005 6.678753e-005 -6.613525e-005 1.104114e-004 1.002882e+000 -4.857058e-003
2474565 9.989284e-001 -1.697151e-003 -2.346622e-005 2.476058e-005 1.708095e-004 -2.608306e-004 9.990290e-001 -5.245636e-003
2549550 1.000542e+000 -2.405082e-003 -2.568976e-005 -2.089665e-005 -1.813478e-004 -6.578042e-005 9.984418e-001 -5.311613e-003
2624535 1.001199e+000 -2.785894e-003 5.361149e-006 -1.000910e-004 -1.672675e-004 -1.250785e-004 9.990360e-001 -7.243014e-003
2699520 9.998649e-001 -4.104787e-003 -6.530840e-006 -6.243508e-005 -2.248913e-005 -1.684312e-004 9.971321e-001 -4.034414e-003
2774505 9.994006e-001 -2.100777e-003 -1.229333e-004 -1.605623e-004 -1.920782e-004 6.280358e-005 9.988768e-001 -8.695398e-003
2849490 1.000469e+000 -2.210670e-003 2.027439e-005 -3.393126e-005 -1.981575e-004 1.147625e-004 9.988589e-001 -4.820889e-003
2924475 1.001008e+000 -2.757951e-003 -1.880461e-005 1.954465e-005 -1.821389e-004 -3.453122e-006 1.001946e+000 -4.756064e-003
2999460 1.000895e+000 -3.788227e-003 -4.660771e-005 1.426381e-005 9.047842e-006 1.147745e-004 1.000459e+000 -6.094289e-003
3074445 1.000606e+000 -2.816657e-003 -1.213856e-004 7.919258e-005 -9.172170e-005 6.746352e-006 9.997479e-001 -4.530840e-003
3149430 1.001024e+000 -2.706491e-003 5.442417e-005 -1.025370e-004 -1.692246e-004 9.966625e-005 9.995013e-001 -4.904377e-003
3224415 1.000737e+000 -2.862570e-003 9.922181e-006 -3.287528e-005 -1.513623e-004 -8.563018e-005 9.987810e-001 -6.830346e-003
3299400 1.000797e+000 -2.848025e-003 1.503608e-005 1.566042e-004 5.708938e-005 -5.589387e-005 1.000723e+000 -5.886457e-003
3374385 1.000481e+000 -3.122530e-003 -1.172213e-006 -3.086837e-005 2.528161e-004 9.277184e-005 9.984690e-001 -6.728703e-003
3449370 1.001068e+000 -2.700502e-003 -2.320607e-007 5.070561e-005 2.643493e-005 2.697179e-004 9.986925e-001 -6.090339e-003
3524355 1.001028e+000 -2.140934e-003 1.868901e-005 -4.449577e-006 -5.242606e-005 1.916411e-004 1.000534e+000 -4.934057e-003
3599340 1.001402e+000 -2.327535e-003 -8.566526e-005 -1.011029e-004 -7.349192e-005 2.280875e-004 9.988169e-001 -4.391766e-003
3674325 1.001009e+000 -2.373711e-003 7.987063e-005 2.985399e-005 -2.593147e-004 1.724042e-004 9.998806e-001 -5.010342e-003
3749310 1.000922e+000 -1.663070e-003 -2.814786e-005 -6.624212e-005 -5.306794e-005 -1.138908e-004 9.990989e-001 -5.393140e-003
3824295 1.001208e+000 -3.279696e-003 -5.631871e-005 -1.434800e-004 -9.864544e-005 -1.580297e-004 9.993547e-001 -6.626556e-003
3899280 1.001066e+000 -3.551342e-003 7.177828e-005 -1.544246e-005 1.006596e-004 1.364114e-005 9.999542e-001 -6.801679e-003
3974265 1.001143e+000 -3.862091e-003 -1.551520e-005 7.900958e-007 9.938461e-005 -9.410556e-005 9.999123e-001 -6.857118e-003
4049250 1.001289e+000 -3.806109e-003 4.406805e-005 3.642577e-005 -1.455060e-004 1.195061e-004 9.999116e-001 -6.303436e-003
4124235 1.001204e+000 -3.830574e-003 1.083908e-004 -5.243233e-005 -1.189243e-004 1.480658e-004 9.998408e-001 -7.371272e-003
4199220 1.001444e+000 -3.395838e-003 -5.574964e-006 4.795922e-005 -1.508829e-004 -3.831125e-005 1.000267e+000 -5.352774e-003
4274205 1.000944e+000 -3.263545e-003 5.023740e-005 -2.633017e-005 -2.267655e-004 -4.616739e-005 9.995268e-001 -4.312702e-003
4349190 1.001200e+000 -2.540420e-003 1.463861e-004 -2.968255e-005 -1.661012e-004 -5.961451e-005 1.001030e+000 -5.999246e-003
4424175 1.000993e+000 -3.161293e-003 -3.586669e-005 -6.117921e-005 -9.101671e-005 -9.023833e-005 9.995453e-001 -5.068160e-003
4499160 1.001173e+000 -2.694293e-003 -7.086731e-005 -1.853313e-005 -8.319163e-005 2.531825e-004 1.000016e+000 -5.489363e-003
4574145 1.000385e+000 -3.515319e-003 -7.822974e-006 1.084467e-004 -1.163502e-004 -1.376768e-004 9.995055e-001 -6.021892e-003
4649130 1.000919e+000 -3.440640e-003 -5.159428e-005 -1.462603e-004 3.137806e-004 -3.132236e-004 1.000402e+000 -6.423922e-003
4724115 1.000973e+000 -3.246719e-003 1.323991e-004 -6.861740e-005 8.006458e-005 -3.971262e-005 9.988065e-001 -4.918225e-003
4799100 1.000942e+000 -3.639735e-003 4.736313e-005 -4.964710e-005 1.006444e-004 1.785435e-004 1.000743e+000 -4.712180e-003
4874085 1.001136e+000 -3.464709e-003 -4.446918e-005 -3.543923e-005 1.094065e-004 -6.630763e-005 1.000491e+000 -4.788897e-003
4949070 1.001246e+000 -3.351118e-003 -1.510495e-005 -1.712497e-004 -1.173657e-004 2.411631e-005 1.000841e+000 -5.122443e-003
5024055 1.001360e+000 -2.869519e-003 1.162038e-004 8.430000e-005 -1.705596e-005 1.724990e-004 9.990519e-001 -5.176157e-003
5099040 1.001171e+000 -2.936237e-003 1.006952e-005 -6.574289e-005 8.465546e-005 -1.843610e-004 1.000206e+000 -4.421032e-003
5174025 1.001089e+000 -3.208817e-003 8.451491e-005 -6.162951e-005 2.484969e-004 8.652826e-005 9.991013e-001 -4.649954e-003
5249010 1.001081e+000 -3.419322e-003 7.720094e-005 -1.799857e-005 -2.455262e-004 -2.525529e-005 1.000370e+000 -5.506259e-003
5323995 1.000148e+000 -3.417195e-003 -7.929050e-005 -1.207797e-005 2.332561e-004 9.972481e-005 9.985494e-001 -6.723057e-003
5398980 1.001471e+000 -3.622496e-003 -3.927775e-006 -1.478271e-005 -4.096243e-005 3.281405e-005 1.000470e+000 -4.238799e-003
5473965 1.001182e+000 -3.574752e-003 -1.182066e-004 -9.926228e-005 -2.508504e-004 -9.524877e-005 9.999194e-001 -5.236099e-003
5548950 1.000357e+000 -3.174011e-003 -1.264477e-004 2.882744e-005 -9.993865e-005 -5.845788e-005 9.998405e-001 -4.969982e-003
5623935 1.000889e+000 -2.838830e-003 -8.600778e-005 4.228509e-005 -1.225418e-004 -1.010067e-004 9.996209e-001 -3.896989e-003
5698920 1.000785e+000 -3.085983e-003 -2.384056e-005 -7.121539e-005 3.114245e-005 2.111934e-005 1.000522e+000 -4.335263e-003
5773905 1.000961e+000 -3.962030e-003 9.086718e-005 -1.883630e-005 -1.210747e-004 3.553421e-005 9.997811e-001 -7.053645e-003
5848890 1.000602e+000 -3.883261e-003 1.301758e-004 3.902774e-005 1.141715e-004 1.313835e-004 1.001253e+000 -5.063024e-003
5923875 1.000980e+000 -3.683861e-003 -5.399031e-005 3.520843e-006 -9.562977e-005 -2.399318e-005 1.000990e+000 -7.214127e-003
5998860 1.000682e+000 -3.248955e-003 3.699447e-005 3.185679e-005 -9.554352e-005 -1.900506e-005 1.001067e+000 -7.609545e-003
6073845 1.001231e+000 -3.855450e-003 -2.134742e-005 2.104633e-005 7.232612e-005 4.326100e-005 1.001541e+000 -5.283305e-003
6148830 1.000493e+000 -3.391250e-003 -2.479254e-005 3.999504e-005 2.943853e-005 -2.400936e-005 1.001839e+000 -7.421551e-003
6223815 1.000577e+000 -3.411402e-003 -5.006892e-005 -1.098106e-004 -4.932459e-005 -8.244214e-005 9.997677e-001 -6.583501e-003
6298800 1.000989e+000 -3.737893e-003 -7.192190e-005 -1.693653e-006 2.381928e-005 -5.094389e-005 9.994123e-001 -6.400894e-003
6373785 1.000586e+000 -3.302255e-003 -1.058582e-004 -1.430832e-005 -4.575650e-004 3.974889e-005 9.996415e-001 -6.762988e-003
6448770 1.001106e+000 -3.391943e-003 3.240110e-005 4.800637e-005 6.246017e-005 3.791016e-005 9.993693e-001 -6.551819e-003
6523755 1.000966e+000 -3.489330e-003 4.133489e-005 -1.391390e-004 8.923925e-005 6.114114e-005 9.993839e-001 -7.911754e-003
6598740 1.000205e+000 -3.397677e-003 3.420551e-005 -4.438071e-005 -2.227820e-004 1.457806e-004 9.990723e-001 -8.318311e-003
6673725 1.000851e+000 -2.982420e-003 1.245941e-005 -3.413502e-006 -4.713275e-005 -1.620962e-004 9.999880e-001 -7.467660e-003
6748710 1.000407e+000 -3.407058e-003 -6.223672e-005 8.803526e-005 1.144767e-004 1.980270e-004 9.999085e-001 -7.692348e-003
6823695 1.000695e+000 -3.025121e-003 1.907180e-005 8.862709e-005 7.178449e-005 -5.010609e-005 1.001030e+000 -8.406645e-003
6898680 1.000589e+000 -4.003524e-003 -2.885794e-005 8.297581e-005 -2.281385e-004 4.221569e-005 9.994227e-001 -8.820709e-003
6973665 1.000572e+000 -4.064512e-003 -1.226518e-004 5.512354e-005 -1.658501e-004 1.643235e-004 1.000623e+000 -7.815070e-003
7048650 1.001136e+000 -4.093592e-003 -9.038697e-005 8.064099e-005 1.432662e-004 -1.603521e-004 1.001015e+000 -8.939848e-003
7123635 1.000616e+000 -3.376733e-003 -3.297023e-005 3.757303e-005 -8.537224e-005 -2.538845e-004 1.001063e+000 -8.974405e-003
7198620 1.000737e+000 -3.665440e-003 -5.023437e-005 -9.862146e-005 1.342350e-004 -4.138007e-004 1.000104e+000 -8.626438e-003
7273605 1.000528e+000 -4.294282e-003 -1.311319e-005 -8.011131e-005 2.506741e-004 -2.024081e-004 9.989610e-001 -8.618079e-003
7348590 1.000326e+000 -3.883673e-003 1.049006e-004 -8.409490e-005 4.241877e-004 -2.348237e-005 1.002730e+000 -8.676723e-003
7423575 1.000671e+000 -4.215260e-003 -4.989277e-005 1.727927e-005 2.705025e-004 2.146551e-004 9.998220e-001 -8.711872e-003
7498560 1.000295e+000 -4.163106e-003 -6.015993e-006 7.544175e-005 3.385027e-004 -3.901639e-004 1.000098e+000 -8.217800e-003
7573545 1.000636e+000 -5.147267e-003 4.126464e-005 -2.495228e-005 -1.371625e-004 2.259034e-004 1.001127e+000 -8.540477e-003
7648530 1.000558e+000 -4.264061e-003 -9.968018e-005 -9.155491e-006 4.519390e-005 1.657827e-004 1.000198e+000 -8.656337e-003
7723515 1.001421e+000 -4.105297e-003 6.679253e-005 6.389167e-005 -2.207647e-005 1.387212e-006 9.995847e-001 -9.262995e-003
7798500 1.000781e+000 -4.333141e-003 1.660003e-006 -6.737594e-005 1.605374e-004 -5.673647e-005 9.983077e-001 -8.848801e-003
7873485 1.000927e+000 -3.589836e-003 -1.805056e-004 1.989653e-005 9.339474e-005 1.389943e-004 9.999050e-001 -9.621953e-003
7948470 1.000929e+000 -4.317523e-003 -4.054579e-005 7.028344e-005 1.727947e-005 4.748977e-005 9.984253e-001 -7.934371e-003
8023455 1.000734e+000 -4.497070e-003 -6.323436e-005 1.607585e-005 -1.737355e-004 -1.416054e-004 1.000069e+000 -9.027394e-003
8098440 1.000856e+000 -3.786239e-003 -2.797083e-005 8.961419e-005 -2.024533e-004 -1.575800e-005 9.987276e-001 -7.538055e-003
8173425 1.000297e+000 -4.225777e-003 -1.026383e-005 -5.521865e-005 -1.630078e-004 -1.238292e-004 1.000537e+000 -7.860196e-003
8248410 1.001260e+000 -4.938509e-003 -1.127148e-004 2.694379e-005 4.738833e-005 4.036522e-005 1.001451e+000 -7.297077e-003
8323395 1.000278e+000 -4.322350e-003 -4.627328e-007 6.696914e-005 -6.636135e-005 -1.471373e-004 1.000459e+000 -7.103094e-003
8398380 1.000349e+000 -4.657579e-003 7.905463e-006 -6.518588e-005 -4.699154e-005 2.362644e-005 9.999784e-001 -8.619034e-003
8473365 1.000383e+000 -4.707825e-003 -4.947924e-005 3.366973e-005 -2.219787e-004 1.256793e-004 9.998503e-001 -8.522148e-003
8548350 1.000602e+000 -5.043946e-003 1.145477e-004 1.423125e-004 3.365478e-005 -6.710144e-005 9.997047e-001 -9.221708e-003
8623335 1.001042e+000 -4.872170e-003 -4.414442e-005 5.455469e-005 2.048061e-005 -9.573704e-005 1.000239e+000 -8.248018e-003
8698320 1.000731e+000 -5.383171e-003 2.270143e-005 2.770330e-005 1.016466e-004 2.107815e-004 9.989333e-001 -9.086736e-003
8773305 1.000407e+000 -4.877042e-003 -4.914062e-005 4.447654e-005 -1.516032e-004 2.802954e-004 9.999732e-001 -9.371308e-003
8848290 1.000791e+000 -4.615253e-003 5.058525e-005 1.292490e-004 -3.127124e-005 1.413601e-006 1.000030e+000 -8.046601e-003
8923275 1.000340e+000 -5.164475e-003 2.262288e-006 3.728004e-005 1.706077e-005 -2.350920e-004 9.998087e-001 -8.050005e-003
8998260 1.000209e+000 -5.134331e-003 -3.786464e-005 -9.408560e-005 5.771135e-005 -8.589202e-005 1.000201e+000 -9.214859e-003
9073245 1.001002e+000 -4.978301e-003 8.798691e-006 -4.325481e-005 2.260327e-004 -1.647245e-005 1.000567e+000 -8.841105e-003
9148230 1.001272e+000 -5.220065e-003 -1.691299e-005 9.174082e-005 5.577674e-005 1.832551e-005 9.995548e-001 -9.443242e-003
9223215 1.000746e+000 -5.553325e-003 -6.642941e-005 9.210937e-005 2.530478e-004 2.452628e-004 1.000602e+000 -8.941722e-003
9298200 1.000410e+000 -5.764317e-003 -1.471724e-005 9.595598e-005 -1.052707e-004 -6.035397e-005 1.000507e+000 -9.188158e-003
9373185 1.000722e+000 -5.553155e-003 -9.172595e-005 -2.564257e-005 -1.362837e-004 1.542092e-004 1.001519e+000 -8.985071e-003
9448170 1.000510e+000 -5.893990e-003 -4.802086e-005 3.623240e-006 2.527679e-004 1.630550e-004 1.000729e+000 -1.022733e-002
9523155 1.001107e+000 -6.208780e-003 1.292038e-005 1.455669e-005 -1.739521e-004 2.884904e-004 1.000342e+000 -1.153976e-002
9598140 1.001001e+000 -5.637627e-003 -1.422272e-005 -5.142321e-005 -4.190345e-005 -8.562308e-005 1.000315e+000 -1.010580e-002
9673125 1.000836e+000 -5.936114e-003 6.005277e-006 6.144748e-005 1.467610e-004 1.592499e-004 1.000551e+000 -1.038884e-002
9748110 1.000876e+000 -6.152853e-003 -9.955044e-005 6.507822e-005 -1.240300e-004 2.331637e-004 1.001490e+000 -1.175193e-002
9823095 1.000455e+000 -6.699167e-003 2.150579e-005 4.829024e-005 -8.642302e-005 8.983626e-005 1.002639e+000 -1.206333e-002
9898080 1.000110e+000 -6.347362e-003 -1.681710e-006 3.316297e-005 -2.443824e-005 2.706270e-005 9.998986e-001 -1.071013e-002
9973065 1.000775e+000 -6.931127e-003 1.571011e-005 -4.371363e-005 -8.330070e-005 -1.418718e-004 1.000350e+000 -1.269570e-002
10048050 1.000939e+000 -6.852667e-003 -1.048209e-004 -1.761516e-005 -1.481112e-004 -1.218649e-004 1.002334e+000 -1.438420e-002
10123035 1.001177e+000 -6.695207e-003 1.918738e-005 8.535568e-005 -9.520986e-005 8.662376e-005 1.002622e+000 -1.299961e-002
10198020 1.000274e+000 -8.201923e-003 -1.708129e-005 1.372390e-005 -6.529236e-005 4.386043e-005 1.002075e+000 -1.300612e-002
10273005 1.000519e+000 -7.422720e-003 -5.899696e-005 4.750259e-006 2.083826e-005 -2.643421e-005 1.001277e+000 -1.097138e-002
10347990 1.000170e+000 -7.454113e-003 1.329053e-005 1.214281e-004 1.017384e-004 -2.246182e-004 1.001473e+000 -1.427580e-002
10422975 1.000160e+000 -7.131500e-003 -9.405793e-006 -1.811578e-005 -1.393066e-004 6.228813e-006 1.002020e+000 -1.385638e-002
10497960 9.996811e-001 -7.455539e-003 -7.849278e-006 2.561092e-005 2.026917e-004 3.300331e-005 1.001184e+000 -1.467283e-002
10572945 1.000160e+000 -8.304637e-003 6.940836e-005 -3.557076e-006 3.172671e-005 9.167688e-005 1.000379e+000 -1.560635e-002
10647930 1.000499e+000 -7.306946e-003 3.921563e-005 -1.205357e-004 2.566938e-004 2.597666e-004 1.001922e+000 -1.581734e-002
10722915 1.000048e+000 -7.758196e-003 -5.563879e-005 1.914411e-004 1.265063e-004 3.973845e-004 1.000846e+000 -1.646216e-002
10797900 1.000628e+000 -7.484777e-003 2.325745e-005 -7.419222e-005 1.026773e-004 1.244162e-004 1.001353e+000 -1.660482e-002
10872885 9.998335e-001 -7.627709e-003 -1.186930e-004 1.830284e-004 -4.416703e-005 -2.931011e-005 1.002080e+000 -1.572168e-002
10947870 9.996741e-001 -7.921653e-003 3.933848e-005 8.885539e-005 2.428518e-004 7.442593e-006 1.002110e+000 -1.666892e-002
11022855 1.000351e+000 -7.465662e-003 -8.728639e-005 1.037034e-004 1.213386e-004 1.272972e-004 1.001991e+000 -1.682906e-002
11097840 1.000097e+000 -7.711797e-003 -4.417072e-005 1.034306e-004 -3.092369e-004 2.414422e-004 1.000803e+000 -1.696797e-002
11172825 1.000495e+000 -7.669334e-003 -7.855584e-005 7.499310e-005 4.191250e-004 5.176439e-005 9.999770e-001 -1.565790e-002
11247810 9.999274e-001 -8.581992e-003 -1.860740e-005 7.722763e-005 -2.019398e-005 2.133847e-004 1.002153e+000 -1.562975e-002
11322795 9.991128e-001 -8.047709e-003 -4.902309e-006 -1.267538e-006 2.740936e-004 5.278129e-005 1.000559e+000 -1.577186e-002
11397780 1.000190e+000 -8.874479e-003 -6.243168e-005 2.415302e-005 4.400914e-006 5.017578e-005 1.000475e+000 -1.590947e-002
11472765 1.000315e+000 -7.993438e-003 1.674554e-004 5.210839e-005 -7.402947e-005 3.153695e-004 9.992996e-001 -1.593988e-002
11547750 9.996206e-001 -7.987359e-003 -1.536104e-004 2.342419e-005 2.322590e-004 5.454525e-005 1.002677e+000 -1.607411e-002
11622735 9.996520e-001 -8.528833e-003 -7.448526e-005 -4.301600e-005 -2.766397e-004 -8.354968e-005 1.002260e+000 -1.632991e-002
11697720 9.996912e-001 -8.672347e-003 5.347952e-005 -3.196969e-005 -4.657788e-005 -3.068294e-005 1.001815e+000 -1.663811e-002
11772705 9.990888e-001 -8.373406e-003 6.735193e-005 -6.496218e-005 -3.830841e-004 2.744654e-005 1.000353e+000 -1.554916e-002
11847690 1.000177e+000 -8.541474e-003 8.612213e-005 -7.245574e-005 8.745184e-006 -1.297720e-004 1.001173e+000 -1.755868e-002
11922675 9.994929e-001 -7.776902e-003 1.717855e-005 -3.738012e-005 2.443659e-004 -2.115790e-005 1.001134e+000 -1.791602e-002
11997660 1.000448e+000 -8.217428e-003 -1.028214e-004 3.295949e-005 1.751427e-004 -1.951076e-004 1.000650e+000 -1.644183e-002
