!Agilent Technologies,N5230C,SG49000117,A.08.50.07
!Agilent N5230C: A.08.50.07
!Date: Thursday, December 07, 2023 05:09:24
!Correction: S11(Full 2 Port(1,2)) 
!S21(Full 2 Port(1,2)) 
!S12(Full 2 Port(1,2)) 
!S22(Full 2 Port(1,2)) 
!S2P File: Measurements: S11, S21, S12, S22:
# Hz S  RI   R 50
300000 1.018306e+000 -9.568063e-003 -8.685656e-005 -1.369264e-004 9.686479e-004 -1.049701e-004 1.026429e+000 -8.553373e-003
374985 9.978991e-001 -3.940898e-003 -1.542856e-005 -1.195958e-004 2.343360e-004 -2.269521e-004 9.822392e-001 -1.232990e-002
449970 9.883912e-001 -2.201495e-006 -9.089154e-005 -1.631408e-005 -2.026412e-004 1.889895e-004 9.562882e-001 -1.309344e-002
524955 9.790955e-001 5.880005e-003 4.022865e-005 2.946115e-007 1.277179e-004 3.270364e-005 9.316904e-001 -3.469158e-003
599940 9.807802e-001 4.840399e-003 -4.089911e-005 -7.186816e-005 -3.641520e-004 -6.760351e-005 9.418043e-001 3.725152e-003
674925 9.786286e-001 4.218583e-003 -1.345337e-004 -3.971876e-005 7.664067e-005 -1.453966e-004 9.351301e-001 -1.434852e-002
749910 9.786690e-001 6.004924e-003 -2.567702e-005 1.005596e-004 -1.546824e-004 2.520893e-004 9.325742e-001 -7.215241e-003
824895 9.845467e-001 4.199944e-003 1.068999e-004 -5.625055e-006 -9.323180e-005 -5.235937e-005 9.388009e-001 -9.503063e-003
899880 9.886189e-001 1.076484e-003 7.133185e-005 3.062432e-005 6.353772e-005 2.548784e-004 9.430981e-001 -1.196972e-002
974865 9.897726e-001 2.083016e-004 1.069887e-004 -1.416883e-005 -1.503215e-004 1.351324e-004 9.481557e-001 -7.778693e-003
1049850 9.942152e-001 -2.891304e-003 3.360858e-005 -1.262654e-004 -2.412900e-004 -9.488373e-005 9.569879e-001 -9.119940e-003
1124835 9.971727e-001 -6.907472e-003 -4.256128e-005 1.454115e-004 -7.279358e-005 -1.304971e-004 9.687172e-001 -1.100456e-002
1199820 1.003025e+000 -7.624573e-003 7.518312e-006 7.364049e-005 -3.042575e-005 2.615993e-004 9.773499e-001 -9.118248e-003
1274805 1.008118e+000 -1.332353e-002 1.162772e-005 3.855929e-005 2.926256e-004 -7.019592e-005 9.884152e-001 -9.155484e-003
1349790 1.000635e+000 -5.022684e-003 -2.708836e-005 8.529039e-005 1.431987e-004 -1.050811e-005 1.003914e+000 -1.077396e-002
1424775 9.995134e-001 -5.505214e-003 3.520634e-006 2.843559e-005 -1.072732e-004 -2.693138e-005 1.003435e+000 -1.140133e-002
1499760 9.981650e-001 -4.857542e-003 -1.025463e-004 7.662533e-005 -5.808756e-005 2.033118e-004 1.005723e+000 -8.397790e-003
1574745 9.986365e-001 -2.878025e-003 -1.437094e-004 3.672990e-005 4.061363e-005 2.304043e-004 9.999743e-001 -9.044503e-003
1649730 9.981610e-001 -3.850430e-003 -2.380628e-005 3.957556e-005 7.451692e-005 -1.936473e-004 1.002330e+000 -1.056595e-002
1724715 9.977747e-001 -3.977773e-003 9.726753e-005 -3.249833e-005 -5.741037e-005 6.785786e-005 1.002665e+000 -1.205451e-002
1799700 9.967947e-001 -4.162940e-003 -6.574208e-005 -1.799758e-004 -8.308639e-005 -2.719919e-004 1.005509e+000 -1.202072e-002
1874685 9.964533e-001 -2.779078e-003 -5.002717e-005 -2.237808e-005 6.592253e-005 -8.415643e-005 1.000360e+000 -9.499148e-003
1949670 9.947899e-001 -2.193278e-003 -1.237934e-004 -8.263069e-005 3.171403e-005 1.774698e-004 1.000520e+000 -6.377276e-003
2024655 9.946659e-001 -1.494622e-003 -8.840123e-005 1.465821e-004 -3.607012e-004 -1.023229e-004 1.000765e+000 -5.163567e-003
2099640 9.940764e-001 -1.249287e-003 -7.480999e-005 -7.230493e-005 6.414916e-005 -2.002734e-004 1.000580e+000 -4.774576e-003
2174625 9.949694e-001 -2.079805e-003 1.123479e-005 3.871622e-005 1.873423e-004 2.791154e-004 1.002931e+000 -6.030968e-003
2249610 9.955673e-001 -2.510987e-003 -3.162530e-005 3.779921e-005 -2.544207e-004 4.574731e-005 1.000483e+000 -6.856826e-003
2324595 1.000664e+000 -3.343791e-003 -1.648703e-004 -5.815989e-005 1.209916e-004 -7.142031e-005 1.002073e+000 -7.444621e-003
2399580 1.000572e+000 -3.728386e-003 -5.481685e-005 -5.499400e-005 -1.688382e-004 -2.271585e-004 1.001993e+000 -6.865408e-003
2474565 9.995083e-001 -8.786304e-004 -1.122384e-004 -8.903916e-005 1.965967e-004 -1.014018e-005 1.000135e+000 -6.556429e-003
2549550 1.001413e+000 -2.626036e-003 2.755573e-005 3.689637e-005 4.174760e-005 -1.858796e-004 9.988968e-001 -5.535432e-003
2624535 1.001090e+000 -2.172458e-003 -1.068204e-004 -9.415038e-005 -7.270779e-005 2.709598e-007 9.991331e-001 -5.146670e-003
2699520 1.000219e+000 -4.103588e-003 -8.117191e-005 -3.984193e-006 5.898789e-005 -4.528432e-005 9.960663e-001 -4.684585e-003
2774505 1.000553e+000 -2.189177e-003 -1.282805e-004 4.907044e-005 6.127873e-005 1.161724e-004 9.992213e-001 -1.007078e-002
2849490 1.000859e+000 -2.640977e-003 -2.918313e-005 -4.140497e-005 -1.617929e-004 -2.571395e-004 9.982711e-001 -4.232056e-003
2924475 1.001045e+000 -3.356994e-003 -6.711525e-005 -8.422140e-007 4.433904e-005 -3.054014e-004 1.001526e+000 -4.195090e-003
2999460 1.000707e+000 -2.323630e-003 6.411060e-005 3.479769e-005 1.948669e-004 1.102664e-004 9.989873e-001 -3.975900e-003
3074445 1.001184e+000 -2.514871e-003 -4.700723e-005 -2.695353e-006 -1.594223e-004 1.101808e-004 9.999704e-001 -3.981079e-003
3149430 1.001208e+000 -2.451673e-003 -1.535848e-004 -3.081212e-005 1.323122e-004 -1.755586e-005 9.998414e-001 -5.513786e-003
3224415 9.996153e-001 -2.348023e-003 -8.590572e-006 2.734519e-005 1.598012e-004 9.229606e-005 9.994000e-001 -5.067472e-003
3299400 1.001173e+000 -2.586380e-003 -1.992405e-005 8.698474e-005 -3.275183e-005 5.678708e-006 1.001257e+000 -6.695749e-003
3374385 1.000373e+000 -3.262053e-003 -1.759769e-005 -5.631575e-005 3.333691e-005 1.278653e-004 9.996569e-001 -7.197212e-003
3449370 1.000532e+000 -2.830371e-003 -1.077509e-004 4.080108e-005 -7.397826e-005 1.843013e-004 9.987894e-001 -6.608446e-003
3524355 1.000766e+000 -1.810531e-003 2.242317e-005 -3.544248e-006 5.357982e-005 1.050830e-004 1.000166e+000 -4.204696e-003
3599340 1.000574e+000 -2.366632e-003 6.217032e-005 3.563389e-005 9.381349e-005 3.309856e-005 9.987457e-001 -6.881470e-003
3674325 1.000741e+000 -2.637946e-003 1.939274e-005 2.063746e-005 4.578708e-004 -4.458273e-006 9.983824e-001 -4.384257e-003
3749310 1.001305e+000 -2.502013e-003 6.910475e-005 2.961321e-005 -1.692751e-004 1.353808e-004 9.991126e-001 -5.509967e-003
3824295 1.000812e+000 -2.643008e-003 -7.000381e-005 2.277667e-005 -1.773274e-004 -5.622694e-005 1.000274e+000 -5.657545e-003
3899280 1.001071e+000 -3.367875e-003 -1.532910e-005 -3.043923e-005 -1.776759e-004 6.834710e-005 9.993128e-001 -7.196181e-003
3974265 1.001484e+000 -3.945667e-003 8.276142e-005 -1.746002e-006 -5.934162e-005 -1.145685e-004 9.999986e-001 -6.043162e-003
4049250 1.001377e+000 -2.986530e-003 9.338485e-007 7.942822e-005 6.726395e-005 -7.547795e-005 1.000158e+000 -7.413203e-003
4124235 1.000606e+000 -3.908512e-003 -3.473449e-006 9.312844e-005 -2.161779e-004 -5.822138e-005 9.999833e-001 -7.005995e-003
4199220 1.000693e+000 -3.431278e-003 1.030258e-004 2.529009e-005 -9.113966e-005 3.631276e-006 1.000232e+000 -6.815454e-003
4274205 1.000780e+000 -3.342980e-003 -4.499332e-005 7.701992e-005 -8.663126e-005 2.763330e-004 9.998565e-001 -5.897867e-003
4349190 1.001228e+000 -3.102980e-003 8.862415e-005 1.973289e-005 1.951287e-004 5.504794e-006 9.996344e-001 -5.845606e-003
4424175 1.001743e+000 -2.969976e-003 -6.171633e-005 -2.838091e-005 1.180435e-005 -1.219974e-004 1.000291e+000 -4.256265e-003
4499160 1.000714e+000 -3.858382e-003 -1.454294e-004 -9.812232e-005 5.721417e-006 -7.126288e-005 9.999705e-001 -5.210180e-003
4574145 1.001704e+000 -3.322915e-003 -1.384859e-004 2.450326e-005 -5.588470e-005 -1.562653e-004 9.997974e-001 -5.921207e-003
4649130 1.000482e+000 -3.236802e-003 -1.462203e-005 -5.200725e-005 8.486952e-005 2.228857e-004 9.990665e-001 -5.229034e-003
4724115 1.000707e+000 -3.012567e-003 -1.039588e-004 5.034411e-005 3.354410e-005 -2.353589e-004 1.000498e+000 -6.789587e-003
4799100 1.001047e+000 -3.465863e-003 1.035775e-004 1.489829e-005 1.832355e-005 -1.887520e-005 9.990170e-001 -4.983462e-003
4874085 1.000784e+000 -4.047180e-003 8.147310e-005 4.231874e-005 9.053509e-005 6.946001e-005 9.987935e-001 -5.497348e-003
4949070 1.001362e+000 -3.380559e-003 -2.373142e-005 -8.675423e-005 1.924488e-004 -3.044714e-005 9.999967e-001 -4.101382e-003
5024055 1.000958e+000 -3.637092e-003 1.879460e-006 -1.691516e-005 -7.064908e-005 -8.640176e-005 9.995672e-001 -5.051386e-003
5099040 1.001224e+000 -3.020185e-003 -6.251711e-005 1.907848e-004 -1.333298e-004 1.573599e-004 1.000482e+000 -4.449454e-003
5174025 1.001269e+000 -3.240545e-003 -3.395555e-006 -1.415388e-005 1.090364e-004 1.087037e-004 9.974405e-001 -5.216337e-003
5249010 1.001447e+000 -3.179353e-003 -1.339042e-005 1.807534e-005 1.812885e-004 1.002776e-004 9.998323e-001 -4.569056e-003
5323995 1.000329e+000 -2.542078e-003 5.753058e-007 -2.263304e-005 5.334271e-005 -1.092190e-004 9.992009e-001 -5.999076e-003
5398980 1.000377e+000 -2.728763e-003 1.369790e-005 -7.644510e-005 1.914351e-005 1.187773e-004 9.997456e-001 -5.363004e-003
5473965 1.000627e+000 -2.991100e-003 1.071687e-005 2.883610e-005 1.384862e-004 2.447683e-004 1.001277e+000 -3.371609e-003
5548950 1.001397e+000 -3.277523e-003 1.448409e-006 -6.734677e-005 1.810907e-004 -1.458645e-005 9.998604e-001 -4.718910e-003
5623935 1.000984e+000 -2.773469e-003 -3.694577e-005 -8.104914e-006 -8.588845e-005 9.645620e-005 9.984476e-001 -5.575007e-003
5698920 1.000244e+000 -2.736000e-003 -1.523272e-004 -2.827262e-005 -8.826048e-005 7.789220e-005 1.000278e+000 -4.778910e-003
5773905 1.000535e+000 -3.797580e-003 -6.513158e-005 5.676203e-005 -4.298359e-006 4.032590e-005 1.000546e+000 -5.910775e-003
5848890 1.000636e+000 -3.415958e-003 -1.076764e-004 -6.381177e-005 -7.318263e-005 -3.154530e-004 1.001142e+000 -5.739145e-003
5923875 1.001271e+000 -4.477402e-003 3.091835e-006 -3.905927e-005 -1.618411e-004 2.019973e-004 1.000698e+000 -6.638670e-003
5998860 1.000707e+000 -3.409222e-003 1.332527e-004 4.343571e-005 -1.137531e-004 2.156926e-004 1.000604e+000 -7.053490e-003
6073845 1.000408e+000 -3.529065e-003 -1.696919e-005 -1.463307e-005 3.076694e-005 -1.933335e-004 1.002429e+000 -5.936095e-003
6148830 1.000259e+000 -4.178882e-003 2.162074e-005 3.057616e-005 9.419848e-006 -2.951994e-005 1.001144e+000 -7.468410e-003
6223815 1.000911e+000 -3.264217e-003 -1.513028e-005 4.588902e-005 -1.675481e-004 2.265448e-004 9.982122e-001 -7.019859e-003
6298800 1.001422e+000 -3.340709e-003 1.356288e-005 -8.736308e-005 6.008121e-005 -1.634686e-004 9.999318e-001 -7.217475e-003
6373785 1.001168e+000 -3.486562e-003 8.378875e-005 5.146862e-005 -5.600874e-005 1.207877e-004 1.000782e+000 -6.457197e-003
6448770 1.000351e+000 -2.825572e-003 -9.853400e-005 2.778159e-006 -1.147457e-004 4.052104e-005 1.000839e+000 -7.625482e-003
6523755 1.000632e+000 -3.078054e-003 1.329471e-006 1.041582e-005 6.395053e-005 2.977646e-005 1.000053e+000 -6.497293e-003
6598740 1.001173e+000 -2.914367e-003 3.447139e-007 8.755425e-005 3.866083e-005 3.790014e-004 1.000730e+000 -7.885318e-003
6673725 1.000566e+000 -3.657760e-003 -9.796724e-006 4.649195e-005 4.293909e-005 -2.308067e-004 1.000796e+000 -7.290266e-003
6748710 1.000959e+000 -2.939418e-003 -2.998017e-005 -4.743280e-005 -1.725319e-004 -1.501372e-004 9.996494e-001 -8.127636e-003
6823695 1.001088e+000 -3.732949e-003 -1.653088e-004 -7.192128e-005 -3.220124e-004 1.758392e-004 1.000589e+000 -9.751556e-003
6898680 1.000474e+000 -3.514687e-003 3.643693e-006 1.383896e-004 -2.173722e-004 2.904993e-004 1.000924e+000 -7.036539e-003
6973665 1.001397e+000 -3.621203e-003 7.571374e-006 9.793415e-006 1.775945e-004 -1.447379e-004 1.000350e+000 -7.819845e-003
7048650 1.000702e+000 -3.752965e-003 1.831009e-005 1.650407e-005 9.897396e-005 -2.926157e-005 9.996516e-001 -9.254295e-003
7123635 1.001328e+000 -3.532149e-003 1.515544e-005 -3.999593e-005 -2.192360e-004 -3.893062e-005 1.001493e+000 -8.673722e-003
7198620 1.001061e+000 -3.989835e-003 -8.540879e-005 -4.427526e-005 7.754564e-005 4.962328e-005 9.992280e-001 -7.751353e-003
7273605 1.001173e+000 -3.957083e-003 -5.276572e-005 -9.813670e-005 5.701502e-005 -4.309692e-005 1.000263e+000 -8.378658e-003
7348590 1.000692e+000 -3.957364e-003 -6.951835e-005 1.535494e-004 8.613169e-005 3.420136e-005 9.994413e-001 -8.617913e-003
7423575 1.000688e+000 -4.296707e-003 -6.512925e-005 -5.987646e-005 -7.305955e-006 -3.193519e-004 9.990148e-001 -7.593378e-003
7498560 1.001166e+000 -3.917807e-003 4.864697e-005 -6.211529e-005 -6.055004e-005 2.592639e-004 9.998907e-001 -7.496878e-003
7573545 1.001097e+000 -3.524827e-003 -7.380077e-005 -3.461399e-005 -9.302086e-005 -1.354878e-004 1.000191e+000 -8.083918e-003
7648530 1.000613e+000 -4.524987e-003 -4.994034e-005 6.493385e-005 1.174946e-005 -1.474787e-004 9.998100e-001 -8.218833e-003
7723515 1.001049e+000 -4.751694e-003 -2.822919e-006 2.562039e-005 3.092409e-005 1.472937e-004 9.996055e-001 -6.936180e-003
7798500 1.001163e+000 -4.191279e-003 -1.943814e-005 2.067241e-005 1.382964e-004 2.327300e-004 1.000125e+000 -9.265781e-003
7873485 1.001054e+000 -3.752167e-003 7.180521e-006 2.773830e-005 -2.507501e-004 -1.082460e-004 1.000993e+000 -7.716431e-003
7948470 1.001235e+000 -4.194502e-003 -4.855837e-005 2.598958e-005 1.152052e-004 1.515524e-004 9.998721e-001 -8.429443e-003
8023455 1.000976e+000 -4.306582e-003 -7.400270e-006 -5.190969e-005 -9.411957e-005 -5.898570e-006 9.982257e-001 -9.398120e-003
8098440 1.000548e+000 -4.705213e-003 4.133536e-005 7.247911e-005 2.960012e-005 4.070604e-005 9.992518e-001 -8.247592e-003
8173425 1.000814e+000 -4.492490e-003 3.571220e-005 -1.061521e-005 -7.901176e-005 2.452964e-004 9.998084e-001 -6.810496e-003
8248410 1.000356e+000 -4.635477e-003 -1.701962e-004 -3.224118e-005 5.862926e-005 1.148403e-004 1.000479e+000 -7.036454e-003
8323395 1.001122e+000 -4.212099e-003 -3.997928e-005 -2.182541e-005 3.578968e-005 -3.102185e-005 1.000460e+000 -7.242658e-003
8398380 1.000590e+000 -4.678602e-003 -5.036266e-005 -2.981379e-005 -2.428069e-004 5.950772e-005 1.000431e+000 -9.590441e-003
8473365 1.000571e+000 -4.638921e-003 7.267288e-005 3.892384e-005 3.185646e-005 -7.075901e-005 1.000126e+000 -6.821536e-003
8548350 1.001009e+000 -4.163918e-003 7.106110e-005 -2.982324e-005 3.574690e-005 9.319968e-005 1.000140e+000 -8.964656e-003
8623335 1.001021e+000 -4.687615e-003 -9.093486e-007 -1.616026e-005 -2.465402e-004 -8.232546e-005 9.992397e-001 -8.453798e-003
8698320 1.001046e+000 -4.309884e-003 -9.259919e-005 -1.342614e-006 8.263214e-005 2.792705e-006 1.000620e+000 -7.250242e-003
8773305 1.000639e+000 -5.270544e-003 2.349394e-005 5.860390e-006 1.587088e-004 1.297704e-004 9.995641e-001 -8.879399e-003
8848290 1.000253e+000 -4.807302e-003 -8.511260e-005 -4.676650e-005 1.502797e-004 -2.105263e-004 1.000418e+000 -8.957124e-003
8923275 9.998438e-001 -5.617352e-003 -1.101527e-004 3.075996e-006 1.176842e-004 1.360087e-004 1.000552e+000 -9.465250e-003
8998260 1.000169e+000 -5.183928e-003 1.523541e-004 -9.121939e-005 4.873435e-005 1.184763e-004 1.000482e+000 -1.039238e-002
9073245 1.000009e+000 -5.197291e-003 -3.446844e-005 -3.356940e-005 1.144192e-004 1.039834e-004 9.999668e-001 -8.308050e-003
9148230 1.000909e+000 -4.550193e-003 6.134735e-005 -8.498539e-006 1.355543e-004 -5.033076e-005 1.001456e+000 -9.237180e-003
9223215 1.000594e+000 -4.660883e-003 -3.482580e-005 1.065070e-005 3.789410e-005 -1.264288e-006 1.000669e+000 -8.551401e-003
9298200 1.000438e+000 -5.542644e-003 7.724565e-005 4.816547e-005 2.733358e-005 4.511818e-005 1.000822e+000 -8.585054e-003
9373185 1.000654e+000 -5.647170e-003 2.886315e-005 -4.415072e-005 6.386107e-005 8.123466e-005 1.000459e+000 -9.992629e-003
9448170 1.000564e+000 -5.919404e-003 -5.832440e-006 -3.957190e-005 -1.706622e-004 -3.653587e-004 1.001126e+000 -9.939248e-003
9523155 1.000780e+000 -5.899394e-003 -1.075131e-004 5.580754e-006 9.187606e-005 -1.498247e-004 9.999774e-001 -1.016650e-002
9598140 1.000645e+000 -6.403816e-003 2.778053e-005 -1.109753e-005 -1.239357e-005 9.861245e-005 1.001003e+000 -1.129317e-002
9673125 1.000702e+000 -5.504306e-003 -2.207479e-005 -7.840776e-005 -1.095516e-004 1.787858e-005 9.995818e-001 -1.118613e-002
9748110 1.000991e+000 -5.275136e-003 1.579520e-005 3.387403e-005 5.371975e-005 2.171317e-005 1.003010e+000 -1.099555e-002
9823095 1.000847e+000 -5.534653e-003 -5.406462e-005 -7.851586e-006 9.525631e-005 -9.173023e-005 1.000389e+000 -1.140545e-002
9898080 1.000590e+000 -6.466508e-003 1.980401e-005 4.914893e-005 -4.779526e-005 -1.512418e-004 1.002181e+000 -1.231300e-002
9973065 1.000495e+000 -6.717454e-003 -2.087766e-005 -2.791194e-005 -1.171323e-004 -7.581566e-006 1.001441e+000 -1.284002e-002
10048050 1.001092e+000 -7.416000e-003 3.380184e-005 -6.087999e-005 -2.255003e-004 2.455964e-006 1.001276e+000 -1.422391e-002
10123035 1.000773e+000 -7.103110e-003 3.249551e-005 1.223414e-005 7.885707e-006 -2.563591e-004 1.002273e+000 -1.432636e-002
10198020 1.000657e+000 -7.025824e-003 1.577469e-006 -3.299898e-005 1.439522e-005 2.080127e-004 1.001795e+000 -1.318492e-002
10273005 1.000822e+000 -7.224041e-003 1.626850e-004 6.072662e-005 -1.828444e-005 2.468015e-005 1.001175e+000 -1.320253e-002
10347990 1.000255e+000 -7.575693e-003 2.263852e-005 3.597081e-005 4.391608e-005 1.729192e-005 1.003161e+000 -1.194748e-002
10422975 1.000120e+000 -8.165445e-003 -1.499779e-004 1.236922e-004 -2.058428e-005 3.819317e-005 1.003720e+000 -1.396824e-002
10497960 1.000593e+000 -7.703664e-003 3.087241e-005 3.114161e-005 1.147795e-004 -1.870012e-004 1.000795e+000 -1.574435e-002
10572945 1.000408e+000 -7.760744e-003 -9.286876e-005 2.066370e-005 -3.386224e-005 1.272903e-004 1.002713e+000 -1.626246e-002
10647930 1.000794e+000 -7.662881e-003 -1.466704e-004 -1.225747e-004 8.169192e-005 2.510858e-004 1.000541e+000 -1.450895e-002
10722915 1.000169e+000 -7.322833e-003 -9.806277e-005 3.889478e-005 -1.917977e-004 -1.216642e-004 1.002807e+000 -1.456751e-002
10797900 1.000928e+000 -6.703920e-003 3.142031e-005 7.928380e-005 -6.304133e-005 -1.832481e-004 1.002643e+000 -1.503541e-002
10872885 1.000305e+000 -7.108266e-003 -6.293202e-005 -1.326813e-004 3.095316e-004 1.318392e-004 1.001642e+000 -1.601582e-002
10947870 9.997875e-001 -7.618434e-003 -8.868542e-005 -5.181704e-005 -6.653414e-005 -1.290123e-004 1.000820e+000 -1.704354e-002
11022855 1.000192e+000 -7.905970e-003 7.848884e-005 2.702873e-005 -1.485806e-004 -1.082159e-004 1.001816e+000 -1.572497e-002
11097840 1.000026e+000 -7.423698e-003 -2.181880e-005 3.383364e-005 -2.693696e-005 5.381275e-005 1.001689e+000 -1.737535e-002
11172825 9.996909e-001 -7.335558e-003 -1.616839e-005 -6.476534e-005 -2.181188e-004 -2.376944e-004 1.000935e+000 -1.660610e-002
11247810 1.000321e+000 -6.925746e-003 -7.854012e-006 -9.461249e-005 -2.825860e-004 2.810007e-004 1.002076e+000 -1.643626e-002
11322795 9.998801e-001 -7.019638e-003 7.457894e-005 5.546707e-006 -4.298803e-005 -9.864309e-005 1.000075e+000 -1.808576e-002
11397780 1.000229e+000 -7.620892e-003 -6.170140e-005 5.848127e-005 -7.231763e-005 1.666156e-004 1.000461e+000 -1.637167e-002
11472765 9.995891e-001 -7.601019e-003 4.058061e-005 1.238274e-004 3.162731e-004 -3.130393e-004 1.002129e+000 -1.640748e-002
11547750 1.000527e+000 -8.256791e-003 4.589947e-005 6.371989e-006 2.026341e-004 -2.014720e-005 1.001751e+000 -1.586094e-002
11622735 1.000365e+000 -7.919065e-003 -4.789200e-005 -9.401718e-005 -1.192988e-004 -2.528537e-004 1.001275e+000 -1.741859e-002
11697720 9.996158e-001 -8.124955e-003 1.298714e-004 -2.594418e-005 -1.171223e-004 1.901904e-004 1.002126e+000 -1.798844e-002
11772705 9.992107e-001 -7.559933e-003 -1.200575e-005 4.183792e-005 1.192196e-004 -2.643348e-004 1.002114e+000 -1.591494e-002
11847690 1.000190e+000 -7.564806e-003 1.279775e-004 -6.805675e-005 1.993607e-004 3.304174e-005 1.001570e+000 -1.529603e-002
11922675 1.000504e+000 -7.511158e-003 4.842429e-005 4.652963e-005 1.294412e-004 -1.026830e-004 1.003406e+000 -1.737817e-002
11997660 9.995717e-001 -8.186118e-003 -2.561476e-005 2.226745e-005 -2.433068e-004 2.362185e-004 1.003900e+000 -1.621554e-002
