!Agilent Technologies,N5230C,SG49000117,A.08.50.07
!Agilent N5230C: A.08.50.07
!Date: Thursday, December 07, 2023 05:44:40
!Correction: S11(Full 2 Port(1,2)) 
!S21(Full 2 Port(1,2)) 
!S12(Full 2 Port(1,2)) 
!S22(Full 2 Port(1,2)) 
!S2P File: Measurements: S11, S21, S12, S22:
# Hz S  RI   R 50
300000 1.017882e+000 -9.844042e-003 1.681511e-004 2.585660e-004 5.839280e-005 2.544215e-005 1.037085e+000 -1.636859e-002
374985 9.970798e-001 -4.395650e-003 9.139043e-005 -7.787157e-005 1.774237e-004 2.315291e-004 9.836327e-001 -1.596318e-002
449970 9.877189e-001 -8.287193e-005 -8.841361e-005 -1.264228e-004 3.537168e-005 1.708952e-004 9.603221e-001 -1.235810e-002
524955 9.785127e-001 5.564300e-003 1.068292e-004 1.764687e-005 -1.962117e-005 8.396199e-005 9.305977e-001 -1.270887e-003
599940 9.811776e-001 5.808901e-003 9.704234e-005 -1.041877e-004 -2.951263e-004 -8.385571e-006 9.434096e-001 3.675021e-003
674925 9.789262e-001 4.434061e-003 -3.486910e-005 -1.358810e-004 -3.898546e-005 1.875791e-004 9.374294e-001 -1.443677e-002
749910 9.783611e-001 5.402887e-003 7.264929e-005 -3.661686e-005 1.230882e-004 9.869201e-006 9.334054e-001 -8.973644e-003
824895 9.841438e-001 4.669059e-003 -2.069930e-004 -5.733792e-005 7.861985e-005 6.362291e-005 9.382486e-001 -7.394465e-003
899880 9.873616e-001 1.122168e-003 5.347485e-006 1.087960e-004 -7.702915e-005 9.886362e-005 9.447015e-001 -1.239200e-002
974865 9.885551e-001 -8.223629e-004 1.791032e-005 -1.806433e-005 -4.302405e-005 -2.206534e-004 9.497371e-001 -1.223635e-002
1049850 9.943105e-001 -2.060245e-003 -9.866729e-005 8.210724e-005 -2.078181e-004 7.209220e-005 9.588375e-001 -1.043972e-002
1124835 9.985284e-001 -6.050152e-003 9.879292e-005 8.525896e-005 -1.715183e-004 1.035955e-005 9.685806e-001 -1.020407e-002
1199820 1.003153e+000 -8.747812e-003 7.573601e-006 -2.179110e-005 -2.052393e-005 1.671848e-004 9.775217e-001 -9.157770e-003
1274805 1.007796e+000 -1.234902e-002 3.986370e-005 8.757442e-006 -2.322425e-005 -7.225566e-005 9.891473e-001 -9.475862e-003
1349790 1.000679e+000 -6.480303e-003 3.379365e-005 -5.791440e-005 -1.799278e-004 8.612188e-005 1.003435e+000 -1.184401e-002
1424775 9.993855e-001 -5.740446e-003 1.447692e-005 4.043113e-005 -8.874055e-005 6.533350e-005 1.003498e+000 -1.135427e-002
1499760 9.991699e-001 -5.963010e-003 4.232565e-005 1.317135e-004 -1.591393e-005 1.975920e-004 1.005455e+000 -9.426451e-003
1574745 9.981940e-001 -3.857373e-003 -1.076904e-004 -1.949429e-006 2.233662e-004 6.023183e-005 1.000974e+000 -9.730305e-003
1649730 9.978290e-001 -4.110808e-003 3.762323e-005 -5.970735e-005 -9.909501e-005 -2.809862e-005 1.002838e+000 -1.131181e-002
1724715 9.976978e-001 -3.680881e-003 -7.535121e-005 3.588315e-005 -8.959022e-005 -2.109440e-004 1.002969e+000 -1.177527e-002
1799700 9.965817e-001 -4.053849e-003 1.061224e-005 2.561846e-005 1.375138e-004 -3.079057e-004 1.005960e+000 -1.130169e-002
1874685 9.954244e-001 -2.536074e-003 -1.484994e-004 8.569624e-005 -8.070329e-006 1.778538e-004 1.001946e+000 -9.213084e-003
1949670 9.947336e-001 -2.123264e-003 -9.971981e-005 -1.815343e-005 -2.445575e-004 -2.202566e-004 1.000262e+000 -5.424065e-003
2024655 9.952652e-001 -2.010421e-003 3.641775e-005 6.378561e-005 1.147946e-004 -4.569008e-004 1.000925e+000 -3.718289e-003
2099640 9.952841e-001 -1.968353e-003 1.343826e-007 2.142527e-005 8.793135e-007 -2.975779e-005 9.993152e-001 -5.362066e-003
2174625 9.943946e-001 -2.494807e-003 8.775875e-005 -2.570508e-005 -2.083739e-004 -1.276570e-004 1.001011e+000 -9.286117e-003
2249610 9.956207e-001 -3.393114e-003 9.682731e-005 4.861456e-005 1.929894e-004 -1.613313e-004 1.001089e+000 -7.157775e-003
2324595 1.001262e+000 -4.137181e-003 1.575480e-006 1.051764e-004 9.586464e-005 -1.222979e-004 1.002244e+000 -5.232005e-003
2399580 1.000099e+000 -3.295781e-003 6.982483e-005 4.783145e-005 -1.061572e-004 6.765527e-005 1.003363e+000 -5.378829e-003
2474565 9.992497e-001 -1.091938e-003 -7.108708e-005 -7.370041e-005 -2.981166e-004 -2.508381e-004 1.000615e+000 -4.390598e-003
2549550 1.001097e+000 -2.649142e-003 -1.296684e-004 -3.534228e-005 -2.064799e-005 -5.406528e-005 9.986095e-001 -5.670049e-003
2624535 1.000682e+000 -3.056193e-003 -3.943044e-005 5.721884e-005 -1.216113e-004 -1.006511e-004 9.999814e-001 -5.388228e-003
2699520 1.000140e+000 -4.111762e-003 1.471047e-005 -5.610985e-005 1.256807e-004 3.867631e-004 9.956403e-001 -5.500920e-003
2774505 9.999528e-001 -2.107485e-003 -3.871386e-005 -1.669868e-004 -4.178977e-006 -2.295996e-005 1.000423e+000 -8.225251e-003
2849490 1.000920e+000 -1.605228e-003 -1.329168e-004 1.614129e-005 -2.548177e-004 8.135732e-005 9.983801e-001 -4.067186e-003
2924475 1.001079e+000 -2.740172e-003 -5.498227e-005 1.379785e-004 2.729664e-005 3.390650e-004 1.001166e+000 -5.126786e-003
2999460 1.000613e+000 -3.912302e-003 -4.522507e-006 -1.318025e-005 -3.051558e-004 3.029177e-004 1.000236e+000 -6.162140e-003
3074445 1.000351e+000 -2.324968e-003 1.244308e-005 1.431423e-005 -1.245430e-004 7.794984e-006 9.999285e-001 -4.836806e-003
3149430 1.000615e+000 -3.074897e-003 -2.368637e-005 -1.069776e-004 -1.116873e-004 1.997809e-004 1.000436e+000 -4.791728e-003
3224415 1.000816e+000 -2.484355e-003 -6.256014e-005 6.588777e-005 -6.085096e-005 -5.025633e-006 9.996750e-001 -5.332584e-003
3299400 1.001365e+000 -2.549940e-003 3.221269e-005 4.090843e-005 -1.869809e-005 -1.563904e-004 9.998862e-001 -6.029280e-003
3374385 9.997342e-001 -2.930834e-003 9.465613e-005 -1.018629e-004 2.378711e-004 3.660838e-005 9.994020e-001 -6.899613e-003
3449370 1.000841e+000 -2.689977e-003 5.752524e-005 8.179295e-005 -1.668683e-005 8.464554e-005 9.994845e-001 -4.649515e-003
3524355 1.000937e+000 -2.304827e-003 -7.381949e-005 -9.842352e-005 1.709851e-004 -1.583037e-005 1.001049e+000 -5.455518e-003
3599340 1.001462e+000 -1.595440e-003 3.215953e-005 5.030946e-005 1.383529e-004 3.922942e-005 9.985875e-001 -7.062966e-003
3674325 1.000813e+000 -2.413607e-003 1.262686e-004 -3.586834e-005 -7.736957e-005 3.198764e-004 9.990601e-001 -5.372331e-003
3749310 1.000707e+000 -1.931264e-003 -1.424987e-005 3.697703e-005 -2.757047e-005 1.273124e-004 9.994724e-001 -4.580144e-003
3824295 1.001982e+000 -2.601480e-003 -5.852295e-005 -1.220665e-005 -8.940096e-005 8.151068e-005 9.982910e-001 -6.218073e-003
3899280 1.001003e+000 -3.856503e-003 -9.558047e-005 3.197398e-005 -4.765968e-005 4.984302e-005 1.000311e+000 -6.156972e-003
3974265 1.000758e+000 -3.360726e-003 3.978180e-007 -8.830007e-005 -2.319274e-005 -4.299529e-005 9.991886e-001 -7.253027e-003
4049250 1.000956e+000 -3.340425e-003 7.506149e-005 -1.213964e-005 -5.767521e-006 2.079972e-004 1.001488e+000 -7.022138e-003
4124235 1.001186e+000 -3.744683e-003 -8.121701e-006 -1.090966e-004 2.543927e-005 -5.002194e-005 1.000004e+000 -5.641211e-003
4199220 1.000805e+000 -2.824527e-003 -1.744848e-005 5.226869e-005 -2.685099e-005 -7.308834e-006 1.001085e+000 -5.821687e-003
4274205 1.000606e+000 -2.852500e-003 -1.426001e-005 -1.677366e-004 -1.762260e-004 -1.444035e-004 9.994175e-001 -5.491404e-003
4349190 1.001480e+000 -3.007622e-003 -8.139082e-006 -4.867251e-005 -8.150146e-005 -2.468109e-006 9.984652e-001 -5.040270e-003
4424175 1.001015e+000 -3.007290e-003 -2.841593e-005 5.611767e-005 -1.347764e-004 1.186500e-006 9.985153e-001 -4.795594e-003
4499160 1.000700e+000 -2.995564e-003 -7.710877e-005 8.357886e-005 -1.030685e-004 6.054165e-006 9.989092e-001 -6.659654e-003
4574145 1.001755e+000 -3.079169e-003 -2.108537e-005 -1.815284e-006 -9.868557e-005 7.719483e-005 9.999252e-001 -4.606577e-003
4649130 1.000810e+000 -3.372514e-003 1.172662e-004 -3.211827e-005 1.457674e-004 -4.762209e-005 9.992580e-001 -5.627491e-003
4724115 1.000664e+000 -2.886202e-003 -1.524962e-006 2.779451e-005 -8.169971e-005 2.256124e-004 9.986396e-001 -4.364223e-003
4799100 1.000472e+000 -3.236201e-003 8.924809e-005 4.955732e-005 -1.387528e-004 1.799463e-004 9.990280e-001 -4.688648e-003
4874085 1.001464e+000 -3.025762e-003 -3.481076e-006 -3.819076e-005 6.369137e-005 -4.168710e-005 9.991412e-001 -5.252259e-003
4949070 1.000583e+000 -3.825552e-003 -4.850869e-005 1.573177e-004 3.200498e-004 -4.664009e-005 9.994957e-001 -3.452837e-003
5024055 1.000903e+000 -2.872274e-003 -1.456830e-005 5.133492e-005 2.007286e-004 -5.336385e-006 1.000365e+000 -5.407145e-003
5099040 1.000723e+000 -3.127410e-003 3.737580e-005 5.249593e-005 2.064118e-004 -1.363015e-004 1.001000e+000 -3.553264e-003
5174025 1.001338e+000 -3.207762e-003 2.136381e-005 -2.980640e-005 1.662115e-004 5.130762e-005 9.987332e-001 -4.130253e-003
5249010 1.001410e+000 -3.555752e-003 1.180922e-005 2.068384e-005 -4.279594e-005 -4.815120e-005 9.992293e-001 -4.940601e-003
5323995 1.000353e+000 -2.734149e-003 8.237518e-005 5.562674e-005 1.858503e-006 1.347862e-004 9.990621e-001 -6.084707e-003
5398980 1.001588e+000 -3.202428e-003 -6.970324e-005 8.930662e-005 -1.637226e-004 -2.421914e-004 9.995468e-001 -3.370676e-003
5473965 1.001127e+000 -3.566846e-003 4.193629e-005 1.539547e-005 -5.216012e-005 3.187048e-005 1.000308e+000 -4.737808e-003
5548950 1.001193e+000 -3.259832e-003 3.525742e-005 8.080542e-005 1.660395e-004 -1.872599e-004 1.000149e+000 -5.728995e-003
5623935 1.000842e+000 -3.657546e-003 7.736355e-005 1.602003e-005 8.572838e-005 -1.002541e-004 1.000739e+000 -3.782860e-003
5698920 1.001203e+000 -2.995792e-003 4.732142e-005 -5.997495e-005 1.267418e-004 1.197096e-004 1.001331e+000 -5.312517e-003
5773905 1.000998e+000 -3.678844e-003 5.410545e-006 -4.016946e-005 -1.800699e-004 5.357815e-005 1.000147e+000 -6.023288e-003
5848890 1.000695e+000 -3.462759e-003 -5.516619e-007 -2.002443e-005 -1.598309e-004 -2.276935e-004 9.999120e-001 -5.284228e-003
5923875 1.000685e+000 -3.643570e-003 6.273770e-005 -4.521041e-005 -8.923168e-005 1.902959e-004 1.000166e+000 -6.200085e-003
5998860 1.000889e+000 -3.179923e-003 -5.633004e-005 -3.004797e-005 -1.188191e-005 1.518047e-004 1.000784e+000 -4.949428e-003
6073845 1.000836e+000 -3.857939e-003 -2.522151e-005 -1.944659e-005 1.544421e-005 -2.986056e-006 1.000497e+000 -7.774158e-003
6148830 9.998532e-001 -3.186312e-003 -1.664518e-005 1.180693e-005 -7.163005e-007 -9.593732e-006 1.000892e+000 -5.491310e-003
6223815 1.000870e+000 -3.652928e-003 -8.352406e-005 1.672580e-005 -1.263959e-004 8.972463e-005 9.996487e-001 -5.412861e-003
6298800 1.001158e+000 -3.074142e-003 8.031942e-005 -6.030352e-006 -1.343669e-004 7.440797e-005 9.994648e-001 -6.817801e-003
6373785 1.000518e+000 -3.833316e-003 5.661173e-005 1.270159e-006 1.841977e-005 -6.765025e-005 1.000637e+000 -6.979394e-003
6448770 1.000906e+000 -3.592325e-003 -7.437517e-005 -1.684571e-004 -1.601190e-004 -8.917455e-005 1.000494e+000 -5.320836e-003
6523755 1.000948e+000 -2.952540e-003 9.368524e-005 8.033820e-005 3.617298e-005 -1.530759e-005 9.987471e-001 -6.965829e-003
6598740 1.000451e+000 -3.104573e-003 1.325933e-004 -4.358064e-006 8.325760e-005 -2.880639e-005 1.000699e+000 -7.277248e-003
6673725 1.000844e+000 -3.084320e-003 -7.033534e-005 9.603611e-005 -5.793215e-005 1.712235e-004 9.999629e-001 -8.291528e-003
6748710 1.001037e+000 -2.909603e-003 3.681687e-005 1.126956e-005 6.673141e-005 -1.620222e-004 9.997243e-001 -5.888731e-003
6823695 1.000806e+000 -3.352433e-003 7.427131e-005 5.203978e-005 1.119134e-004 9.793906e-005 9.993215e-001 -7.766107e-003
6898680 1.001289e+000 -3.460003e-003 -1.547067e-005 9.232175e-005 6.150534e-005 1.185722e-004 1.000359e+000 -8.704550e-003
6973665 1.001012e+000 -3.123701e-003 -1.061728e-004 7.579543e-006 -1.261047e-004 -9.848811e-005 1.000171e+000 -7.658924e-003
7048650 1.000328e+000 -3.742787e-003 8.320793e-006 1.244458e-004 -3.359046e-005 -3.038520e-004 9.989192e-001 -7.493072e-003
7123635 1.000882e+000 -3.325106e-003 9.000798e-005 -6.223619e-005 -1.692931e-004 -5.168375e-005 1.001293e+000 -7.394308e-003
7198620 1.001447e+000 -3.767312e-003 -3.146315e-005 -2.429649e-005 4.667680e-006 -4.677213e-005 9.996805e-001 -7.388774e-003
7273605 1.000521e+000 -3.169944e-003 3.009536e-005 9.869776e-006 -1.872597e-004 1.440029e-004 9.994161e-001 -9.189828e-003
7348590 1.000439e+000 -4.537474e-003 3.825896e-005 1.564397e-005 1.048327e-005 8.496960e-005 1.001298e+000 -8.282589e-003
7423575 1.000415e+000 -3.857616e-003 2.001036e-005 -1.189916e-004 -6.091925e-005 -2.552280e-004 1.001393e+000 -6.895641e-003
7498560 1.000800e+000 -3.743723e-003 4.993968e-005 -1.331233e-004 7.697260e-005 -2.137224e-004 1.000854e+000 -9.211755e-003
7573545 9.999871e-001 -3.133767e-003 3.116805e-005 -9.300077e-005 1.908148e-004 -8.801585e-005 9.990515e-001 -8.563248e-003
7648530 1.000236e+000 -4.276714e-003 -1.300343e-005 1.757695e-004 -1.007851e-004 -1.135470e-004 9.987876e-001 -7.261104e-003
7723515 1.001046e+000 -4.180175e-003 1.312186e-005 -7.659346e-006 4.561024e-005 -3.013686e-005 9.995549e-001 -8.459349e-003
7798500 1.001040e+000 -3.217799e-003 6.319644e-005 4.568116e-005 -1.273760e-004 1.912311e-004 9.997906e-001 -7.090745e-003
7873485 1.000805e+000 -3.913222e-003 2.853942e-005 9.635520e-005 -6.721027e-005 7.913932e-005 9.995303e-001 -8.499650e-003
7948470 1.000651e+000 -4.260786e-003 -4.626867e-005 1.951914e-005 -1.560436e-005 8.876153e-005 9.986045e-001 -7.765801e-003
8023455 1.000708e+000 -3.313023e-003 -1.846077e-004 -6.124450e-005 -6.470479e-005 -7.635314e-005 9.999557e-001 -9.192414e-003
8098440 1.000533e+000 -4.297950e-003 -4.185697e-006 -1.820352e-005 -5.187997e-006 -8.033040e-005 9.994866e-001 -6.376185e-003
8173425 1.000850e+000 -4.019604e-003 -1.253483e-004 -2.673731e-005 -5.323861e-005 -6.414367e-005 1.000694e+000 -6.665906e-003
8248410 1.000021e+000 -4.328308e-003 5.142258e-005 2.829831e-005 -1.681154e-005 -1.291487e-004 9.990442e-001 -6.395238e-003
8323395 1.000676e+000 -4.147963e-003 1.086076e-005 1.864253e-004 -9.371264e-005 1.058129e-004 1.000280e+000 -6.832830e-003
8398380 1.000885e+000 -4.375062e-003 -9.069985e-005 1.101346e-004 4.463835e-005 -2.958443e-004 1.000549e+000 -4.422904e-003
8473365 1.000662e+000 -3.290785e-003 -4.214298e-005 2.598457e-006 -1.118221e-005 5.752790e-005 1.001072e+000 -8.024598e-003
8548350 9.997126e-001 -3.719864e-003 -2.890118e-005 1.136411e-005 -6.922113e-005 3.827459e-006 9.990797e-001 -8.322914e-003
8623335 1.000498e+000 -4.360873e-003 -1.010095e-005 3.508040e-005 -7.833483e-005 -5.303819e-005 9.998139e-001 -8.329316e-003
8698320 1.001243e+000 -3.983738e-003 5.077757e-005 1.931443e-005 1.654823e-004 -3.763449e-005 9.996256e-001 -8.651855e-003
8773305 1.000388e+000 -5.065231e-003 -9.193668e-005 -4.055538e-005 8.565487e-006 -1.223039e-004 1.000619e+000 -8.454093e-003
8848290 1.000320e+000 -4.282376e-003 2.944445e-005 -3.324975e-005 7.620818e-005 2.260689e-004 1.000927e+000 -8.280929e-003
8923275 9.999064e-001 -4.213739e-003 -1.054682e-004 -3.375299e-005 -7.481661e-005 -1.225119e-004 9.992757e-001 -9.626520e-003
8998260 1.000715e+000 -4.742880e-003 -3.853568e-005 -1.479887e-005 1.961701e-005 7.373704e-005 1.000646e+000 -8.575371e-003
9073245 1.000878e+000 -5.419150e-003 -3.318307e-005 5.097809e-005 5.484444e-005 -6.905894e-005 1.000366e+000 -1.126674e-002
9148230 1.000536e+000 -4.756987e-003 2.202441e-005 1.053803e-004 4.343756e-005 6.094321e-005 9.985536e-001 -8.784537e-003
9223215 1.000831e+000 -5.654166e-003 6.556338e-005 -1.363347e-005 9.824535e-005 -1.683341e-004 1.002007e+000 -8.890682e-003
9298200 1.000885e+000 -5.515612e-003 -1.650460e-006 -6.902053e-005 1.512838e-005 2.594622e-004 1.001033e+000 -7.020997e-003
9373185 1.000690e+000 -5.295206e-003 4.781194e-005 -1.662423e-005 2.345149e-004 2.004044e-004 1.000224e+000 -9.030691e-003
9448170 1.001099e+000 -5.325854e-003 9.203089e-005 -6.013541e-005 -1.252585e-004 -7.264002e-005 1.001173e+000 -9.086129e-003
9523155 1.000373e+000 -6.198739e-003 -2.405402e-005 4.746314e-005 1.467964e-004 4.504173e-005 1.000482e+000 -9.743061e-003
9598140 1.000745e+000 -5.405535e-003 7.494910e-005 -4.031336e-005 2.001460e-004 3.963965e-005 1.000885e+000 -9.865892e-003
9673125 1.000934e+000 -5.667767e-003 -6.347814e-005 -2.898054e-005 -1.961524e-004 1.384540e-004 1.000847e+000 -1.112807e-002
9748110 1.000990e+000 -6.173584e-003 2.532262e-005 -5.959438e-005 -4.567191e-004 -5.059757e-005 1.000230e+000 -1.211296e-002
9823095 1.000085e+000 -6.187539e-003 -2.505080e-005 7.387133e-005 9.823027e-005 1.142592e-005 1.001149e+000 -1.179119e-002
9898080 1.000380e+000 -6.413521e-003 4.198751e-005 1.813982e-005 -4.094214e-005 -1.578246e-004 1.000764e+000 -1.207933e-002
9973065 1.000627e+000 -6.367586e-003 -3.862701e-005 -2.124407e-005 -8.895134e-005 -1.607699e-004 1.000394e+000 -1.162645e-002
10048050 1.000614e+000 -6.978623e-003 -8.453829e-005 -1.171255e-004 8.154717e-006 1.758454e-005 1.001843e+000 -1.343415e-002
10123035 1.000145e+000 -6.786363e-003 -7.023993e-005 4.582774e-005 -2.389407e-004 -2.945485e-004 1.001787e+000 -1.257329e-002
10198020 1.000529e+000 -6.947713e-003 -2.028115e-005 1.199126e-004 -1.723679e-004 -4.457137e-006 1.000780e+000 -1.244323e-002
10273005 1.000530e+000 -7.162563e-003 6.292211e-005 -5.597816e-005 6.064332e-006 7.496264e-005 1.000780e+000 -1.209766e-002
10347990 1.001200e+000 -7.249102e-003 -4.631534e-005 -1.112804e-004 1.868169e-004 1.596460e-004 1.002486e+000 -1.296210e-002
10422975 1.000562e+000 -7.136899e-003 4.611570e-005 -6.272675e-005 2.752095e-004 -5.705905e-006 1.000940e+000 -1.403247e-002
10497960 1.000277e+000 -6.951674e-003 1.162382e-004 5.868051e-005 -1.876264e-004 1.234107e-004 1.000183e+000 -1.411778e-002
10572945 1.000249e+000 -7.758607e-003 5.243867e-005 1.204431e-004 -1.087132e-004 -2.652026e-005 1.001511e+000 -1.316022e-002
10647930 1.000593e+000 -6.176063e-003 7.276240e-005 1.020257e-004 1.843862e-004 2.010344e-004 1.001580e+000 -1.528257e-002
10722915 1.000053e+000 -7.996151e-003 1.264494e-005 1.583064e-005 -5.582342e-005 -6.572998e-005 1.002549e+000 -1.679820e-002
10797900 1.000169e+000 -7.087674e-003 7.575421e-005 -1.478838e-005 -1.236635e-004 1.955115e-004 1.001416e+000 -1.539958e-002
10872885 1.000148e+000 -6.642094e-003 3.482182e-005 1.719670e-005 -6.050898e-005 2.303419e-004 1.000782e+000 -1.554327e-002
10947870 1.000409e+000 -7.443817e-003 3.957727e-005 1.535565e-004 8.491894e-006 3.044656e-004 9.998460e-001 -1.734293e-002
11022855 1.000192e+000 -7.290420e-003 -2.758369e-005 -1.395436e-004 -2.156137e-004 -9.592916e-005 1.001471e+000 -1.608840e-002
11097840 9.999089e-001 -7.167892e-003 -8.901494e-005 6.110725e-005 2.948580e-004 7.283185e-005 1.001095e+000 -1.636415e-002
11172825 1.000500e+000 -7.754150e-003 1.064956e-004 3.565146e-005 -2.100497e-004 -2.587964e-005 1.002101e+000 -1.625483e-002
11247810 9.994345e-001 -7.964547e-003 8.495354e-005 -6.834011e-005 8.687249e-005 7.824369e-006 1.002085e+000 -1.624911e-002
11322795 9.994369e-001 -7.308024e-003 8.448709e-006 -2.944831e-005 -4.602171e-005 1.419534e-004 1.002000e+000 -1.632339e-002
11397780 1.000426e+000 -7.295229e-003 -4.591464e-005 -3.665037e-005 -1.184767e-004 1.217946e-004 1.001188e+000 -1.533636e-002
11472765 1.000944e+000 -7.885699e-003 4.371227e-005 -3.388720e-005 2.630902e-004 2.559897e-005 1.002247e+000 -1.645439e-002
11547750 9.995306e-001 -8.151267e-003 -8.632039e-005 -3.951052e-005 1.384992e-004 1.695716e-006 1.000787e+000 -1.669219e-002
11622735 9.998688e-001 -7.863162e-003 7.184149e-005 6.829450e-005 -4.320162e-005 -2.563095e-004 1.001910e+000 -1.656288e-002
11697720 1.000267e+000 -7.955643e-003 2.380065e-006 -1.657793e-005 -1.927090e-004 2.959343e-004 1.001707e+000 -1.477259e-002
11772705 9.999604e-001 -7.649335e-003 7.793774e-005 -2.163282e-005 -2.468786e-004 -2.440555e-007 1.000361e+000 -1.628859e-002
11847690 9.990900e-001 -7.940938e-003 5.186384e-005 -5.320496e-005 -2.401220e-004 4.564775e-005 1.001829e+000 -1.602072e-002
11922675 1.000362e+000 -7.900851e-003 -4.019765e-005 -6.062013e-005 -1.030997e-004 -5.511933e-005 1.003614e+000 -1.608276e-002
11997660 9.993865e-001 -7.474374e-003 -1.191095e-004 -2.320392e-006 1.832649e-004 1.680021e-004 1.002078e+000 -1.537112e-002
