!Agilent Technologies,N5230C,SG49000117,A.08.50.07
!Agilent N5230C: A.08.50.07
!Date: Thursday, December 07, 2023 05:47:36
!Correction: S11(Full 2 Port(1,2)) 
!S21(Full 2 Port(1,2)) 
!S12(Full 2 Port(1,2)) 
!S22(Full 2 Port(1,2)) 
!S2P File: Measurements: S11, S21, S12, S22:
# Hz S  RI   R 50
300000 1.017817e+000 -7.977068e-003 -5.998819e-005 -2.012084e-004 6.611372e-004 -4.103779e-004 1.035007e+000 -1.780168e-002
374985 9.975256e-001 -4.360635e-003 -4.059315e-005 -1.662418e-004 -2.434700e-004 -4.842610e-005 9.827457e-001 -1.583461e-002
449970 9.877260e-001 -6.538230e-004 -3.558418e-005 7.124522e-005 2.671356e-005 1.260323e-005 9.571225e-001 -1.420579e-002
524955 9.776643e-001 4.452675e-003 4.155734e-006 -4.991103e-005 8.527689e-005 1.157658e-004 9.299628e-001 -2.957826e-003
599940 9.795037e-001 4.644487e-003 1.384224e-005 4.379721e-005 -2.182153e-005 -1.892310e-004 9.409025e-001 3.415968e-003
674925 9.784309e-001 4.373946e-003 -2.258698e-005 -7.666391e-005 -8.590267e-005 1.253196e-004 9.362647e-001 -1.447354e-002
749910 9.795699e-001 5.280485e-003 7.533807e-005 1.853097e-005 -1.895839e-004 5.005609e-005 9.303613e-001 -7.526306e-003
824895 9.846373e-001 3.258774e-003 1.129834e-004 -1.963460e-005 1.105131e-004 -2.538087e-004 9.385647e-001 -1.006099e-002
899880 9.873027e-001 1.744901e-003 -6.052936e-005 3.536486e-005 -1.505812e-004 1.221263e-004 9.433339e-001 -1.158055e-002
974865 9.906459e-001 7.964288e-004 1.532226e-006 6.354849e-005 -1.189573e-005 1.004238e-004 9.483738e-001 -1.291823e-002
1049850 9.935322e-001 -2.653867e-003 -1.289877e-004 6.901294e-006 2.512494e-004 -7.985847e-006 9.566560e-001 -1.051505e-002
1124835 9.981482e-001 -5.426263e-003 6.436875e-005 5.382479e-005 1.297464e-004 -1.237404e-004 9.662834e-001 -1.296794e-002
1199820 1.003779e+000 -9.050158e-003 9.694982e-005 -1.408971e-005 -1.444238e-004 -6.738890e-006 9.788015e-001 -9.374364e-003
1274805 1.008278e+000 -1.270363e-002 7.989209e-005 -3.490770e-005 -1.047101e-004 1.380068e-004 9.884977e-001 -7.473594e-003
1349790 1.000796e+000 -5.670177e-003 5.218434e-005 -1.711443e-006 -7.515970e-006 2.463142e-004 1.003940e+000 -1.010641e-002
1424775 9.987625e-001 -5.292991e-003 -2.219817e-005 3.705760e-005 -2.153226e-004 3.082865e-004 1.004606e+000 -1.051179e-002
1499760 9.994178e-001 -4.830755e-003 3.579928e-005 8.016850e-005 1.437659e-004 1.976324e-005 1.004983e+000 -8.206476e-003
1574745 9.985019e-001 -3.681867e-003 -1.505093e-004 -1.077951e-004 -2.611511e-004 1.065672e-004 1.001011e+000 -9.515730e-003
1649730 9.980621e-001 -4.864223e-003 -3.361429e-005 -1.116156e-006 1.230241e-004 -1.575621e-004 1.002573e+000 -1.156685e-002
1724715 9.970321e-001 -4.274848e-003 -1.096391e-004 -1.020897e-004 4.669828e-005 -8.599846e-005 1.003588e+000 -1.293822e-002
1799700 9.964097e-001 -4.380731e-003 4.230407e-005 -1.437994e-004 1.662163e-005 -2.493153e-005 1.004710e+000 -1.276649e-002
1874685 9.956289e-001 -3.076714e-003 -1.216950e-004 -6.725770e-006 -1.495838e-004 -1.117864e-004 1.002988e+000 -1.087699e-002
1949670 9.948865e-001 -1.604694e-003 -1.466523e-004 8.606479e-005 -2.217881e-004 -4.100907e-004 1.001478e+000 -6.709911e-003
2024655 9.952802e-001 -2.347094e-003 1.743666e-004 6.132565e-005 7.422987e-005 -9.686147e-005 1.001017e+000 -4.165795e-003
2099640 9.940782e-001 -1.872101e-003 -2.035641e-005 -2.650017e-005 1.486716e-004 8.271715e-005 1.000341e+000 -4.892985e-003
2174625 9.945644e-001 -2.705981e-003 -8.023799e-005 -6.624939e-005 1.979766e-004 1.676875e-004 1.000201e+000 -6.864705e-003
2249610 9.955264e-001 -3.218749e-003 -6.832484e-006 5.033127e-005 2.646398e-004 3.259040e-004 1.000462e+000 -6.069793e-003
2324595 1.001268e+000 -4.120022e-003 3.146451e-005 9.039662e-006 7.051743e-005 -1.542644e-004 1.000303e+000 -7.352210e-003
2399580 1.000499e+000 -4.272956e-003 6.247591e-005 -2.749455e-005 6.678318e-005 -9.299202e-005 1.003061e+000 -6.167471e-003
2474565 9.991329e-001 -1.411428e-003 -1.235798e-004 -3.002949e-005 2.551762e-006 1.026739e-004 1.000055e+000 -5.891141e-003
2549550 1.000753e+000 -2.557702e-003 -1.316441e-004 -1.496999e-004 -5.785385e-005 -9.635610e-005 9.982318e-001 -6.061622e-003
2624535 1.000876e+000 -2.826388e-003 -7.701245e-005 -2.968366e-005 -1.601803e-004 -3.483952e-004 1.000654e+000 -5.480287e-003
2699520 1.000028e+000 -4.206082e-003 -9.571340e-005 -1.524651e-004 7.604917e-005 -1.513308e-004 9.964106e-001 -5.545201e-003
2774505 9.997811e-001 -2.517453e-003 -3.681147e-005 -1.601500e-005 -9.239839e-006 1.055649e-004 1.000343e+000 -9.499391e-003
2849490 1.000252e+000 -2.546617e-003 5.385820e-006 -1.006952e-004 -6.116027e-005 -2.341070e-004 9.964115e-001 -3.562879e-003
2924475 1.001398e+000 -2.683141e-003 -1.163748e-004 -1.421080e-006 -2.253059e-005 -1.254308e-004 1.000999e+000 -4.987430e-003
2999460 1.001146e+000 -2.906840e-003 -8.620649e-006 7.198519e-006 1.822439e-004 1.525060e-004 1.000443e+000 -6.006846e-003
3074445 1.000102e+000 -1.828186e-003 -3.251624e-005 -7.349579e-005 9.905089e-005 -4.104745e-005 1.000402e+000 -5.243292e-003
3149430 1.000910e+000 -2.208341e-003 1.453118e-004 9.360669e-005 2.767182e-005 1.687393e-004 1.000286e+000 -4.609809e-003
3224415 1.000427e+000 -3.282421e-003 1.472871e-005 -2.496066e-005 -2.010760e-004 7.314728e-005 1.000090e+000 -5.304015e-003
3299400 1.000965e+000 -3.249858e-003 1.834793e-005 -9.861004e-005 -3.954544e-005 -3.268603e-004 9.993863e-001 -6.427808e-003
3374385 1.000658e+000 -3.072472e-003 7.442516e-005 -9.897479e-006 -9.647765e-005 1.680313e-004 9.994686e-001 -6.714008e-003
3449370 1.000668e+000 -2.285380e-003 -3.352187e-005 -7.078698e-005 -1.378133e-004 -7.239449e-005 9.980815e-001 -6.808236e-003
3524355 1.001498e+000 -1.519865e-003 -3.053042e-005 -1.404071e-005 2.654829e-005 -2.199587e-005 9.996470e-001 -4.878554e-003
3599340 1.000960e+000 -2.550574e-003 -1.577683e-005 -2.146329e-005 2.575457e-004 1.382463e-004 9.988567e-001 -5.344405e-003
3674325 1.001188e+000 -2.458966e-003 1.705427e-005 -2.135932e-006 1.308516e-004 -7.088086e-005 9.999482e-001 -5.990461e-003
3749310 1.001564e+000 -2.166832e-003 -1.327897e-004 -7.378464e-005 -1.550720e-005 1.966138e-005 9.987813e-001 -5.957902e-003
3824295 1.001265e+000 -3.073346e-003 3.777758e-005 -5.840521e-005 -1.270861e-004 -8.272994e-005 9.994403e-001 -6.953002e-003
3899280 1.000775e+000 -3.013410e-003 1.238421e-005 1.493602e-004 -1.084192e-004 -4.853754e-005 1.000266e+000 -7.471192e-003
3974265 1.001370e+000 -3.883585e-003 3.018771e-005 -4.441391e-006 -1.145407e-004 -2.055950e-004 1.000070e+000 -5.980390e-003
4049250 1.002132e+000 -3.680149e-003 -3.695861e-005 -4.595917e-005 -1.412491e-004 -5.164732e-005 1.001262e+000 -4.782609e-003
4124235 1.001758e+000 -3.427871e-003 7.274577e-005 2.115835e-005 1.141537e-004 1.779586e-005 9.984670e-001 -6.740643e-003
4199220 1.001116e+000 -3.254197e-003 1.294994e-004 3.102626e-005 6.817235e-006 6.016964e-005 9.997939e-001 -5.579437e-003
4274205 1.001201e+000 -3.289490e-003 -6.152563e-005 2.371990e-005 1.697379e-004 9.382899e-005 9.998285e-001 -6.386261e-003
4349190 1.001183e+000 -3.742424e-003 4.078059e-005 -9.620233e-006 1.615519e-004 2.795532e-004 1.000427e+000 -4.058709e-003
4424175 1.000592e+000 -3.152046e-003 2.636616e-005 -1.441577e-005 1.275593e-004 1.464991e-004 9.996278e-001 -4.991530e-003
4499160 1.000830e+000 -3.133985e-003 1.629866e-005 -3.822427e-005 -1.675833e-004 2.258110e-005 9.993047e-001 -4.770929e-003
4574145 1.000803e+000 -2.804667e-003 3.330920e-005 -7.789703e-006 -1.866556e-004 -1.899632e-004 9.993900e-001 -4.245491e-003
4649130 1.001140e+000 -2.620157e-003 -6.724819e-006 -4.124703e-005 -1.360920e-004 -1.843101e-004 9.989437e-001 -5.734188e-003
4724115 1.000701e+000 -3.503556e-003 -3.707339e-005 -5.067911e-005 -2.921115e-005 2.254018e-004 9.996892e-001 -6.642015e-003
4799100 1.001576e+000 -2.898458e-003 1.139086e-005 1.172706e-004 1.148761e-004 9.211026e-005 1.000170e+000 -4.393219e-003
4874085 1.001162e+000 -2.512010e-003 4.502462e-005 -6.996209e-005 1.545959e-006 -5.134687e-005 9.995341e-001 -5.402131e-003
4949070 1.001067e+000 -3.280408e-003 2.697238e-005 -1.315507e-004 -4.214334e-005 1.405481e-004 9.995677e-001 -5.359123e-003
5024055 1.000852e+000 -2.486366e-003 -1.256185e-004 1.148732e-005 -3.211680e-005 -1.156809e-004 9.996698e-001 -4.659385e-003
5099040 1.001083e+000 -2.718087e-003 -5.490188e-005 -3.575662e-005 -6.521800e-005 -6.038973e-005 9.998083e-001 -5.095385e-003
5174025 1.002063e+000 -2.979934e-003 -7.416206e-005 -4.538061e-005 -1.580400e-004 2.074661e-004 9.980522e-001 -5.148916e-003
5249010 1.002297e+000 -2.711015e-003 -4.679948e-005 -6.277610e-005 6.929678e-005 7.764794e-006 9.994033e-001 -4.038319e-003
5323995 1.000232e+000 -2.662299e-003 2.999458e-005 -1.082986e-004 -3.286188e-004 1.884941e-004 9.988970e-001 -6.681498e-003
5398980 1.001082e+000 -3.266636e-003 8.180815e-005 1.264555e-004 -2.927093e-004 -2.626100e-004 9.985669e-001 -4.166851e-003
5473965 1.000517e+000 -3.082979e-003 4.608975e-006 -1.494120e-004 2.513810e-004 -7.430065e-005 9.998659e-001 -3.616063e-003
5548950 1.001734e+000 -3.216879e-003 -5.594583e-005 -3.022525e-005 -5.325833e-006 2.173375e-004 1.000462e+000 -5.405607e-003
5623935 1.000417e+000 -3.084394e-003 -5.098189e-005 3.073544e-005 4.378719e-005 -4.587264e-007 9.994444e-001 -3.949526e-003
5698920 1.000261e+000 -3.572972e-003 -8.678632e-007 5.154908e-005 1.687580e-004 -2.608457e-005 1.001191e+000 -5.203452e-003
5773905 1.000817e+000 -3.737257e-003 1.212958e-005 5.182387e-005 1.291957e-005 -2.304785e-004 9.999087e-001 -5.581056e-003
5848890 1.001572e+000 -3.872627e-003 -2.152096e-005 -2.915113e-005 -3.796686e-005 -1.029010e-004 1.000594e+000 -5.873666e-003
5923875 1.000930e+000 -3.081957e-003 -4.477216e-005 -1.132868e-005 8.118286e-005 -3.734479e-005 9.991301e-001 -5.421762e-003
5998860 1.001005e+000 -4.059485e-003 7.020062e-005 7.676195e-005 -1.700832e-004 -2.474716e-004 1.000826e+000 -6.411434e-003
6073845 1.000736e+000 -3.306873e-003 -4.053357e-005 -2.457452e-005 1.252574e-004 1.116812e-005 1.000878e+000 -6.128737e-003
6148830 1.001234e+000 -3.240132e-003 -2.100358e-006 -2.690898e-005 1.100153e-004 2.683949e-004 1.000188e+000 -5.943945e-003
6223815 1.000987e+000 -3.081990e-003 6.454067e-006 -4.208004e-006 -2.915271e-005 -8.396363e-005 9.994088e-001 -7.353081e-003
6298800 1.000813e+000 -3.391743e-003 3.677764e-005 -4.490560e-007 -1.356192e-005 1.865810e-005 1.000540e+000 -5.449743e-003
6373785 1.000547e+000 -3.354062e-003 -8.353859e-005 -6.020647e-005 -1.056996e-004 4.195513e-005 1.000703e+000 -6.161177e-003
6448770 1.000428e+000 -3.216763e-003 -4.512533e-005 -2.934544e-005 -1.014895e-004 1.056968e-004 9.985291e-001 -5.726340e-003
6523755 1.000689e+000 -3.372192e-003 -2.911241e-005 -8.943853e-005 -2.676179e-005 -2.000092e-004 1.000455e+000 -6.778624e-003
6598740 1.000584e+000 -3.098415e-003 3.656628e-005 3.453588e-005 -2.686963e-004 5.851974e-005 1.000572e+000 -6.427054e-003
6673725 1.000247e+000 -4.104955e-003 -4.381673e-005 -4.848747e-005 -6.527478e-005 7.214216e-005 9.994797e-001 -7.708702e-003
6748710 1.000446e+000 -3.795486e-003 9.493161e-007 1.344753e-005 1.798093e-004 7.901142e-005 1.000214e+000 -7.617313e-003
6823695 9.999659e-001 -3.768152e-003 -5.221072e-006 -5.311422e-005 -5.266134e-005 -1.622911e-004 1.001424e+000 -8.397250e-003
6898680 1.000771e+000 -4.026381e-003 -4.397200e-005 3.685933e-006 3.698513e-005 -1.940222e-005 1.000512e+000 -8.664429e-003
6973665 1.001461e+000 -3.391709e-003 6.219108e-005 -9.951311e-006 -7.016093e-005 -3.877436e-004 1.001369e+000 -7.950162e-003
7048650 9.999549e-001 -3.747290e-003 -2.412123e-005 5.823763e-005 -3.065435e-004 -1.214778e-004 1.000620e+000 -8.316718e-003
7123635 1.000847e+000 -3.965156e-003 -7.026843e-006 -8.052471e-005 -3.524797e-004 -1.124425e-004 9.999116e-001 -7.358891e-003
7198620 1.000018e+000 -2.927607e-003 7.317486e-006 -1.080435e-004 -5.632652e-005 5.429033e-005 1.000081e+000 -8.325580e-003
7273605 1.000391e+000 -3.835300e-003 -6.075623e-005 -3.793085e-005 2.439701e-005 2.100438e-004 9.996654e-001 -8.062289e-003
7348590 1.000808e+000 -3.820508e-003 -4.447630e-005 4.340552e-005 -1.377665e-004 8.609993e-005 9.994411e-001 -7.623202e-003
7423575 1.000853e+000 -4.229325e-003 2.509619e-005 -2.407241e-005 9.485103e-006 1.498129e-004 1.000201e+000 -7.981174e-003
7498560 1.000157e+000 -3.141635e-003 3.994540e-005 8.031604e-005 -1.318571e-004 1.973365e-004 1.000250e+000 -8.035520e-003
7573545 1.000589e+000 -3.814799e-003 -1.451882e-004 4.216180e-005 6.213993e-005 1.477690e-004 1.001525e+000 -8.141312e-003
7648530 1.000683e+000 -3.974954e-003 -6.349346e-005 4.234415e-005 1.590410e-004 -1.199003e-004 1.000332e+000 -6.332848e-003
7723515 1.001399e+000 -4.616224e-003 2.232742e-005 6.391656e-006 -8.249253e-005 -4.121180e-005 9.994940e-001 -7.540274e-003
7798500 1.001127e+000 -3.376610e-003 -4.285116e-005 1.145029e-004 1.426242e-005 -6.762301e-005 1.000525e+000 -8.820968e-003
7873485 1.000582e+000 -4.250692e-003 7.723024e-006 8.392231e-005 4.247697e-005 8.719852e-005 9.990976e-001 -8.321652e-003
7948470 1.000549e+000 -4.458919e-003 -2.621178e-005 3.966580e-005 -3.060883e-005 -1.370205e-005 9.990504e-001 -8.266718e-003
8023455 1.000686e+000 -4.116588e-003 4.861493e-005 1.348395e-005 9.802754e-005 2.288011e-005 9.988776e-001 -7.250594e-003
8098440 1.000766e+000 -4.326338e-003 -7.606641e-005 4.343828e-005 -1.048154e-004 -2.720832e-004 9.984745e-001 -7.225446e-003
8173425 1.000560e+000 -3.829430e-003 8.393177e-005 2.410280e-005 -1.324866e-004 -2.802410e-005 9.994423e-001 -8.455171e-003
8248410 1.000907e+000 -4.049587e-003 5.130917e-005 4.425330e-005 -8.023089e-005 2.270810e-005 1.000973e+000 -7.711611e-003
8323395 1.000340e+000 -4.322351e-003 -1.596462e-005 -7.970678e-005 8.604538e-005 -6.126870e-005 1.001067e+000 -7.080470e-003
8398380 1.000345e+000 -4.525929e-003 -1.240129e-004 -8.251650e-005 2.010237e-004 1.403322e-004 9.990996e-001 -6.122097e-003
8473365 1.000533e+000 -4.848764e-003 -4.466241e-005 2.019614e-005 -8.105038e-005 -1.823071e-004 1.000879e+000 -7.595068e-003
8548350 1.001181e+000 -4.422106e-003 6.179225e-005 -9.968106e-005 2.604556e-004 3.332411e-004 1.000669e+000 -7.335743e-003
8623335 1.000730e+000 -4.134845e-003 -9.475319e-006 6.539635e-005 -5.564338e-005 9.301613e-005 1.000455e+000 -7.355353e-003
8698320 1.000837e+000 -4.538858e-003 2.832139e-005 2.222555e-005 -1.221669e-004 3.711090e-005 1.001601e+000 -8.401375e-003
8773305 9.995601e-001 -4.826014e-003 5.358293e-005 8.554142e-005 1.289167e-004 -1.461477e-005 1.000009e+000 -9.161910e-003
8848290 1.000758e+000 -5.535370e-003 -5.513947e-005 8.983406e-005 -4.138041e-004 7.828185e-005 1.000854e+000 -8.706074e-003
8923275 1.000325e+000 -5.210929e-003 5.434018e-005 8.893864e-005 -1.979233e-004 2.978813e-004 1.000226e+000 -8.742020e-003
8998260 1.001146e+000 -5.150578e-003 1.703068e-006 -1.073550e-004 -9.677510e-005 -9.514897e-005 1.000180e+000 -8.230980e-003
9073245 1.000894e+000 -5.065599e-003 -3.174497e-005 -5.144615e-005 8.738203e-006 7.446680e-005 9.997164e-001 -7.903608e-003
9148230 1.000970e+000 -5.102370e-003 9.636102e-005 1.867422e-005 1.767657e-005 2.624339e-004 9.996285e-001 -9.389593e-003
9223215 1.000572e+000 -5.346608e-003 6.599987e-005 1.416549e-006 7.421769e-005 -1.894719e-005 9.997172e-001 -5.130781e-003
9298200 1.000911e+000 -5.454213e-003 -1.156827e-004 3.736930e-005 6.322798e-005 -8.445910e-005 1.000031e+000 -7.813324e-003
9373185 1.001143e+000 -5.364567e-003 3.724147e-005 6.457693e-006 6.253910e-005 1.046234e-004 1.001251e+000 -9.772699e-003
9448170 1.000428e+000 -5.368359e-003 9.717463e-005 1.391550e-004 3.397297e-005 -2.652929e-004 9.996859e-001 -9.603653e-003
9523155 1.000628e+000 -6.802782e-003 4.253976e-005 1.826318e-005 1.537241e-004 -5.844746e-005 1.000955e+000 -9.864090e-003
9598140 1.000639e+000 -5.780894e-003 2.305309e-005 -3.598979e-005 4.095515e-005 1.066013e-004 9.999433e-001 -9.356169e-003
9673125 1.000619e+000 -5.647168e-003 4.819875e-005 1.286555e-005 -1.957651e-004 -7.483114e-005 1.001619e+000 -1.082878e-002
9748110 1.000790e+000 -6.410969e-003 -2.373441e-005 -2.166904e-005 -4.947844e-006 -6.468027e-005 1.000699e+000 -1.074946e-002
9823095 1.000707e+000 -5.850188e-003 -1.943786e-005 -5.347644e-005 -2.440241e-004 4.501097e-005 1.001098e+000 -1.199466e-002
9898080 1.001147e+000 -6.444039e-003 2.936613e-005 -9.061930e-005 1.684228e-004 1.927428e-005 1.001475e+000 -1.260701e-002
9973065 1.000592e+000 -6.003051e-003 4.224015e-005 -3.286266e-005 1.316643e-005 -1.219024e-004 1.000352e+000 -1.283420e-002
10048050 1.000633e+000 -7.783835e-003 -8.036660e-006 -2.317764e-005 6.755221e-005 -2.025205e-004 1.002998e+000 -1.206134e-002
10123035 1.001526e+000 -6.359805e-003 1.148494e-004 1.729054e-004 -1.846840e-004 -2.102104e-005 1.003342e+000 -1.357260e-002
10198020 1.000491e+000 -7.512651e-003 -4.383082e-005 -6.103700e-005 -1.409585e-004 -1.730897e-004 1.002589e+000 -1.243183e-002
10273005 9.997905e-001 -7.114020e-003 4.872390e-005 2.862433e-005 1.717444e-005 -1.696133e-004 1.002142e+000 -1.332376e-002
10347990 9.997295e-001 -7.915197e-003 2.144487e-005 4.447977e-005 -5.801717e-005 -2.993400e-004 1.001097e+000 -1.356278e-002
10422975 1.000278e+000 -6.965410e-003 -3.568606e-005 -6.308637e-005 -1.367089e-004 6.088439e-005 1.001107e+000 -1.237932e-002
10497960 1.000320e+000 -7.371909e-003 1.857053e-004 -2.375464e-005 -2.914808e-005 1.065978e-004 1.001567e+000 -1.465158e-002
10572945 9.999914e-001 -7.403853e-003 -3.498708e-005 -6.124113e-005 4.215708e-004 1.055740e-004 1.001895e+000 -1.452537e-002
10647930 1.000105e+000 -7.222123e-003 -1.734555e-005 5.596422e-005 6.472071e-005 3.746422e-005 1.000824e+000 -1.517431e-002
10722915 1.000252e+000 -7.261564e-003 1.878238e-005 -3.816580e-005 1.678509e-004 3.561130e-005 1.002406e+000 -1.650931e-002
10797900 9.996658e-001 -7.476205e-003 2.702100e-005 6.812369e-005 -3.342495e-005 -8.465559e-005 1.001602e+000 -1.477966e-002
10872885 1.000156e+000 -7.619731e-003 -6.110586e-005 -9.284686e-005 3.953874e-005 -2.344069e-005 1.001954e+000 -1.591768e-002
10947870 1.000668e+000 -7.130571e-003 1.436271e-005 1.161516e-004 6.680589e-005 -3.310865e-004 1.000854e+000 -1.681427e-002
11022855 9.998688e-001 -7.561493e-003 9.903139e-006 1.253373e-004 1.531727e-004 -7.333131e-005 1.002800e+000 -1.561967e-002
11097840 9.999961e-001 -7.534420e-003 -4.270328e-005 -2.629971e-004 2.703210e-004 2.834987e-005 1.001112e+000 -1.432261e-002
11172825 1.000106e+000 -7.682935e-003 2.339329e-005 -6.222651e-005 2.113773e-004 -8.860612e-005 1.001910e+000 -1.635580e-002
11247810 1.000026e+000 -7.681945e-003 -1.474953e-004 1.621684e-005 1.647873e-004 -2.661601e-004 1.001488e+000 -1.690341e-002
11322795 1.000499e+000 -7.799078e-003 -1.481506e-005 -5.639678e-005 -1.514352e-004 -1.716159e-004 1.002605e+000 -1.796627e-002
11397780 1.000287e+000 -7.705156e-003 -1.471105e-005 -1.253047e-004 -5.468474e-005 -1.981745e-004 9.999431e-001 -1.635377e-002
11472765 1.000074e+000 -7.796579e-003 7.061204e-005 1.093856e-004 -8.813125e-005 2.120006e-004 1.000529e+000 -1.576281e-002
11547750 1.000029e+000 -7.483265e-003 -5.785052e-005 6.440456e-005 1.001654e-004 -1.007270e-004 1.001395e+000 -1.565879e-002
11622735 1.000620e+000 -7.924776e-003 -9.447994e-005 -3.910450e-005 3.747611e-005 1.995484e-004 1.000363e+000 -1.524805e-002
11697720 1.000617e+000 -8.231694e-003 9.785765e-006 2.819165e-005 3.625682e-004 2.437912e-004 1.000717e+000 -1.704209e-002
11772705 9.997140e-001 -7.692262e-003 -6.120415e-005 5.373669e-005 2.083359e-004 -1.783947e-004 1.003242e+000 -1.333873e-002
11847690 9.996651e-001 -8.386047e-003 -1.192709e-004 6.590295e-006 3.116755e-004 -2.689813e-004 1.001492e+000 -1.458888e-002
11922675 1.000430e+000 -7.984184e-003 2.422293e-005 -9.068375e-005 8.400311e-005 -1.775836e-004 1.001288e+000 -1.611483e-002
11997660 9.998473e-001 -7.668564e-003 -1.689035e-004 -5.795308e-005 -5.122643e-005 -5.755822e-005 1.000001e+000 -1.489107e-002
