!Agilent Technologies,N5230C,SG49000117,A.08.50.07
!Agilent N5230C: A.08.50.07
!Date: Thursday, December 07, 2023 05:51:34
!Correction: S11(Full 2 Port(1,2)) 
!S21(Full 2 Port(1,2)) 
!S12(Full 2 Port(1,2)) 
!S22(Full 2 Port(1,2)) 
!S2P File: Measurements: S11, S21, S12, S22:
# Hz S  RI   R 50
300000 1.019846e+000 -9.474015e-003 6.886308e-005 -1.428471e-004 -4.625204e-004 -2.022460e-004 1.036527e+000 -2.177775e-002
374985 9.999252e-001 -4.766339e-003 1.133323e-004 -1.319001e-004 1.562207e-004 -1.147188e-005 9.848764e-001 -1.098457e-002
449970 9.877492e-001 3.792985e-004 3.073823e-005 9.954973e-005 1.983420e-004 9.872051e-005 9.577193e-001 -1.252408e-002
524955 9.783829e-001 6.041808e-003 5.150103e-005 6.879789e-006 2.459860e-005 -2.258635e-004 9.315847e-001 -2.522577e-003
599940 9.799218e-001 4.638095e-003 -3.263280e-005 -5.298793e-005 -1.029714e-004 -1.021769e-004 9.411744e-001 3.705296e-003
674925 9.793070e-001 3.506545e-003 -3.537190e-005 -1.566757e-005 -1.440626e-004 -1.381774e-004 9.377819e-001 -1.382493e-002
749910 9.785280e-001 5.741728e-003 -1.231382e-005 -5.050835e-005 9.152961e-006 -9.814619e-005 9.322530e-001 -8.088476e-003
824895 9.841857e-001 3.868910e-003 7.654841e-005 2.555502e-005 -6.623395e-005 -4.625734e-005 9.375005e-001 -7.715814e-003
899880 9.879099e-001 1.552270e-003 -2.991626e-006 1.399390e-004 -7.064251e-005 -1.080799e-005 9.428124e-001 -1.199498e-002
974865 9.901866e-001 -2.553928e-003 1.662291e-005 -9.806112e-006 4.564598e-005 4.960622e-005 9.512562e-001 -7.666576e-003
1049850 9.939225e-001 -2.601920e-003 6.222297e-005 8.302356e-005 -1.303597e-004 -4.281830e-004 9.587833e-001 -9.596719e-003
1124835 9.976706e-001 -5.758185e-003 -2.750016e-005 -4.915001e-005 2.789390e-005 -1.448479e-004 9.673226e-001 -1.063914e-002
1199820 1.002914e+000 -9.536292e-003 -5.825676e-006 -4.173286e-005 4.359097e-005 1.522594e-004 9.758987e-001 -1.050994e-002
1274805 1.007464e+000 -1.248778e-002 -4.858940e-005 7.309416e-006 6.098958e-005 -1.687310e-004 9.908313e-001 -9.293709e-003
1349790 1.000860e+000 -6.044624e-003 -4.175217e-005 1.002539e-004 -6.545721e-005 -3.433623e-005 1.002141e+000 -9.940708e-003
1424775 9.990916e-001 -5.121341e-003 3.583562e-005 -7.596142e-006 -1.277252e-004 9.703970e-005 1.003180e+000 -1.225006e-002
1499760 9.984106e-001 -4.017185e-003 6.967990e-006 -9.151332e-005 -2.201111e-004 1.696228e-004 1.005223e+000 -9.699533e-003
1574745 9.988379e-001 -4.132459e-003 -1.767797e-004 6.699684e-005 -1.426661e-004 1.783888e-006 1.002809e+000 -1.061169e-002
1649730 9.985880e-001 -4.141745e-003 3.877626e-006 -2.997114e-005 -9.010317e-005 2.042018e-004 1.003959e+000 -1.266371e-002
1724715 9.970264e-001 -4.258938e-003 3.243505e-005 -2.464750e-005 -4.550576e-005 4.649934e-005 1.004507e+000 -1.256756e-002
1799700 9.965747e-001 -4.733294e-003 7.107267e-005 4.912700e-005 2.613126e-004 9.187606e-005 1.003789e+000 -1.267745e-002
1874685 9.964728e-001 -3.221305e-003 -2.587754e-005 8.104545e-005 2.300389e-004 -8.947231e-005 9.995028e-001 -7.854839e-003
1949670 9.949824e-001 -2.726485e-003 1.479373e-004 -1.137341e-004 -3.814886e-004 3.944899e-005 1.003613e+000 -7.933006e-003
2024655 9.955385e-001 -1.887844e-003 1.284580e-004 -8.463700e-005 -1.748109e-004 3.057164e-004 1.000667e+000 -5.208263e-003
2099640 9.945608e-001 -2.510838e-003 -5.337967e-005 -8.144054e-005 1.107493e-004 1.094559e-004 9.989088e-001 -5.208463e-003
2174625 9.943860e-001 -2.076505e-003 1.384848e-005 -5.225594e-005 -2.121689e-004 1.181498e-005 1.001205e+000 -5.886411e-003
2249610 9.954822e-001 -3.946199e-003 -3.997317e-005 -7.160404e-005 7.988820e-005 1.045155e-004 9.999174e-001 -7.839893e-003
2324595 1.000386e+000 -4.056075e-003 -1.981941e-005 -1.197616e-004 -1.626290e-004 9.663569e-006 1.000200e+000 -5.626386e-003
2399580 1.000044e+000 -4.372914e-003 -1.020151e-004 5.570024e-005 -2.650167e-004 5.959585e-006 1.002322e+000 -4.662821e-003
2474565 9.992092e-001 -2.020821e-003 -7.859371e-005 4.839549e-005 2.057745e-004 1.156369e-004 9.999946e-001 -6.453420e-003
2549550 1.000978e+000 -2.117469e-003 -5.431517e-005 -3.473923e-005 -1.891285e-005 -1.824697e-004 9.980564e-001 -6.541549e-003
2624535 1.001441e+000 -3.292758e-003 -1.473926e-005 -9.684613e-005 3.724804e-005 -9.334917e-006 9.996181e-001 -6.275150e-003
2699520 1.000341e+000 -3.760245e-003 3.680293e-005 -3.467706e-005 1.906628e-005 3.609692e-005 9.950522e-001 -4.626139e-003
2774505 9.997454e-001 -2.633568e-003 -8.495973e-005 -5.797756e-005 -1.521152e-004 1.096875e-004 1.001402e+000 -8.330957e-003
2849490 1.000505e+000 -2.872991e-003 -4.071191e-005 -7.931115e-005 -1.655307e-004 -9.207058e-005 9.984248e-001 -4.224589e-003
2924475 1.001788e+000 -3.095795e-003 -8.194109e-005 5.277462e-005 2.291125e-004 -1.417970e-004 1.001621e+000 -5.300447e-003
2999460 1.001245e+000 -2.116436e-003 -4.399238e-005 -2.473177e-005 7.868363e-005 -2.741120e-005 1.000101e+000 -5.612374e-003
3074445 1.000798e+000 -3.051502e-003 -6.866889e-005 3.773956e-006 -7.644689e-005 2.696856e-005 1.000360e+000 -5.943005e-003
3149430 1.001091e+000 -2.468287e-003 7.526152e-005 -1.919628e-004 -3.951780e-005 -1.048805e-004 1.000121e+000 -5.299752e-003
3224415 1.000937e+000 -3.227842e-003 -1.330451e-004 6.177539e-006 6.056039e-005 -1.293216e-004 1.000272e+000 -6.294012e-003
3299400 1.000812e+000 -2.218517e-003 5.180945e-005 2.920702e-006 -4.666698e-004 7.449644e-005 1.000293e+000 -7.454509e-003
3374385 1.000670e+000 -3.141813e-003 -1.042878e-004 5.932655e-005 -7.705176e-005 2.318816e-005 9.976288e-001 -4.725473e-003
3449370 1.000866e+000 -3.002434e-003 1.005554e-004 -3.479920e-005 6.888604e-005 4.163330e-005 9.992468e-001 -6.699455e-003
3524355 1.001469e+000 -2.367028e-003 5.754171e-005 -3.227291e-005 -1.846710e-005 1.973418e-004 9.998296e-001 -4.226578e-003
3599340 1.000788e+000 -2.270137e-003 3.483799e-006 -4.891452e-005 2.343138e-004 -1.838736e-005 9.987845e-001 -6.393868e-003
3674325 1.001228e+000 -2.334327e-003 -1.182833e-005 8.903794e-005 -3.559584e-005 -1.409213e-004 9.997129e-001 -5.858259e-003
3749310 1.001136e+000 -1.921581e-003 4.749728e-005 -8.015079e-005 -9.634474e-005 -2.046758e-004 9.980744e-001 -5.816528e-003
3824295 1.001030e+000 -2.969733e-003 1.088312e-005 -2.746973e-005 -2.172142e-004 -3.400319e-004 1.000089e+000 -6.214745e-003
3899280 1.000746e+000 -3.391355e-003 -1.306881e-005 8.426404e-005 -1.426842e-004 7.724894e-005 9.995515e-001 -6.608084e-003
3974265 1.001318e+000 -3.408464e-003 3.081343e-005 -3.319500e-005 1.102602e-005 2.882652e-005 1.000624e+000 -6.604087e-003
4049250 1.001338e+000 -3.395257e-003 5.708733e-005 -5.586381e-005 -8.221348e-005 -1.003313e-004 9.993702e-001 -7.515846e-003
4124235 1.001389e+000 -3.821012e-003 2.730950e-005 -3.856002e-006 9.742149e-005 1.945535e-004 9.992816e-001 -6.098396e-003
4199220 1.001051e+000 -3.267515e-003 -8.014491e-005 -3.842058e-005 -1.549709e-004 2.677746e-005 9.994596e-001 -6.083105e-003
4274205 1.000426e+000 -3.286300e-003 1.496933e-004 2.135241e-005 2.221671e-004 -5.306498e-005 9.998838e-001 -3.251315e-003
4349190 1.000602e+000 -3.022488e-003 -8.090500e-005 5.485522e-007 3.166805e-004 5.373451e-005 9.990218e-001 -5.033107e-003
4424175 1.000913e+000 -3.624410e-003 5.008073e-006 1.134419e-005 1.735961e-004 2.934061e-005 9.994820e-001 -6.569416e-003
4499160 1.000364e+000 -2.979739e-003 -3.905114e-005 2.680718e-005 -5.396395e-005 1.304913e-004 9.995057e-001 -5.567497e-003
4574145 1.000717e+000 -3.266445e-003 5.325080e-005 5.434329e-005 9.452412e-005 -2.188643e-004 1.000430e+000 -4.807249e-003
4649130 1.001097e+000 -3.040310e-003 1.618600e-006 1.877413e-005 9.231124e-005 -4.293098e-006 9.996035e-001 -7.359156e-003
4724115 1.000577e+000 -3.343117e-003 -1.167036e-005 -6.419800e-005 5.899613e-005 1.011164e-004 9.999982e-001 -4.916278e-003
4799100 1.001591e+000 -3.463505e-003 2.841207e-005 -1.568192e-004 -2.165110e-005 -4.393740e-005 9.989212e-001 -5.456507e-003
4874085 1.001592e+000 -3.195411e-003 -2.664987e-005 5.074690e-005 -1.984250e-004 -9.272360e-005 9.996842e-001 -4.667967e-003
4949070 1.001755e+000 -3.106140e-003 -9.114541e-005 -6.012835e-005 -2.653698e-005 4.204291e-005 9.999220e-001 -4.763693e-003
5024055 1.001262e+000 -3.727970e-003 1.988127e-005 9.276791e-005 4.037630e-004 4.806377e-004 9.994308e-001 -4.259757e-003
5099040 1.000725e+000 -3.103577e-003 -5.386060e-005 1.621920e-005 -1.460918e-004 1.516855e-004 1.000522e+000 -4.942626e-003
5174025 1.001706e+000 -3.898673e-003 -7.374169e-005 2.197363e-006 4.078750e-005 2.089526e-004 9.993552e-001 -3.074370e-003
5249010 1.002346e+000 -3.106982e-003 -2.397093e-005 -4.668005e-005 1.692207e-004 -3.620689e-004 1.000403e+000 -4.369220e-003
5323995 1.000960e+000 -3.372490e-003 -8.005160e-006 1.973614e-005 -8.503273e-005 -8.737338e-005 9.989828e-001 -5.274162e-003
5398980 1.001199e+000 -3.125548e-003 2.918239e-005 1.017617e-004 -2.202915e-004 1.309690e-004 1.000539e+000 -4.062556e-003
5473965 1.001239e+000 -3.196886e-003 2.387738e-005 9.979188e-005 9.646150e-005 1.229967e-004 1.000525e+000 -5.185095e-003
5548950 1.000595e+000 -2.912141e-003 -2.542511e-005 1.807494e-005 2.138397e-004 -1.406778e-004 9.990387e-001 -4.762856e-003
5623935 1.000897e+000 -3.091902e-003 -3.020739e-006 2.319306e-005 -1.592334e-004 7.201115e-005 9.989309e-001 -5.035678e-003
5698920 1.000933e+000 -3.152716e-003 3.895617e-005 -3.178555e-005 1.836046e-004 -2.268158e-006 1.000900e+000 -5.086496e-003
5773905 1.001248e+000 -4.217105e-003 -6.837861e-006 5.440203e-006 1.970968e-004 -1.545005e-004 9.998396e-001 -6.189864e-003
5848890 1.000700e+000 -3.967583e-003 4.755796e-005 1.731824e-005 -6.507051e-005 -1.454905e-004 9.993960e-001 -6.213602e-003
5923875 1.001145e+000 -3.946762e-003 2.040179e-005 -8.238116e-005 -7.481575e-005 3.527125e-006 1.001013e+000 -7.023441e-003
5998860 1.000626e+000 -3.696555e-003 -7.397097e-006 -4.704207e-005 2.833961e-005 -1.312043e-004 1.001066e+000 -7.057250e-003
6073845 1.000753e+000 -3.523601e-003 -1.174961e-004 -2.854209e-005 7.043811e-005 -2.134932e-004 1.000426e+000 -6.719784e-003
6148830 1.000175e+000 -4.097748e-003 7.544313e-006 -4.292575e-005 3.294531e-005 -7.481682e-005 1.000938e+000 -7.044957e-003
6223815 1.000572e+000 -3.662256e-003 6.395122e-005 -8.016035e-005 2.299490e-004 -2.024447e-004 9.998943e-001 -5.186488e-003
6298800 1.000678e+000 -3.334750e-003 -6.371309e-005 -7.965433e-006 -7.644651e-005 5.503269e-005 9.998034e-001 -5.797420e-003
6373785 1.000073e+000 -3.553743e-003 5.581422e-005 1.166137e-004 4.066231e-005 9.988093e-005 1.000984e+000 -7.466737e-003
6448770 1.001411e+000 -3.503497e-003 -8.153661e-006 4.273381e-005 1.086884e-004 -1.913513e-004 1.000565e+000 -7.319272e-003
6523755 1.000554e+000 -3.444367e-003 1.143974e-004 5.893477e-005 -9.295283e-005 4.355268e-005 9.991727e-001 -7.569116e-003
6598740 1.000512e+000 -3.748195e-003 1.803720e-005 -1.552275e-004 2.055530e-005 -6.422068e-005 9.991619e-001 -7.959880e-003
6673725 1.000961e+000 -3.459608e-003 4.966040e-005 -1.347102e-005 -1.775215e-004 -2.820155e-004 1.000541e+000 -7.278951e-003
6748710 1.000430e+000 -3.679612e-003 4.784399e-005 -1.012477e-005 1.917035e-004 7.607620e-005 1.000026e+000 -7.109499e-003
6823695 1.000879e+000 -3.265837e-003 2.365603e-005 7.346414e-005 -1.836512e-004 1.230229e-004 1.000031e+000 -8.556068e-003
6898680 1.000497e+000 -3.750445e-003 7.059584e-005 1.393371e-004 1.178631e-004 9.370244e-005 1.000850e+000 -9.196970e-003
6973665 1.000238e+000 -3.786767e-003 2.722951e-005 4.122523e-006 -2.171232e-004 3.734015e-005 9.994863e-001 -8.505224e-003
7048650 1.000922e+000 -2.838170e-003 9.829971e-005 2.901123e-005 -2.126526e-005 -5.423614e-006 9.996418e-001 -8.530051e-003
7123635 1.000819e+000 -3.882485e-003 -2.875158e-005 3.400361e-005 -2.617395e-005 -1.182789e-004 9.994498e-001 -6.293486e-003
7198620 1.000497e+000 -3.829564e-003 2.608136e-007 1.590915e-004 1.160867e-005 -2.218654e-004 1.001934e+000 -9.225958e-003
7273605 1.000946e+000 -4.326144e-003 -8.271958e-005 -3.446614e-005 -2.219247e-005 6.394268e-005 9.993984e-001 -8.809506e-003
7348590 1.000827e+000 -3.158166e-003 3.226917e-005 -1.028822e-005 1.262034e-004 -1.324083e-004 1.000274e+000 -7.665386e-003
7423575 1.000848e+000 -3.784443e-003 4.267264e-005 6.073705e-005 2.454057e-004 2.600561e-004 1.001589e+000 -6.965299e-003
7498560 1.000823e+000 -3.163890e-003 4.047506e-005 1.386536e-004 1.039467e-004 1.019539e-004 1.000752e+000 -9.297957e-003
7573545 1.000662e+000 -4.120957e-003 2.820903e-005 2.221102e-005 -1.264615e-004 -3.660451e-004 1.000310e+000 -9.069920e-003
7648530 9.995947e-001 -4.908679e-003 2.931294e-007 -6.132865e-005 -1.067478e-004 -3.217572e-005 9.994843e-001 -8.663777e-003
7723515 1.000789e+000 -4.109923e-003 -1.065943e-004 4.358935e-006 1.966441e-005 1.349908e-004 9.988407e-001 -8.393311e-003
7798500 1.001087e+000 -3.799803e-003 -8.229601e-005 8.077519e-005 -2.929105e-005 6.299010e-005 9.993787e-001 -8.253121e-003
7873485 1.001455e+000 -3.833377e-003 -1.700509e-004 -3.540527e-006 -5.355567e-005 -5.678265e-005 9.994791e-001 -8.003350e-003
7948470 1.001262e+000 -4.233550e-003 -1.302523e-005 -2.559465e-005 -7.240098e-005 -7.711584e-005 9.983789e-001 -8.304969e-003
8023455 1.000588e+000 -4.130073e-003 -4.416061e-005 3.298334e-005 -1.937114e-004 -3.432323e-005 1.000271e+000 -7.195327e-003
8098440 1.000910e+000 -3.828175e-003 -1.053471e-004 -4.775546e-007 -1.820175e-004 5.552824e-005 1.000899e+000 -5.906432e-003
8173425 1.000105e+000 -4.546149e-003 1.054405e-006 -6.185556e-005 2.337483e-004 4.455270e-005 1.000224e+000 -8.825678e-003
8248410 1.000429e+000 -4.560657e-003 -7.917654e-005 -4.950062e-005 -2.224595e-004 1.420576e-004 9.993774e-001 -8.148954e-003
8323395 1.000126e+000 -4.258435e-003 7.321297e-006 -3.768553e-005 9.580257e-005 1.059405e-004 1.000470e+000 -7.056020e-003
8398380 1.000884e+000 -4.166814e-003 -1.361231e-005 5.583259e-005 -1.301637e-004 2.506821e-004 9.994593e-001 -6.786170e-003
8473365 1.000678e+000 -4.326515e-003 4.988264e-005 5.707966e-006 7.112488e-006 5.914194e-006 1.000200e+000 -7.159852e-003
8548350 1.001326e+000 -4.939594e-003 -4.636489e-005 -7.431669e-005 -3.182735e-005 -1.157416e-004 1.000660e+000 -6.840457e-003
8623335 1.000973e+000 -4.482586e-003 -5.539948e-005 -5.269322e-005 2.840331e-005 -3.222145e-004 1.000743e+000 -8.233618e-003
8698320 1.000943e+000 -4.606889e-003 2.535962e-005 3.556435e-005 7.880955e-005 1.978560e-005 1.000366e+000 -9.263361e-003
8773305 1.000848e+000 -4.599259e-003 4.445381e-005 -2.691010e-005 -1.472201e-005 -1.579605e-004 9.995050e-001 -9.858082e-003
8848290 1.000950e+000 -4.779214e-003 -9.260076e-005 1.506951e-006 7.311674e-006 -7.756912e-005 1.000894e+000 -1.000384e-002
8923275 9.999414e-001 -5.017750e-003 9.600434e-006 5.407729e-005 2.188794e-005 -2.166689e-004 1.000793e+000 -8.966400e-003
8998260 1.001115e+000 -4.467813e-003 -7.632439e-005 -1.813915e-005 1.667679e-005 2.792349e-004 1.000188e+000 -8.171753e-003
9073245 1.001047e+000 -4.672322e-003 3.481490e-005 -2.123771e-006 1.118580e-004 -2.848488e-005 1.000638e+000 -9.539845e-003
9148230 1.000640e+000 -4.540097e-003 8.197049e-005 6.874599e-006 8.284568e-005 -5.080012e-005 9.995727e-001 -7.688303e-003
9223215 1.000970e+000 -4.783938e-003 -1.079552e-004 2.486234e-005 2.367260e-004 -7.965864e-005 9.998599e-001 -7.571125e-003
9298200 1.000467e+000 -4.713074e-003 1.076801e-005 -4.701632e-005 -4.271055e-005 -2.239086e-004 1.000634e+000 -8.468052e-003
9373185 1.000613e+000 -4.980677e-003 8.215242e-005 1.295831e-006 2.751415e-004 1.331619e-006 1.000451e+000 -8.252137e-003
9448170 1.000812e+000 -5.109209e-003 -3.862547e-006 -6.111673e-005 1.833728e-004 -3.333425e-004 1.001018e+000 -1.031014e-002
9523155 9.995653e-001 -5.320968e-003 -4.574317e-005 -2.261025e-005 2.385541e-004 -1.001337e-004 1.001147e+000 -1.035078e-002
9598140 1.000719e+000 -5.573254e-003 -7.822925e-005 2.195950e-005 1.438726e-005 -2.775764e-005 1.000299e+000 -1.105762e-002
9673125 1.000869e+000 -6.146917e-003 6.982550e-005 3.246676e-005 1.361902e-004 -1.741761e-005 1.001661e+000 -1.149351e-002
9748110 1.000538e+000 -5.760633e-003 4.006628e-005 5.731022e-005 -5.895618e-005 1.450021e-004 1.000466e+000 -1.228658e-002
9823095 1.000913e+000 -5.961854e-003 1.352743e-006 1.691093e-005 2.410593e-004 4.803012e-005 1.000828e+000 -1.063263e-002
9898080 1.000915e+000 -5.980283e-003 7.102142e-005 3.569217e-005 -5.633802e-005 -2.177073e-005 1.001148e+000 -1.223228e-002
9973065 1.000646e+000 -6.359549e-003 8.515738e-006 -4.781095e-006 -3.255465e-005 5.983641e-005 1.000287e+000 -1.116130e-002
10048050 1.000611e+000 -7.188190e-003 -9.394821e-005 -1.397187e-005 2.170059e-004 7.818823e-005 1.001510e+000 -1.257765e-002
10123035 9.999641e-001 -6.991624e-003 -3.335425e-005 -8.165014e-005 -8.055860e-006 8.951688e-005 1.000923e+000 -1.113153e-002
10198020 1.000606e+000 -7.833793e-003 -5.391177e-005 5.975558e-005 6.745662e-005 1.267787e-004 1.000051e+000 -1.293953e-002
10273005 1.000436e+000 -7.597124e-003 -4.604470e-005 -6.172116e-005 1.765647e-004 -1.185444e-004 1.000379e+000 -1.365009e-002
10347990 1.000361e+000 -7.366084e-003 7.274828e-005 -5.675395e-005 1.148060e-004 1.411388e-004 1.000758e+000 -1.308402e-002
10422975 1.000098e+000 -7.233742e-003 5.289452e-005 -7.662398e-005 -1.456365e-004 -3.783415e-004 1.001973e+000 -1.292480e-002
10497960 1.000975e+000 -6.843083e-003 -7.660735e-005 -3.896394e-005 -1.072859e-004 -3.390124e-004 1.000682e+000 -1.476858e-002
10572945 1.000502e+000 -7.434864e-003 1.233394e-004 -1.567289e-005 -1.453657e-004 2.316227e-004 1.001347e+000 -1.534577e-002
10647930 1.000159e+000 -7.628841e-003 -8.832773e-005 -8.546832e-005 2.304292e-005 1.516440e-004 1.002555e+000 -1.462148e-002
10722915 9.996780e-001 -7.048741e-003 -4.157200e-005 3.567954e-005 1.710232e-004 -2.496912e-004 1.001168e+000 -1.637238e-002
10797900 9.997846e-001 -7.226773e-003 2.368958e-005 -6.798713e-005 -5.811555e-005 6.791255e-005 9.997529e-001 -1.532790e-002
10872885 1.000454e+000 -7.042896e-003 1.285765e-005 -1.619388e-004 -1.842012e-005 -3.313104e-004 1.001951e+000 -1.516396e-002
10947870 1.000729e+000 -6.421934e-003 1.894146e-005 1.415173e-004 1.297659e-004 1.076115e-004 1.002724e+000 -1.515634e-002
11022855 1.000224e+000 -7.404819e-003 5.116727e-005 4.880380e-007 4.452646e-005 8.550236e-006 1.000927e+000 -1.545051e-002
11097840 1.000115e+000 -7.073320e-003 3.929987e-005 -5.816167e-006 2.149487e-004 -2.773759e-004 1.001575e+000 -1.493439e-002
11172825 1.000012e+000 -7.859654e-003 -4.261814e-005 1.114334e-004 5.618952e-005 6.273273e-005 1.001920e+000 -1.817312e-002
11247810 1.000391e+000 -7.732086e-003 -1.082341e-005 -1.643779e-004 -2.133983e-004 2.808866e-004 1.001021e+000 -1.743187e-002
11322795 9.997895e-001 -7.598874e-003 6.517283e-005 4.955901e-005 -1.252526e-004 -1.163417e-004 1.002635e+000 -1.484792e-002
11397780 1.000709e+000 -7.307630e-003 -2.301034e-005 -1.943926e-005 -2.622724e-005 -2.320550e-004 1.003294e+000 -1.552397e-002
11472765 1.000215e+000 -7.557649e-003 7.593697e-006 -6.202683e-005 -1.869532e-004 2.603425e-004 1.000446e+000 -1.587330e-002
11547750 1.000309e+000 -7.669527e-003 -3.371857e-005 7.176179e-005 -1.321954e-004 -5.911027e-005 1.001831e+000 -1.499881e-002
11622735 1.000205e+000 -7.461174e-003 -1.734012e-005 -1.439952e-004 -5.059168e-005 -1.371470e-004 9.998792e-001 -1.714805e-002
11697720 9.987762e-001 -7.702208e-003 1.159610e-004 -5.593666e-005 -3.893297e-005 1.591094e-004 1.001288e+000 -1.735637e-002
11772705 9.992044e-001 -7.410808e-003 -8.129590e-005 8.333675e-005 1.476896e-004 1.946313e-004 1.002185e+000 -1.697063e-002
11847690 1.000098e+000 -7.924695e-003 -1.281732e-004 -4.713926e-006 3.972623e-005 2.393161e-004 1.001660e+000 -1.614595e-002
11922675 9.998536e-001 -8.300125e-003 6.628917e-005 4.249975e-005 5.961470e-005 9.949472e-005 1.002494e+000 -1.619831e-002
11997660 1.000390e+000 -7.749262e-003 1.359067e-004 1.541601e-005 -3.005521e-004 -3.721541e-006 1.001719e+000 -1.526250e-002
