!Agilent Technologies,N5230C,SG49000117,A.08.50.07
!Agilent N5230C: A.08.50.07
!Date: Thursday, December 07, 2023 05:55:29
!Correction: S11(Full 2 Port(1,2)) 
!S21(Full 2 Port(1,2)) 
!S12(Full 2 Port(1,2)) 
!S22(Full 2 Port(1,2)) 
!S2P File: Measurements: S11, S21, S12, S22:
# Hz S  RI   R 50
300000 1.016426e+000 -9.266934e-003 -1.540172e-004 -1.192805e-004 3.535382e-004 5.440807e-004 1.030157e+000 -2.501683e-002
374985 9.985777e-001 -4.728060e-003 -5.894733e-005 -2.111444e-004 -3.234766e-005 4.473809e-005 9.867522e-001 -1.528465e-002
449970 9.900721e-001 -1.372357e-003 -6.875568e-006 1.264935e-004 -2.790875e-004 -3.965013e-005 9.566069e-001 -1.104700e-002
524955 9.781523e-001 5.215509e-003 9.340087e-005 -1.354683e-005 1.633546e-004 1.973222e-004 9.301966e-001 -1.804855e-003
599940 9.804558e-001 3.982003e-003 7.338776e-005 8.563312e-005 4.515286e-005 -3.201698e-004 9.433080e-001 4.406076e-003
674925 9.781594e-001 4.721089e-003 -3.316474e-006 -1.762605e-005 -1.020261e-004 1.284019e-005 9.348544e-001 -1.642571e-002
749910 9.791420e-001 4.740680e-003 -1.918185e-005 6.303091e-006 -1.190457e-004 -7.411095e-005 9.312555e-001 -8.829905e-003
824895 9.838673e-001 3.552164e-003 1.350609e-004 5.906069e-005 -1.246566e-004 -2.690207e-004 9.389970e-001 -1.063294e-002
899880 9.866878e-001 8.444723e-004 5.853283e-005 9.566725e-006 -1.982147e-004 -1.325833e-004 9.424312e-001 -1.063706e-002
974865 9.890881e-001 -4.904478e-004 -8.474874e-006 7.014820e-005 -2.293122e-005 -2.131170e-004 9.523553e-001 -1.152554e-002
1049850 9.944189e-001 -2.995383e-003 9.711396e-005 -6.432128e-005 -1.313500e-005 1.019874e-004 9.587027e-001 -9.499591e-003
1124835 9.982056e-001 -5.858240e-003 1.373784e-004 2.946505e-005 1.143539e-004 -3.069091e-005 9.692060e-001 -9.955130e-003
1199820 1.002309e+000 -8.635866e-003 1.312709e-004 -9.473223e-005 4.115656e-004 -2.482456e-005 9.796574e-001 -9.898531e-003
1274805 1.008126e+000 -1.291002e-002 4.190321e-005 1.226795e-004 3.175856e-004 -2.733087e-004 9.873288e-001 -8.916903e-003
1349790 1.000672e+000 -5.698713e-003 -8.170889e-005 -3.598873e-006 1.368324e-004 -1.664772e-004 1.003217e+000 -1.304179e-002
1424775 9.991530e-001 -5.314112e-003 -1.277785e-004 -1.249948e-004 -1.501230e-004 3.138205e-005 1.002946e+000 -1.192768e-002
1499760 9.988998e-001 -4.574034e-003 1.102309e-005 -9.105403e-006 -1.379659e-004 -1.359015e-004 1.005070e+000 -8.160281e-003
1574745 9.980185e-001 -3.967424e-003 -3.946306e-005 5.274031e-005 -2.225917e-004 3.590694e-004 1.000530e+000 -9.871081e-003
1649730 9.984423e-001 -4.687613e-003 6.373414e-005 1.775397e-005 3.108578e-004 4.901270e-005 1.002285e+000 -1.157007e-002
1724715 9.971592e-001 -5.369323e-003 1.041267e-004 6.735430e-005 -1.289019e-004 3.063391e-004 1.003543e+000 -1.303634e-002
1799700 9.962943e-001 -4.445798e-003 -7.536617e-005 -7.971367e-005 1.881906e-004 -1.112034e-004 1.003577e+000 -1.191306e-002
1874685 9.956375e-001 -2.292058e-003 -9.098531e-005 1.586012e-004 7.772413e-005 4.824368e-005 9.994860e-001 -8.622685e-003
1949670 9.952437e-001 -2.710681e-003 -5.303119e-005 -1.580643e-004 -1.453026e-004 1.591934e-004 9.998589e-001 -7.101186e-003
2024655 9.949612e-001 -1.385373e-003 -1.722021e-004 3.695048e-005 1.767713e-004 -1.034943e-004 1.000131e+000 -4.375922e-003
2099640 9.949134e-001 -1.382726e-003 3.566919e-005 9.860509e-005 6.530804e-005 -2.136207e-004 9.993138e-001 -4.479160e-003
2174625 9.942840e-001 -3.028590e-003 7.721879e-006 -7.412481e-005 1.079903e-004 5.444560e-005 1.001102e+000 -5.300227e-003
2249610 9.956067e-001 -2.999337e-003 6.375816e-005 3.308524e-005 -2.699673e-005 7.074158e-005 1.000336e+000 -5.120574e-003
2324595 1.001275e+000 -4.165060e-003 -4.320649e-006 1.018735e-005 -2.244252e-004 -3.373510e-005 1.001653e+000 -6.861884e-003
2399580 1.000342e+000 -3.779207e-003 -7.263579e-005 2.843289e-005 4.422275e-005 1.560054e-004 1.003573e+000 -5.016332e-003
2474565 9.992671e-001 -8.360724e-004 -1.045260e-004 2.263088e-004 5.781619e-005 6.578072e-005 1.001191e+000 -6.338962e-003
2549550 1.000893e+000 -2.539940e-003 8.193299e-006 -1.029465e-004 -1.263028e-004 -1.243842e-004 9.977184e-001 -5.421252e-003
2624535 1.000758e+000 -2.732927e-003 -6.107424e-005 7.454687e-005 1.555174e-004 1.649286e-004 1.000283e+000 -5.890334e-003
2699520 1.000067e+000 -3.745994e-003 -5.901180e-005 -3.153182e-006 1.223396e-006 2.051826e-004 9.962437e-001 -5.756474e-003
2774505 9.997688e-001 -2.316943e-003 -1.710143e-005 4.282437e-005 -8.994037e-005 -1.531517e-004 1.000497e+000 -8.848557e-003
2849490 1.000865e+000 -2.383265e-003 7.195548e-005 9.006711e-005 -2.037553e-004 -1.318075e-004 9.975637e-001 -5.112336e-003
2924475 1.001958e+000 -3.479102e-003 2.613535e-007 1.520998e-004 1.063033e-005 3.099176e-005 1.002291e+000 -6.364127e-003
2999460 1.000959e+000 -2.572017e-003 -7.513669e-005 -2.988324e-005 6.749765e-005 -1.014764e-004 1.000376e+000 -5.924605e-003
3074445 1.000323e+000 -2.849822e-003 -1.097753e-004 1.359275e-005 5.992799e-005 8.282478e-007 9.993096e-001 -4.689694e-003
3149430 1.000236e+000 -2.624089e-003 1.001976e-004 -2.478312e-006 1.289418e-005 6.586584e-005 1.001284e+000 -5.081334e-003
3224415 1.000612e+000 -2.312087e-003 -4.157084e-005 3.155399e-005 3.170225e-005 -1.017494e-004 9.996907e-001 -4.863232e-003
3299400 1.000202e+000 -3.100109e-003 1.646420e-005 1.520449e-005 -4.780469e-005 9.565565e-005 1.000973e+000 -5.636149e-003
3374385 1.000463e+000 -2.988265e-003 -3.685982e-005 -5.221542e-005 2.394309e-004 1.945990e-004 1.001511e+000 -5.536128e-003
3449370 1.000278e+000 -2.892620e-003 6.259140e-006 -1.485258e-005 1.328147e-004 -7.629583e-005 9.972455e-001 -5.851785e-003
3524355 1.001320e+000 -2.231282e-003 -1.272568e-004 3.993853e-005 -3.420033e-005 -2.453949e-004 9.984380e-001 -4.381012e-003
3599340 1.000974e+000 -2.573611e-003 7.996571e-005 4.767784e-005 -6.417283e-006 -1.087319e-004 1.000426e+000 -4.631544e-003
3674325 1.001518e+000 -2.754091e-003 -3.795955e-005 2.325162e-005 -9.299743e-005 -7.646043e-005 9.982315e-001 -5.445987e-003
3749310 1.001116e+000 -2.812574e-003 3.739986e-005 -2.433039e-005 -1.286490e-004 1.197523e-004 9.997665e-001 -5.229421e-003
3824295 1.001091e+000 -2.602928e-003 -1.111466e-005 -1.708406e-004 1.599427e-004 4.333221e-005 9.983072e-001 -5.845492e-003
3899280 1.001189e+000 -3.156752e-003 -1.119260e-004 -1.993645e-005 4.166951e-005 2.391146e-005 9.993422e-001 -7.325086e-003
3974265 1.001074e+000 -3.274468e-003 -3.125697e-005 4.479044e-005 4.196582e-005 -1.060229e-004 9.993444e-001 -7.003950e-003
4049250 1.001033e+000 -3.921162e-003 -2.324381e-005 8.069197e-005 -1.052941e-004 -9.102446e-005 9.998118e-001 -7.208334e-003
4124235 1.001494e+000 -3.088012e-003 6.873295e-006 -4.544782e-005 1.924420e-004 -5.706767e-005 9.993944e-001 -7.929200e-003
4199220 1.001194e+000 -2.884741e-003 -2.886238e-005 7.387172e-005 1.311149e-004 2.311740e-004 1.000760e+000 -6.550687e-003
4274205 1.000819e+000 -3.383183e-003 1.162974e-004 1.400354e-004 -1.951049e-005 -8.176046e-005 9.976797e-001 -4.751448e-003
4349190 1.001040e+000 -3.098425e-003 3.807042e-005 -6.952648e-005 -3.553069e-005 -8.035392e-005 9.985011e-001 -5.838376e-003
4424175 1.000686e+000 -2.328423e-003 9.508531e-006 4.448789e-005 7.779849e-006 7.298202e-005 9.976485e-001 -5.955149e-003
4499160 1.000889e+000 -3.904253e-003 1.433564e-005 1.498181e-005 -2.178411e-005 2.292220e-004 1.000542e+000 -5.729987e-003
4574145 1.000896e+000 -3.383791e-003 -4.787910e-005 1.077127e-004 -3.947345e-006 -3.967790e-004 9.993799e-001 -6.106196e-003
4649130 1.001317e+000 -3.363006e-003 -5.778143e-005 9.767899e-005 1.493631e-004 5.261760e-005 9.995106e-001 -7.090416e-003
4724115 1.000739e+000 -3.139373e-003 2.570235e-005 -1.397374e-005 -1.042110e-004 -1.540183e-004 1.000555e+000 -4.217402e-003
4799100 1.001318e+000 -3.057519e-003 7.401183e-005 -7.489384e-007 1.094666e-004 1.101435e-004 1.000009e+000 -5.911914e-003
4874085 1.000656e+000 -2.911238e-003 -7.142685e-005 1.203343e-004 -2.048939e-004 -1.115212e-004 9.993117e-001 -4.018103e-003
4949070 1.001185e+000 -2.393284e-003 -1.516631e-004 6.308443e-005 1.244563e-004 2.301130e-004 1.000646e+000 -4.485142e-003
5024055 1.000934e+000 -3.830751e-003 -1.125383e-004 -1.466531e-004 -6.259317e-005 -6.629485e-005 1.000524e+000 -5.308945e-003
5099040 1.000700e+000 -4.297703e-003 6.253988e-005 -3.190327e-005 4.838974e-005 -2.584627e-004 9.995056e-001 -5.228519e-003
5174025 1.001285e+000 -3.179721e-003 3.144684e-005 1.178374e-004 -3.472301e-005 -2.339147e-004 9.991701e-001 -4.828561e-003
5249010 1.001455e+000 -3.616862e-003 4.142496e-005 5.522406e-005 1.141182e-004 4.946563e-005 1.000023e+000 -4.400493e-003
5323995 1.001128e+000 -3.016905e-003 -3.058767e-005 -2.931491e-005 3.427960e-005 9.386563e-006 9.988335e-001 -7.397064e-003
5398980 1.000839e+000 -3.433585e-003 -1.026474e-005 7.484719e-005 9.412167e-005 1.420949e-004 1.000508e+000 -4.175348e-003
5473965 1.001093e+000 -3.192824e-003 -1.530589e-004 2.199476e-005 6.715578e-005 -2.834679e-005 1.000114e+000 -4.938059e-003
5548950 1.000463e+000 -2.939712e-003 -1.519263e-005 -2.707254e-005 -1.357603e-004 -5.371935e-005 9.991561e-001 -4.427022e-003
5623935 1.001717e+000 -3.244704e-003 -5.070752e-005 -1.648812e-004 -1.501582e-004 1.064089e-004 9.990140e-001 -4.611163e-003
5698920 1.000658e+000 -3.272996e-003 8.052702e-005 2.600675e-005 -7.573437e-005 -2.815071e-004 1.001247e+000 -5.575303e-003
5773905 1.001421e+000 -3.868475e-003 -4.751938e-006 1.706296e-005 -1.711552e-004 -3.151185e-005 9.998910e-001 -6.181020e-003
5848890 1.001060e+000 -3.256979e-003 5.275972e-005 6.113510e-005 -6.269103e-005 -7.078127e-005 9.999803e-001 -6.875974e-003
5923875 1.001669e+000 -3.968969e-003 -4.255321e-005 3.387318e-005 -1.987825e-005 -1.250481e-004 1.000826e+000 -6.706327e-003
5998860 1.000574e+000 -3.673167e-003 3.924353e-005 2.666295e-005 5.720960e-005 -1.227450e-004 1.001657e+000 -5.665435e-003
6073845 1.000258e+000 -3.686963e-003 1.793189e-005 1.735428e-005 -1.044836e-004 9.074057e-005 1.000395e+000 -5.462099e-003
6148830 1.000665e+000 -3.629275e-003 -1.803627e-005 -8.199730e-005 2.431662e-005 -1.134005e-004 1.001887e+000 -7.192743e-003
6223815 1.000529e+000 -3.924059e-003 2.052619e-004 -3.087224e-006 3.146348e-005 -4.428374e-005 9.990950e-001 -4.822873e-003
6298800 1.000912e+000 -2.662530e-003 1.688280e-005 -1.215581e-005 1.849950e-004 4.323370e-005 9.993102e-001 -5.460549e-003
6373785 1.000710e+000 -3.860639e-003 -2.293154e-005 -6.341994e-005 -2.283747e-004 -2.573512e-004 9.997265e-001 -7.650857e-003
6448770 1.000554e+000 -3.726520e-003 -3.930623e-005 -1.709831e-005 -2.009927e-005 -1.279958e-004 9.992356e-001 -7.110653e-003
6523755 1.000999e+000 -3.892301e-003 2.026663e-005 -9.272372e-006 2.352290e-004 -2.019362e-004 1.001014e+000 -5.600048e-003
6598740 1.000433e+000 -3.517229e-003 4.402911e-005 1.004914e-005 7.857289e-005 1.637047e-004 9.999085e-001 -6.633581e-003
6673725 1.000778e+000 -3.355992e-003 -9.439167e-005 8.972034e-005 -3.610646e-005 -1.697618e-004 1.001376e+000 -8.644145e-003
6748710 1.001003e+000 -3.802940e-003 -7.941540e-005 -7.214793e-005 2.065931e-004 1.058653e-004 1.000088e+000 -6.855630e-003
6823695 1.000445e+000 -3.800799e-003 -1.354841e-005 5.577134e-005 1.638148e-004 -2.984542e-004 9.996747e-001 -6.870102e-003
6898680 1.000566e+000 -4.135046e-003 -1.621753e-005 4.355280e-006 -2.943817e-006 -2.865779e-004 9.995254e-001 -7.038117e-003
6973665 1.000534e+000 -3.520564e-003 -7.592204e-005 1.024899e-004 -1.012993e-004 -1.597449e-004 9.990320e-001 -9.166555e-003
7048650 1.000116e+000 -3.729448e-003 4.071666e-005 -2.099488e-005 8.763728e-005 1.916178e-004 1.000148e+000 -9.399289e-003
7123635 1.000816e+000 -3.083601e-003 -6.869910e-005 -1.409937e-004 -6.244554e-005 4.143814e-005 1.000685e+000 -6.851005e-003
7198620 1.000278e+000 -3.393920e-003 4.668690e-007 -3.784852e-005 -1.560613e-004 -1.056763e-004 1.001277e+000 -8.733854e-003
7273605 1.000582e+000 -4.048932e-003 -1.422009e-005 1.034667e-004 -1.357131e-004 -1.053287e-004 1.000553e+000 -8.474292e-003
7348590 1.001172e+000 -3.884944e-003 -1.333468e-005 7.779567e-005 9.797073e-005 7.438513e-005 9.998358e-001 -9.018110e-003
7423575 1.000937e+000 -3.412485e-003 -6.348806e-005 -1.113966e-004 5.471351e-006 1.991467e-004 9.995793e-001 -8.192322e-003
7498560 1.000215e+000 -4.243283e-003 3.163359e-005 5.135384e-006 -2.816627e-005 2.656062e-005 9.986879e-001 -9.265905e-003
7573545 1.000581e+000 -3.580069e-003 -4.685039e-005 -2.353386e-005 -8.591916e-005 1.224049e-004 1.001549e+000 -8.676196e-003
7648530 1.001107e+000 -4.347371e-003 -3.744359e-005 5.526916e-005 -1.173631e-004 -1.401321e-004 1.000487e+000 -7.164951e-003
7723515 1.001223e+000 -4.165390e-003 -5.612466e-005 4.390263e-005 -3.485563e-005 1.893387e-005 1.000178e+000 -8.769062e-003
7798500 1.000905e+000 -4.193709e-003 -6.183996e-005 9.842483e-006 2.796694e-004 -2.068366e-004 9.988362e-001 -8.274287e-003
7873485 1.001114e+000 -4.675487e-003 2.559906e-005 3.373833e-006 -7.763028e-005 -4.959127e-005 9.990728e-001 -8.467462e-003
7948470 1.000733e+000 -4.140378e-003 -1.703050e-005 -1.095425e-004 -5.979029e-005 1.402586e-005 9.998363e-001 -8.170816e-003
8023455 1.000588e+000 -4.015839e-003 9.493186e-006 9.908716e-005 1.238367e-004 2.577862e-004 1.000108e+000 -8.466966e-003
8098440 1.000641e+000 -4.077922e-003 4.174972e-005 1.739360e-005 2.853952e-004 -5.411067e-005 1.001329e+000 -7.323880e-003
8173425 1.000016e+000 -4.256778e-003 6.986855e-005 4.282372e-005 -5.462628e-005 4.021646e-007 1.000191e+000 -7.319992e-003
8248410 1.000909e+000 -3.986352e-003 3.260754e-005 -6.730549e-005 -1.305264e-004 -2.167642e-005 9.994705e-001 -7.144161e-003
8323395 1.000924e+000 -4.410424e-003 1.842184e-006 1.313568e-006 -1.514610e-004 -8.037437e-005 1.000657e+000 -8.523158e-003
8398380 1.000473e+000 -4.320559e-003 -1.060209e-004 2.342510e-006 -1.599629e-004 -8.433987e-005 9.987577e-001 -6.679015e-003
8473365 1.000501e+000 -4.501090e-003 4.964463e-005 2.619991e-005 8.367648e-005 -1.211975e-004 9.998664e-001 -7.154619e-003
8548350 1.000897e+000 -5.281356e-003 -4.793839e-006 -4.062340e-005 -1.047182e-004 -3.174259e-005 1.001070e+000 -8.033518e-003
8623335 1.000498e+000 -4.816313e-003 -7.981210e-005 -2.493712e-005 -3.483936e-006 2.708889e-006 9.999836e-001 -8.734831e-003
8698320 1.000604e+000 -4.290531e-003 9.322682e-006 3.525492e-005 2.145590e-004 5.723022e-005 1.000849e+000 -7.298106e-003
8773305 1.000499e+000 -4.868773e-003 -5.283483e-005 -1.178844e-005 5.869499e-005 -9.771587e-005 1.001627e+000 -9.276930e-003
8848290 1.000270e+000 -4.805982e-003 6.132193e-005 2.024725e-005 1.757804e-004 -1.253381e-004 1.000496e+000 -9.280566e-003
8923275 1.000406e+000 -5.732587e-003 -8.272805e-006 9.373145e-005 4.458287e-005 -1.387054e-004 9.996567e-001 -9.123418e-003
8998260 1.000759e+000 -5.000831e-003 1.926119e-005 5.718083e-005 -1.577193e-004 -6.516020e-005 1.001593e+000 -8.384803e-003
9073245 1.001132e+000 -5.381371e-003 -2.664719e-005 8.727753e-005 -2.907198e-006 5.057716e-006 1.000046e+000 -9.500681e-003
9148230 1.000887e+000 -5.091471e-003 -1.723734e-006 7.575683e-006 -8.749161e-005 1.728546e-004 1.000195e+000 -9.027615e-003
9223215 1.000068e+000 -4.930214e-003 -1.144204e-004 -8.527139e-005 -5.575125e-005 -1.577855e-004 1.001723e+000 -1.009782e-002
9298200 1.000459e+000 -5.158715e-003 4.822791e-005 1.478316e-004 -1.056420e-004 4.043850e-006 9.997177e-001 -8.695181e-003
9373185 1.000987e+000 -5.980680e-003 -4.397444e-005 1.012384e-004 1.595128e-004 1.836367e-004 1.000421e+000 -9.363403e-003
9448170 1.000471e+000 -5.680278e-003 -5.156281e-005 -6.442291e-005 1.211407e-004 -8.975137e-005 1.001324e+000 -8.999167e-003
9523155 1.000572e+000 -5.326065e-003 -4.144765e-005 -1.216979e-004 2.310675e-004 2.088880e-004 1.000158e+000 -1.072805e-002
9598140 1.001235e+000 -6.721743e-003 1.112045e-004 -5.496484e-005 -3.146203e-005 -1.461285e-004 1.001557e+000 -1.107624e-002
9673125 1.000479e+000 -6.079544e-003 -1.040697e-004 -4.605326e-005 9.867636e-006 -7.820864e-005 1.001212e+000 -1.018889e-002
9748110 1.000822e+000 -5.680760e-003 -8.539836e-005 7.937787e-005 1.419416e-005 2.634835e-004 1.000383e+000 -1.211219e-002
9823095 1.000038e+000 -6.570604e-003 5.205776e-005 2.542840e-005 -5.351947e-005 -4.941210e-005 1.000020e+000 -1.197578e-002
9898080 1.000649e+000 -6.717248e-003 -8.343340e-005 1.057119e-005 -2.054070e-004 1.453979e-004 1.001184e+000 -1.150734e-002
9973065 1.000882e+000 -6.204030e-003 3.193384e-005 5.431852e-006 5.440254e-005 -1.280046e-004 1.001438e+000 -1.215387e-002
10048050 1.000453e+000 -6.701122e-003 4.381093e-005 1.318167e-004 -2.552930e-004 -1.807603e-005 1.002333e+000 -1.258565e-002
10123035 1.000896e+000 -7.059223e-003 5.500838e-006 1.180724e-004 -2.036861e-004 2.795998e-004 1.000573e+000 -1.245634e-002
10198020 1.000074e+000 -7.140488e-003 8.546231e-005 6.173222e-005 -1.639721e-004 -2.033321e-004 1.002535e+000 -1.251686e-002
10273005 1.000208e+000 -7.912917e-003 -3.012536e-006 8.482620e-005 -9.922314e-005 -1.734636e-004 1.001131e+000 -1.340294e-002
10347990 1.000187e+000 -8.037255e-003 3.118271e-005 8.328704e-005 5.460906e-005 4.849361e-005 1.002046e+000 -1.476908e-002
10422975 1.000663e+000 -6.980474e-003 3.671735e-005 4.159100e-005 -4.132764e-005 1.448963e-004 1.000997e+000 -1.232182e-002
10497960 1.000260e+000 -7.268862e-003 -6.969738e-005 1.875641e-005 1.054852e-004 -9.906483e-005 1.001328e+000 -1.392549e-002
10572945 1.000647e+000 -7.780471e-003 -6.536523e-005 -5.423080e-005 1.176285e-004 -5.077535e-005 1.000774e+000 -1.578422e-002
10647930 1.000410e+000 -7.535172e-003 -1.444334e-004 5.630452e-005 -1.474039e-004 -1.997080e-004 1.001580e+000 -1.569181e-002
10722915 9.999127e-001 -7.408252e-003 -3.830030e-005 9.243578e-006 3.277843e-005 -1.125421e-005 1.001219e+000 -1.581308e-002
10797900 1.000188e+000 -7.598576e-003 8.216446e-005 1.433543e-004 -1.394214e-004 3.148107e-005 1.000725e+000 -1.520021e-002
10872885 1.000231e+000 -7.820293e-003 -4.128309e-005 -5.436392e-005 4.848761e-004 -6.490014e-005 1.001758e+000 -1.516171e-002
10947870 1.000836e+000 -6.872047e-003 8.000762e-005 9.818189e-005 -6.151564e-006 1.627692e-004 1.001053e+000 -1.713943e-002
11022855 9.996600e-001 -7.142026e-003 -6.631194e-005 -1.573731e-004 4.246684e-005 1.405584e-004 1.000141e+000 -1.595017e-002
11097840 1.000262e+000 -7.089345e-003 -5.064252e-005 3.350830e-005 4.675897e-005 4.576931e-005 1.001186e+000 -1.774251e-002
11172825 1.000201e+000 -7.291893e-003 1.809441e-005 8.157932e-005 -2.920312e-004 5.655334e-005 1.001924e+000 -1.744642e-002
11247810 1.000111e+000 -7.737996e-003 -1.347054e-004 6.176544e-005 4.827166e-005 1.358601e-004 1.000307e+000 -1.635204e-002
11322795 1.000829e+000 -7.826117e-003 -4.001438e-005 1.175550e-004 2.800239e-005 -2.127139e-005 1.000387e+000 -1.705739e-002
11397780 1.000185e+000 -8.242727e-003 -4.298904e-006 -4.640605e-005 1.051331e-004 -9.173655e-005 1.002443e+000 -1.817541e-002
11472765 1.000515e+000 -8.069839e-003 6.902801e-006 6.341612e-005 4.171689e-006 2.695491e-004 1.001091e+000 -1.628002e-002
11547750 1.000347e+000 -7.102914e-003 -3.437601e-005 -3.004025e-006 9.975772e-005 2.911690e-004 1.001800e+000 -1.647644e-002
11622735 1.000222e+000 -7.554703e-003 7.908739e-005 2.299040e-006 -9.790502e-005 3.034745e-004 1.001079e+000 -1.680652e-002
11697720 9.992945e-001 -7.853591e-003 1.253586e-005 -4.077509e-005 1.320835e-004 -1.195031e-004 1.001115e+000 -1.751178e-002
11772705 9.997082e-001 -7.557538e-003 -1.702876e-006 1.498352e-004 -4.770706e-005 5.773576e-005 1.000307e+000 -1.534035e-002
11847690 9.997687e-001 -8.581375e-003 1.650019e-005 -1.024933e-005 1.897891e-005 2.395774e-004 1.000648e+000 -1.567682e-002
11922675 9.994695e-001 -8.380361e-003 -2.564485e-005 1.183350e-006 -8.756573e-005 1.606775e-004 9.999187e-001 -1.511270e-002
11997660 9.993212e-001 -7.914632e-003 -3.003587e-005 -8.363180e-005 1.686956e-004 -1.288629e-004 1.002081e+000 -1.460432e-002
