!Agilent Technologies,N5230C,SG49000117,A.08.50.07
!Agilent N5230C: A.08.50.07
!Date: Thursday, December 07, 2023 06:02:33
!Correction: S11(Full 2 Port(1,2)) 
!S21(Full 2 Port(1,2)) 
!S12(Full 2 Port(1,2)) 
!S22(Full 2 Port(1,2)) 
!S2P File: Measurements: S11, S21, S12, S22:
# Hz S  RI   R 50
300000 1.018976e+000 -9.592054e-003 -7.886892e-005 1.516884e-004 1.876362e-004 7.483476e-005 1.036530e+000 -2.125717e-002
374985 9.983079e-001 -4.785534e-003 -3.445910e-005 -2.410592e-005 -2.426640e-004 -5.379277e-004 9.829203e-001 -1.705075e-002
449970 9.880205e-001 -2.797994e-004 8.263605e-005 -6.961702e-005 -1.167094e-004 5.052585e-005 9.564179e-001 -1.388245e-002
524955 9.772411e-001 5.179591e-003 8.505171e-005 -5.250820e-005 -4.160826e-004 -1.655585e-004 9.294846e-001 -3.487732e-003
599940 9.799813e-001 5.751502e-003 -3.352276e-005 -9.203550e-005 -2.392898e-004 1.388411e-004 9.441317e-001 3.091556e-003
674925 9.786935e-001 3.716093e-003 -1.289435e-006 -1.856449e-005 1.166581e-005 -1.278770e-004 9.370121e-001 -1.621887e-002
749910 9.795474e-001 4.866794e-003 -8.644326e-005 1.450498e-004 9.839865e-005 -7.617782e-006 9.338180e-001 -7.803595e-003
824895 9.839863e-001 3.762988e-003 -3.379409e-005 6.073909e-005 5.404192e-005 -7.125993e-005 9.358181e-001 -9.142859e-003
899880 9.875624e-001 8.911681e-004 -2.983776e-005 1.129597e-004 -1.350500e-004 -1.339435e-004 9.450767e-001 -1.237062e-002
974865 9.915161e-001 -1.201433e-003 5.916536e-006 -1.717962e-005 -2.255275e-004 5.319144e-005 9.507063e-001 -1.118378e-002
1049850 9.929680e-001 -2.738639e-003 -1.086305e-005 4.042131e-006 1.683400e-004 9.022649e-005 9.581253e-001 -1.033982e-002
1124835 9.968793e-001 -6.238426e-003 6.792039e-005 2.274643e-005 1.282594e-004 -1.703856e-004 9.670571e-001 -1.133965e-002
1199820 1.002557e+000 -9.243937e-003 6.506596e-005 -7.689554e-005 -7.200251e-006 -1.470222e-004 9.774216e-001 -1.022456e-002
1274805 1.007760e+000 -1.313099e-002 -5.304089e-005 3.577803e-005 -2.505496e-004 2.862040e-005 9.895123e-001 -7.153278e-003
1349790 1.000690e+000 -6.034766e-003 -1.086442e-006 -9.492273e-005 3.420102e-004 -2.478574e-004 1.003009e+000 -1.299551e-002
1424775 9.994606e-001 -5.641168e-003 9.924657e-005 9.118483e-005 -2.108163e-005 -2.458124e-004 1.004455e+000 -1.203155e-002
1499760 9.989923e-001 -5.102054e-003 4.316680e-005 1.006136e-004 1.857706e-004 -7.665336e-005 1.004933e+000 -8.609755e-003
1574745 9.979239e-001 -3.477993e-003 -2.196270e-004 1.518630e-005 -2.152171e-004 1.616268e-004 1.000124e+000 -9.534433e-003
1649730 9.977047e-001 -4.026245e-003 3.460015e-005 1.860047e-004 8.080083e-005 -2.027190e-004 1.000910e+000 -1.216310e-002
1724715 9.972917e-001 -5.329326e-003 2.241268e-005 1.669858e-005 -1.173109e-004 -3.396863e-005 1.003837e+000 -1.214726e-002
1799700 9.959625e-001 -4.871912e-003 3.138561e-005 5.548708e-005 -2.768463e-004 1.972917e-004 1.004929e+000 -1.048585e-002
1874685 9.960455e-001 -3.245983e-003 -1.185432e-004 4.212422e-005 -2.265408e-004 5.456290e-005 1.001770e+000 -8.279317e-003
1949670 9.962862e-001 -1.693193e-003 3.367520e-005 7.060360e-005 -3.534152e-005 1.072750e-004 1.000784e+000 -8.695181e-003
2024655 9.958275e-001 -1.972729e-003 2.366523e-004 2.140098e-005 5.332393e-005 1.471795e-005 1.001450e+000 -6.391128e-003
2099640 9.949101e-001 -1.717290e-003 -9.318652e-005 1.082786e-005 2.415767e-004 -2.131660e-004 1.000349e+000 -4.051897e-003
2174625 9.951063e-001 -2.390633e-003 1.408130e-005 -7.171296e-006 -8.577400e-005 -4.457420e-005 1.000767e+000 -6.360024e-003
2249610 9.953641e-001 -3.135040e-003 -6.192266e-005 -8.684957e-006 2.382750e-004 1.130642e-004 1.000348e+000 -6.946136e-003
2324595 1.000890e+000 -4.277283e-003 -1.853781e-005 3.946645e-005 -1.869964e-004 -5.788019e-005 1.003074e+000 -5.971655e-003
2399580 1.001147e+000 -4.469709e-003 4.458674e-005 8.904431e-005 4.210087e-005 -1.347589e-004 1.003356e+000 -5.103368e-003
2474565 9.994676e-001 -8.106585e-004 -6.786551e-005 -9.223385e-006 8.821172e-005 -2.645224e-004 9.999040e-001 -6.335981e-003
2549550 1.000482e+000 -2.758011e-003 -3.749953e-005 8.893020e-005 -8.252871e-005 -1.028189e-004 9.992040e-001 -6.294967e-003
2624535 1.000943e+000 -2.943946e-003 6.078298e-005 -1.844167e-005 -6.926744e-005 6.738085e-006 9.981526e-001 -5.871403e-003
2699520 9.996716e-001 -4.478812e-003 -1.807221e-004 1.814961e-005 1.907122e-005 -1.458071e-004 9.954569e-001 -5.132327e-003
2774505 9.992862e-001 -2.214506e-003 3.306654e-005 7.638129e-006 -5.225903e-005 1.114343e-004 1.000465e+000 -9.516496e-003
2849490 1.000868e+000 -2.340030e-003 2.781039e-005 3.930851e-005 1.410482e-004 5.994577e-005 9.979562e-001 -3.821415e-003
2924475 1.000482e+000 -2.833745e-003 -1.935354e-005 2.857207e-005 1.155194e-004 -4.647349e-005 1.002939e+000 -5.730393e-003
2999460 1.000531e+000 -2.462896e-003 5.517306e-005 -4.116311e-005 1.845573e-005 7.931658e-005 9.991993e-001 -4.547469e-003
3074445 1.001033e+000 -2.114224e-003 -3.773038e-005 1.111543e-005 2.271444e-005 2.156992e-005 9.989324e-001 -5.395172e-003
3149430 1.001139e+000 -2.032235e-003 -2.875880e-005 5.395501e-005 1.151375e-005 7.086668e-005 9.987924e-001 -6.254435e-003
3224415 1.000652e+000 -2.274601e-003 9.944808e-005 9.432693e-005 -1.107798e-004 4.325367e-005 1.000175e+000 -5.694731e-003
3299400 1.000932e+000 -2.776578e-003 -1.156290e-004 1.294635e-004 -2.464155e-004 2.134248e-004 1.000197e+000 -6.470048e-003
3374385 9.999951e-001 -3.175958e-003 -1.852030e-005 -1.154478e-004 -2.954043e-004 -7.944804e-005 9.994535e-001 -5.882869e-003
3449370 1.000345e+000 -2.710092e-003 3.842448e-005 8.686358e-005 1.134177e-004 3.836018e-005 9.979371e-001 -6.733943e-003
3524355 1.001510e+000 -1.433527e-003 -1.184916e-004 -7.743551e-005 9.427348e-005 -5.890159e-005 1.000319e+000 -4.887051e-003
3599340 1.001245e+000 -2.263488e-003 4.013353e-005 1.938737e-005 1.217257e-004 -5.677070e-005 1.000164e+000 -4.794586e-003
3674325 1.000505e+000 -2.470501e-003 5.598688e-005 4.739206e-005 -1.106872e-006 -2.289472e-005 1.000128e+000 -4.475904e-003
3749310 1.000928e+000 -2.090362e-003 -2.998408e-005 8.936210e-005 -7.595499e-005 2.353955e-005 9.992281e-001 -6.278937e-003
3824295 1.001534e+000 -3.167935e-003 -1.628167e-004 8.454656e-005 -1.485242e-004 -7.860630e-005 9.986268e-001 -6.477476e-003
3899280 1.000894e+000 -3.094478e-003 -3.221045e-005 6.446855e-006 9.580959e-005 -5.909015e-005 9.997723e-001 -6.987922e-003
3974265 1.001439e+000 -3.470303e-003 8.251130e-005 1.201603e-004 1.592065e-004 -6.193611e-005 9.997321e-001 -7.208675e-003
4049250 1.001696e+000 -3.090803e-003 6.091487e-005 -3.886263e-005 -4.576029e-005 2.894228e-005 9.995059e-001 -6.909019e-003
4124235 1.001572e+000 -3.819899e-003 -8.199157e-005 -1.251200e-005 -8.445165e-005 2.492772e-005 9.995978e-001 -8.584097e-003
4199220 1.000964e+000 -3.002435e-003 -5.912199e-005 -7.277331e-005 1.045087e-004 -1.782795e-004 9.998965e-001 -7.273525e-003
4274205 9.997879e-001 -3.654552e-003 -1.585135e-005 7.946489e-005 -5.859699e-005 -1.502180e-004 9.992623e-001 -5.522890e-003
4349190 1.001329e+000 -3.272391e-003 -1.209979e-004 -2.066883e-005 -8.137772e-005 8.872560e-005 1.000134e+000 -4.411374e-003
4424175 1.000951e+000 -3.258920e-003 -2.933300e-005 4.558302e-005 1.765009e-005 5.455138e-005 9.995229e-001 -7.526536e-003
4499160 1.000704e+000 -2.632070e-003 -6.151398e-005 7.241813e-005 2.267379e-004 -1.420663e-004 9.996724e-001 -4.876927e-003
4574145 1.001155e+000 -3.244235e-003 -5.426314e-005 8.787784e-006 -2.411705e-005 -3.317579e-004 1.000115e+000 -5.163890e-003
4649130 1.000155e+000 -2.339672e-003 -1.203448e-005 -5.555735e-006 2.223957e-005 2.874178e-005 9.976635e-001 -5.762660e-003
4724115 1.000674e+000 -3.297931e-003 -1.513167e-005 1.556634e-004 -1.428913e-004 1.743755e-004 9.991619e-001 -5.005667e-003
4799100 1.000861e+000 -3.074665e-003 -6.625839e-006 -7.047587e-005 1.134302e-004 1.928775e-004 1.000305e+000 -5.096994e-003
4874085 1.000154e+000 -3.594233e-003 6.094836e-006 3.823579e-006 -1.587948e-004 -1.026317e-004 9.993895e-001 -5.325854e-003
4949070 1.001371e+000 -3.325349e-003 -8.504100e-006 1.784798e-005 3.904431e-005 -1.214246e-004 9.986827e-001 -4.813096e-003
5024055 1.000848e+000 -3.183697e-003 4.364808e-005 -1.024092e-004 4.108129e-005 1.340200e-004 9.997008e-001 -5.474977e-003
5099040 1.001427e+000 -3.394488e-003 1.531612e-004 4.235324e-005 2.719339e-005 -1.130461e-004 1.000143e+000 -3.945935e-003
5174025 1.001452e+000 -3.138917e-003 5.987437e-007 -5.507344e-005 2.268210e-004 2.062347e-004 1.000219e+000 -3.784086e-003
5249010 1.001528e+000 -3.368627e-003 -1.602515e-005 -3.236738e-005 -2.446544e-004 1.217430e-004 1.000859e+000 -4.214511e-003
5323995 1.000872e+000 -2.630139e-003 3.146952e-005 -7.534260e-005 8.465549e-005 -1.280646e-004 9.977590e-001 -5.230085e-003
5398980 1.000792e+000 -3.026545e-003 -9.736086e-005 -6.694450e-005 1.483997e-004 3.022972e-004 9.991654e-001 -4.809642e-003
5473965 1.001143e+000 -3.424517e-003 -4.266832e-006 -5.330254e-005 1.667822e-004 6.526180e-005 1.000602e+000 -4.794554e-003
5548950 1.000939e+000 -3.377907e-003 2.987938e-005 -3.812659e-005 -2.299139e-004 -2.537611e-004 9.994033e-001 -4.299301e-003
5623935 1.000662e+000 -3.583727e-003 1.860382e-005 -2.712087e-005 -2.338196e-004 1.149734e-004 1.000597e+000 -3.056214e-003
5698920 1.001201e+000 -3.370663e-003 1.934163e-005 1.802238e-004 1.385861e-004 8.646246e-005 1.000539e+000 -4.803583e-003
5773905 1.000866e+000 -3.838343e-003 -8.619657e-005 2.997723e-005 -5.770183e-005 5.064762e-005 9.994259e-001 -6.742521e-003
5848890 1.000528e+000 -3.876243e-003 1.982887e-005 -3.926365e-005 7.335101e-005 -2.305484e-004 9.997489e-001 -6.521430e-003
5923875 1.000977e+000 -3.708231e-003 1.111827e-004 -9.975521e-006 5.257622e-005 2.554110e-004 1.001217e+000 -6.347611e-003
5998860 1.000486e+000 -3.992866e-003 3.394608e-006 -5.515434e-005 5.475866e-005 -3.621935e-005 1.000467e+000 -5.852984e-003
6073845 1.000777e+000 -3.371517e-003 -2.813378e-005 1.140010e-004 -1.165975e-004 -9.574417e-005 1.001280e+000 -6.742083e-003
6148830 1.001096e+000 -3.786634e-003 -4.948087e-005 -1.223063e-004 7.635638e-005 2.449407e-004 1.002462e+000 -6.480401e-003
6223815 1.000961e+000 -3.587625e-003 5.460350e-005 4.290593e-005 8.767867e-005 -8.974459e-005 9.988965e-001 -5.368844e-003
6298800 1.000800e+000 -3.534585e-003 -1.503175e-004 -3.797496e-005 -1.004042e-004 -1.546137e-004 9.995490e-001 -6.078183e-003
6373785 1.000421e+000 -3.846068e-003 1.184309e-004 2.994864e-005 6.565642e-006 8.615352e-005 1.000186e+000 -6.875452e-003
6448770 1.000356e+000 -3.198254e-003 6.765217e-005 6.176632e-005 1.227430e-004 -2.283152e-004 1.000489e+000 -7.481305e-003
6523755 1.001011e+000 -3.213093e-003 -5.835025e-005 -6.768381e-007 -2.437240e-005 2.076762e-005 1.000646e+000 -7.011060e-003
6598740 1.001075e+000 -3.210863e-003 -1.460055e-004 -9.756823e-005 2.790802e-005 -4.977960e-005 9.999509e-001 -7.375924e-003
6673725 1.001089e+000 -3.705359e-003 3.216018e-005 8.299603e-005 -1.101034e-004 6.360203e-005 9.990875e-001 -7.192931e-003
6748710 1.001358e+000 -2.974344e-003 -5.987162e-005 1.425587e-005 -9.679771e-005 1.618304e-005 1.001206e+000 -7.440769e-003
6823695 1.000510e+000 -3.600904e-003 1.831779e-005 -2.092364e-005 -3.160929e-004 -9.047044e-005 1.000758e+000 -7.913267e-003
6898680 1.000538e+000 -4.004162e-003 1.853702e-006 -9.620128e-005 -1.934157e-005 1.380711e-004 1.000157e+000 -9.840565e-003
6973665 1.000931e+000 -3.786804e-003 5.239608e-005 2.627096e-005 -2.548611e-004 1.398756e-004 9.988596e-001 -8.050272e-003
7048650 1.001000e+000 -3.894490e-003 2.214174e-005 -2.845438e-005 2.995722e-006 6.430522e-005 1.000831e+000 -7.501314e-003
7123635 1.000876e+000 -3.579306e-003 -5.713461e-005 4.791457e-006 -3.188542e-004 7.569131e-005 1.000030e+000 -9.153832e-003
7198620 1.000281e+000 -3.853022e-003 -3.298599e-005 -2.555309e-005 -3.210647e-005 5.828381e-005 1.000527e+000 -7.547360e-003
7273605 1.001327e+000 -3.670636e-003 -1.134631e-004 -3.146122e-005 3.393095e-004 -1.485194e-004 1.000701e+000 -7.569849e-003
7348590 1.000211e+000 -2.962213e-003 5.837082e-005 -5.756837e-005 -2.783918e-004 -1.126044e-004 1.000891e+000 -8.896197e-003
7423575 1.001115e+000 -4.029709e-003 1.104982e-006 6.250494e-005 1.929337e-004 -9.720700e-005 1.000053e+000 -7.445334e-003
7498560 1.000248e+000 -4.387703e-003 4.831855e-005 -5.568174e-005 -1.498111e-004 -2.020780e-004 1.000481e+000 -6.761498e-003
7573545 1.000919e+000 -3.569870e-003 -5.930332e-006 1.694836e-004 4.126877e-005 4.280387e-004 9.997864e-001 -7.783405e-003
7648530 1.000724e+000 -4.020385e-003 1.432655e-005 -4.205720e-005 1.116559e-005 -8.395075e-005 9.994107e-001 -8.285369e-003
7723515 1.000743e+000 -4.608891e-003 -4.744612e-005 -4.622379e-005 -5.555743e-005 -9.719009e-005 9.995929e-001 -8.421666e-003
7798500 1.001574e+000 -3.747931e-003 4.361125e-005 -4.591523e-005 2.996008e-004 -7.416436e-006 9.996474e-001 -8.181143e-003
7873485 1.000759e+000 -4.027887e-003 -6.479437e-005 -2.811704e-005 -1.131472e-004 -1.488180e-004 9.999503e-001 -8.911187e-003
7948470 1.000599e+000 -4.345553e-003 -4.900619e-005 8.346552e-005 1.451180e-004 1.237632e-005 1.001031e+000 -7.737812e-003
8023455 1.001236e+000 -4.145968e-003 1.635898e-005 2.005144e-005 -8.159721e-005 -1.080687e-004 9.995912e-001 -7.062418e-003
8098440 1.000665e+000 -4.298459e-003 1.756434e-005 -2.314404e-005 2.526542e-004 1.353226e-004 9.998574e-001 -7.048527e-003
8173425 1.001213e+000 -4.561714e-003 6.558436e-005 5.835725e-005 -2.293992e-004 -2.726860e-004 1.000299e+000 -7.465649e-003
8248410 1.000511e+000 -4.213672e-003 1.232100e-004 2.364139e-005 4.619329e-005 3.402685e-005 9.991301e-001 -6.309116e-003
8323395 1.000130e+000 -3.902047e-003 -1.183495e-005 6.585006e-005 3.424352e-005 -2.562393e-004 1.000113e+000 -7.457428e-003
8398380 1.000880e+000 -4.339490e-003 9.507046e-005 -3.783115e-005 -2.109312e-006 1.015514e-004 1.000652e+000 -5.370032e-003
8473365 1.000504e+000 -4.372259e-003 -7.886800e-005 8.508481e-005 1.006279e-004 3.360505e-004 1.000321e+000 -8.707263e-003
8548350 1.000667e+000 -4.936208e-003 -7.604731e-005 3.704131e-005 1.467680e-004 6.455233e-005 1.000355e+000 -7.011051e-003
8623335 1.000666e+000 -4.711793e-003 1.753287e-005 1.053826e-005 5.825328e-005 2.649562e-004 1.000819e+000 -7.517837e-003
8698320 1.001096e+000 -4.804152e-003 5.240926e-006 6.513789e-005 -3.990827e-005 1.350982e-004 9.992554e-001 -8.953359e-003
8773305 1.000740e+000 -5.074481e-003 2.523827e-005 8.575508e-005 -2.124685e-004 7.126478e-005 1.000178e+000 -9.503926e-003
8848290 1.000591e+000 -5.103739e-003 5.664739e-005 -3.985424e-005 -2.270784e-004 4.591677e-005 1.000732e+000 -8.783258e-003
8923275 1.000816e+000 -5.141896e-003 -9.549315e-008 1.966169e-005 7.577108e-006 -1.147491e-004 9.998440e-001 -9.290691e-003
8998260 1.000657e+000 -5.394637e-003 -8.021150e-005 -3.422065e-006 -7.979159e-005 -1.384514e-004 1.000255e+000 -9.475219e-003
9073245 1.000108e+000 -4.518209e-003 -6.452748e-005 -7.233658e-005 9.254034e-005 -4.587111e-005 9.996076e-001 -9.408748e-003
9148230 1.000556e+000 -5.187294e-003 -5.419318e-005 2.333463e-005 -1.712683e-004 -1.856495e-005 1.000415e+000 -9.398931e-003
9223215 1.000542e+000 -5.362537e-003 9.732447e-005 1.135382e-005 -4.511416e-004 -1.520570e-005 1.001822e+000 -7.731959e-003
9298200 1.000176e+000 -6.451077e-003 -7.844828e-006 1.825768e-005 -2.030150e-005 1.611023e-005 1.001096e+000 -8.787649e-003
9373185 1.000103e+000 -5.558552e-003 -6.800096e-005 -4.467032e-006 -1.195933e-004 -2.192239e-004 1.000357e+000 -7.537853e-003
9448170 1.000387e+000 -5.813242e-003 -5.703646e-005 -4.118558e-005 -5.471186e-005 5.548396e-007 1.000585e+000 -9.183763e-003
9523155 1.000520e+000 -5.981716e-003 -4.967656e-005 -9.467163e-006 -2.057640e-004 -2.225293e-004 1.001185e+000 -9.945625e-003
9598140 1.000869e+000 -5.281107e-003 6.144268e-005 -7.081814e-005 -2.371156e-004 1.109866e-004 1.000686e+000 -9.682063e-003
9673125 1.000702e+000 -6.006386e-003 1.372224e-004 -1.510352e-004 -6.460401e-005 2.541038e-005 1.000472e+000 -1.008324e-002
9748110 1.000256e+000 -5.907544e-003 1.275850e-004 9.226875e-005 3.264281e-005 -9.248334e-005 1.000414e+000 -1.148109e-002
9823095 1.000736e+000 -6.642674e-003 -7.162621e-005 9.590331e-005 6.476279e-005 7.759470e-005 1.001454e+000 -1.098225e-002
9898080 1.000672e+000 -5.987333e-003 4.465349e-005 -4.034610e-006 -1.989263e-004 -9.858358e-005 1.000750e+000 -1.155952e-002
9973065 1.000469e+000 -6.020638e-003 -6.487783e-005 -6.469140e-005 -2.210818e-004 9.442301e-005 1.001302e+000 -1.082159e-002
10048050 1.000958e+000 -7.829331e-003 -1.731737e-005 5.300791e-005 -9.363468e-006 -1.087663e-004 1.000244e+000 -1.389415e-002
10123035 1.000577e+000 -7.315123e-003 -4.889759e-005 1.299252e-005 9.899789e-005 -6.811296e-005 1.002679e+000 -1.317378e-002
10198020 1.000710e+000 -7.336328e-003 -2.195471e-005 4.758101e-005 -9.248945e-005 -1.017302e-004 1.003351e+000 -1.361472e-002
10273005 1.000609e+000 -7.996405e-003 -8.492156e-005 -1.066860e-004 2.013502e-004 8.817102e-005 1.003232e+000 -1.341891e-002
10347990 1.000739e+000 -7.565573e-003 9.193094e-005 -5.918958e-005 9.634447e-006 1.471502e-004 1.001371e+000 -1.452998e-002
10422975 1.000200e+000 -7.284487e-003 -5.135678e-005 -1.190257e-004 2.197538e-004 -1.500431e-004 1.000453e+000 -1.266542e-002
10497960 1.000758e+000 -8.073251e-003 -3.840717e-006 4.730177e-005 -4.006550e-006 2.105633e-004 1.001467e+000 -1.458419e-002
10572945 1.000417e+000 -7.128766e-003 7.167246e-005 1.491405e-004 1.602796e-005 -8.426596e-005 1.001767e+000 -1.374646e-002
10647930 1.000080e+000 -7.516790e-003 1.513682e-005 6.987284e-005 -6.147157e-005 1.745183e-004 1.002121e+000 -1.577245e-002
10722915 9.999923e-001 -7.295570e-003 -6.560158e-006 2.401679e-005 -1.540525e-004 2.143446e-005 1.001753e+000 -1.376430e-002
10797900 1.000051e+000 -7.599876e-003 -8.305380e-005 -1.544535e-005 4.303828e-005 1.269258e-004 1.001739e+000 -1.679457e-002
10872885 1.000346e+000 -6.895724e-003 -2.934046e-005 9.583806e-005 8.959266e-005 -1.046956e-004 9.996224e-001 -1.640094e-002
10947870 1.000204e+000 -7.379893e-003 -1.710045e-004 -1.757593e-005 -1.213749e-004 -8.762535e-005 1.000404e+000 -1.580898e-002
11022855 1.000139e+000 -7.632184e-003 -2.803070e-005 7.798885e-005 2.003683e-005 6.086543e-005 1.002059e+000 -1.745904e-002
11097840 1.000241e+000 -7.958604e-003 5.467968e-005 -3.849952e-005 -3.357481e-005 -4.890066e-005 1.000715e+000 -1.719554e-002
11172825 1.000466e+000 -7.172656e-003 -3.382020e-005 -7.978579e-005 2.257275e-004 1.522822e-004 1.001709e+000 -1.639818e-002
11247810 1.000448e+000 -7.377553e-003 -7.831932e-005 -5.114912e-005 1.249832e-004 -5.558350e-005 1.001540e+000 -1.657707e-002
11322795 1.000420e+000 -8.442841e-003 -6.591019e-005 5.270029e-005 -1.036289e-005 1.669518e-005 1.000781e+000 -1.654566e-002
11397780 9.998936e-001 -7.302953e-003 2.618241e-005 9.113018e-005 -5.281612e-005 1.753760e-004 1.000390e+000 -1.637465e-002
11472765 1.001185e+000 -8.116082e-003 9.226189e-005 1.098936e-006 -2.375806e-004 -2.268600e-005 1.000839e+000 -1.654120e-002
11547750 1.000679e+000 -8.295392e-003 -4.963083e-005 -8.493457e-005 -2.941268e-004 -3.786298e-005 1.001262e+000 -1.684464e-002
11622735 1.000191e+000 -8.227576e-003 -1.005852e-004 5.783627e-005 -8.232384e-005 2.634957e-004 1.001363e+000 -1.550795e-002
11697720 9.999945e-001 -7.353860e-003 -3.516381e-006 -6.112810e-005 9.661782e-005 -1.016033e-004 1.000728e+000 -1.577505e-002
11772705 1.000707e+000 -8.101751e-003 2.055834e-005 1.592862e-004 1.410359e-004 -8.757484e-005 1.003308e+000 -1.564258e-002
11847690 1.000209e+000 -7.896061e-003 -2.659977e-005 -3.751023e-005 1.529349e-004 -4.492615e-005 1.000770e+000 -1.668238e-002
11922675 9.995854e-001 -7.649215e-003 1.379619e-005 4.638464e-005 1.289701e-004 -1.437581e-005 1.002493e+000 -1.600035e-002
11997660 1.001086e+000 -8.105184e-003 1.335252e-005 -1.239117e-004 6.168099e-005 -1.397479e-004 1.001822e+000 -1.473689e-002
