!Agilent Technologies,N5230C,SG49000117,A.08.50.07
!Agilent N5230C: A.08.50.07
!Date: Thursday, May 16, 2024 17:36:16
!Correction: S11(Full 2 Port(1,2)) 
!S21(Full 2 Port(1,2)) 
!S12(Full 2 Port(1,2)) 
!S22(Full 2 Port(1,2)) 
!S2P File: Measurements: S11, S21, S12, S22:
# Hz S  MA   R 50
300000 1.007070e+000 -6.034670e-001 5.709378e-005 2.480014e+001 1.315848e-004 6.676549e+001 1.015514e+000 -8.239158e-001
599985 9.829010e-001 2.250773e-001 6.084758e-005 -1.210617e+002 8.353843e-005 1.669511e+002 9.650770e-001 2.939989e-001
899970 9.974949e-001 -9.805710e-002 9.379703e-005 7.460015e+001 1.325252e-004 -5.970542e-001 9.854698e-001 -4.483418e-001
1199955 9.978357e-001 -1.028192e-001 4.192208e-005 -1.104736e+002 2.433483e-004 -1.089296e+002 9.959474e-001 -2.688758e-001
1499940 9.938866e-001 1.264580e-001 9.438167e-005 8.631358e+001 5.054801e-005 -6.770890e+000 9.935845e-001 4.419937e-002
1799925 9.921350e-001 1.630079e-001 5.787023e-005 -1.158291e+001 1.452615e-004 -9.118684e+001 9.911513e-001 8.546770e-003
2099910 9.990860e-001 -4.634637e-002 1.061038e-004 1.611629e+002 7.683638e-005 9.746815e+001 9.978956e-001 2.005973e-002
2399895 9.992000e-001 -1.570164e-001 1.580409e-004 7.595929e+001 2.011039e-004 1.186738e+002 1.004793e+000 -6.084358e-002
2699880 1.000158e+000 -2.726703e-001 2.368762e-005 -1.527345e+002 1.403040e-004 -6.424758e+001 9.952659e-001 -1.712292e-001
2999865 9.998651e-001 -1.995333e-001 9.739268e-005 1.601008e+002 1.467746e-004 -5.901928e+001 9.988277e-001 -1.519765e-001
3299850 9.999532e-001 -1.653072e-001 2.939767e-005 1.461135e+002 1.036582e-004 -1.452787e+002 9.981815e-001 -2.132555e-001
3599835 9.999276e-001 -1.510742e-001 7.316260e-005 -1.399499e+002 9.113231e-005 1.303168e+001 9.981723e-001 -2.242733e-001
3899820 9.995107e-001 -1.902740e-001 8.325906e-006 -5.498426e+001 1.568662e-004 3.366824e+001 9.989141e-001 -1.799872e-001
4199805 1.000634e+000 -1.922119e-001 5.890762e-005 1.428118e+002 2.158929e-004 9.246263e+001 9.997860e-001 -2.961924e-001
4499790 1.000198e+000 -1.991093e-001 7.929982e-005 1.375927e+002 1.191542e-004 6.604232e+001 1.000290e+000 -2.316050e-001
4799775 9.996259e-001 -1.423391e-001 7.029039e-005 1.732305e+002 2.467455e-004 1.529947e+002 1.000519e+000 -1.730899e-001
5099760 1.000155e+000 -1.873531e-001 7.548019e-005 2.228523e+001 1.700829e-004 7.110516e+000 1.001710e+000 -1.637294e-001
5399745 1.000466e+000 -1.180493e-001 6.658499e-005 -3.472767e+001 1.396263e-004 9.205060e+001 9.987892e-001 -1.335501e-001
5699730 9.996833e-001 -1.529097e-001 1.151879e-004 1.581977e+002 3.641043e-005 1.107707e+002 1.001546e+000 -1.626628e-001
5999715 9.995336e-001 -1.329864e-001 8.697735e-005 1.460850e+002 1.079782e-004 1.053791e+002 1.001541e+000 -1.467126e-001
6299700 9.997770e-001 -1.564895e-001 3.340511e-005 -1.239101e+002 1.627079e-004 -1.215842e+002 1.000629e+000 -1.868532e-001
6599685 9.997077e-001 -1.533866e-001 2.932281e-005 -1.332105e+002 1.784408e-004 9.128348e+001 1.000722e+000 -2.154612e-001
6899670 9.996855e-001 -1.805302e-001 6.573035e-005 -7.298668e+001 2.819879e-005 -5.397917e+000 1.000511e+000 -2.304093e-001
7199655 1.000164e+000 -1.909831e-001 4.358282e-005 1.032710e+002 1.070397e-004 1.230936e+002 1.000336e+000 -2.869335e-001
7499640 1.000217e+000 -2.239846e-001 6.202478e-005 -1.023547e+002 1.203122e-004 -2.286141e+000 1.000449e+000 -3.061623e-001
7799625 1.000501e+000 -1.797156e-001 5.067437e-005 1.023440e+002 1.723590e-004 1.235622e+002 9.990276e-001 -1.800237e-001
8099610 1.000607e+000 -2.051397e-001 8.292769e-005 3.951863e+001 2.223381e-004 8.125563e+000 9.992519e-001 -2.497609e-001
8399595 1.000131e+000 -1.648163e-001 8.088546e-005 -1.011483e+002 7.875133e-005 1.699968e+002 1.000649e+000 -2.550211e-001
8699580 1.000144e+000 -2.157415e-001 6.475254e-005 -1.430092e+001 5.383795e-005 -1.615673e+002 9.987627e-001 -2.267097e-001
8999565 9.999284e-001 -2.283810e-001 3.408638e-005 1.617424e+001 7.892978e-005 1.218396e+002 1.000288e+000 -3.117697e-001
9299550 9.999601e-001 -2.019418e-001 5.740730e-005 -1.429387e+002 1.486283e-004 -5.252094e+001 9.993091e-001 -2.277204e-001
9599535 9.999271e-001 -2.516643e-001 2.548870e-005 1.163428e+002 1.889559e-004 -2.101211e+001 9.980453e-001 -3.595312e-001
9899520 9.996126e-001 -3.038253e-001 8.793291e-005 -1.557808e+002 5.678187e-005 2.586307e+001 9.978805e-001 -4.786677e-001
10199505 1.000138e+000 -2.424807e-001 6.081443e-005 1.030340e+002 1.020435e-004 1.678421e+002 9.990086e-001 -2.154311e-001
10499490 1.000033e+000 -1.948953e-001 5.144434e-005 1.144761e+002 2.309853e-004 1.376916e+002 9.999081e-001 -2.349716e-001
10799475 9.994383e-001 -1.947287e-001 5.878517e-005 4.382928e+001 1.634543e-004 2.601193e+001 9.994392e-001 -2.200085e-001
11099460 9.998147e-001 -2.046907e-001 8.329231e-005 -1.256075e+002 9.616136e-005 7.002001e+001 9.994756e-001 -1.920385e-001
11399445 1.000179e+000 -1.676444e-001 9.500882e-005 -1.144654e+002 1.400675e-004 1.209816e+002 9.998702e-001 -1.787801e-001
11699430 9.999539e-001 -2.015741e-001 6.830917e-005 -6.791408e+001 6.946349e-005 1.551404e+002 9.989880e-001 -2.150974e-001
11999415 1.000003e+000 -1.827904e-001 1.811580e-005 3.104189e+001 1.157032e-004 3.799520e+001 9.999241e-001 -2.567909e-001
12299400 9.995363e-001 -2.170210e-001 4.675186e-005 -1.104822e+002 1.580759e-004 1.068455e+002 1.001547e+000 -2.419675e-001
12599385 9.993157e-001 -2.281524e-001 1.408178e-004 1.184288e+002 1.340855e-004 1.448911e+002 9.996343e-001 -3.321192e-001
12899370 1.000274e+000 -2.667621e-001 1.154494e-005 5.933200e+000 1.091117e-004 4.139182e+001 9.999252e-001 -3.266739e-001
13199355 9.996467e-001 -2.444015e-001 3.490084e-005 1.502780e+002 7.554037e-005 -1.226107e+002 9.993498e-001 -2.899919e-001
13499340 9.999551e-001 -2.733370e-001 1.235218e-004 8.157437e+001 3.343685e-004 -1.138336e+002 9.982834e-001 -2.663134e-001
13799325 9.998987e-001 -2.811197e-001 8.438242e-005 -1.632206e+002 4.030103e-004 -4.561381e+001 9.985605e-001 -2.136326e-001
14099310 9.999238e-001 -2.785469e-001 1.051282e-004 -1.772062e+002 2.078333e-004 1.400980e+002 1.000007e+000 -2.945847e-001
14399295 1.000276e+000 -2.813846e-001 9.453647e-005 7.077917e+001 1.790704e-004 -1.444589e+002 1.001354e+000 -2.709788e-001
14699280 1.000289e+000 -2.286941e-001 5.265278e-005 1.299011e+002 3.309638e-004 4.768390e+001 9.999736e-001 -2.022181e-001
14999265 9.994677e-001 -2.833753e-001 4.514020e-005 9.245213e+001 1.277122e-004 -1.620226e+002 1.000336e+000 -3.177229e-001
15299250 9.992284e-001 -2.612522e-001 9.385644e-005 1.326759e+002 3.073669e-004 2.954118e+001 9.998581e-001 -3.052929e-001
15599235 1.000012e+000 -2.612108e-001 1.881067e-005 -1.336831e+002 1.743877e-004 -1.331327e+002 1.000479e+000 -3.369977e-001
15899220 1.000260e+000 -2.835706e-001 1.383436e-004 3.340024e+001 2.263358e-004 -5.100642e+001 1.000180e+000 -2.928642e-001
16199205 1.000041e+000 -2.500136e-001 1.901568e-005 6.453862e+001 2.519045e-004 -1.212034e+002 1.001142e+000 -2.941076e-001
16499190 9.996734e-001 -2.636909e-001 8.053693e-005 -1.439812e+002 1.478437e-004 6.659744e+001 1.001439e+000 -2.785685e-001
16799175 9.999067e-001 -2.981183e-001 1.276382e-004 1.670401e+002 4.764453e-005 1.449090e+002 1.001761e+000 -2.673317e-001
17099160 1.000100e+000 -2.726189e-001 5.898716e-005 -1.780959e+002 1.735357e-004 -3.945448e+001 1.000471e+000 -3.362135e-001
17399145 9.998751e-001 -3.328512e-001 1.202726e-004 -9.542772e+001 2.453533e-004 1.268589e+002 1.000068e+000 -2.519225e-001
17699130 9.998524e-001 -3.504113e-001 7.025035e-005 1.086223e+002 2.238648e-004 -1.279042e+000 1.000506e+000 -2.960003e-001
17999115 9.999472e-001 -3.287602e-001 1.296987e-004 -7.859029e+001 2.107710e-004 4.339078e+001 9.997014e-001 -3.862039e-001
18299100 9.994264e-001 -2.730589e-001 4.702418e-005 -1.160684e+002 1.164536e-004 2.527461e+001 1.000741e+000 -3.452119e-001
18599085 9.998227e-001 -3.080437e-001 7.479820e-005 -7.985986e+001 1.432951e-004 2.049668e+001 1.000038e+000 -2.923459e-001
18899070 9.998872e-001 -3.362067e-001 4.094096e-005 -1.794275e+001 2.294149e-004 1.455721e+002 1.001000e+000 -2.874122e-001
19199055 1.000329e+000 -2.983286e-001 1.313738e-005 -1.625828e+002 3.949736e-004 -1.915902e+001 9.992566e-001 -3.149635e-001
19499040 1.000286e+000 -3.498572e-001 1.057632e-004 -6.387231e-001 2.877280e-004 8.161196e+001 9.997004e-001 -2.917021e-001
19799025 9.998705e-001 -2.886295e-001 9.080864e-005 -1.592448e+002 1.135060e-004 -7.203629e+001 9.987009e-001 -3.504966e-001
20099010 1.000333e+000 -3.190493e-001 1.118216e-004 -1.459952e+002 5.315841e-005 1.019227e+002 1.000851e+000 -3.218197e-001
20398995 9.995590e-001 -3.341180e-001 1.230274e-004 -1.156436e+002 1.460629e-004 1.405962e+002 9.993274e-001 -3.740189e-001
20698980 9.994903e-001 -3.257572e-001 6.699849e-005 -1.400690e+002 2.319447e-004 -3.881234e+001 1.000227e+000 -3.234317e-001
20998965 9.992830e-001 -3.300242e-001 1.150547e-004 -1.299853e+002 1.780949e-004 -1.622029e+002 9.991588e-001 -3.526867e-001
21298950 9.994729e-001 -3.280896e-001 4.783406e-005 1.339692e+002 1.446011e-004 4.630256e+001 1.000168e+000 -3.045148e-001
21598935 9.995899e-001 -3.518773e-001 1.307490e-004 2.224861e+001 1.544370e-004 1.783622e+002 9.997175e-001 -2.757497e-001
21898920 9.994415e-001 -3.848224e-001 1.399134e-004 4.505008e+001 2.368863e-004 -1.246346e+002 9.996924e-001 -3.331589e-001
22198905 1.000091e+000 -3.389610e-001 7.897683e-005 -9.346680e+001 4.757718e-004 8.509182e+001 1.000441e+000 -3.288794e-001
22498890 1.000624e+000 -3.385346e-001 8.051770e-005 5.033512e+001 2.669428e-004 -1.330397e+002 1.000937e+000 -3.245644e-001
22798875 9.999225e-001 -3.428824e-001 6.950921e-005 -8.059839e+001 2.929495e-004 3.874730e+001 1.000173e+000 -4.032223e-001
23098860 1.000195e+000 -3.926705e-001 1.214364e-004 -3.694361e+001 8.595137e-005 1.449964e+002 1.000409e+000 -3.785259e-001
23398845 1.000523e+000 -3.455819e-001 9.900676e-005 -1.424759e+002 4.054910e-004 -2.841554e+000 1.000331e+000 -3.212156e-001
23698830 1.000125e+000 -3.706368e-001 1.090439e-005 -1.061504e+002 1.655374e-004 -1.480065e+002 1.000014e+000 -3.505060e-001
23998815 9.995478e-001 -3.773664e-001 6.770679e-005 -1.660400e+002 8.308634e-005 -3.548978e+001 9.988256e-001 -3.798099e-001
24298800 1.000099e+000 -3.996988e-001 1.683945e-004 1.640627e+002 2.056913e-004 1.007385e+002 9.979540e-001 -3.485478e-001
24598785 9.993595e-001 -4.004113e-001 3.084792e-005 -7.836435e+001 3.122430e-004 -1.254427e+002 9.986579e-001 -4.192228e-001
24898770 1.000453e+000 -4.259886e-001 2.384861e-005 6.964663e+001 5.063050e-005 1.219325e+002 1.001113e+000 -3.497812e-001
25198755 9.998378e-001 -4.777544e-001 1.426193e-004 -3.111587e+001 1.430393e-004 -4.020190e+001 9.998994e-001 -3.924794e-001
25498740 9.998424e-001 -4.442264e-001 6.612438e-005 -7.296793e+001 2.475877e-004 1.335520e+002 1.000393e+000 -4.285556e-001
25798725 9.996112e-001 -3.839378e-001 6.082437e-005 1.419587e+002 2.001723e-004 -1.167072e+002 9.998370e-001 -4.644375e-001
26098710 9.999771e-001 -4.267278e-001 1.732438e-004 -7.485997e+001 1.735238e-004 -5.748536e+000 9.994454e-001 -4.470697e-001
26398695 1.001181e+000 -4.188811e-001 1.064800e-004 -5.043730e+000 3.542912e-004 1.151901e+002 1.001242e+000 -4.741141e-001
26698680 1.000371e+000 -4.364749e-001 6.586706e-005 7.679143e+001 2.222420e-004 -4.821780e+001 9.998279e-001 -3.908164e-001
26998665 1.000268e+000 -3.683887e-001 1.566333e-005 -5.801525e+001 1.084652e-004 1.715692e+002 9.990678e-001 -3.961206e-001
27298650 9.996584e-001 -4.146538e-001 7.518951e-005 -9.288290e+001 7.331970e-005 1.321243e+001 1.001013e+000 -4.312871e-001
27598635 1.000544e+000 -4.292557e-001 1.311730e-004 -7.921462e+001 1.735093e-004 4.462786e+001 1.001637e+000 -4.118217e-001
27898620 9.994355e-001 -4.155156e-001 1.330332e-004 1.358003e+002 1.669247e-004 -5.175858e+001 1.001591e+000 -4.735956e-001
28198605 9.998249e-001 -4.708499e-001 2.428024e-005 -7.872779e+000 1.110702e-004 -1.122855e+002 1.002806e+000 -5.045140e-001
28498590 9.992540e-001 -4.296459e-001 1.017343e-004 3.901293e+001 1.132003e-004 -1.490740e+002 1.001176e+000 -4.827907e-001
28798575 9.992946e-001 -4.983817e-001 2.190109e-005 -1.470438e+002 1.520252e-004 1.625849e+002 1.000631e+000 -5.697519e-001
29098560 1.000343e+000 -4.221185e-001 7.984903e-005 -9.264925e+001 7.572798e-005 8.512137e+001 9.999532e-001 -4.358103e-001
29398545 9.991913e-001 -4.255367e-001 1.687988e-004 -1.315416e+002 1.615429e-004 -4.380407e+001 1.000838e+000 -4.618847e-001
29698530 1.000201e+000 -4.505213e-001 3.030847e-005 1.007894e+002 2.260689e-004 1.786384e+002 1.001186e+000 -4.360824e-001
29998515 9.993458e-001 -4.265251e-001 1.142742e-004 5.957955e+001 3.234550e-005 1.360754e+002 1.001556e+000 -4.333423e-001
30298500 9.996942e-001 -4.743399e-001 5.620259e-005 2.767484e+001 1.925545e-004 -1.618576e+002 1.002354e+000 -4.758046e-001
30598485 1.000390e+000 -4.239845e-001 6.812312e-005 7.012448e+001 3.025485e-004 -1.434063e+002 1.000557e+000 -4.405580e-001
30898470 1.000546e+000 -4.558787e-001 4.341208e-005 -1.190517e+002 1.641772e-004 7.782855e+001 9.998347e-001 -5.133049e-001
31198455 1.000328e+000 -4.534884e-001 1.231296e-004 1.664393e+002 3.618282e-004 1.169014e+002 9.991106e-001 -4.434067e-001
31498440 1.000275e+000 -4.795206e-001 1.123039e-004 1.637582e+002 1.225781e-004 -7.808448e+001 1.001377e+000 -4.292403e-001
31798425 1.000887e+000 -4.870052e-001 5.590600e-005 3.226435e+001 1.708886e-004 5.000669e+001 1.000372e+000 -5.514408e-001
32098410 1.000744e+000 -5.197191e-001 6.267989e-005 4.486973e+001 9.997651e-005 -8.803993e+001 1.000834e+000 -4.090803e-001
32398395 1.000601e+000 -5.420502e-001 8.948972e-005 1.504833e+002 1.155583e-004 1.569856e+002 1.001058e+000 -5.134718e-001
32698380 1.000290e+000 -4.925320e-001 9.818962e-006 1.201509e+002 1.989478e-004 -1.298340e+002 1.001588e+000 -4.448045e-001
32998365 1.000870e+000 -5.060229e-001 6.629055e-005 -1.223220e+002 2.611672e-004 5.242726e+001 1.000353e+000 -4.575171e-001
33298350 1.000148e+000 -5.302298e-001 1.073129e-004 1.454415e+002 1.020622e-004 9.951400e+001 9.998676e-001 -4.684192e-001
33598335 9.996199e-001 -4.914778e-001 2.011195e-005 -1.387227e+002 2.016064e-004 1.716973e+001 9.993792e-001 -5.172780e-001
33898320 1.000035e+000 -5.198905e-001 9.153578e-005 1.469186e+002 1.795680e-004 -1.288004e+002 1.000183e+000 -4.987868e-001
34198305 9.996704e-001 -5.407014e-001 5.866685e-005 -6.801627e+001 2.182312e-004 1.116386e+001 1.000296e+000 -5.271004e-001
34498290 9.997511e-001 -5.621380e-001 1.006753e-004 -2.529079e+001 1.888074e-004 1.257504e+002 9.995920e-001 -5.178567e-001
34798275 9.998615e-001 -5.700412e-001 9.371478e-005 1.167574e+002 1.912945e-004 -3.542688e+001 9.988669e-001 -5.164450e-001
35098260 1.000315e+000 -5.365251e-001 8.157910e-005 7.055627e+001 1.280001e-004 1.290942e+002 1.000418e+000 -4.829674e-001
35398245 1.000411e+000 -5.541645e-001 7.782657e-005 1.141719e+002 1.982828e-004 5.376200e+001 1.001511e+000 -4.434994e-001
35698230 9.996713e-001 -5.927905e-001 1.777721e-004 -4.823771e+001 6.357675e-005 6.741037e+000 1.001325e+000 -5.062917e-001
35998215 9.995340e-001 -5.900844e-001 1.359534e-004 -6.428562e+001 1.005036e-004 -1.446146e+002 1.001330e+000 -5.125269e-001
36298200 9.995183e-001 -5.623269e-001 9.545941e-005 1.131368e+002 6.240226e-005 5.684425e+001 1.000554e+000 -5.709186e-001
36598185 1.000134e+000 -5.888523e-001 1.450604e-004 -1.037378e+002 2.730552e-005 7.542895e+001 1.000505e+000 -5.219871e-001
36898170 1.000282e+000 -5.843893e-001 1.875535e-005 3.739386e+001 1.547708e-004 9.001720e+001 1.001355e+000 -5.286431e-001
37198155 1.000139e+000 -5.799929e-001 6.092104e-005 5.732524e+001 1.607674e-004 -1.044926e+002 1.000149e+000 -4.920306e-001
37498140 9.998925e-001 -5.639597e-001 1.189053e-004 7.653295e+001 9.168613e-005 2.605282e+001 1.000954e+000 -5.351100e-001
37798125 1.000010e+000 -5.265381e-001 5.571363e-005 -1.034837e+002 5.316922e-005 1.391318e+002 1.001199e+000 -5.215216e-001
38098110 9.993744e-001 -5.489519e-001 7.904316e-005 -1.664759e+002 1.445416e-004 -3.575650e+000 1.000476e+000 -5.111555e-001
38398095 9.997383e-001 -5.382930e-001 6.619190e-005 5.327587e+001 1.029075e-004 1.153496e+002 1.000599e+000 -5.782382e-001
38698080 9.998282e-001 -5.474553e-001 7.686553e-005 1.608994e+002 8.635135e-005 -3.986922e+001 9.993463e-001 -6.140864e-001
38998065 9.998695e-001 -6.048755e-001 8.833075e-005 6.959278e+001 1.464196e-004 1.348386e+002 9.999649e-001 -6.202420e-001
39298050 1.000604e+000 -5.916283e-001 6.376492e-005 -1.014723e+002 4.075377e-005 7.300715e+001 1.000276e+000 -5.197556e-001
39598035 9.999089e-001 -5.422076e-001 1.168592e-004 -1.324817e+002 1.180554e-004 1.402489e+002 1.001781e+000 -5.135618e-001
39898020 1.001136e+000 -5.799549e-001 6.210934e-005 -5.910256e+001 6.778260e-005 -8.728900e+001 1.001536e+000 -4.260451e-001
40198005 1.000822e+000 -6.236198e-001 1.177823e-004 -7.356631e+001 2.704142e-004 -9.801874e+001 1.002240e+000 -6.584910e-001
40497990 1.000297e+000 -5.921655e-001 1.436538e-004 -1.572495e+002 2.310540e-004 1.651942e+002 1.001737e+000 -6.660613e-001
40797975 1.000160e+000 -5.717753e-001 2.514547e-004 7.597427e+001 1.417269e-004 2.368944e+001 1.000201e+000 -6.661000e-001
41097960 9.996144e-001 -5.971543e-001 6.782173e-005 -1.488466e+002 2.334719e-004 -1.449094e+002 9.997194e-001 -6.050334e-001
41397945 9.987084e-001 -5.391934e-001 1.180804e-004 -7.582504e+001 1.380644e-004 -9.774845e+001 1.001071e+000 -5.286118e-001
41697930 9.998158e-001 -5.169761e-001 1.067852e-004 -1.732547e+002 1.695865e-004 -1.614629e+002 9.999607e-001 -4.464607e-001
41997915 9.994128e-001 -6.348357e-001 5.308186e-005 1.523185e+000 4.236019e-004 1.579590e+002 1.001158e+000 -5.701109e-001
42297900 9.995418e-001 -6.162893e-001 4.143796e-005 3.429221e+001 1.001369e-004 1.564800e+002 1.000110e+000 -5.153459e-001
42597885 9.999532e-001 -6.085866e-001 5.017264e-005 1.478605e+002 2.156960e-004 -1.588983e+002 1.001695e+000 -5.078942e-001
42897870 1.001498e+000 -6.450289e-001 1.814398e-004 -7.936055e+000 9.755448e-005 1.113749e+002 1.001099e+000 -6.419014e-001
43197855 1.000047e+000 -5.869692e-001 9.183767e-005 8.623893e+001 1.137746e-004 7.407171e+001 1.001540e+000 -6.188868e-001
43497840 1.000956e+000 -6.682130e-001 1.288364e-004 1.106164e+002 3.204521e-004 -5.485871e+001 1.001148e+000 -6.536687e-001
43797825 1.000502e+000 -6.435222e-001 1.931666e-004 4.260488e+000 1.674516e-004 1.647336e+002 1.000876e+000 -6.689259e-001
44097810 1.000474e+000 -6.837140e-001 1.197478e-004 -3.420179e+001 1.128550e-004 -7.629622e+001 1.001749e+000 -6.784874e-001
44397795 1.000528e+000 -6.522421e-001 1.285894e-004 1.466895e+002 7.967903e-005 -2.304103e+001 1.002136e+000 -6.862946e-001
44697780 1.000982e+000 -6.163448e-001 1.874871e-004 -1.315862e+002 2.503998e-004 -8.177758e+001 1.002216e+000 -7.148660e-001
44997765 1.000669e+000 -6.594034e-001 6.548582e-005 -6.408443e+000 2.634441e-004 -1.307955e+002 1.004163e+000 -7.367297e-001
45297750 1.000724e+000 -7.163545e-001 1.019840e-004 7.918106e+001 2.436524e-004 -6.580721e+001 1.002155e+000 -6.123644e-001
45597735 1.001441e+000 -6.532837e-001 3.615315e-005 -6.522935e+001 3.523261e-004 -1.198524e+002 1.003989e+000 -6.913137e-001
45897720 1.000253e+000 -6.304734e-001 1.476058e-004 1.460879e+002 1.534662e-004 -1.102739e+002 1.004680e+000 -6.463357e-001
46197705 1.001370e+000 -7.094818e-001 8.947442e-005 -8.690729e+001 3.633326e-004 -1.217052e+002 1.002482e+000 -7.505487e-001
46497690 1.000886e+000 -6.664228e-001 2.019880e-004 8.979444e+001 1.187994e-004 1.483639e+002 1.001890e+000 -6.787008e-001
46797675 1.000045e+000 -6.503716e-001 1.366172e-004 -7.687432e+001 2.530136e-004 -8.868015e+001 1.002662e+000 -7.474043e-001
47097660 1.001360e+000 -7.058138e-001 2.723690e-004 -9.723412e+001 2.131295e-004 8.042876e+001 1.001856e+000 -7.482003e-001
47397645 1.000655e+000 -7.128560e-001 1.143957e-004 1.268330e+002 2.064970e-004 6.039331e+001 1.002579e+000 -7.884601e-001
