!Agilent Technologies,N5230C,SG49000117,A.08.50.07
!Agilent N5230C: A.08.50.07
!Date: Thursday, May 16, 2024 17:48:28
!Correction: S11(Full 2 Port(1,2)) 
!S21(Full 2 Port(1,2)) 
!S12(Full 2 Port(1,2)) 
!S22(Full 2 Port(1,2)) 
!S2P File: Measurements: S11, S21, S12, S22:
# Hz S  MA   R 50
300000 1.007456e+000 -4.600817e-001 1.286838e-004 6.084283e+001 4.412123e-004 4.217667e+001 1.012594e+000 -8.058697e-001
599985 9.828488e-001 2.630365e-001 5.936361e-005 -1.761923e+002 6.502710e-005 1.355316e+002 9.654511e-001 3.558829e-001
899970 9.966291e-001 -1.176703e-001 1.557016e-005 5.235910e+001 1.157397e-004 7.785879e+001 9.838748e-001 -3.952552e-001
1199955 9.976499e-001 -8.357045e-002 9.864036e-005 1.465397e+002 1.126263e-004 -7.501491e+001 9.961970e-001 -1.934613e-001
1499940 9.941335e-001 7.748282e-002 8.916906e-005 1.508299e+002 1.195430e-004 1.769280e+002 9.935246e-001 8.750094e-002
1799925 9.921845e-001 2.085609e-001 5.671564e-005 -1.657968e+002 2.847534e-004 -9.843063e+001 9.908128e-001 -1.858891e-002
2099910 9.989108e-001 -3.339779e-002 1.063941e-004 6.770305e+000 1.913642e-004 -8.254640e+000 9.991343e-001 4.249429e-002
2399895 9.995770e-001 -1.736861e-001 8.690762e-005 8.686762e+001 1.799691e-004 1.075400e+002 1.003755e+000 -4.073036e-002
2699880 9.996617e-001 -2.817074e-001 9.653017e-005 -9.880988e+001 1.369367e-004 -6.525538e+001 9.959068e-001 -2.731583e-001
2999865 9.998278e-001 -1.870158e-001 5.822910e-005 3.799846e+000 7.719312e-005 -2.274671e+001 9.988658e-001 -1.418674e-001
3299850 1.000566e+000 -1.624600e-001 5.960082e-005 -1.071378e+002 1.103502e-004 -5.393099e+001 9.988420e-001 -2.163691e-001
3599835 9.999103e-001 -1.738078e-001 5.222624e-005 -3.206292e+001 1.872270e-004 8.220261e+001 9.982398e-001 -1.310179e-001
3899820 9.998400e-001 -2.037080e-001 5.547357e-005 1.453741e+002 3.259104e-005 5.714775e+000 9.991168e-001 -2.238400e-001
4199805 1.000511e+000 -2.722784e-001 5.983959e-005 -1.008097e+002 5.930791e-005 -1.166795e+001 1.000116e+000 -1.730781e-001
4499790 1.000281e+000 -2.255127e-001 7.537359e-005 -1.730250e+002 1.475884e-004 -1.405240e+002 1.000187e+000 -1.295544e-001
4799775 1.000254e+000 -2.172127e-001 1.526561e-005 9.542287e+000 5.055216e-005 -1.726340e+002 1.000558e+000 -1.481416e-001
5099760 1.000594e+000 -1.859580e-001 2.959645e-005 -1.480777e+002 4.453959e-005 1.141363e+002 1.001250e+000 -1.512745e-001
5399745 1.000092e+000 -1.974308e-001 9.050509e-005 -1.475412e+002 9.011949e-005 -2.385019e+000 1.000058e+000 -1.462835e-001
5699730 1.000050e+000 -1.974877e-001 7.621320e-005 -5.622844e+001 2.046770e-004 -7.566722e+001 1.001780e+000 -1.646149e-001
5999715 9.996870e-001 -1.965277e-001 7.000067e-005 -6.326529e+001 1.236771e-004 -4.673558e+001 1.000804e+000 -1.030613e-001
6299700 9.999419e-001 -2.077805e-001 8.727129e-005 1.481901e+001 1.459410e-004 -9.919650e+001 1.001016e+000 -1.900676e-001
6599685 9.997994e-001 -2.359713e-001 9.371374e-005 9.357703e+001 4.038096e-005 5.794706e+001 9.999038e-001 -1.861274e-001
6899670 9.993313e-001 -2.411796e-001 2.676755e-005 7.339014e+001 1.963059e-004 1.288311e+002 9.997374e-001 -1.932078e-001
7199655 9.995233e-001 -2.677552e-001 2.698599e-005 -2.194415e+001 8.949800e-005 4.461434e+000 9.994929e-001 -2.076251e-001
7499640 9.999985e-001 -2.766532e-001 7.084035e-005 9.055729e+000 9.139648e-005 1.607199e+002 1.000331e+000 -3.076566e-001
7799625 1.000042e+000 -2.540920e-001 5.746052e-005 2.837307e+001 9.597488e-005 -1.413749e+002 9.993589e-001 -2.009417e-001
8099610 1.000148e+000 -2.625758e-001 4.644534e-005 -1.462839e+002 2.045556e-004 -3.322844e-001 1.000147e+000 -2.635706e-001
8399595 9.996589e-001 -2.289814e-001 3.184790e-005 1.131909e+002 3.528547e-005 1.389434e+002 9.998550e-001 -2.712084e-001
8699580 9.996230e-001 -2.597541e-001 9.405841e-005 1.676192e+002 1.921705e-005 -1.012414e+002 1.000038e+000 -2.835478e-001
8999565 9.999230e-001 -2.974865e-001 6.901754e-005 8.655715e+001 5.302589e-005 -8.366797e+001 9.994855e-001 -2.284925e-001
9299550 9.998774e-001 -3.172917e-001 9.752342e-006 9.651900e+001 2.228901e-004 5.479020e+001 9.997523e-001 -2.306744e-001
9599535 9.998004e-001 -3.215314e-001 5.794339e-005 1.617803e+002 4.213149e-005 -1.015800e+001 9.980187e-001 -3.717608e-001
9899520 9.994361e-001 -4.353098e-001 3.704639e-005 -7.277116e+001 3.456269e-005 -1.057116e+002 9.979833e-001 -4.324487e-001
10199505 9.996210e-001 -3.162555e-001 7.339087e-005 -8.663982e+001 5.225071e-006 -1.423604e+002 9.993789e-001 -2.056552e-001
10499490 9.996936e-001 -2.949134e-001 3.908836e-005 3.534771e+001 1.048797e-004 -5.404213e+001 9.993646e-001 -2.365033e-001
10799475 9.994620e-001 -2.741967e-001 6.351760e-005 3.345369e+001 1.138767e-004 -5.076635e+001 9.999839e-001 -1.326468e-001
11099460 9.994599e-001 -3.007136e-001 4.777541e-005 -1.301566e+002 1.324046e-004 -2.418444e+001 9.993324e-001 -2.396000e-001
11399445 9.997510e-001 -3.120163e-001 1.005444e-004 -7.151819e+001 1.122829e-004 -1.139056e+002 9.994502e-001 -2.038071e-001
11699430 9.996056e-001 -3.464193e-001 8.928798e-005 -1.258586e+002 1.315008e-004 -1.178584e+002 1.001074e+000 -1.799897e-001
11999415 9.998490e-001 -3.183976e-001 5.272946e-005 8.872079e+001 1.948619e-004 -5.241045e+001 1.000273e+000 -2.038769e-001
12299400 9.994500e-001 -3.163413e-001 3.261036e-005 -1.460582e+002 9.656632e-005 -2.595517e+001 1.001883e+000 -2.128469e-001
12599385 9.994703e-001 -3.374590e-001 4.751107e-005 -1.243663e+002 1.326380e-004 -4.283789e+001 9.996489e-001 -2.509438e-001
12899370 1.000434e+000 -3.729253e-001 5.032695e-005 -2.760450e+001 1.329982e-004 -1.599593e+002 1.000849e+000 -3.293869e-001
13199355 9.997185e-001 -3.866805e-001 2.623663e-005 -1.122668e+002 2.080102e-004 1.229444e+002 9.993266e-001 -3.266646e-001
13499340 9.998766e-001 -3.851870e-001 9.497036e-006 1.881177e+001 1.320944e-004 1.075497e+002 9.984310e-001 -2.547657e-001
13799325 9.998404e-001 -3.975545e-001 1.354179e-005 -9.525821e+001 2.205084e-004 -1.706273e+002 9.988280e-001 -2.507951e-001
14099310 9.998356e-001 -3.935732e-001 2.643679e-005 -1.270747e+002 1.746608e-004 5.586298e+001 1.000373e+000 -2.684816e-001
14399295 1.000222e+000 -3.968052e-001 6.207140e-005 -3.259496e+001 1.658941e-004 -1.451108e+002 1.000986e+000 -3.336270e-001
14699280 1.000108e+000 -3.876617e-001 6.393499e-005 6.977629e+001 3.184413e-004 -1.598722e+001 9.995914e-001 -2.959260e-001
14999265 9.999141e-001 -4.103564e-001 7.604504e-005 -1.006166e+002 2.604105e-004 -1.489390e+002 9.995029e-001 -3.422172e-001
15299250 9.996533e-001 -4.411340e-001 4.449606e-005 6.264078e+001 2.492061e-004 8.446636e+001 9.989644e-001 -2.955664e-001
15599235 9.997429e-001 -4.223896e-001 2.639461e-005 -1.404249e+002 1.033301e-004 1.595470e+002 9.986689e-001 -3.220073e-001
15899220 1.000123e+000 -4.486977e-001 1.255539e-004 1.016020e+002 2.494736e-004 -2.652144e+001 9.999186e-001 -2.091576e-001
16199205 9.994511e-001 -4.313991e-001 8.156023e-005 4.348927e+001 2.273401e-004 8.466827e+001 1.000861e+000 -2.354260e-001
16499190 1.000016e+000 -4.100588e-001 1.005841e-004 -1.540353e+002 1.386679e-004 -1.003978e+002 1.001238e+000 -1.795482e-001
16799175 1.000058e+000 -4.023873e-001 3.948310e-005 -1.760997e+002 1.701819e-004 3.276628e+001 1.001878e+000 -2.814957e-001
17099160 1.000181e+000 -4.627221e-001 9.624787e-005 1.155134e+002 1.026497e-004 -3.040695e+001 1.001153e+000 -3.665045e-001
17399145 9.998502e-001 -4.574834e-001 2.975838e-005 -1.530133e+002 9.887543e-005 -7.570587e+001 1.000211e+000 -3.325073e-001
17699130 9.999810e-001 -4.747240e-001 6.407007e-005 -1.539531e+002 2.205489e-004 1.378444e+002 1.001775e+000 -2.712416e-001
17999115 9.998503e-001 -4.752277e-001 4.047694e-005 -6.231870e+001 1.217766e-004 -1.088533e+002 1.000621e+000 -3.375531e-001
18299100 9.995972e-001 -4.243339e-001 1.278606e-005 1.435208e+002 1.300374e-004 9.843870e+001 9.999432e-001 -2.913085e-001
18599085 9.997694e-001 -4.766643e-001 8.515929e-005 -7.625818e+001 2.022540e-004 -1.060241e+002 9.995986e-001 -2.758401e-001
18899070 9.998459e-001 -4.969507e-001 7.419260e-005 -9.447028e+000 1.857846e-004 1.183742e+002 9.999361e-001 -2.239490e-001
19199055 9.994891e-001 -5.075694e-001 1.447224e-005 -1.250059e+002 1.483320e-004 -1.608859e+002 1.000193e+000 -3.310466e-001
19499040 9.993724e-001 -4.918681e-001 7.411932e-005 -1.155958e+002 1.700945e-004 1.348089e+002 9.993220e-001 -2.613499e-001
19799025 1.000498e+000 -5.031070e-001 9.085865e-005 -1.161459e+002 2.886568e-004 -1.445793e+002 9.992657e-001 -2.661739e-001
20099010 9.993736e-001 -4.678637e-001 4.403777e-005 1.209241e+002 2.236108e-004 -3.270340e+001 9.998802e-001 -2.606852e-001
20398995 9.992884e-001 -5.169418e-001 8.375576e-005 -5.509605e+001 1.198528e-004 -1.129117e+002 9.993452e-001 -3.512149e-001
20698980 9.992105e-001 -5.438160e-001 6.057797e-005 8.131082e+001 1.717392e-004 6.527830e+001 9.989004e-001 -3.775949e-001
20998965 9.991767e-001 -5.145319e-001 1.013177e-004 -3.833361e+001 1.651046e-004 1.447173e+002 9.984935e-001 -2.532104e-001
21298950 9.999283e-001 -5.168443e-001 4.827024e-005 -1.012053e+002 9.520100e-005 -4.742885e+001 9.980828e-001 -2.543953e-001
21598935 9.994617e-001 -5.612918e-001 1.016521e-004 7.591612e+001 1.590442e-004 1.627316e+002 9.990661e-001 -3.248841e-001
21898920 9.990764e-001 -6.372716e-001 4.548611e-005 -1.409533e+002 1.182700e-004 -1.066763e+002 9.986458e-001 -3.137805e-001
22198905 9.996410e-001 -5.827016e-001 1.576077e-004 -4.198772e+001 3.989185e-004 1.781507e+002 1.000400e+000 -3.304968e-001
22498890 9.999154e-001 -5.492264e-001 6.051976e-005 1.124940e+002 1.634703e-004 1.611571e+002 1.000785e+000 -3.723554e-001
22798875 9.999242e-001 -5.565761e-001 1.150017e-004 5.243436e+001 1.877313e-004 6.358965e+001 1.001368e+000 -3.105543e-001
23098860 9.998416e-001 -5.481396e-001 1.513336e-004 6.904523e+001 7.851711e-005 -4.972780e+001 1.000422e+000 -4.413284e-001
23398845 1.000311e+000 -6.083888e-001 5.211988e-005 9.464572e+001 2.275742e-004 1.565689e+002 9.998307e-001 -3.108413e-001
23698830 9.997877e-001 -6.172365e-001 5.932511e-005 -5.364238e+001 4.134124e-004 -1.410674e+002 9.988904e-001 -3.412512e-001
23998815 1.000220e+000 -6.143731e-001 1.003451e-004 -2.656496e+001 2.158240e-004 1.206247e+002 9.991954e-001 -3.753966e-001
24298800 9.997315e-001 -6.312851e-001 6.390749e-005 3.060229e+001 3.431302e-004 -9.578841e+001 1.000158e+000 -3.901015e-001
24598785 9.997069e-001 -6.229039e-001 2.565684e-005 1.718185e+001 1.132115e-004 1.681218e+002 9.998500e-001 -3.615316e-001
24898770 9.995530e-001 -6.406391e-001 6.016317e-005 5.308663e+001 2.029105e-004 1.308053e+002 1.001474e+000 -3.984917e-001
25198755 1.000011e+000 -6.872411e-001 7.305863e-005 4.575085e+001 1.299643e-004 1.550934e+002 1.000259e+000 -4.453073e-001
25498740 1.000749e+000 -6.636988e-001 8.987134e-005 1.750710e+000 2.156304e-004 1.473432e+002 1.000679e+000 -4.314325e-001
25798725 9.999701e-001 -6.834124e-001 1.035464e-004 -1.912399e+001 1.872857e-004 -9.137656e+001 9.998707e-001 -4.480350e-001
26098710 9.993644e-001 -6.226396e-001 1.101004e-004 1.416825e+002 4.077551e-004 1.020936e+002 9.995158e-001 -4.079434e-001
26398695 1.000317e+000 -6.780021e-001 1.316004e-004 -6.576637e+001 2.883923e-004 -8.481862e+001 1.000993e+000 -4.422310e-001
26698680 1.000392e+000 -6.082556e-001 7.275835e-005 -5.301244e+001 2.423139e-004 3.258381e+001 9.999877e-001 -4.014210e-001
26998665 1.000175e+000 -6.409889e-001 7.596351e-005 -3.402186e+001 9.986829e-005 -1.499844e+002 9.995048e-001 -3.854179e-001
27298650 9.993260e-001 -6.398720e-001 9.238891e-005 -4.347752e+001 1.690802e-004 1.520692e+002 1.000515e+000 -4.326729e-001
27598635 1.000034e+000 -6.699918e-001 9.626972e-005 -3.805877e+001 1.036994e-004 1.154142e+002 1.001204e+000 -4.701154e-001
27898620 1.000157e+000 -6.872346e-001 3.321952e-005 -3.834137e+001 3.542579e-004 -9.552708e+000 1.002356e+000 -4.204049e-001
28198605 9.994610e-001 -6.986400e-001 5.219839e-005 1.440904e+002 1.771461e-004 1.733066e+002 1.001047e+000 -4.322869e-001
28498590 9.999800e-001 -6.902225e-001 8.239159e-005 -3.102281e+001 1.239121e-004 -4.092060e+001 1.000222e+000 -4.948383e-001
28798575 9.998149e-001 -7.535574e-001 4.678865e-005 -6.237657e+001 4.039306e-005 -1.800474e+001 9.993857e-001 -5.043656e-001
29098560 9.991941e-001 -7.103690e-001 1.250897e-004 5.435530e+000 2.661863e-004 -7.430786e+001 1.000684e+000 -4.863472e-001
29398545 9.997364e-001 -7.279919e-001 3.203241e-005 -2.644519e+001 3.847645e-004 9.286813e+001 1.000943e+000 -4.266241e-001
29698530 9.994614e-001 -6.508211e-001 8.125845e-005 1.298860e+001 1.279192e-004 -9.577785e+001 1.000979e+000 -4.617280e-001
29998515 9.996544e-001 -7.361696e-001 1.043470e-004 -1.230792e+002 2.720457e-004 4.326563e+001 1.001591e+000 -4.661113e-001
30298500 9.997746e-001 -7.421453e-001 7.423515e-005 4.029076e+001 2.338945e-004 1.684937e+002 1.000903e+000 -4.671642e-001
30598485 9.995700e-001 -7.528584e-001 4.923786e-005 1.572894e+002 2.287021e-004 -3.292848e+001 1.001682e+000 -4.764269e-001
30898470 9.997612e-001 -7.283685e-001 3.049249e-005 -1.289468e+002 3.239223e-004 1.764748e+002 9.998304e-001 -4.945412e-001
31198455 9.997420e-001 -7.318870e-001 4.938107e-005 -6.668293e+001 1.882177e-004 3.366732e+001 9.996414e-001 -4.420341e-001
31498440 9.999840e-001 -7.542926e-001 7.441024e-005 -2.356822e+001 1.705684e-004 1.184004e+002 1.000497e+000 -4.257869e-001
31798425 9.997056e-001 -8.091815e-001 1.577051e-004 -1.630040e+002 4.399499e-004 -8.505758e+001 1.001891e+000 -4.728998e-001
32098410 1.000488e+000 -8.134454e-001 1.079370e-004 -4.246671e+001 2.686433e-004 1.096520e+002 1.001263e+000 -4.092355e-001
32398395 1.000145e+000 -7.631519e-001 5.994039e-005 -8.392409e+001 1.257526e-004 -1.380703e+002 1.001663e+000 -4.484466e-001
32698380 1.001064e+000 -7.812647e-001 1.225284e-004 2.277816e+001 2.343561e-004 4.258135e+001 9.997902e-001 -4.467949e-001
32998365 1.000029e+000 -7.932575e-001 4.007794e-005 3.994191e+001 1.573343e-004 -1.362935e+002 1.000859e+000 -4.648575e-001
33298350 1.000322e+000 -7.936259e-001 2.199647e-005 -5.213941e+000 1.718540e-004 1.284995e+001 1.000609e+000 -4.843253e-001
33598335 9.997566e-001 -8.022878e-001 5.367561e-005 1.678710e+001 1.127410e-004 -1.491828e+002 9.998881e-001 -4.420269e-001
33898320 9.992491e-001 -8.796736e-001 9.069950e-005 -1.376493e+002 2.360749e-004 -1.763197e+001 1.000710e+000 -4.799113e-001
34198305 9.986247e-001 -8.370162e-001 5.467012e-005 4.359246e+001 1.123000e-004 -1.980252e+001 9.995866e-001 -4.487329e-001
34498290 9.994605e-001 -8.669642e-001 2.399893e-005 1.227538e+002 1.008010e-004 -1.444004e+002 9.999706e-001 -4.910577e-001
34798275 9.990796e-001 -8.572314e-001 1.735808e-004 -7.223896e+001 1.861070e-004 9.680592e+001 9.987006e-001 -5.338343e-001
35098260 9.999174e-001 -9.225789e-001 9.279892e-005 -1.528132e+002 1.883372e-004 -4.727946e+001 1.000228e+000 -4.730555e-001
35398245 1.000219e+000 -9.087391e-001 6.339538e-005 -3.474377e+001 1.171798e-004 -3.056919e+001 1.001017e+000 -5.054691e-001
35698230 9.997898e-001 -9.404776e-001 6.015955e-005 1.351402e+002 1.821064e-004 -6.434462e+001 1.001569e+000 -5.056357e-001
35998215 9.995773e-001 -8.740211e-001 9.830663e-005 1.112827e+002 8.082294e-005 5.048101e+001 9.998634e-001 -5.304385e-001
36298200 9.999577e-001 -8.725737e-001 7.882818e-005 -1.123330e+002 1.819863e-004 -8.543523e+001 1.000888e+000 -5.701476e-001
36598185 1.000109e+000 -9.136062e-001 6.432567e-005 1.448488e+002 2.049478e-004 1.018242e+002 1.000795e+000 -5.128155e-001
36898170 1.000344e+000 -8.843187e-001 6.245431e-005 -4.562168e+001 2.133464e-004 -1.722578e+002 1.001070e+000 -5.431460e-001
37198155 1.000098e+000 -8.883221e-001 4.457039e-005 1.661794e+002 2.338647e-004 7.706467e+001 1.000353e+000 -5.184821e-001
37498140 1.000246e+000 -9.311914e-001 4.483563e-005 7.184944e+001 1.439085e-004 -1.541073e+002 1.000616e+000 -4.800030e-001
37798125 9.999673e-001 -9.399552e-001 9.235903e-005 6.534489e+001 1.511121e-004 1.954613e+001 1.000883e+000 -5.217929e-001
38098110 9.998999e-001 -9.261525e-001 6.589610e-005 -8.971231e+000 1.419108e-004 1.442315e+002 1.000507e+000 -5.370059e-001
38398095 9.991641e-001 -9.438418e-001 5.933320e-005 -1.223643e+002 9.629374e-005 -4.974182e+001 1.000333e+000 -6.149534e-001
38698080 9.999062e-001 -9.470848e-001 1.296546e-004 6.288112e+001 1.573598e-004 1.201864e+002 1.000071e+000 -6.350182e-001
38998065 9.995195e-001 -9.320064e-001 6.325053e-005 9.973442e+001 2.614900e-004 -7.008257e+001 9.998961e-001 -5.352325e-001
39298050 1.000147e+000 -9.434848e-001 1.097657e-004 -1.682467e+002 9.733228e-005 1.190807e+002 9.993967e-001 -5.252998e-001
39598035 1.000191e+000 -9.246406e-001 6.410133e-005 5.715617e+001 3.863282e-005 5.033660e+001 1.000924e+000 -5.091113e-001
39898020 1.000564e+000 -9.329906e-001 5.702462e-005 6.019863e+000 1.517312e-004 4.830139e+001 1.001745e+000 -4.358986e-001
40198005 9.997637e-001 -1.034077e+000 1.144990e-004 -1.642960e+002 3.267649e-004 3.835931e+001 1.002091e+000 -5.849551e-001
40497990 1.000407e+000 -9.276989e-001 2.230275e-004 -9.469255e+001 4.409429e-004 6.333619e+001 1.000411e+000 -7.218574e-001
40797975 9.987385e-001 -1.076861e+000 1.387444e-004 3.701117e+001 1.212743e-004 3.959390e+001 1.002276e+000 -6.785986e-001
41097960 9.999330e-001 -9.597629e-001 9.292092e-005 -1.598839e+002 2.054942e-004 1.253004e+001 1.001673e+000 -6.143394e-001
41397945 9.992179e-001 -9.672478e-001 2.039829e-004 8.817579e+001 4.652536e-004 -2.604835e+001 1.002457e+000 -5.345063e-001
41697930 9.994783e-001 -9.195594e-001 2.452763e-004 -6.841393e+001 1.426943e-004 2.773898e+001 1.002820e+000 -4.496395e-001
41997915 9.998562e-001 -9.586380e-001 1.266513e-004 -1.669060e+001 2.548312e-004 -1.115323e+002 1.002143e+000 -4.949363e-001
42297900 1.000143e+000 -9.714864e-001 8.858952e-005 2.309598e+001 5.377597e-005 1.232850e+002 1.001100e+000 -5.361129e-001
42597885 1.000847e+000 -1.003103e+000 2.814008e-005 -3.831948e+001 3.581076e-005 -1.264713e+002 1.002593e+000 -6.106989e-001
42897870 1.000387e+000 -9.826180e-001 1.736803e-005 -4.979251e+001 3.504420e-004 -1.499188e+002 1.000920e+000 -6.089534e-001
43197855 1.000486e+000 -9.969491e-001 3.227984e-004 -1.222725e+001 2.619658e-004 1.748835e+002 1.000813e+000 -6.551045e-001
43497840 1.000029e+000 -1.018520e+000 1.305236e-004 6.861163e+001 1.871664e-004 -1.556354e+002 1.001135e+000 -7.020419e-001
43797825 1.000305e+000 -1.021755e+000 2.631377e-004 -1.488419e+002 1.755131e-004 7.517454e+001 1.000769e+000 -7.245935e-001
44097810 1.000196e+000 -1.037141e+000 1.628306e-004 -2.875376e+001 8.131607e-005 -2.014166e+001 9.993808e-001 -7.310126e-001
44397795 1.000294e+000 -1.062755e+000 2.447605e-004 4.545251e+001 2.804163e-004 1.626157e+001 1.001132e+000 -7.729090e-001
44697780 1.001264e+000 -1.041161e+000 8.182140e-005 -7.322401e+001 1.598480e-004 -2.630895e+000 1.001418e+000 -7.060862e-001
44997765 1.000248e+000 -1.088051e+000 1.133206e-004 -1.523168e+002 2.431462e-004 -9.518262e+000 1.002638e+000 -7.409044e-001
45297750 1.000470e+000 -1.091779e+000 2.105968e-004 3.152952e+001 9.893709e-005 -1.711831e+002 1.003125e+000 -6.468452e-001
45597735 9.995118e-001 -1.104486e+000 1.639997e-004 2.179041e+001 1.670273e-004 -1.268215e+002 1.003665e+000 -7.323825e-001
45897720 1.001415e+000 -1.106919e+000 1.094915e-005 7.927745e+001 2.449673e-004 -3.596478e+001 1.004376e+000 -7.368826e-001
46197705 1.000448e+000 -1.115552e+000 2.500592e-005 2.903485e+000 2.035976e-004 -2.851196e+001 1.002309e+000 -7.180635e-001
46497690 1.000618e+000 -1.049799e+000 1.839393e-004 1.781031e+002 2.638921e-004 -1.320616e+002 1.000607e+000 -6.303776e-001
46797675 1.000679e+000 -1.124370e+000 1.408669e-004 -1.319399e+002 1.476238e-004 -1.307323e+002 1.001905e+000 -6.504650e-001
47097660 1.000865e+000 -1.094090e+000 7.543072e-005 -1.068619e+002 1.795422e-004 -1.500106e+002 1.002178e+000 -8.171497e-001
