!Agilent Technologies,N5230C,SG49000117,A.08.50.07
!Agilent N5230C: A.08.50.07
!Date: Thursday, May 16, 2024 17:49:23
!Correction: S11(Full 2 Port(1,2)) 
!S21(Full 2 Port(1,2)) 
!S12(Full 2 Port(1,2)) 
!S22(Full 2 Port(1,2)) 
!S2P File: Measurements: S11, S21, S12, S22:
# Hz S  MA   R 50
300000 1.008168e+000 -5.709066e-001 7.597368e-005 -3.905411e-001 3.055242e-004 6.809781e+001 1.011288e+000 -9.001594e-001
599985 9.832308e-001 3.090656e-001 6.839549e-005 1.768333e+001 2.099882e-004 -1.764300e+002 9.661194e-001 3.722241e-001
899970 9.966092e-001 -8.269962e-002 1.950640e-005 8.490829e+001 1.798574e-005 -2.943564e+001 9.856149e-001 -3.493048e-001
1199955 9.984947e-001 -9.317803e-002 8.357377e-005 1.462036e+002 1.027576e-004 -1.231269e+002 9.953856e-001 -1.655276e-001
1499940 9.935592e-001 1.015010e-001 3.970985e-005 1.125780e+002 1.668234e-004 7.220026e+001 9.931485e-001 9.735225e-002
1799925 9.915805e-001 1.673031e-001 5.166754e-005 -1.654311e+002 1.673002e-004 -4.673896e+000 9.906892e-001 2.073968e-002
2099910 9.988990e-001 -6.774252e-002 1.169057e-004 2.732055e+001 3.177586e-005 1.264698e+002 9.986417e-001 4.257902e-002
2399895 9.988226e-001 -1.819710e-001 6.028884e-005 6.861089e+001 1.074035e-004 1.422532e+002 1.004555e+000 9.130749e-003
2699880 9.995791e-001 -2.833807e-001 3.818350e-005 -4.549557e+001 1.064265e-004 -2.618629e+000 9.964451e-001 -2.469334e-001
2999865 9.998304e-001 -1.800156e-001 6.610679e-005 1.656292e+002 1.237005e-004 1.045659e+002 9.973866e-001 -1.953804e-001
3299850 9.998045e-001 -1.798161e-001 6.013371e-005 1.403026e+002 1.268091e-004 1.174247e+002 9.991185e-001 -2.009405e-001
3599835 9.994731e-001 -2.001222e-001 3.641157e-005 1.522395e+002 5.176428e-005 1.617041e+002 9.989847e-001 -2.001203e-001
3899820 9.989759e-001 -2.189686e-001 5.179538e-005 6.971503e+001 1.114095e-004 -2.711425e+001 9.995083e-001 -1.636387e-001
4199805 1.000109e+000 -2.669703e-001 4.951957e-005 -1.004328e+002 1.593456e-004 1.695110e+002 1.000645e+000 -1.922992e-001
4499790 9.995363e-001 -2.426708e-001 3.354422e-005 3.131961e+001 1.377407e-004 -2.555790e+001 1.001286e+000 -2.061628e-001
4799775 1.000018e+000 -2.374321e-001 8.665598e-005 3.804143e+001 1.142001e-004 1.077758e+002 1.000567e+000 -2.237954e-001
5099760 1.000065e+000 -2.316775e-001 4.074477e-005 -1.440332e+002 2.175004e-004 1.748116e+002 1.001072e+000 -1.953297e-001
5399745 9.999570e-001 -2.226897e-001 2.979135e-005 -1.404925e+002 1.053731e-004 -1.028630e+001 1.000811e+000 -1.178371e-001
5699730 9.994113e-001 -2.197328e-001 1.923438e-005 -8.582365e+001 1.273107e-004 -1.780681e+002 1.001700e+000 -8.644880e-002
5999715 9.989730e-001 -1.824998e-001 4.496493e-005 -4.691819e+001 9.248098e-005 1.550187e+002 1.000380e+000 -1.267218e-001
6299700 9.996953e-001 -2.587371e-001 6.074302e-005 6.997320e+001 9.368937e-005 7.270942e+001 1.000698e+000 -1.308887e-001
6599685 9.994344e-001 -2.164405e-001 2.817166e-005 -2.153592e+001 1.845640e-004 1.773788e+002 1.000626e+000 -1.710385e-001
6899670 9.994352e-001 -2.323210e-001 3.432792e-005 6.904321e+001 1.037711e-004 -4.088744e+001 9.998847e-001 -2.166639e-001
7199655 9.992176e-001 -2.619336e-001 3.113225e-005 1.750481e+002 1.823745e-004 1.234395e+002 1.000586e+000 -2.312527e-001
7499640 9.991778e-001 -2.958105e-001 3.428237e-005 -1.552923e+002 2.261146e-004 -4.526710e+001 9.994304e-001 -3.056383e-001
7799625 9.997032e-001 -2.887467e-001 3.740974e-005 1.023392e+002 1.172707e-004 -1.722507e+002 9.990988e-001 -1.970047e-001
8099610 9.998102e-001 -2.893705e-001 2.331988e-005 8.058819e+001 4.059117e-005 -5.716604e+000 9.996411e-001 -2.567468e-001
8399595 9.994830e-001 -2.988437e-001 2.347265e-005 -7.566965e+001 1.452922e-004 4.496388e+001 1.000064e+000 -2.260658e-001
8699580 9.995286e-001 -2.822507e-001 1.703462e-005 6.530813e+001 2.285070e-004 4.221380e+001 1.000311e+000 -3.418420e-001
8999565 9.995902e-001 -2.985301e-001 6.331022e-005 -1.450190e+002 1.441748e-005 -1.569823e+002 1.000235e+000 -2.779440e-001
9299550 9.996806e-001 -3.106447e-001 7.925296e-005 5.276220e+001 2.532380e-004 -1.732802e+002 9.987982e-001 -1.923380e-001
9599535 9.989657e-001 -3.545715e-001 4.471144e-005 -9.790945e+001 1.654216e-004 -1.420642e+002 9.984253e-001 -3.779836e-001
9899520 9.994709e-001 -4.001450e-001 5.079677e-005 -5.420805e+001 1.728806e-004 -3.243888e+001 9.983071e-001 -5.234234e-001
10199505 9.989011e-001 -3.507995e-001 5.445527e-005 -5.233241e+001 1.717592e-004 6.115895e+001 9.993020e-001 -2.289219e-001
10499490 9.995957e-001 -2.861868e-001 5.944279e-005 1.107489e+002 2.211495e-004 1.659512e+002 9.991775e-001 -2.288013e-001
10799475 9.992318e-001 -3.010028e-001 4.374566e-006 3.295353e+001 2.492771e-004 -1.196661e+001 9.992355e-001 -2.051841e-001
11099460 9.996635e-001 -3.084947e-001 8.442977e-005 -8.851094e-001 1.427377e-004 -3.481992e+001 9.993099e-001 -2.173262e-001
11399445 9.995049e-001 -3.472974e-001 3.667385e-005 -3.612812e+001 1.530257e-004 -3.792620e+000 9.988984e-001 -1.832824e-001
11699430 9.994272e-001 -3.370012e-001 4.239090e-005 6.757649e+000 1.901554e-004 1.635787e+002 9.992636e-001 -1.990347e-001
11999415 9.995512e-001 -3.448127e-001 4.171249e-005 -1.511570e+002 1.474852e-004 1.616791e+002 1.001378e+000 -2.488864e-001
12299400 9.993820e-001 -3.513014e-001 9.472574e-005 -7.825916e+001 8.052497e-005 -4.421452e+001 1.001973e+000 -1.521304e-001
12599385 9.998621e-001 -3.937286e-001 8.947837e-005 2.073086e+001 7.629763e-005 3.319593e+001 1.000253e+000 -3.033442e-001
12899370 9.999762e-001 -3.816222e-001 1.032407e-004 9.750042e+001 9.885600e-005 1.605731e+002 1.000122e+000 -3.948763e-001
13199355 9.992086e-001 -3.993165e-001 1.121862e-004 -5.803219e+001 9.579298e-005 -9.917475e+001 9.999705e-001 -1.886926e-001
13499340 9.993368e-001 -4.307757e-001 3.262500e-005 1.643302e+002 1.221883e-004 1.585699e+002 9.987884e-001 -2.897244e-001
13799325 9.994886e-001 -4.222307e-001 3.710089e-005 1.357755e+002 7.529337e-005 6.604735e+000 9.987689e-001 -3.291690e-001
14099310 9.994518e-001 -4.159658e-001 7.435530e-006 -8.159259e+001 1.620618e-004 -1.450258e+002 9.995274e-001 -2.814988e-001
14399295 9.997530e-001 -4.425046e-001 5.840758e-005 5.452171e+001 2.049135e-004 -2.307284e+001 1.001320e+000 -2.580916e-001
14699280 9.993869e-001 -4.501262e-001 3.988908e-005 7.777283e+001 2.169980e-004 1.407621e+002 9.990934e-001 -2.805822e-001
14999265 9.998571e-001 -4.445435e-001 4.670426e-005 -1.713540e+001 2.008313e-004 -1.112832e+002 1.000248e+000 -2.883324e-001
15299250 9.990031e-001 -4.522622e-001 7.543014e-005 -8.192349e+001 2.126354e-004 -1.767100e+002 1.000909e+000 -2.831710e-001
15599235 9.988809e-001 -4.166297e-001 2.536131e-005 -6.332745e+001 2.310286e-004 -6.105645e+001 1.000001e+000 -2.715410e-001
15899220 9.998389e-001 -4.782216e-001 6.645325e-005 -9.252597e+000 3.127446e-004 5.491454e+001 1.000306e+000 -3.038405e-001
16199205 9.994246e-001 -4.379039e-001 3.743543e-005 4.490649e+001 8.816897e-005 1.139527e+002 1.001628e+000 -3.168780e-001
16499190 9.998805e-001 -4.407084e-001 9.085068e-005 4.019910e+001 1.782704e-004 1.709740e+002 9.999633e-001 -2.924944e-001
16799175 9.992183e-001 -4.927690e-001 1.149878e-004 9.415721e+000 3.044023e-004 -1.774666e+002 1.001323e+000 -3.448890e-001
17099160 9.996632e-001 -4.896070e-001 6.645094e-005 -1.132068e+002 2.767605e-004 -5.964630e+001 1.001215e+000 -3.461546e-001
17399145 9.994963e-001 -4.922298e-001 7.518050e-005 -5.631945e+001 2.142767e-004 1.005965e+002 1.001416e+000 -2.472420e-001
17699130 9.992377e-001 -5.198355e-001 1.120037e-005 8.820827e+001 3.760256e-004 -1.069422e+002 1.000140e+000 -2.500241e-001
17999115 9.993539e-001 -5.043306e-001 3.839572e-005 -7.933669e+001 1.607794e-004 3.350306e+001 9.998080e-001 -3.017744e-001
18299100 9.994687e-001 -5.121332e-001 7.285567e-005 -6.030346e+001 1.972557e-004 1.453299e+002 1.000600e+000 -3.529448e-001
18599085 9.993851e-001 -5.160682e-001 3.359864e-005 -1.710636e+002 1.036037e-004 -3.606263e+001 1.000703e+000 -3.011643e-001
18899070 9.994555e-001 -5.652066e-001 5.761791e-005 4.798650e+001 9.246834e-005 -1.791001e+002 1.000103e+000 -1.720444e-001
19199055 1.000016e+000 -5.863571e-001 3.447838e-005 6.405298e+001 1.925615e-004 5.319117e+001 9.992546e-001 -3.026337e-001
19499040 9.995436e-001 -5.566697e-001 6.101496e-005 -1.278231e+002 2.748539e-004 1.428435e+002 9.990352e-001 -3.182035e-001
19799025 9.996945e-001 -5.093961e-001 4.535541e-005 6.770480e+001 2.827872e-004 -3.249785e+001 1.000038e+000 -2.720667e-001
20099010 9.991043e-001 -5.696763e-001 7.567210e-005 6.095937e+001 9.199025e-005 -1.743468e+002 1.000184e+000 -2.954585e-001
20398995 9.992275e-001 -5.305737e-001 6.086168e-005 1.241353e+002 3.171350e-004 -1.809698e+001 9.989850e-001 -3.536894e-001
20698980 9.990622e-001 -5.107556e-001 1.027873e-004 -1.669932e+002 1.601037e-004 -7.622095e+001 9.978118e-001 -3.421673e-001
20998965 9.986787e-001 -5.879083e-001 1.068680e-004 1.767610e+002 3.700709e-004 1.550079e+002 9.994333e-001 -2.642809e-001
21298950 9.991058e-001 -5.369512e-001 5.877838e-005 -5.846309e+000 2.910347e-004 -2.735350e+001 1.000152e+000 -3.067093e-001
21598935 9.989577e-001 -5.966578e-001 7.042012e-005 1.426741e+002 2.894472e-004 1.224833e+002 1.000037e+000 -3.536203e-001
21898920 9.989735e-001 -6.346526e-001 5.970255e-005 -2.620028e+001 1.915970e-004 -3.986332e+001 1.000185e+000 -2.596989e-001
22198905 9.990060e-001 -5.940810e-001 3.817316e-005 1.679604e+002 2.226910e-004 4.476915e+001 9.988233e-001 -3.185785e-001
22498890 9.992795e-001 -5.859458e-001 8.363623e-005 -9.712899e+001 5.233727e-005 -1.749202e+002 1.000635e+000 -3.539593e-001
22798875 1.000304e+000 -5.853240e-001 1.334800e-004 2.708950e+001 2.184688e-004 4.579399e+001 1.000109e+000 -3.910796e-001
23098860 9.999403e-001 -6.466196e-001 3.883455e-005 6.142201e+001 3.006239e-004 -1.339950e+002 1.000610e+000 -3.531426e-001
23398845 1.000006e+000 -6.328420e-001 5.662588e-005 1.650979e+002 3.381334e-004 8.963622e+001 1.001729e+000 -3.235412e-001
23698830 9.990424e-001 -6.035113e-001 1.061993e-005 8.229644e+001 2.634293e-004 -7.714757e+001 1.000566e+000 -4.098586e-001
23998815 9.995529e-001 -6.560864e-001 9.684152e-005 -8.578260e+001 9.042738e-005 -4.098796e+001 9.979746e-001 -4.009284e-001
24298800 9.997852e-001 -6.654921e-001 1.968897e-004 -1.347599e+002 1.909365e-004 1.410463e+002 9.993501e-001 -3.571432e-001
24598785 9.984621e-001 -6.569689e-001 6.770760e-005 1.312756e+002 2.303917e-004 4.521968e+001 1.000521e+000 -3.415838e-001
24898770 9.994544e-001 -6.854298e-001 1.017304e-004 -1.214474e+002 5.298000e-005 -1.552818e+002 1.000136e+000 -3.965727e-001
25198755 9.988018e-001 -7.441540e-001 1.360251e-004 1.342655e+002 1.732899e-004 -2.999240e+001 1.000072e+000 -4.566565e-001
25498740 9.995762e-001 -6.945937e-001 1.060845e-004 9.291176e+000 1.819350e-004 1.036263e+002 1.000494e+000 -4.078328e-001
25798725 9.998193e-001 -6.748704e-001 8.423583e-005 -6.896523e+001 1.612168e-004 -8.184585e+001 1.000199e+000 -4.524912e-001
26098710 9.999554e-001 -7.100276e-001 5.845259e-005 1.870476e+001 1.335988e-004 1.565830e+002 1.001119e+000 -4.949177e-001
26398695 9.996461e-001 -6.874290e-001 1.108830e-004 1.388054e+002 1.843012e-004 -9.458288e+001 1.000688e+000 -4.515435e-001
26698680 9.995859e-001 -6.846609e-001 5.598901e-005 -1.374014e+002 2.213704e-004 1.015986e+002 1.000581e+000 -4.384789e-001
26998665 1.000210e+000 -7.334473e-001 9.967606e-005 -5.759605e+001 2.830496e-004 -7.009126e+001 1.000492e+000 -4.392552e-001
27298650 1.000291e+000 -6.865178e-001 9.030864e-005 1.738960e+002 1.823303e-004 1.165959e+002 9.995869e-001 -4.358217e-001
27598635 9.992405e-001 -7.256997e-001 1.048623e-004 -1.062796e+002 3.167611e-004 1.203442e+002 1.001995e+000 -3.914071e-001
27898620 9.990889e-001 -7.186183e-001 1.053484e-004 -1.637451e+002 3.040605e-004 -1.612260e+001 1.000872e+000 -4.491175e-001
28198605 9.993959e-001 -7.384961e-001 8.101470e-005 9.202373e+001 2.806291e-004 1.759781e+002 1.000779e+000 -4.829113e-001
28498590 9.996040e-001 -7.667921e-001 1.801336e-005 -2.400984e+001 1.130962e-004 9.685745e+000 1.000572e+000 -4.729055e-001
28798575 9.993181e-001 -8.121676e-001 1.181141e-004 1.542194e+002 5.928492e-005 1.412724e+002 1.000259e+000 -5.497885e-001
29098560 9.986282e-001 -7.476087e-001 6.032329e-005 2.539945e+001 2.676638e-004 -1.049611e+002 1.000053e+000 -4.121252e-001
29398545 9.987485e-001 -7.466975e-001 9.423460e-005 -1.563723e+002 6.190660e-005 1.013379e+002 9.999759e-001 -4.383916e-001
29698530 9.988362e-001 -7.691971e-001 4.679568e-005 4.945417e+001 1.635527e-004 -1.030421e+002 1.001350e+000 -4.540225e-001
29998515 9.997224e-001 -7.923481e-001 2.390516e-005 -1.015609e+002 1.987647e-004 1.398952e+001 1.001806e+000 -4.957074e-001
30298500 9.993616e-001 -7.835432e-001 1.465441e-004 5.141595e+001 1.051851e-004 5.389043e+001 1.002248e+000 -5.212775e-001
30598485 1.000252e+000 -7.617242e-001 3.044117e-005 1.429899e+002 2.614605e-004 -1.318138e+001 1.000075e+000 -4.236322e-001
30898470 9.994721e-001 -7.874625e-001 6.527574e-005 4.453672e+001 8.200212e-005 4.036620e+001 9.999066e-001 -5.127923e-001
31198455 9.994646e-001 -8.044961e-001 5.845885e-005 1.518848e+002 1.155018e-004 -1.440914e+002 9.999515e-001 -4.631184e-001
31498440 1.000366e+000 -8.365289e-001 8.378607e-005 -1.532039e+002 1.727527e-004 1.435468e+002 9.997345e-001 -5.082674e-001
31798425 9.998788e-001 -8.904051e-001 1.630088e-004 -9.376907e+001 5.047329e-005 -7.563976e+001 1.001047e+000 -4.447102e-001
32098410 1.000093e+000 -8.644049e-001 1.234448e-004 -1.767750e+002 1.161594e-004 9.534759e+001 1.001426e+000 -4.318090e-001
32398395 9.999421e-001 -8.389537e-001 4.860505e-005 4.016469e+001 2.777468e-004 -1.280585e+002 1.001420e+000 -4.185822e-001
32698380 1.000244e+000 -8.445109e-001 7.279655e-005 -1.035286e+001 1.526425e-004 1.645156e+002 1.000437e+000 -4.926681e-001
32998365 9.995892e-001 -8.695445e-001 1.057743e-004 1.585206e+002 2.571368e-004 -1.131111e+002 1.000188e+000 -4.658141e-001
33298350 9.992844e-001 -8.654594e-001 2.636778e-005 -1.020707e+002 2.722889e-004 7.505293e+001 1.001108e+000 -5.238575e-001
33598335 9.994057e-001 -8.631259e-001 1.025538e-004 -1.233380e+002 2.387548e-004 -1.049987e+002 1.000749e+000 -4.812126e-001
33898320 9.990767e-001 -8.861995e-001 5.263012e-005 -1.668972e+002 2.694484e-004 4.923326e+001 1.001562e+000 -5.540598e-001
34198305 9.985230e-001 -9.270179e-001 1.100224e-004 -5.778203e+001 1.574599e-004 1.048801e+002 9.994247e-001 -5.051121e-001
34498290 9.993116e-001 -9.117470e-001 8.490778e-005 1.316299e+002 3.528243e-005 -1.787833e+002 9.996230e-001 -5.327268e-001
34798275 9.992102e-001 -9.467526e-001 7.991566e-005 9.732578e+001 3.105078e-004 1.565528e+002 1.000263e+000 -5.305490e-001
35098260 9.999380e-001 -9.825700e-001 4.042237e-005 -1.248767e+002 1.734995e-004 -2.195891e+001 1.000636e+000 -4.816317e-001
35398245 9.991711e-001 -9.658732e-001 8.144860e-005 -3.714662e+001 1.083365e-004 9.361964e+001 1.001804e+000 -4.541138e-001
35698230 9.989997e-001 -9.617957e-001 7.559276e-005 -1.475352e+002 3.102260e-004 -1.613687e+002 1.000949e+000 -5.229114e-001
35998215 9.995925e-001 -9.335906e-001 1.584122e-004 -6.629138e+001 1.919141e-005 -5.666465e+001 1.001585e+000 -5.617319e-001
36298200 9.990939e-001 -9.385110e-001 9.320948e-005 8.533878e+001 2.126124e-004 -1.645139e+002 1.000697e+000 -5.708790e-001
36598185 1.000312e+000 -1.003629e+000 8.928797e-005 -3.066827e+001 1.115800e-004 6.471023e+001 1.000148e+000 -5.472173e-001
36898170 9.997775e-001 -9.706627e-001 5.905267e-005 -4.706781e+001 5.301232e-005 1.143680e+002 1.000726e+000 -5.613037e-001
37198155 9.991053e-001 -9.729365e-001 2.782599e-005 1.878038e+000 2.160297e-004 9.345079e-001 1.000466e+000 -5.086370e-001
37498140 9.991895e-001 -1.000987e+000 1.613032e-004 -2.921965e+001 6.310244e-005 -1.712197e+001 9.999619e-001 -4.970505e-001
37798125 9.994624e-001 -9.431335e-001 9.616838e-005 3.676253e+001 8.468652e-005 2.730064e+001 1.001509e+000 -5.491971e-001
38098110 9.992328e-001 -1.002462e+000 2.283762e-005 1.427257e+002 1.235078e-004 6.524381e+001 1.000430e+000 -5.988194e-001
38398095 9.990819e-001 -9.724577e-001 1.432855e-004 7.678636e+001 8.907189e-005 -1.564499e+002 1.000269e+000 -5.838374e-001
38698080 9.988243e-001 -1.031779e+000 9.216501e-005 5.259415e+000 2.035963e-004 -1.234606e-001 9.992903e-001 -5.751908e-001
38998065 9.994044e-001 -1.005953e+000 3.504834e-005 -1.297429e+002 9.476380e-005 9.324872e+001 9.997513e-001 -5.715563e-001
39298050 9.995649e-001 -1.042012e+000 5.584828e-005 8.002607e+001 9.682283e-005 2.826789e+001 9.999062e-001 -5.536481e-001
39598035 9.993984e-001 -1.011384e+000 4.863794e-005 1.454300e+002 1.396137e-004 1.414015e+002 1.001130e+000 -4.360992e-001
39898020 9.997091e-001 -9.998816e-001 3.669538e-005 -5.089877e+001 8.132280e-005 -5.983395e+001 1.002263e+000 -4.474092e-001
40198005 9.993914e-001 -1.048317e+000 6.149904e-005 7.277171e+001 8.909665e-005 1.414358e+002 1.002513e+000 -7.615314e-001
40497990 9.996338e-001 -1.048261e+000 1.221681e-004 1.139516e+001 2.883637e-004 -4.515631e+001 1.000466e+000 -6.384722e-001
40797975 1.001357e+000 -1.087706e+000 8.700634e-005 -4.719801e+001 2.101480e-004 -5.392937e+001 1.000868e+000 -6.397558e-001
41097960 9.986128e-001 -1.046757e+000 3.269841e-005 -9.705398e+001 2.991269e-004 -8.088816e+001 1.001421e+000 -5.798578e-001
41397945 9.996364e-001 -9.832090e-001 7.600489e-005 -1.793496e+002 2.947522e-004 -7.918948e+001 1.001965e+000 -5.567932e-001
41697930 9.997920e-001 -1.012441e+000 1.334446e-004 1.161441e+002 3.069931e-004 -5.429446e+001 1.000478e+000 -5.180676e-001
41997915 1.000250e+000 -1.018550e+000 1.598682e-004 -1.344480e+002 2.219821e-004 -9.248281e+001 1.001198e+000 -5.497190e-001
42297900 9.997690e-001 -1.061770e+000 2.224930e-004 -6.444993e+001 1.038809e-004 -2.564378e+000 1.002106e+000 -5.747407e-001
42597885 1.000435e+000 -1.011356e+000 6.035234e-005 -1.074719e+002 1.553198e-004 -1.168389e+002 1.000371e+000 -6.648389e-001
42897870 1.000040e+000 -1.067126e+000 8.518941e-005 5.978161e+001 1.004870e-004 1.519771e+002 1.000885e+000 -7.198535e-001
43197855 1.000271e+000 -1.085797e+000 2.250449e-004 -1.086412e+002 1.726664e-004 1.587464e+002 9.996142e-001 -7.115817e-001
43497840 9.990568e-001 -1.154594e+000 1.451453e-004 -1.041232e+001 2.832600e-004 -1.726882e+002 1.001103e+000 -6.889379e-001
43797825 9.992119e-001 -1.117392e+000 1.836810e-004 7.268291e+001 3.880025e-004 1.141404e+002 1.001688e+000 -6.552838e-001
44097810 1.000112e+000 -1.142561e+000 6.769997e-005 1.190889e+002 2.711045e-004 9.816537e+000 1.000610e+000 -7.072946e-001
44397795 1.000188e+000 -1.178651e+000 1.170142e-004 -9.963422e+001 1.711201e-004 1.977775e-001 1.001408e+000 -7.579950e-001
44697780 1.000823e+000 -1.137690e+000 1.002558e-004 8.725449e+001 1.520355e-004 -1.554171e+002 1.002488e+000 -7.278237e-001
44997765 1.000493e+000 -1.162211e+000 3.675516e-005 -1.096835e+001 1.987990e-004 -5.890374e+001 1.001374e+000 -7.412845e-001
45297750 1.000552e+000 -1.221453e+000 1.111137e-004 1.883381e+001 1.966455e-004 1.020291e+002 1.001355e+000 -7.104142e-001
45597735 1.001293e+000 -1.175707e+000 3.640277e-005 -4.674807e+001 7.531432e-005 8.663261e+001 1.001365e+000 -7.085224e-001
45897720 1.000060e+000 -1.103320e+000 1.691221e-004 9.181213e+001 1.013095e-004 -5.540724e+001 1.001574e+000 -6.498405e-001
46197705 9.994739e-001 -1.211668e+000 1.301183e-004 -7.503198e+001 4.648298e-004 -1.238689e+002 1.002361e+000 -7.217836e-001
46497690 1.000181e+000 -1.191868e+000 5.718301e-005 1.543317e+002 1.624760e-004 1.492273e+002 1.002041e+000 -6.043547e-001
46797675 1.000041e+000 -1.208234e+000 1.076700e-004 1.579467e+002 1.989295e-004 -1.814017e+001 1.002181e+000 -7.820410e-001
47097660 1.000107e+000 -1.240643e+000 5.773924e-005 1.850797e+001 1.252788e-004 -2.267294e+001 1.001087e+000 -7.306906e-001
