!Agilent Technologies,N5230C,SG49000117,A.08.50.07
!Agilent N5230C: A.08.50.07
!Date: Thursday, May 16, 2024 17:50:23
!Correction: S11(Full 2 Port(1,2)) 
!S21(Full 2 Port(1,2)) 
!S12(Full 2 Port(1,2)) 
!S22(Full 2 Port(1,2)) 
!S2P File: Measurements: S11, S21, S12, S22:
# Hz S  MA   R 50
300000 1.005227e+000 -5.125943e-001 1.803866e-005 -1.559028e+002 3.618059e-004 7.811758e+001 1.012633e+000 -8.554595e-001
599985 9.831842e-001 3.093039e-001 6.844958e-005 -1.249736e+002 1.743024e-004 1.791789e+002 9.645822e-001 3.939974e-001
899970 9.968699e-001 -1.273803e-001 5.128694e-005 -1.254312e+002 1.946925e-004 1.508418e+002 9.845473e-001 -3.699840e-001
1199955 9.975820e-001 -8.419928e-002 1.013105e-005 -2.776802e+001 8.313037e-005 9.669305e+001 9.963514e-001 -1.894563e-001
1499940 9.940090e-001 1.241017e-001 3.522720e-005 6.152468e+001 1.900375e-004 2.115450e+001 9.931961e-001 1.440679e-001
1799925 9.917023e-001 1.720640e-001 6.865678e-005 2.314666e+001 1.657767e-004 -1.012969e+002 9.903562e-001 -4.633775e-002
2099910 9.983373e-001 -6.363498e-002 2.411997e-005 -4.484473e+001 2.033956e-004 2.020131e+001 9.989173e-001 5.916353e-002
2399895 9.988630e-001 -1.654490e-001 8.902128e-005 1.645755e+002 4.424535e-005 1.397929e+002 1.004170e+000 -5.385244e-002
2699880 9.990295e-001 -2.969358e-001 8.686745e-005 -1.221799e+002 2.236236e-004 -6.768619e+001 9.951816e-001 -1.785397e-001
2999865 9.994905e-001 -1.873655e-001 6.967004e-005 1.524505e+002 5.342208e-005 5.532137e+001 9.987298e-001 -1.632387e-001
3299850 1.000093e+000 -1.703664e-001 8.881908e-005 -4.616992e+001 1.262162e-004 -3.898694e+001 9.988092e-001 -2.272301e-001
3599835 9.996660e-001 -1.866594e-001 6.330435e-005 3.581303e+001 5.769496e-005 1.716788e+002 9.982842e-001 -1.276757e-001
3899820 9.991534e-001 -2.259781e-001 4.255327e-005 -9.612957e+001 1.306867e-004 -1.186175e+002 9.984010e-001 -1.197359e-001
4199805 1.000281e+000 -2.762294e-001 3.342822e-005 5.621923e+001 8.860248e-005 7.966281e+001 1.000306e+000 -2.576711e-001
4499790 9.998925e-001 -2.445450e-001 2.870010e-005 -1.292343e+002 2.148772e-005 -2.613050e+001 1.000192e+000 -2.097240e-001
4799775 1.000132e+000 -2.252958e-001 2.417947e-005 -1.395727e+002 2.179772e-005 8.009939e+001 1.000452e+000 -1.774844e-001
5099760 1.000316e+000 -2.543793e-001 2.172913e-005 -6.983599e+001 2.170374e-004 -3.119387e+001 1.000341e+000 -1.607614e-001
5399745 1.000584e+000 -2.132024e-001 5.791438e-005 -5.203883e+001 6.949719e-005 1.339562e+002 1.000046e+000 -1.680621e-001
5699730 9.999180e-001 -2.282647e-001 3.130416e-005 3.108771e+001 1.054618e-004 -1.513975e+002 1.001955e+000 -1.467493e-001
5999715 9.990262e-001 -1.987080e-001 2.770113e-005 1.604593e+002 7.818425e-005 4.138174e+001 1.001094e+000 -1.468799e-001
6299700 9.994749e-001 -2.395798e-001 3.334629e-005 -1.759744e+002 1.597936e-004 -3.949740e+001 1.000669e+000 -1.642480e-001
6599685 9.991149e-001 -2.258065e-001 1.163387e-004 -8.928207e+001 1.131138e-004 -5.167977e+001 1.001115e+000 -2.087830e-001
6899670 9.998978e-001 -2.598356e-001 3.761677e-005 8.403922e+001 1.347404e-004 -1.159183e+002 9.995449e-001 -2.642509e-001
7199655 9.998031e-001 -2.837606e-001 8.175874e-005 6.130503e+001 8.623808e-005 2.851206e+001 1.000203e+000 -2.622093e-001
7499640 9.993603e-001 -3.173639e-001 1.453501e-005 1.720686e+002 1.625816e-004 -1.316755e+002 1.000279e+000 -2.839498e-001
7799625 9.998449e-001 -2.865263e-001 5.572293e-005 -3.905793e+001 1.190010e-004 1.579498e+002 9.989298e-001 -2.041849e-001
8099610 9.998785e-001 -2.914212e-001 5.580753e-005 1.089824e+002 1.347736e-004 -1.636804e+002 9.990941e-001 -2.267892e-001
8399595 9.997445e-001 -3.116416e-001 5.990462e-005 -1.368817e+002 2.646553e-005 -1.446404e+002 9.998040e-001 -2.794245e-001
8699580 9.994538e-001 -3.060946e-001 1.270112e-004 -7.454565e+001 1.322787e-004 -1.776260e+002 9.996679e-001 -2.539154e-001
8999565 9.992354e-001 -3.053688e-001 3.485173e-005 -5.662056e+001 6.345045e-005 -3.788858e+000 1.000504e+000 -2.229636e-001
9299550 9.995860e-001 -2.970619e-001 8.410290e-005 1.357901e+002 2.160218e-004 -6.722145e+001 9.998042e-001 -1.886756e-001
9599535 9.995458e-001 -3.593560e-001 1.229153e-005 1.395901e+002 1.971223e-004 1.644801e+002 9.980811e-001 -3.118300e-001
9899520 9.996864e-001 -4.120298e-001 9.551211e-005 -8.427130e+000 1.990826e-004 1.126446e+002 9.972122e-001 -4.358757e-001
10199505 1.000022e+000 -3.587753e-001 9.895421e-005 -4.691943e+001 4.342571e-005 7.711241e+001 9.993871e-001 -2.325786e-001
10499490 9.995853e-001 -3.212859e-001 3.667092e-005 -9.762774e+001 1.359280e-004 -2.237621e+001 9.997927e-001 -2.463907e-001
10799475 9.996904e-001 -3.529551e-001 5.161920e-005 -7.823655e-002 1.897072e-004 1.749707e+002 9.994773e-001 -2.159986e-001
11099460 9.990798e-001 -3.421577e-001 5.340045e-006 -5.750382e+001 2.730172e-005 1.318295e+002 9.995679e-001 -2.540781e-001
11399445 9.997464e-001 -3.406014e-001 1.171342e-004 8.145369e+001 1.486350e-004 9.084085e+001 9.990258e-001 -2.041511e-001
11699430 9.996719e-001 -3.322545e-001 8.685805e-005 2.924033e+001 4.663421e-005 1.762742e+002 9.993747e-001 -2.470247e-001
11999415 9.995694e-001 -3.703169e-001 1.188793e-004 1.296901e+001 1.538689e-004 -1.180801e+002 1.000906e+000 -1.995429e-001
12299400 9.995061e-001 -3.647261e-001 5.448400e-005 3.414007e+001 1.284019e-004 -1.320120e+002 1.001045e+000 -3.210393e-001
12599385 9.996105e-001 -4.151624e-001 4.920650e-005 1.368874e+002 3.489375e-005 1.437746e+002 1.000757e+000 -3.197884e-001
12899370 9.997604e-001 -4.339624e-001 8.893786e-005 -5.157273e+000 1.631686e-004 1.084466e+002 9.996358e-001 -3.531254e-001
13199355 9.994923e-001 -4.239495e-001 3.390164e-005 -1.670866e+002 1.331167e-004 -6.893435e+000 1.000333e+000 -2.871222e-001
13499340 9.995809e-001 -4.486956e-001 3.836403e-005 6.074133e+001 2.623473e-004 1.640284e+002 9.993108e-001 -2.845374e-001
13799325 9.997034e-001 -4.377360e-001 3.402475e-005 1.945275e+001 3.335640e-004 -1.005136e+002 9.989725e-001 -2.305253e-001
14099310 9.999505e-001 -4.313880e-001 3.463923e-005 3.425954e+001 7.630669e-005 -1.057644e+002 9.997635e-001 -2.723268e-001
14399295 9.996591e-001 -4.348866e-001 1.132030e-004 -5.489323e+000 6.850455e-005 1.206438e+002 1.000744e+000 -2.553613e-001
14699280 9.996545e-001 -4.704846e-001 4.586934e-005 -1.609290e+002 6.329652e-005 1.204958e+000 1.001115e+000 -2.127664e-001
14999265 9.994837e-001 -4.505785e-001 1.751459e-005 7.913653e+001 2.504331e-004 6.241225e+001 9.999986e-001 -2.255707e-001
15299250 9.986724e-001 -4.781349e-001 1.129150e-004 3.967159e+001 2.428328e-004 -1.022612e+002 9.982485e-001 -3.614230e-001
15599235 9.994836e-001 -4.822832e-001 5.296751e-005 8.223968e+001 2.773875e-004 3.308424e+001 1.000202e+000 -3.010952e-001
15899220 9.994622e-001 -4.995428e-001 3.283691e-005 -8.404408e+001 8.155826e-005 7.604759e+001 1.000137e+000 -2.724139e-001
16199205 1.000239e+000 -4.491094e-001 9.927656e-005 -1.270412e+002 3.383584e-004 -8.898742e+001 1.000933e+000 -3.483950e-001
16499190 9.993429e-001 -4.509550e-001 7.273688e-005 -1.565885e+002 2.010557e-004 1.032541e+002 1.002275e+000 -3.158693e-001
16799175 9.995182e-001 -4.539585e-001 7.627866e-005 3.780206e+001 1.202841e-004 -1.059992e+002 1.002131e+000 -2.334626e-001
17099160 9.994715e-001 -5.092082e-001 1.205249e-004 -3.989557e+001 1.437943e-004 2.594646e+001 1.001084e+000 -2.422996e-001
17399145 1.000249e+000 -5.535334e-001 1.076676e-004 -1.068964e+002 2.061670e-004 1.432618e+002 1.001123e+000 -3.154463e-001
17699130 9.997761e-001 -5.282789e-001 7.233295e-005 -4.926316e+000 1.565010e-004 6.361248e+000 1.000887e+000 -2.080877e-001
17999115 9.998148e-001 -5.017062e-001 2.120890e-005 1.438628e+002 3.041542e-004 1.398557e+002 1.000370e+000 -3.224857e-001
18299100 9.995388e-001 -5.065702e-001 4.351118e-005 -3.315081e+001 1.488797e-004 -3.698690e+001 9.999872e-001 -3.728669e-001
18599085 9.997969e-001 -5.372723e-001 3.141313e-005 -5.371520e+001 3.287079e-004 1.082708e+002 1.000919e+000 -2.428130e-001
18899070 9.989499e-001 -5.760704e-001 1.410228e-005 -3.668791e+001 2.074286e-004 -1.282962e+002 9.992976e-001 -2.632383e-001
19199055 9.993679e-001 -5.699114e-001 5.285107e-005 1.219714e+002 1.568039e-004 4.828018e+001 9.991747e-001 -2.785851e-001
19499040 1.000348e+000 -5.751802e-001 5.319996e-005 6.778100e+001 9.384924e-005 -1.330737e+002 9.993790e-001 -2.747621e-001
19799025 9.998821e-001 -5.731273e-001 8.109337e-005 1.764868e+002 2.834303e-004 -4.013591e+001 1.000153e+000 -2.465936e-001
20099010 9.999331e-001 -5.569450e-001 9.366685e-005 9.754433e+001 3.147396e-004 1.360568e+002 9.998778e-001 -3.205109e-001
20398995 9.992697e-001 -5.611441e-001 1.128685e-004 -1.591070e+002 1.652178e-004 -5.456598e+001 9.995393e-001 -3.823553e-001
20698980 9.990661e-001 -5.743710e-001 3.346564e-005 -4.293808e+001 1.749747e-004 8.226998e+001 9.991225e-001 -3.868191e-001
20998965 9.985967e-001 -5.797809e-001 3.829467e-005 1.432442e+002 3.241591e-004 -9.924257e+001 9.993783e-001 -3.365456e-001
21298950 9.986191e-001 -6.032000e-001 2.268421e-005 -8.937598e+001 1.814649e-004 -3.824090e+001 9.999091e-001 -2.026831e-001
21598935 9.993805e-001 -5.955001e-001 6.637487e-005 1.657398e+002 1.668364e-004 1.307854e+002 9.998437e-001 -3.122629e-001
21898920 9.992937e-001 -6.375685e-001 9.350097e-005 -1.149348e+002 2.103914e-004 -3.317393e+001 9.984187e-001 -3.203669e-001
22198905 9.996801e-001 -6.442593e-001 1.172991e-004 1.445113e+002 2.806215e-004 5.122724e+001 1.000248e+000 -3.401395e-001
22498890 9.997030e-001 -6.134210e-001 2.221503e-005 8.763615e+001 5.985398e-005 -1.631051e+002 1.000507e+000 -3.741723e-001
22798875 1.000619e+000 -6.159825e-001 6.356087e-005 -2.565384e+001 2.041503e-004 6.322030e+001 1.000356e+000 -3.717324e-001
23098860 9.999015e-001 -6.511852e-001 9.947020e-005 -1.198111e+002 3.146029e-004 1.392092e+002 1.001379e+000 -3.882544e-001
23398845 9.997560e-001 -6.871046e-001 1.885775e-004 2.740498e+001 1.432336e-004 -1.138209e+002 1.000006e+000 -3.737273e-001
23698830 9.994062e-001 -6.716317e-001 5.861126e-005 1.183912e+002 1.863366e-004 4.695299e+001 9.993582e-001 -3.616616e-001
23998815 9.995623e-001 -6.883608e-001 1.321197e-004 5.358167e+001 1.993643e-004 -1.718768e+002 9.995882e-001 -3.933852e-001
24298800 9.995392e-001 -6.922062e-001 4.504773e-005 -8.424092e+000 3.075550e-004 2.258940e+001 9.975436e-001 -3.188782e-001
24598785 1.000155e+000 -6.930005e-001 5.406213e-005 -1.384113e+002 1.085086e-004 -1.717487e+002 9.983371e-001 -3.550946e-001
24898770 1.000116e+000 -7.413434e-001 5.901957e-005 -6.989900e+001 1.340626e-004 1.129086e+002 9.995170e-001 -3.392700e-001
25198755 9.986579e-001 -7.427437e-001 9.286882e-005 2.777137e+001 3.628223e-004 1.438170e+002 1.000651e+000 -4.583549e-001
25498740 9.993707e-001 -7.031498e-001 8.869145e-005 -1.396492e+002 6.239748e-005 -3.841500e+001 9.993209e-001 -4.425034e-001
25798725 9.991450e-001 -7.223785e-001 1.100632e-004 -1.215133e+002 2.489853e-004 4.845114e+001 9.992573e-001 -4.327962e-001
26098710 1.000234e+000 -7.113913e-001 9.323718e-005 -2.525801e+001 1.617198e-004 -1.680078e+002 1.000868e+000 -4.636277e-001
26398695 1.000159e+000 -6.911948e-001 5.531069e-005 -7.600473e+001 1.819292e-004 1.591044e+001 1.001602e+000 -4.693368e-001
26698680 1.000239e+000 -7.149770e-001 3.868830e-005 1.005408e+002 1.480349e-004 -1.314932e+002 1.000684e+000 -5.149669e-001
26998665 1.000579e+000 -6.979080e-001 3.094717e-005 -8.474057e+001 1.441233e-004 -1.170060e+002 1.000163e+000 -3.716571e-001
27298650 9.995353e-001 -7.494064e-001 7.437595e-005 -2.354112e+001 1.180360e-004 1.183691e+002 1.000011e+000 -4.366814e-001
27598635 9.995223e-001 -7.482116e-001 1.397504e-004 5.977773e+001 2.150422e-004 -9.593262e+001 1.001589e+000 -4.392706e-001
27898620 9.994463e-001 -7.917685e-001 1.160654e-004 -1.489163e+002 6.480047e-005 1.628358e+002 1.001583e+000 -4.387861e-001
28198605 1.000101e+000 -7.786881e-001 1.361221e-004 -1.136032e+002 2.856771e-004 1.610605e+002 1.000923e+000 -3.989834e-001
28498590 9.992956e-001 -8.016704e-001 7.725422e-006 1.375339e+002 2.178813e-004 -3.096522e+001 9.999316e-001 -4.794219e-001
28798575 9.991959e-001 -8.006867e-001 1.302698e-004 -1.815315e+001 1.403113e-004 1.322059e+002 1.000750e+000 -4.975297e-001
29098560 9.991202e-001 -8.145324e-001 4.133721e-005 -1.287612e+002 2.655845e-004 -8.272243e+001 1.000228e+000 -4.949790e-001
29398545 9.998311e-001 -7.805810e-001 8.320878e-005 -1.156693e+002 1.966359e-004 7.660010e+001 1.001609e+000 -3.979026e-001
29698530 9.998016e-001 -8.130614e-001 3.984237e-005 1.234125e+002 2.700811e-004 -7.486113e+001 1.001514e+000 -4.314269e-001
29998515 9.991702e-001 -8.353292e-001 5.757126e-005 -1.411864e+002 1.090444e-004 -2.385057e+001 1.002519e+000 -4.214801e-001
30298500 9.984776e-001 -8.055769e-001 1.751256e-005 1.080701e+002 3.000361e-004 1.739204e+002 1.001685e+000 -4.894021e-001
30598485 9.993317e-001 -8.341880e-001 7.529453e-005 -1.071010e+002 1.690677e-004 1.456351e+000 1.001771e+000 -4.314487e-001
30898470 1.000090e+000 -8.093784e-001 5.723949e-005 -1.737452e+002 2.712213e-004 1.748638e+002 9.996307e-001 -5.007258e-001
31198455 9.997272e-001 -8.416315e-001 1.030729e-004 1.454694e+002 2.167685e-004 -3.982751e+001 9.999176e-001 -4.835874e-001
31498440 9.997002e-001 -9.003018e-001 1.154952e-004 -1.612095e+002 1.766593e-004 1.287627e+002 1.000608e+000 -4.814083e-001
31798425 9.990327e-001 -9.362339e-001 1.002844e-004 6.204302e+000 1.692242e-004 -8.511209e+000 1.001429e+000 -4.953477e-001
32098410 1.000291e+000 -9.307660e-001 5.736077e-005 -3.383871e+000 2.165730e-004 1.380081e+002 1.000569e+000 -4.602255e-001
32398395 1.000348e+000 -8.754476e-001 5.674167e-005 2.420240e+001 8.820180e-005 -1.583460e+002 9.998432e-001 -4.659576e-001
32698380 9.997162e-001 -8.963153e-001 1.707525e-005 -6.608762e+001 4.925938e-005 -5.158646e+001 1.001304e+000 -5.093530e-001
32998365 9.999394e-001 -8.638301e-001 1.800413e-004 8.379859e+001 1.469944e-004 1.119468e+002 9.999756e-001 -4.678344e-001
33298350 9.997574e-001 -9.222529e-001 9.406929e-005 -3.827571e+000 5.028093e-005 7.613231e-001 1.000227e+000 -5.436505e-001
33598335 9.996219e-001 -9.415951e-001 9.372014e-005 -4.869884e+001 1.433186e-004 1.152694e+002 1.000818e+000 -4.728912e-001
33898320 9.997154e-001 -8.966349e-001 7.561209e-005 7.092786e+001 1.190778e-004 4.389332e+001 1.000000e+000 -4.914115e-001
34198305 9.994043e-001 -9.492158e-001 6.735979e-005 6.867319e+001 1.099141e-004 1.277648e+002 9.991514e-001 -5.068668e-001
34498290 9.992614e-001 -9.413642e-001 1.693067e-004 1.697441e+002 2.507254e-004 -1.368227e+002 9.994811e-001 -5.661855e-001
34798275 9.993972e-001 -9.445403e-001 5.688910e-005 -1.077284e+002 1.344227e-004 2.691428e+001 9.995854e-001 -5.159285e-001
35098260 9.998192e-001 -9.934239e-001 9.639146e-005 -5.054204e+001 1.685594e-004 1.003046e+002 1.001514e+000 -4.717861e-001
35398245 9.998789e-001 -1.012641e+000 9.267998e-005 -1.345194e+002 1.272960e-004 -1.138598e+002 1.002140e+000 -4.940856e-001
35698230 9.999287e-001 -1.019809e+000 1.155121e-004 -7.514713e+001 2.460211e-004 8.836721e+001 1.000480e+000 -5.206960e-001
35998215 9.994327e-001 -1.033256e+000 2.421539e-005 2.866173e+001 4.109604e-005 8.267496e+001 1.000755e+000 -5.127274e-001
36298200 9.989163e-001 -9.963356e-001 1.087320e-004 1.585563e+002 1.421051e-004 3.220039e+001 1.001107e+000 -5.479981e-001
36598185 9.999191e-001 -9.838666e-001 1.949185e-005 -1.125413e+002 3.070927e-004 1.600119e+002 1.000155e+000 -5.226550e-001
36898170 9.998299e-001 -1.016042e+000 6.899352e-005 7.106936e+000 2.511220e-004 -6.515342e+001 1.000473e+000 -5.883502e-001
37198155 9.998517e-001 -1.008518e+000 7.726720e-005 1.600566e+002 5.877237e-005 -6.646065e+001 1.001650e+000 -5.176806e-001
37498140 9.997384e-001 -1.032412e+000 6.055556e-005 -9.625129e+001 2.908339e-005 -1.718877e+002 1.000750e+000 -5.674624e-001
37798125 9.999580e-001 -1.043689e+000 7.940390e-005 1.377680e+002 2.447049e-004 4.436550e+001 1.000381e+000 -5.378814e-001
38098110 9.995667e-001 -1.034742e+000 1.263732e-004 -1.451261e+002 9.487456e-005 -1.788447e+002 1.000348e+000 -5.465946e-001
38398095 9.991640e-001 -1.042981e+000 1.612219e-004 -1.307541e+002 2.538441e-004 -2.089756e+001 9.996391e-001 -6.015312e-001
38698080 9.989755e-001 -9.885437e-001 8.430322e-005 1.250814e+002 5.063204e-005 -6.083572e+001 1.000631e+000 -6.302530e-001
38998065 9.997513e-001 -1.072080e+000 8.837938e-005 3.986205e+001 4.339208e-005 1.731295e+002 1.000763e+000 -6.177725e-001
39298050 9.999290e-001 -1.083361e+000 5.449145e-005 9.160225e+001 7.054726e-005 5.175571e+001 9.999346e-001 -5.716029e-001
39598035 1.000885e+000 -1.041729e+000 6.369325e-005 1.777233e+002 1.467984e-004 -9.791515e+001 1.000662e+000 -5.244662e-001
39898020 1.000239e+000 -1.060789e+000 1.478169e-004 7.487367e+001 8.041478e-005 6.707732e+001 1.001549e+000 -4.771120e-001
40198005 1.000012e+000 -1.108008e+000 1.089939e-004 -1.020437e+002 2.087872e-004 8.557763e+001 9.998651e-001 -5.568070e-001
40497990 1.000470e+000 -1.162045e+000 2.158985e-004 -1.492175e+002 1.418670e-004 1.650799e+002 1.001359e+000 -6.746808e-001
40797975 9.999480e-001 -1.123672e+000 6.703132e-005 -1.362955e+002 1.077043e-004 -4.819596e+001 1.002206e+000 -6.211692e-001
41097960 9.995261e-001 -1.124205e+000 7.408173e-005 -1.226884e+002 2.977169e-004 1.406947e+002 1.000994e+000 -5.431069e-001
41397945 1.000007e+000 -1.031269e+000 1.625931e-004 1.232884e+002 1.068992e-004 1.598760e+002 1.001453e+000 -5.843549e-001
41697930 9.990162e-001 -1.097135e+000 2.138438e-004 9.596182e+001 2.115283e-004 -1.718041e+002 1.001552e+000 -4.880508e-001
41997915 1.000328e+000 -1.098667e+000 2.931325e-005 -6.739863e+000 6.153815e-005 -1.420618e+002 1.002399e+000 -4.432386e-001
42297900 1.000137e+000 -1.099581e+000 8.757381e-005 5.039128e+001 2.237297e-004 -6.595580e+001 1.001721e+000 -6.182865e-001
42597885 1.000918e+000 -1.103236e+000 2.302527e-004 -1.236602e+002 2.765412e-004 -1.253434e+002 1.001607e+000 -5.650097e-001
42897870 1.000144e+000 -1.154934e+000 1.419457e-004 5.359590e+001 1.878773e-004 -1.604974e+002 1.001820e+000 -6.139396e-001
43197855 9.998248e-001 -1.181744e+000 8.456965e-005 1.367000e+002 1.538265e-004 1.676438e+002 1.001334e+000 -6.443407e-001
43497840 9.994104e-001 -1.175284e+000 2.269782e-004 -6.322647e+001 1.725483e-004 -1.254247e+002 1.000087e+000 -6.739936e-001
43797825 9.992861e-001 -1.182159e+000 2.684295e-005 3.264305e+000 3.625846e-004 1.753860e+002 1.002167e+000 -6.672352e-001
44097810 9.986652e-001 -1.153553e+000 9.093531e-005 1.494433e+002 4.131552e-004 9.147389e+001 1.000085e+000 -6.767167e-001
44397795 1.000280e+000 -1.156487e+000 3.469679e-005 4.623230e+001 1.091322e-004 2.742999e+001 1.002338e+000 -6.699553e-001
44697780 1.000643e+000 -1.179023e+000 9.281823e-005 -1.415114e+002 3.280441e-004 -3.285882e+001 1.003908e+000 -5.966406e-001
44997765 1.000732e+000 -1.264321e+000 6.036183e-005 1.771880e+001 1.265795e-004 9.762381e+001 1.002404e+000 -5.863507e-001
45297750 1.000108e+000 -1.258810e+000 5.715608e-005 1.108979e+002 3.141523e-004 1.082711e+002 1.003865e+000 -6.897003e-001
45597735 1.000204e+000 -1.212493e+000 6.206444e-005 -1.322697e+002 2.708226e-004 3.666926e+001 1.003359e+000 -6.862575e-001
45897720 1.000013e+000 -1.191934e+000 3.497126e-005 -8.139851e+001 4.500365e-004 1.183200e+002 1.003496e+000 -5.990201e-001
46197705 1.001109e+000 -1.197517e+000 3.993687e-005 1.262607e+002 2.233347e-004 -1.787214e+002 1.002878e+000 -7.083551e-001
46497690 1.000132e+000 -1.248567e+000 1.699892e-004 -1.502187e+002 7.862802e-005 -1.497879e+002 1.002476e+000 -6.788977e-001
46797675 1.000226e+000 -1.263433e+000 1.809063e-004 1.365567e+002 3.499163e-004 1.367159e+002 1.001241e+000 -7.371809e-001
47097660 1.000173e+000 -1.223022e+000 1.176892e-004 -2.213289e+001 3.765431e-004 1.345407e+002 1.001206e+000 -6.873076e-001
