!Agilent Technologies,N5230C,SG49000117,A.08.50.07
!Agilent N5230C: A.08.50.07
!Date: Thursday, May 16, 2024 17:38:35
!Correction: S11(Full 2 Port(1,2)) 
!S21(Full 2 Port(1,2)) 
!S12(Full 2 Port(1,2)) 
!S22(Full 2 Port(1,2)) 
!S2P File: Measurements: S11, S21, S12, S22:
# Hz S  MA   R 50
300000 1.005074e+000 -5.604363e-001 1.677716e-004 -2.278309e+001 1.820413e-004 -4.507629e+000 1.018481e+000 -7.379982e-001
599985 9.822792e-001 3.197323e-001 3.470007e-005 -1.555455e+001 1.711237e-004 -6.763293e+001 9.651390e-001 4.101045e-001
899970 9.969570e-001 -1.538365e-001 3.355063e-005 3.932525e+001 3.649741e-004 -2.730119e+001 9.851869e-001 -3.482724e-001
1199955 9.970335e-001 -1.186850e-001 1.027505e-004 -2.595315e+001 3.735094e-005 -1.157273e+002 9.948980e-001 -2.224177e-001
1499940 9.935288e-001 1.148232e-001 1.329789e-004 8.692042e+001 1.155245e-004 -4.845023e+001 9.931127e-001 1.036846e-001
1799925 9.914061e-001 2.137109e-001 9.528743e-005 9.404000e+001 2.862014e-004 1.337438e+002 9.909365e-001 2.858242e-002
2099910 9.989385e-001 -4.033238e-002 3.927972e-005 5.611899e+001 1.969426e-004 -7.759534e+001 9.988472e-001 -1.540623e-002
2399895 9.985701e-001 -1.726520e-001 5.371944e-005 4.203159e+001 6.487753e-005 1.223825e+002 1.004054e+000 -2.242029e-002
2699880 9.991642e-001 -2.561246e-001 1.357294e-004 -8.220197e+001 1.368552e-004 -1.683724e+001 9.964206e-001 -2.613353e-001
2999865 9.992897e-001 -1.688333e-001 9.965940e-005 -1.177290e+002 1.386236e-004 5.307889e+001 9.988385e-001 -1.415657e-001
3299850 1.000097e+000 -1.551614e-001 7.535587e-005 -1.068672e+002 1.122039e-004 -1.734891e+002 9.982138e-001 -2.854261e-001
3599835 9.992625e-001 -1.511687e-001 5.892038e-005 -1.495154e+002 1.534272e-004 -4.921515e+001 9.986316e-001 -1.616750e-001
3899820 9.994014e-001 -1.835594e-001 1.042667e-004 -6.493320e+001 1.779108e-004 -1.633661e+002 9.986324e-001 -1.784286e-001
4199805 9.999989e-001 -2.245840e-001 2.839630e-005 -8.981474e+001 7.587279e-005 -1.575293e+002 9.997383e-001 -2.150139e-001
4499790 1.000046e+000 -2.130066e-001 7.343047e-005 -6.692031e+001 9.298111e-005 -8.169422e+001 1.000209e+000 -1.888725e-001
4799775 9.997809e-001 -1.988365e-001 7.895711e-005 1.006283e+002 6.090449e-005 1.596509e+002 1.000363e+000 -1.575541e-001
5099760 1.000325e+000 -1.732607e-001 8.871421e-005 1.795547e+002 1.240599e-004 1.669131e+002 1.001467e+000 -1.777681e-001
5399745 9.998059e-001 -1.898940e-001 5.747505e-005 1.085399e+002 1.105525e-004 3.195740e+000 1.000473e+000 -1.007636e-001
5699730 9.999595e-001 -1.698167e-001 5.672019e-005 -1.300567e+002 6.053178e-005 -1.928608e+001 1.001729e+000 -1.515962e-001
5999715 9.993713e-001 -1.325499e-001 8.649386e-005 8.293768e+001 1.207155e-004 1.017717e+002 1.000668e+000 -1.267750e-001
6299700 9.995332e-001 -1.409918e-001 2.714715e-005 -1.735730e+002 1.179255e-004 1.196537e+002 1.001104e+000 -1.978950e-001
6599685 9.995633e-001 -2.069007e-001 5.534326e-005 1.485853e+002 1.808203e-004 -1.151602e+002 1.000928e+000 -1.954745e-001
6899670 9.996013e-001 -2.321189e-001 6.855241e-005 1.225241e+002 1.420886e-004 1.937112e+001 1.000487e+000 -1.830555e-001
7199655 9.996088e-001 -1.973090e-001 6.701375e-005 1.783091e+002 5.952576e-005 5.451357e+001 9.998045e-001 -2.789149e-001
7499640 9.992705e-001 -2.357355e-001 4.936125e-005 -1.731400e+002 3.270055e-005 -1.356832e+002 1.000163e+000 -2.975568e-001
7799625 9.996650e-001 -1.862323e-001 1.629588e-006 -1.238137e+002 2.000412e-004 -9.119009e+001 9.999963e-001 -2.491453e-001
8099610 9.994439e-001 -2.097492e-001 4.539477e-005 -1.051274e+002 2.123845e-005 6.655907e+001 9.988245e-001 -2.988557e-001
8399595 9.995298e-001 -2.215305e-001 7.281226e-005 -1.738823e+002 1.639878e-004 1.647239e+002 9.997983e-001 -3.020511e-001
8699580 9.996008e-001 -2.195388e-001 7.804163e-005 -1.473566e+002 3.649661e-005 -1.695372e+002 1.000725e+000 -3.147904e-001
8999565 9.991832e-001 -1.948598e-001 2.514864e-005 -1.568543e+002 1.215705e-004 -2.951612e+000 9.998916e-001 -2.715967e-001
9299550 9.994964e-001 -1.996601e-001 4.784749e-005 -7.770778e+001 6.815016e-005 4.291099e+001 9.989834e-001 -2.301854e-001
9599535 9.992695e-001 -2.538000e-001 7.101663e-005 1.055026e+002 1.086212e-004 6.568073e+001 9.982315e-001 -3.604993e-001
9899520 9.998249e-001 -3.382811e-001 8.533488e-005 -9.293388e+001 1.403209e-004 -1.110900e+002 9.979542e-001 -4.059566e-001
10199505 9.989474e-001 -2.488401e-001 8.517810e-005 2.849494e+001 1.213176e-004 -8.845898e+001 9.990389e-001 -2.325863e-001
10499490 9.988647e-001 -1.982787e-001 1.183602e-004 6.274771e+001 5.959453e-005 -1.513012e+001 9.993907e-001 -2.181292e-001
10799475 9.990525e-001 -1.984314e-001 2.833214e-005 -1.672669e+002 2.768254e-004 -6.308821e+000 9.997104e-001 -1.778937e-001
11099460 9.994075e-001 -2.293199e-001 3.965287e-005 7.618021e+001 1.937686e-004 6.534425e+001 9.997973e-001 -1.845054e-001
11399445 9.999033e-001 -2.290953e-001 6.435195e-005 -1.745988e+002 1.655357e-004 1.102323e+002 9.990393e-001 -2.246511e-001
11699430 9.993989e-001 -2.506715e-001 3.658986e-005 -1.527439e+002 1.165408e-004 3.019572e+001 1.000100e+000 -2.410211e-001
11999415 9.994777e-001 -2.197525e-001 2.603566e-005 1.485202e+002 1.938059e-004 -9.392746e+001 1.001000e+000 -2.565813e-001
12299400 9.992692e-001 -2.442962e-001 5.283769e-005 -1.609193e+002 1.028066e-004 -5.908072e+001 1.001336e+000 -1.694078e-001
12599385 9.995650e-001 -2.765034e-001 5.312153e-005 -1.664128e+002 2.121776e-004 -1.448936e+002 9.994193e-001 -3.371176e-001
12899370 9.997734e-001 -3.185906e-001 7.292208e-005 -1.620556e+002 4.675934e-005 -1.560301e+002 9.997606e-001 -3.199101e-001
13199355 9.996267e-001 -2.919339e-001 7.437895e-005 -1.411983e+002 4.706684e-005 -3.837494e+001 9.999037e-001 -2.445757e-001
13499340 9.998655e-001 -2.870176e-001 7.378576e-005 1.276422e+002 3.674326e-004 5.806167e+001 9.989027e-001 -3.251809e-001
13799325 9.993474e-001 -2.616317e-001 1.722807e-005 -2.168497e+001 5.172882e-005 1.390267e+002 9.988361e-001 -3.395672e-001
14099310 9.997394e-001 -2.828737e-001 4.303603e-005 -9.882697e+001 2.861659e-004 4.264215e+000 1.000027e+000 -2.791665e-001
14399295 1.000220e+000 -3.278963e-001 8.981496e-005 -7.916827e+001 8.561614e-005 1.304950e+002 1.000863e+000 -3.119097e-001
14699280 9.996836e-001 -2.899336e-001 3.755332e-005 2.535335e+001 1.400178e-004 -9.825651e+001 1.000141e+000 -3.006545e-001
14999265 9.995764e-001 -3.049422e-001 3.499825e-005 1.164118e+002 1.187131e-004 1.387333e+002 1.000042e+000 -2.877643e-001
15299250 9.994847e-001 -2.984519e-001 1.056797e-004 1.491962e+002 3.201125e-004 -1.343413e+002 9.998040e-001 -3.353473e-001
15599235 9.999161e-001 -3.271636e-001 9.327735e-005 5.150156e+001 2.640894e-004 4.157941e+001 9.989267e-001 -3.272636e-001
15899220 9.993972e-001 -3.022898e-001 3.539008e-005 1.648357e+002 2.335883e-004 -1.670611e+002 9.991006e-001 -2.520858e-001
16199205 9.999900e-001 -3.144464e-001 1.395213e-004 -5.502530e+001 2.233470e-004 3.381195e+001 1.001588e+000 -2.965877e-001
16499190 9.993801e-001 -3.097472e-001 6.099530e-005 1.097744e+002 3.405980e-005 6.894336e+001 1.001046e+000 -2.790807e-001
16799175 9.993261e-001 -3.202134e-001 6.250680e-006 -1.277565e+002 3.018896e-004 -4.992981e+000 1.002365e+000 -3.723794e-001
17099160 9.996986e-001 -3.210064e-001 8.924549e-005 -1.673646e+002 4.117835e-005 8.402563e+001 1.001454e+000 -2.619920e-001
17399145 9.996983e-001 -3.748579e-001 8.504872e-005 -1.451854e+002 2.722280e-004 -4.852250e+001 1.000679e+000 -2.926033e-001
17699130 1.000014e+000 -3.791093e-001 6.551288e-005 -1.617283e+002 1.634082e-004 8.197916e+001 1.000838e+000 -3.088649e-001
17999115 9.991102e-001 -3.215609e-001 3.524455e-005 -9.822509e+001 3.765300e-004 -1.282545e+002 1.000691e+000 -3.066549e-001
18299100 9.992234e-001 -3.257354e-001 8.335393e-005 7.594931e+001 2.941081e-004 8.269224e+001 9.998485e-001 -3.032397e-001
18599085 9.991480e-001 -3.753428e-001 4.656161e-005 7.520522e+001 1.156874e-004 6.989070e+001 1.000078e+000 -3.097027e-001
18899070 9.996431e-001 -3.985603e-001 4.420093e-005 -8.399446e+001 2.307622e-004 6.243213e+001 9.995244e-001 -2.444755e-001
19199055 9.999995e-001 -3.486690e-001 4.621352e-005 -1.017207e+002 4.431582e-005 -4.313175e+001 9.998242e-001 -2.798498e-001
19499040 9.999581e-001 -3.858324e-001 2.729455e-005 6.568813e+001 4.527675e-004 2.759855e+001 1.000447e+000 -2.971257e-001
19799025 1.000105e+000 -3.720489e-001 4.551423e-005 1.267021e+002 3.927907e-004 1.734080e+002 9.990565e-001 -3.544100e-001
20099010 9.998989e-001 -3.285102e-001 7.563871e-005 -1.225287e+002 1.124710e-004 -7.976611e+000 9.992447e-001 -3.145119e-001
20398995 9.995921e-001 -3.904625e-001 1.453379e-004 1.308161e+002 2.900257e-004 1.613911e+002 9.997714e-001 -3.715471e-001
20698980 9.994662e-001 -3.796075e-001 8.709460e-005 -1.050645e+002 3.723568e-004 -8.116396e+001 9.990485e-001 -3.958681e-001
20998965 9.988469e-001 -3.254710e-001 1.048494e-004 -9.322808e+001 1.160372e-004 -6.723304e+001 9.989228e-001 -2.857873e-001
21298950 9.996909e-001 -3.618093e-001 3.683393e-005 1.151340e+002 1.441418e-004 -5.840715e+001 1.000186e+000 -2.244046e-001
21598935 9.985252e-001 -3.790072e-001 9.336753e-005 -2.831173e+001 2.629921e-004 -1.521636e+001 9.984325e-001 -2.649604e-001
21898920 9.997368e-001 -4.223947e-001 6.262588e-005 1.410096e+002 1.559229e-004 8.766650e+001 9.987743e-001 -3.123859e-001
22198905 9.987484e-001 -3.655568e-001 5.453268e-005 1.445732e+002 1.757333e-004 -8.782761e+001 9.989959e-001 -3.517624e-001
22498890 1.000511e+000 -3.559309e-001 6.113127e-005 -1.116821e+002 1.760098e-004 5.704253e+001 1.001688e+000 -3.254713e-001
22798875 1.000790e+000 -3.622456e-001 7.347332e-005 1.606749e+002 1.558725e-004 -1.075097e+002 1.001010e+000 -3.831033e-001
23098860 9.997240e-001 -3.996080e-001 8.972127e-005 7.246522e+001 9.001786e-005 1.328009e+002 1.000573e+000 -4.277539e-001
23398845 9.999368e-001 -3.850320e-001 1.335129e-004 1.526331e+002 1.673435e-004 -2.888219e+001 1.001074e+000 -4.152094e-001
23698830 9.997258e-001 -4.591880e-001 8.867721e-005 1.148774e+002 3.074931e-005 -1.538957e+002 9.996599e-001 -3.252755e-001
23998815 9.999209e-001 -4.755508e-001 7.518134e-005 -1.513084e+002 1.814458e-004 1.645557e+002 9.976649e-001 -2.939267e-001
24298800 9.996576e-001 -4.606001e-001 9.518818e-005 -1.386609e+001 6.119754e-005 -3.252648e+001 9.994335e-001 -3.969868e-001
24598785 9.994451e-001 -4.555668e-001 2.100011e-005 1.607076e+002 2.899712e-004 6.010875e+001 9.993240e-001 -4.222664e-001
24898770 9.999870e-001 -4.556324e-001 9.857594e-005 9.068820e+001 1.748883e-004 -1.158115e+002 9.991745e-001 -4.341211e-001
25198755 9.998969e-001 -4.657058e-001 4.862790e-005 -1.780701e+002 2.464716e-004 5.449770e+001 1.000023e+000 -4.250106e-001
25498740 9.994827e-001 -4.864911e-001 2.874661e-005 1.636204e+002 2.409413e-004 -1.274344e+002 9.998543e-001 -3.391056e-001
25798725 9.991449e-001 -4.806271e-001 8.880433e-005 -9.885108e+001 2.465039e-004 5.185928e+001 1.000082e+000 -4.488477e-001
26098710 1.000429e+000 -4.721024e-001 9.366604e-005 -1.193098e+002 3.603474e-004 1.767296e+002 1.000137e+000 -3.563428e-001
26398695 1.000243e+000 -4.783978e-001 1.580085e-005 4.362130e+001 1.591287e-004 1.797239e+002 1.001334e+000 -4.009970e-001
26698680 1.000296e+000 -4.640112e-001 3.963025e-005 1.421722e+002 3.858018e-004 -1.538880e+002 1.000626e+000 -4.403844e-001
26998665 1.000232e+000 -4.677955e-001 8.992584e-005 -1.368503e+002 2.703974e-004 -1.120130e-001 9.995108e-001 -4.272802e-001
27298650 9.999610e-001 -4.742573e-001 7.126427e-005 -1.533143e+002 2.666133e-004 1.290007e+002 1.000612e+000 -4.431959e-001
27598635 1.000172e+000 -4.294844e-001 1.389010e-004 -5.669220e+001 3.233792e-005 9.384902e+001 1.001112e+000 -4.996600e-001
27898620 9.993041e-001 -4.489988e-001 4.131330e-005 -4.208433e+001 1.605896e-004 -3.467418e+001 1.002411e+000 -3.655417e-001
28198605 9.994706e-001 -4.949247e-001 9.168545e-005 -7.370475e+001 1.088997e-004 -1.492415e+002 1.001743e+000 -4.017593e-001
28498590 9.990109e-001 -5.044296e-001 2.269780e-005 6.225861e+001 1.066194e-004 4.346787e+001 1.000239e+000 -4.684054e-001
28798575 9.989460e-001 -5.374862e-001 4.584776e-005 -1.049963e+002 1.175709e-004 -1.588880e+002 1.000141e+000 -5.123096e-001
29098560 9.994069e-001 -5.143393e-001 4.847728e-005 1.432976e+002 1.330358e-004 5.614913e+000 1.000094e+000 -4.296354e-001
29398545 1.000061e+000 -5.479011e-001 7.684083e-005 8.636273e+001 9.419037e-005 -6.559778e+001 1.000161e+000 -4.280719e-001
29698530 9.995552e-001 -4.564497e-001 9.175618e-005 8.982625e+001 3.299776e-004 5.599766e+001 1.001580e+000 -4.521274e-001
29998515 1.000230e+000 -5.194960e-001 8.896104e-005 4.200391e+001 2.218903e-004 -1.382800e+002 1.001171e+000 -4.261459e-001
30298500 9.998993e-001 -5.028759e-001 2.605639e-005 -9.606071e+001 1.213611e-004 5.359362e+001 1.001726e+000 -5.061060e-001
30598485 9.999692e-001 -5.004908e-001 9.941828e-005 1.290536e+002 2.178110e-004 -1.471623e+002 1.000721e+000 -5.237028e-001
30898470 9.995452e-001 -4.849724e-001 7.417793e-005 6.811649e+001 2.757145e-004 -2.230902e+001 9.999887e-001 -4.898685e-001
31198455 9.997400e-001 -4.894444e-001 6.466465e-005 -8.267780e+001 3.007503e-004 1.245359e+002 1.000132e+000 -4.823084e-001
31498440 9.991767e-001 -5.054882e-001 9.809635e-005 9.418269e+001 2.222059e-004 -9.315229e+001 1.000656e+000 -4.492193e-001
31798425 9.998317e-001 -5.783545e-001 1.151964e-004 -8.390183e+001 1.641677e-004 7.659685e+001 1.001055e+000 -5.086486e-001
32098410 9.997973e-001 -5.739236e-001 1.187043e-004 -1.701977e+002 2.255239e-004 -4.401135e+001 1.001513e+000 -4.226531e-001
32398395 1.000201e+000 -5.502210e-001 7.415247e-005 8.551494e+001 1.272163e-004 9.875071e+001 1.001258e+000 -4.464442e-001
32698380 1.000634e+000 -5.625137e-001 8.178527e-005 -1.745955e+002 1.706487e-004 -1.457177e+002 1.001368e+000 -4.633062e-001
32998365 9.993280e-001 -5.980848e-001 8.922622e-005 1.385411e+002 5.070293e-005 6.548615e+001 1.000068e+000 -4.576188e-001
33298350 9.988647e-001 -5.073107e-001 3.120670e-005 5.665595e+001 1.756609e-004 -1.379671e+002 1.000532e+000 -5.031962e-001
33598335 9.988387e-001 -5.620707e-001 1.492634e-004 -3.753527e+001 2.703026e-004 5.647602e+000 1.000035e+000 -5.020984e-001
33898320 9.991791e-001 -5.826439e-001 8.434393e-005 -6.118806e+001 1.567706e-004 7.564857e+001 1.000485e+000 -4.614909e-001
34198305 9.994390e-001 -6.070858e-001 7.528465e-005 1.055940e+002 2.845718e-004 1.053892e+001 9.992873e-001 -4.911675e-001
34498290 9.988728e-001 -6.289496e-001 1.163910e-004 1.501310e+002 2.174232e-004 1.340849e+002 9.982938e-001 -4.657125e-001
34798275 9.994693e-001 -6.347246e-001 6.802260e-005 7.634963e+001 1.617291e-004 1.677105e+002 9.992496e-001 -5.371627e-001
35098260 9.994935e-001 -6.218846e-001 9.100264e-005 -3.535246e+001 2.285369e-004 -2.460475e+001 1.000614e+000 -4.805793e-001
35398245 9.994575e-001 -6.543300e-001 8.314840e-005 -7.471965e+001 1.679940e-004 1.498343e+002 1.001348e+000 -4.805544e-001
35698230 9.991722e-001 -6.317355e-001 4.796948e-005 1.417879e+002 2.960012e-004 -1.021740e+001 1.002382e+000 -5.471862e-001
35998215 9.996701e-001 -6.293776e-001 1.907333e-005 -8.222499e+001 3.632443e-005 -1.626208e+002 1.001476e+000 -5.043008e-001
36298200 9.992785e-001 -6.167119e-001 7.200277e-005 -1.048960e+002 7.480758e-005 -1.636770e+002 1.000247e+000 -5.697083e-001
36598185 9.992517e-001 -6.220641e-001 5.502862e-005 3.288731e+000 7.154592e-005 -4.310495e+000 1.000655e+000 -5.317050e-001
36898170 1.000216e+000 -6.655967e-001 4.778957e-005 -9.986214e+001 1.638886e-004 -9.949654e+001 1.000605e+000 -5.261941e-001
37198155 1.000486e+000 -6.387967e-001 2.683872e-005 2.113751e+001 9.196758e-005 -1.473974e+002 1.000752e+000 -4.922271e-001
37498140 1.000042e+000 -6.599991e-001 7.173380e-005 -1.053182e+002 1.863133e-004 -9.515254e+001 1.000938e+000 -5.332932e-001
37798125 9.995089e-001 -6.318766e-001 1.614924e-004 -5.613924e+001 1.192444e-004 -5.665850e+001 1.001067e+000 -5.821407e-001
38098110 9.989411e-001 -6.084868e-001 8.887686e-005 1.759436e+002 6.094346e-005 -6.234160e+001 1.000093e+000 -5.630234e-001
38398095 9.987271e-001 -6.936958e-001 3.272936e-005 1.626895e+002 1.289565e-004 -1.786643e-001 9.995545e-001 -6.309010e-001
38698080 9.991946e-001 -6.333325e-001 1.848861e-004 -1.670221e+002 5.327140e-005 1.212786e+002 9.994001e-001 -5.747086e-001
38998065 9.993305e-001 -6.423876e-001 1.205552e-004 -1.522529e+002 8.615523e-005 -3.417471e+001 9.998924e-001 -5.473420e-001
39298050 9.999558e-001 -6.600354e-001 6.460531e-005 -6.211216e+001 8.428838e-005 -1.550582e+002 1.000891e+000 -5.863728e-001
39598035 9.997422e-001 -6.015660e-001 5.659537e-005 -6.573494e+001 1.098244e-004 -4.526352e+001 1.001627e+000 -4.750556e-001
39898020 1.000455e+000 -6.325136e-001 9.327551e-005 -1.198829e+002 2.238881e-004 6.865514e+001 1.002444e+000 -4.675696e-001
40198005 9.995210e-001 -6.517968e-001 2.548500e-005 -2.041953e+001 1.383731e-004 5.319920e+001 1.001471e+000 -6.628965e-001
40497990 1.000478e+000 -6.547679e-001 6.344386e-005 -1.456954e+002 2.429560e-004 -3.023931e+001 1.001524e+000 -5.902702e-001
40797975 1.000167e+000 -7.021803e-001 3.435527e-005 -9.000026e-001 1.344428e-004 6.317543e+001 1.002355e+000 -7.245504e-001
41097960 9.998209e-001 -6.845173e-001 1.007852e-004 4.139392e+001 2.493962e-004 -1.575051e+002 1.002862e+000 -5.223103e-001
41397945 9.992900e-001 -5.572880e-001 4.376154e-005 8.279046e+001 3.035621e-004 9.323063e+001 1.002520e+000 -6.356452e-001
41697930 9.992829e-001 -6.280034e-001 2.797297e-004 -1.150896e+002 2.351353e-004 1.671716e+002 1.000505e+000 -5.707896e-001
41997915 9.989722e-001 -6.831547e-001 1.087741e-004 1.711292e+002 2.137767e-004 4.483799e+001 1.002235e+000 -5.151175e-001
42297900 1.001102e+000 -6.308368e-001 2.736440e-004 -1.172102e+002 1.906918e-004 2.975781e+001 1.002210e+000 -4.991849e-001
42597885 9.994838e-001 -6.888247e-001 4.101199e-005 1.037779e+002 2.480248e-004 -1.474019e+001 1.002193e+000 -6.384046e-001
42897870 9.995791e-001 -6.785873e-001 1.203789e-004 -1.375635e+002 8.556929e-005 1.301572e+002 1.001665e+000 -6.304420e-001
43197855 9.996644e-001 -7.122393e-001 1.090068e-004 8.572264e+001 1.432925e-004 7.693935e+001 1.001352e+000 -6.295338e-001
43497840 1.000942e+000 -7.115281e-001 9.589354e-005 8.053874e+001 1.113547e-004 -5.415965e+001 1.001236e+000 -6.542899e-001
43797825 1.000285e+000 -7.356994e-001 1.036389e-004 7.001445e+000 2.788506e-004 1.580088e+002 1.000138e+000 -7.616130e-001
44097810 1.001029e+000 -7.135506e-001 6.844610e-005 1.156427e+002 1.559224e-004 1.551705e+002 1.001898e+000 -7.146691e-001
44397795 1.000469e+000 -7.130577e-001 7.981921e-005 7.803923e+001 3.037224e-004 1.392311e+002 1.000837e+000 -7.185075e-001
44697780 1.000504e+000 -6.908722e-001 1.321005e-004 -1.731413e+002 2.306372e-004 -1.212238e+002 1.002373e+000 -6.803136e-001
44997765 1.000375e+000 -7.456072e-001 1.548826e-004 -6.708235e+001 4.187671e-004 1.452962e+002 1.001141e+000 -6.980752e-001
45297750 9.995672e-001 -7.711630e-001 5.123698e-005 8.273473e+001 8.641712e-005 2.430821e+001 1.002955e+000 -7.122264e-001
45597735 1.001134e+000 -6.750554e-001 1.013218e-004 1.454776e+002 2.633918e-004 1.274400e+002 1.001248e+000 -6.739895e-001
45897720 1.001703e+000 -7.390587e-001 1.033384e-004 -8.824456e+001 2.926428e-004 1.354721e+002 1.003389e+000 -7.105265e-001
46197705 1.000923e+000 -7.717098e-001 9.327722e-005 5.164682e+001 2.038957e-004 -2.950149e+001 1.001791e+000 -6.665050e-001
46497690 1.001232e+000 -6.693215e-001 2.488085e-005 -2.235440e+001 1.466066e-004 -8.546031e+001 1.000785e+000 -6.488268e-001
46797675 1.000358e+000 -7.755060e-001 9.386217e-005 -1.046022e+001 3.883101e-005 -2.433537e+001 1.002250e+000 -7.307399e-001
47097660 1.000399e+000 -7.555463e-001 9.480250e-005 -4.571896e+001 9.250092e-005 9.447891e+000 1.001733e+000 -8.063271e-001
