!Agilent Technologies,N5230C,SG49000117,A.08.50.07
!Agilent N5230C: A.08.50.07
!Date: Thursday, May 16, 2024 17:40:50
!Correction: S11(Full 2 Port(1,2)) 
!S21(Full 2 Port(1,2)) 
!S12(Full 2 Port(1,2)) 
!S22(Full 2 Port(1,2)) 
!S2P File: Measurements: S11, S21, S12, S22:
# Hz S  MA   R 50
300000 1.007039e+000 -6.042609e-001 1.938706e-004 1.526053e+002 1.505938e-004 5.692265e+000 1.017800e+000 -7.041593e-001
599985 9.830291e-001 2.164093e-001 6.083981e-005 -3.705550e+001 1.369755e-004 -9.158665e+001 9.661431e-001 3.708777e-001
899970 9.968217e-001 -1.169289e-001 1.158977e-004 7.475131e+001 1.077454e-004 -4.139068e-001 9.873106e-001 -3.676676e-001
1199955 9.974940e-001 -1.259663e-001 8.029069e-005 -5.292460e+001 3.107971e-005 3.243583e+001 9.959823e-001 -2.015638e-001
1499940 9.934124e-001 1.078912e-001 1.277711e-004 1.300188e+002 1.374434e-004 1.028702e+001 9.925629e-001 1.017348e-001
1799925 9.920276e-001 1.591060e-001 1.290617e-005 -1.225077e+002 8.874046e-005 -5.513668e+001 9.905434e-001 1.606456e-002
2099910 9.989786e-001 -6.022064e-002 1.678645e-004 -1.118389e+002 6.648329e-005 1.182607e+002 9.993447e-001 3.373841e-002
2399895 9.993118e-001 -1.544976e-001 1.150861e-004 6.589742e+001 5.068623e-005 -1.591164e+002 1.004214e+000 -6.833532e-002
2699880 9.990861e-001 -2.578929e-001 3.794650e-005 -4.404095e+001 8.314953e-005 2.566606e+001 9.957934e-001 -2.526151e-001
2999865 9.997194e-001 -1.781610e-001 9.864225e-005 -3.689797e+000 6.592304e-005 6.907856e+001 9.997586e-001 -1.773965e-001
3299850 1.000022e+000 -1.823846e-001 9.452969e-005 1.548660e+002 2.785300e-005 4.357531e+001 9.983915e-001 -1.882505e-001
3599835 1.000062e+000 -1.700076e-001 7.094267e-005 1.122449e+002 1.752966e-004 6.940228e+001 9.979169e-001 -1.144124e-001
3899820 9.993703e-001 -1.722842e-001 5.489762e-005 1.636215e+002 1.126474e-004 -5.514666e+001 9.987476e-001 -2.330325e-001
4199805 9.998966e-001 -2.238047e-001 6.509852e-005 -3.471026e+001 9.755739e-005 1.386159e+000 9.998167e-001 -2.417445e-001
4499790 1.000582e+000 -1.959322e-001 8.853040e-005 -3.638425e+001 8.490066e-005 -6.223684e+001 9.998623e-001 -2.234633e-001
4799775 9.999325e-001 -1.743967e-001 4.502745e-005 5.763936e+001 1.523936e-004 -3.999419e+001 9.998049e-001 -1.623392e-001
5099760 1.000271e+000 -1.905866e-001 5.275350e-005 -1.569238e+002 4.433938e-005 1.735015e+002 1.001761e+000 -1.603698e-001
5399745 1.000985e+000 -1.613377e-001 6.346630e-005 3.327856e+000 1.699740e-004 -1.059589e+002 1.000818e+000 -1.218617e-001
5699730 1.000425e+000 -1.640978e-001 1.503569e-005 1.029756e+002 8.845216e-005 -1.555704e+001 1.001681e+000 -1.456289e-001
5999715 9.995742e-001 -1.620655e-001 9.792519e-006 1.365431e+002 8.635499e-005 1.332728e+002 1.000127e+000 -8.431927e-002
6299700 9.996114e-001 -1.786727e-001 9.475993e-005 6.606102e+001 2.076162e-004 -3.259873e+001 1.000560e+000 -1.682724e-001
6599685 9.996935e-001 -1.913315e-001 7.903113e-006 -9.806514e+001 1.990144e-004 1.573975e+002 1.000651e+000 -1.478325e-001
6899670 1.000547e+000 -1.943501e-001 3.700001e-005 5.021735e+001 1.707517e-004 -1.508974e+002 1.000296e+000 -2.246671e-001
7199655 9.995741e-001 -1.868664e-001 7.582493e-006 -1.157401e+002 5.138847e-005 1.384004e+002 1.000791e+000 -2.392099e-001
7499640 9.996496e-001 -2.160129e-001 2.567820e-005 6.623602e+001 1.388320e-004 1.310368e+002 9.993864e-001 -2.552344e-001
7799625 9.998642e-001 -2.171888e-001 1.271110e-005 -8.962313e+001 2.911357e-005 -3.456750e+001 9.987787e-001 -2.206392e-001
8099610 9.997748e-001 -2.234138e-001 3.549205e-005 1.329774e+002 8.317430e-005 1.158203e+001 9.990717e-001 -2.991262e-001
8399595 9.996403e-001 -2.172140e-001 5.180836e-005 1.181803e+001 1.216730e-004 -9.605300e+001 9.993043e-001 -2.700718e-001
8699580 9.995707e-001 -2.274484e-001 2.640492e-005 -1.735071e+002 2.391919e-004 4.908390e+001 1.000381e+000 -2.404651e-001
8999565 9.998167e-001 -2.260977e-001 3.659806e-005 -1.011941e+002 1.656840e-004 -1.261864e+002 1.000366e+000 -2.586462e-001
9299550 9.998089e-001 -2.065219e-001 1.308719e-004 3.563462e+001 1.058683e-004 1.127473e+002 9.997619e-001 -2.427542e-001
9599535 9.998886e-001 -2.937072e-001 6.108882e-005 1.734806e+002 7.250913e-005 -3.890708e+001 9.979974e-001 -4.014514e-001
9899520 9.996203e-001 -3.326044e-001 1.826112e-005 -1.374500e+002 4.534513e-005 8.288627e+001 9.977111e-001 -4.632922e-001
10199505 9.999427e-001 -2.046126e-001 1.365920e-005 1.696743e+002 2.770037e-004 4.715481e+001 9.997261e-001 -2.290380e-001
10499490 9.996018e-001 -2.087596e-001 2.991756e-005 1.334136e+002 8.866001e-005 1.087294e+002 9.985080e-001 -2.010805e-001
10799475 9.999114e-001 -2.174664e-001 6.941764e-005 -7.887723e+001 5.218145e-005 8.156843e+000 1.000522e+000 -1.521122e-001
11099460 9.998187e-001 -2.156546e-001 2.923374e-005 5.640049e+001 7.149777e-005 -1.803118e+000 9.995082e-001 -1.271465e-001
11399445 9.998210e-001 -2.385422e-001 2.457167e-005 3.482475e+001 1.800752e-004 4.180568e+001 1.000046e+000 -2.398684e-001
11699430 9.995387e-001 -2.321132e-001 6.042294e-005 -1.115905e+002 1.494562e-004 -6.115918e+001 1.000230e+000 -2.293353e-001
11999415 9.994568e-001 -2.535817e-001 1.650233e-005 -1.494315e+002 1.856992e-004 -9.491321e+001 1.000922e+000 -2.265173e-001
12299400 9.999377e-001 -2.591507e-001 1.008215e-004 -5.214886e+001 5.171014e-005 -9.930906e+001 1.000939e+000 -1.532976e-001
12599385 9.999959e-001 -2.994129e-001 6.175537e-005 1.664804e+002 1.923266e-004 -1.616821e+002 1.000144e+000 -3.926429e-001
12899370 1.000046e+000 -3.229714e-001 3.296327e-005 -1.399665e+002 1.060262e-004 -1.328932e+002 9.989256e-001 -3.887799e-001
13199355 9.995191e-001 -3.157952e-001 6.419542e-005 1.579243e+002 1.137285e-004 -1.818500e+001 9.992381e-001 -2.300513e-001
13499340 1.000058e+000 -3.522422e-001 3.896335e-005 7.652928e+001 1.325498e-004 -3.308701e+001 9.986700e-001 -2.120780e-001
13799325 9.999438e-001 -3.321924e-001 7.836797e-005 1.107921e+002 1.208900e-004 1.696136e+002 9.987090e-001 -2.329851e-001
14099310 9.998071e-001 -3.355760e-001 6.368387e-005 1.463083e+002 2.124174e-004 1.508320e+001 1.000820e+000 -2.333747e-001
14399295 1.000033e+000 -3.466448e-001 4.424034e-005 -4.608499e+001 2.843021e-004 1.290284e+002 1.000340e+000 -2.216350e-001
14699280 1.000028e+000 -3.076213e-001 1.391573e-004 1.265221e+002 1.457263e-004 -9.915628e+001 1.000172e+000 -2.683973e-001
14999265 9.996451e-001 -3.101366e-001 5.497487e-005 8.847852e+001 2.121251e-004 1.030248e+002 1.000007e+000 -3.058413e-001
15299250 9.998654e-001 -2.944166e-001 7.039100e-005 1.271637e+001 9.292605e-005 7.494149e+000 1.000025e+000 -2.932566e-001
15599235 9.995269e-001 -3.265828e-001 3.279415e-005 1.047308e+002 1.409321e-004 -1.473996e+002 9.997315e-001 -2.849385e-001
15899220 1.000102e+000 -3.201666e-001 6.831664e-005 -2.374024e+001 1.663234e-004 -1.040519e+002 9.997173e-001 -3.042900e-001
16199205 9.999672e-001 -2.961341e-001 3.439194e-005 -1.441042e+002 2.176256e-004 -2.860057e+001 1.000700e+000 -2.834798e-001
16499190 9.991177e-001 -2.850866e-001 3.663055e-005 -6.049497e+000 3.410109e-004 -1.715788e+002 1.001388e+000 -2.698025e-001
16799175 9.995706e-001 -3.422846e-001 4.214020e-005 1.330132e+002 3.196889e-004 -4.186087e+001 1.001815e+000 -2.556592e-001
17099160 9.994185e-001 -3.682083e-001 9.668739e-005 1.245065e+002 3.466445e-004 1.074030e+002 1.000930e+000 -2.576075e-001
17399145 1.000368e+000 -3.528829e-001 2.045552e-004 -5.866123e+001 2.752873e-004 -6.781461e+001 1.001195e+000 -2.655712e-001
17699130 1.000007e+000 -3.892708e-001 4.331552e-005 1.314069e+002 6.310414e-005 4.634647e+001 1.001323e+000 -2.976141e-001
17999115 9.999527e-001 -3.502422e-001 9.077835e-005 -5.711930e+001 1.375022e-004 9.020069e+001 9.992566e-001 -2.478190e-001
18299100 9.994229e-001 -3.558667e-001 4.230916e-005 3.606961e+001 1.949183e-004 -1.308096e+001 9.998147e-001 -3.092658e-001
18599085 9.998118e-001 -3.707097e-001 7.134380e-005 -1.007544e+002 1.536031e-004 1.788612e+002 1.001803e+000 -3.440161e-001
18899070 9.999005e-001 -3.855545e-001 1.189506e-004 1.351250e+002 2.386217e-004 3.210774e+001 9.998499e-001 -2.988862e-001
19199055 1.000278e+000 -3.968716e-001 4.424186e-005 1.638251e+002 2.656185e-004 1.750751e+002 1.000370e+000 -2.767836e-001
19499040 1.000262e+000 -3.749090e-001 5.280916e-005 -1.202914e+002 1.309381e-004 -7.421261e+001 9.995586e-001 -2.548065e-001
19799025 1.000623e+000 -3.558170e-001 1.013772e-004 2.540106e+001 7.168911e-005 7.146202e+001 9.996656e-001 -3.614990e-001
20099010 9.999237e-001 -3.739817e-001 1.993121e-005 -3.999394e+001 3.666900e-004 -1.476322e+002 9.999668e-001 -3.297971e-001
20398995 9.999657e-001 -3.857495e-001 8.276375e-005 1.269983e+002 1.353475e-004 6.284319e+001 1.000250e+000 -3.105650e-001
20698980 9.990667e-001 -3.897129e-001 8.381080e-005 -2.025751e+001 2.131100e-004 1.531737e+002 1.000004e+000 -3.622272e-001
20998965 9.994746e-001 -4.045896e-001 5.895212e-005 -1.535070e+002 2.491200e-004 2.066476e+001 9.994703e-001 -3.085333e-001
21298950 9.994122e-001 -3.946001e-001 6.961786e-005 -6.446315e+001 2.038383e-004 1.499847e+002 9.996802e-001 -3.268452e-001
21598935 9.989061e-001 -3.979047e-001 5.900633e-005 1.723597e+002 3.457457e-004 -7.761484e+001 9.987059e-001 -2.763242e-001
21898920 9.997259e-001 -4.174040e-001 8.470949e-005 -1.091059e+002 4.158112e-005 -2.036501e+001 9.997790e-001 -3.670693e-001
22198905 9.994090e-001 -4.354884e-001 6.427670e-005 -1.020588e+002 2.042763e-004 -6.530383e+001 9.989620e-001 -2.941892e-001
22498890 9.993185e-001 -4.076744e-001 8.886737e-005 -7.425954e+001 4.887739e-004 3.674442e+001 1.001666e+000 -3.362029e-001
22798875 1.000611e+000 -4.310015e-001 1.099330e-004 -1.801872e+001 1.245843e-004 -1.769245e+002 1.001217e+000 -2.898127e-001
23098860 9.999328e-001 -4.301468e-001 1.017942e-004 -7.267360e+001 1.899863e-004 -6.327872e+001 1.001517e+000 -3.371581e-001
23398845 1.000016e+000 -4.328237e-001 4.105895e-005 1.503666e+002 2.077332e-004 -1.646087e+002 9.993977e-001 -3.991134e-001
23698830 9.998021e-001 -4.449530e-001 9.079713e-005 -1.293787e+002 3.499174e-004 8.464265e+000 9.994535e-001 -3.426292e-001
23998815 9.999380e-001 -4.787746e-001 1.131785e-004 7.100489e+001 2.380246e-004 1.327358e+002 1.000124e+000 -3.729471e-001
24298800 9.999306e-001 -4.790622e-001 7.279730e-005 -9.528239e+001 4.246163e-004 -3.314592e+001 9.983039e-001 -4.414906e-001
24598785 9.993738e-001 -4.966818e-001 3.912579e-005 2.573498e+001 1.683321e-004 1.225259e+002 9.998636e-001 -3.971902e-001
24898770 9.999487e-001 -4.809786e-001 1.519074e-004 -1.503888e+002 2.692909e-004 -1.049514e+002 1.000002e+000 -3.468656e-001
25198755 1.000145e+000 -5.109816e-001 3.312774e-005 -9.980978e+001 1.246676e-004 1.672334e+002 1.000637e+000 -4.169874e-001
25498740 9.993464e-001 -5.121871e-001 2.543583e-005 -5.584631e+001 9.091010e-005 -7.737261e+001 1.000148e+000 -4.402271e-001
25798725 9.989970e-001 -4.965685e-001 9.736211e-005 1.223512e+002 1.649465e-004 4.316782e+000 1.000298e+000 -3.913379e-001
26098710 9.999765e-001 -4.771920e-001 1.470005e-004 1.052488e+002 1.476063e-004 -1.274022e+002 1.000532e+000 -4.585572e-001
26398695 9.999058e-001 -4.965957e-001 3.189643e-005 -5.376530e+001 2.005028e-004 4.341842e+000 1.001031e+000 -4.091654e-001
26698680 1.000696e+000 -4.842248e-001 3.790449e-005 1.661452e+002 1.547852e-004 8.368139e+001 1.000418e+000 -4.292404e-001
26998665 9.997923e-001 -4.918471e-001 3.413303e-005 -4.973099e+001 2.260949e-004 -4.180648e+001 1.001475e+000 -3.939967e-001
27298650 9.998585e-001 -5.156106e-001 1.134541e-004 6.366019e+000 1.157639e-004 1.008135e+001 1.000084e+000 -4.437584e-001
27598635 9.999499e-001 -4.857135e-001 9.115033e-005 2.894488e+001 1.391608e-004 -3.936753e+001 1.000436e+000 -3.651304e-001
27898620 9.997470e-001 -4.981588e-001 9.293626e-005 6.199108e-001 1.185078e-004 1.154583e+002 1.000924e+000 -4.688973e-001
28198605 9.997529e-001 -4.745953e-001 6.892181e-005 -1.752960e+002 2.913766e-005 1.684031e+002 1.000865e+000 -4.493052e-001
28498590 9.994645e-001 -5.369276e-001 8.886770e-005 -9.975645e+001 1.827219e-004 1.240834e+001 1.000346e+000 -5.177276e-001
28798575 9.994287e-001 -5.704775e-001 6.828619e-005 -8.053207e+001 2.749230e-004 -1.582421e+002 9.992460e-001 -5.178598e-001
29098560 9.995834e-001 -5.574965e-001 3.510009e-005 -1.405057e+001 2.648003e-004 4.551123e+001 1.000730e+000 -4.602152e-001
29398545 9.996272e-001 -5.328855e-001 1.984604e-004 -1.293138e+002 4.444895e-005 1.336139e+002 1.000928e+000 -4.656035e-001
29698530 9.995397e-001 -5.517658e-001 1.076161e-004 -1.758146e+001 1.894410e-004 -4.757525e+001 1.000589e+000 -4.281641e-001
29998515 9.994762e-001 -5.474001e-001 1.358230e-005 -5.365179e+001 2.304345e-004 4.765524e+001 1.001275e+000 -4.595782e-001
30298500 9.998544e-001 -5.816614e-001 9.168593e-005 -1.428099e+001 1.774373e-004 -1.631496e+002 1.001885e+000 -4.993493e-001
30598485 1.000106e+000 -5.631052e-001 7.122755e-005 1.461353e+001 1.954558e-004 6.498141e+001 1.001296e+000 -4.674479e-001
30898470 9.997943e-001 -5.644575e-001 7.268368e-005 -5.156301e+001 2.760898e-004 -1.007569e+002 1.000852e+000 -4.920753e-001
31198455 1.000058e+000 -5.103481e-001 6.767163e-005 -1.757605e+002 1.237374e-004 -1.069030e+002 9.995413e-001 -4.421023e-001
31498440 1.000343e+000 -5.824005e-001 6.084844e-005 -1.687393e+002 2.054104e-004 -1.415246e+002 1.000353e+000 -5.189141e-001
31798425 9.991201e-001 -6.197718e-001 1.190653e-004 -5.926579e+001 2.484015e-004 8.002264e+001 1.001470e+000 -4.961302e-001
32098410 9.999165e-001 -5.698109e-001 7.921670e-005 -1.725569e+001 1.693447e-004 -1.599152e+002 1.000940e+000 -4.692562e-001
32398395 1.000726e+000 -6.147265e-001 8.106181e-005 5.403865e+001 2.151884e-004 -1.404543e+001 1.000851e+000 -4.329410e-001
32698380 1.000021e+000 -5.950810e-001 5.911559e-005 2.809516e+001 3.130981e-004 -8.732215e+001 1.000835e+000 -4.254610e-001
32998365 1.000469e+000 -5.754800e-001 6.234845e-005 -1.649375e+002 3.016970e-004 4.341754e+001 1.000543e+000 -4.191871e-001
33298350 9.992440e-001 -5.836723e-001 3.961479e-005 -7.525931e+001 1.518484e-004 -1.741519e+002 1.001222e+000 -4.853059e-001
33598335 9.998948e-001 -5.934188e-001 5.885932e-005 1.633079e+002 8.396223e-005 -6.273573e+001 1.000945e+000 -5.008206e-001
33898320 9.993502e-001 -6.205679e-001 1.593280e-004 1.489760e+002 1.290156e-004 1.182869e+002 9.999353e-001 -5.061501e-001
34198305 9.993513e-001 -6.183339e-001 1.265333e-004 6.810659e+001 4.860160e-005 1.575325e+002 9.994498e-001 -5.152119e-001
34498290 9.997843e-001 -6.725893e-001 7.477647e-005 -1.353601e+002 1.431079e-004 6.004743e+001 9.989992e-001 -4.997834e-001
34798275 9.995589e-001 -6.466564e-001 4.906295e-005 7.748301e+001 1.778532e-004 -9.974857e+001 9.987700e-001 -5.567805e-001
35098260 1.000224e+000 -6.789244e-001 6.052972e-005 -5.131950e+001 1.365552e-004 7.707423e+001 1.000726e+000 -4.778506e-001
35398245 9.993017e-001 -6.785328e-001 7.487927e-005 7.286849e+001 1.476091e-004 -1.609258e+002 1.001157e+000 -4.660569e-001
35698230 9.994926e-001 -6.896658e-001 8.531896e-005 -5.162684e+001 2.224718e-004 6.088709e+001 1.000106e+000 -4.727483e-001
35998215 9.995456e-001 -6.669972e-001 5.391004e-005 2.022521e+001 1.450796e-004 -9.630117e+001 1.001721e+000 -5.344694e-001
36298200 9.999147e-001 -6.879144e-001 2.261747e-005 1.688262e+002 2.584302e-004 1.760958e+001 1.001105e+000 -5.523895e-001
36598185 1.000315e+000 -6.834232e-001 8.145940e-005 -1.788500e+002 1.103942e-004 1.694203e+002 1.000673e+000 -5.479850e-001
36898170 1.000212e+000 -7.031820e-001 1.855993e-005 4.626120e+001 1.419654e-004 -6.515914e+000 1.000825e+000 -5.335451e-001
37198155 1.000420e+000 -6.435651e-001 9.262691e-005 3.890034e+001 1.607951e-004 1.586081e+002 1.000496e+000 -4.980758e-001
37498140 1.000486e+000 -6.829660e-001 1.044254e-004 -1.048369e+002 9.737004e-005 -1.619845e+001 1.000674e+000 -4.784437e-001
37798125 9.996341e-001 -6.921983e-001 6.402527e-005 -9.187881e+001 1.236554e-004 9.534824e+001 1.000820e+000 -5.544556e-001
38098110 9.998664e-001 -6.878682e-001 5.549385e-005 3.055817e+001 1.498632e-004 -1.135366e+002 1.000143e+000 -5.552204e-001
38398095 9.996407e-001 -7.131140e-001 6.636939e-005 -1.578299e+002 1.111694e-004 1.528088e+002 9.999976e-001 -5.718093e-001
38698080 9.998078e-001 -6.820037e-001 6.676633e-005 -1.064279e+002 3.233202e-005 -1.222031e+002 9.995606e-001 -5.947732e-001
38998065 9.991657e-001 -6.877272e-001 2.948667e-005 -8.024993e+001 1.463731e-004 8.440391e+000 9.997969e-001 -5.863637e-001
39298050 1.001025e+000 -6.846899e-001 1.155324e-004 3.157184e+001 5.759674e-005 -1.222676e+002 1.000005e+000 -5.911992e-001
39598035 1.000672e+000 -6.927192e-001 2.638491e-005 -1.027343e+002 9.451035e-005 -4.797190e+001 1.001456e+000 -5.092889e-001
39898020 1.000447e+000 -6.341506e-001 8.447225e-005 3.792590e+001 1.323704e-004 1.227496e+002 1.001316e+000 -4.928277e-001
40198005 1.000079e+000 -7.375153e-001 1.530364e-004 -1.902720e+001 1.785863e-004 -6.400953e+001 1.001199e+000 -6.772226e-001
40497990 9.993359e-001 -7.797102e-001 1.301671e-004 -8.980936e+001 2.793049e-004 1.397628e+002 1.002763e+000 -6.811733e-001
40797975 1.000251e+000 -6.799371e-001 8.657748e-005 9.706525e+001 4.152700e-004 1.777241e+002 9.997354e-001 -6.884401e-001
41097960 1.000038e+000 -6.620459e-001 2.625250e-004 1.175198e+002 3.255130e-004 -1.189654e+002 1.001196e+000 -5.347641e-001
41397945 9.983819e-001 -6.670176e-001 7.396936e-005 7.431596e+001 3.973075e-004 1.508811e+002 1.000976e+000 -5.248924e-001
41697930 9.998302e-001 -6.669030e-001 1.752108e-004 -9.581921e+001 1.648464e-004 -1.746511e+002 1.001404e+000 -5.950513e-001
41997915 1.000287e+000 -7.000721e-001 1.623516e-004 1.462736e+002 1.822156e-004 7.180741e+001 1.001453e+000 -5.740395e-001
42297900 9.996673e-001 -7.284247e-001 7.327295e-005 7.265936e+001 8.557134e-005 7.696516e+001 1.001315e+000 -4.972463e-001
42597885 9.993928e-001 -7.526423e-001 1.348152e-004 1.361754e+002 9.996614e-005 -4.149389e+001 1.002263e+000 -6.302112e-001
42897870 9.996880e-001 -7.318562e-001 3.157442e-005 1.772920e+002 1.748709e-004 -1.177325e+002 1.002472e+000 -6.156331e-001
43197855 1.000954e+000 -7.737321e-001 1.892548e-004 -1.308914e+002 7.250958e-005 -1.609805e+002 1.001044e+000 -6.666827e-001
43497840 9.995456e-001 -8.138435e-001 1.332415e-004 -1.706179e+002 2.229013e-004 1.007272e+001 1.001284e+000 -6.676281e-001
43797825 9.998752e-001 -8.059794e-001 9.722788e-005 6.595781e+001 2.022894e-004 9.243339e+001 9.993991e-001 -5.368552e-001
44097810 1.000453e+000 -7.807613e-001 2.470489e-004 2.002211e+001 2.126905e-004 -1.070307e+002 1.001484e+000 -6.413336e-001
44397795 1.000647e+000 -7.269563e-001 9.910790e-005 -7.210932e-001 1.999450e-004 -1.744514e+002 1.002364e+000 -7.670795e-001
44697780 1.000061e+000 -7.699922e-001 1.659600e-004 -1.348485e+002 6.792293e-005 -1.510634e+002 1.002289e+000 -6.777163e-001
44997765 1.000839e+000 -7.847160e-001 1.531333e-004 -1.556451e+002 3.331908e-004 8.896439e+001 1.004321e+000 -6.970225e-001
45297750 1.001302e+000 -8.363103e-001 6.027869e-005 8.255070e+001 1.224733e-004 -6.500222e+001 1.002730e+000 -7.162066e-001
45597735 1.000783e+000 -8.298621e-001 8.555898e-005 1.896317e+001 3.114719e-004 -1.458499e+002 1.002377e+000 -6.896287e-001
45897720 1.001791e+000 -8.338804e-001 1.395539e-004 1.226963e+002 3.374063e-004 -2.974562e+001 1.002475e+000 -7.379646e-001
46197705 1.000904e+000 -7.874129e-001 1.427408e-004 -1.727897e+002 1.722408e-004 -6.366057e+000 1.001450e+000 -6.615657e-001
46497690 1.000473e+000 -7.626262e-001 1.355599e-004 1.453774e+002 1.310436e-004 -1.704605e+002 1.002372e+000 -6.056019e-001
46797675 1.000551e+000 -7.948340e-001 1.240933e-004 -4.820400e+001 3.776569e-004 -4.674104e+001 1.002672e+000 -7.480149e-001
47097660 1.000753e+000 -8.321400e-001 1.218990e-004 -1.351662e+002 3.094964e-004 -1.112641e+002 1.000737e+000 -7.450423e-001
