!Agilent Technologies,N5230C,SG49000117,A.08.50.07
!Agilent N5230C: A.08.50.07
!Date: Thursday, May 16, 2024 17:43:49
!Correction: S11(Full 2 Port(1,2)) 
!S21(Full 2 Port(1,2)) 
!S12(Full 2 Port(1,2)) 
!S22(Full 2 Port(1,2)) 
!S2P File: Measurements: S11, S21, S12, S22:
# Hz S  MA   R 50
300000 1.006913e+000 -4.647193e-001 2.594229e-004 1.615486e+002 1.970048e-004 -9.253690e+001 1.015113e+000 -7.227820e-001
599985 9.827488e-001 2.401021e-001 5.669226e-005 -5.344154e+001 7.694276e-005 1.281023e+002 9.647817e-001 2.542458e-001
899970 9.968139e-001 -1.282584e-001 5.406114e-005 -9.287010e+001 5.877821e-005 1.643208e+002 9.871032e-001 -4.241841e-001
1199955 9.976669e-001 -1.040240e-001 1.335063e-004 9.571546e+001 1.570131e-004 3.319243e+001 9.965074e-001 -2.197108e-001
1499940 9.945304e-001 1.283899e-001 1.106385e-004 1.014068e+002 1.659503e-004 1.908686e+001 9.924622e-001 9.878404e-002
1799925 9.916219e-001 1.790522e-001 7.993957e-005 -1.698475e+002 1.496847e-004 1.330578e+002 9.907852e-001 5.516725e-002
2099910 9.990436e-001 -2.213579e-002 1.403082e-004 1.246980e+002 1.968537e-004 -1.216506e+002 9.998158e-001 2.952076e-002
2399895 9.991053e-001 -1.882517e-001 9.080370e-005 1.144404e+002 1.965646e-004 1.175947e+002 1.003903e+000 8.348596e-003
2699880 1.000013e+000 -2.952680e-001 1.110428e-004 -6.076942e+001 1.634791e-004 -9.530009e+001 9.953620e-001 -2.843500e-001
2999865 9.995575e-001 -1.597917e-001 3.229760e-005 -8.770979e+001 2.202276e-004 -6.565670e+001 9.987007e-001 -1.748677e-001
3299850 1.000345e+000 -1.662835e-001 4.337270e-005 1.579257e+002 1.819727e-004 -1.099675e+002 9.979786e-001 -2.557357e-001
3599835 9.999940e-001 -1.338364e-001 6.231530e-005 1.521321e+002 4.791702e-005 1.152517e+002 9.991031e-001 -1.788047e-001
3899820 9.998257e-001 -1.942005e-001 7.619730e-005 5.521370e+001 9.098087e-005 9.209481e+001 9.993860e-001 -2.203930e-001
4199805 1.000122e+000 -2.325797e-001 2.451845e-005 9.422688e+001 2.463564e-004 8.933955e+001 9.995455e-001 -2.751288e-001
4499790 9.999397e-001 -2.109776e-001 6.595033e-005 -8.350301e+001 1.267999e-005 4.244242e+000 9.992459e-001 -2.088315e-001
4799775 1.000537e+000 -2.052937e-001 8.233633e-005 1.315796e+001 9.318360e-005 -1.596599e+002 1.000855e+000 -1.350582e-001
5099760 1.000724e+000 -1.915309e-001 2.121261e-005 -1.182772e+002 6.557959e-005 -9.645811e+001 1.001633e+000 -2.052260e-001
5399745 1.000288e+000 -1.876028e-001 2.812071e-005 8.922794e+001 1.433596e-004 6.284668e+001 9.999657e-001 -1.064222e-001
5699730 1.000315e+000 -1.796059e-001 4.906153e-005 7.259795e+001 5.451831e-005 4.716670e+001 1.001648e+000 -1.396295e-001
5999715 9.992278e-001 -1.500997e-001 8.558977e-005 3.525826e+001 1.970856e-004 4.321554e+001 1.000444e+000 -1.196155e-001
6299700 9.996595e-001 -1.923784e-001 1.026123e-004 1.490896e+002 2.112573e-004 1.488009e+002 1.000775e+000 -1.306423e-001
6599685 9.993537e-001 -1.895335e-001 7.583898e-005 -9.335290e+001 1.354237e-004 -1.770751e+002 1.001181e+000 -1.519307e-001
6899670 9.994780e-001 -2.130922e-001 3.693030e-005 -1.460239e+002 1.242432e-004 6.679546e+001 9.997069e-001 -2.181228e-001
7199655 9.999480e-001 -2.535166e-001 7.247351e-005 1.342715e+002 9.220716e-005 -1.565632e+002 1.000466e+000 -1.979969e-001
7499640 1.000010e+000 -2.674679e-001 2.870109e-005 1.202764e+002 1.255300e-004 5.239156e+001 9.999781e-001 -2.704412e-001
7799625 9.998853e-001 -2.282338e-001 3.793179e-005 6.370408e+001 2.756399e-004 1.584548e+001 9.989195e-001 -1.650845e-001
8099610 9.994749e-001 -2.341198e-001 1.052670e-004 6.131607e+001 1.190301e-004 9.359363e-001 9.999861e-001 -2.057159e-001
8399595 9.998233e-001 -2.274511e-001 1.582757e-005 1.702578e+002 6.927601e-005 -1.378650e+002 1.000112e+000 -2.698536e-001
8699580 9.998475e-001 -2.343649e-001 9.253269e-005 -1.724232e+002 6.394978e-005 -2.990565e+001 9.990576e-001 -2.373427e-001
8999565 1.000007e+000 -2.567850e-001 3.973259e-006 8.281498e+001 5.441883e-005 -6.680407e+001 1.000833e+000 -2.331851e-001
9299550 9.995388e-001 -2.356240e-001 2.713072e-005 2.930799e+001 6.327469e-005 1.613456e+002 9.992403e-001 -2.410371e-001
9599535 9.995515e-001 -2.996503e-001 5.273159e-005 -7.744989e+001 9.691816e-005 6.710416e+001 9.990097e-001 -3.569224e-001
9899520 9.996254e-001 -3.551094e-001 4.605045e-005 9.759306e+001 1.791950e-005 -3.193425e+001 9.981351e-001 -4.418759e-001
10199505 1.000246e+000 -2.438459e-001 2.310721e-005 1.475220e+002 9.447482e-005 1.284129e+001 1.000243e+000 -2.028609e-001
10499490 9.992922e-001 -2.612713e-001 1.063905e-004 1.311854e+002 1.984367e-004 -3.930436e+001 9.989190e-001 -1.920316e-001
10799475 9.994782e-001 -2.340326e-001 4.822249e-005 -4.194513e+001 4.253917e-005 1.232376e+002 1.000461e+000 -2.256613e-001
11099460 9.993231e-001 -2.508060e-001 8.262655e-005 -1.464117e+002 1.256586e-004 -9.917243e+000 1.001008e+000 -2.023418e-001
11399445 9.999936e-001 -2.795579e-001 7.366354e-005 1.616782e+002 1.357155e-004 1.592706e+002 9.993805e-001 -1.573670e-001
11699430 1.000061e+000 -2.686471e-001 1.213097e-004 -1.051042e+002 3.264208e-005 5.891077e+001 1.000676e+000 -1.838465e-001
11999415 9.997898e-001 -2.811167e-001 3.432453e-005 -9.461983e+001 5.333279e-005 -9.817168e+001 1.001482e+000 -2.618015e-001
12299400 9.993535e-001 -3.184815e-001 4.576956e-005 -1.706093e+002 1.405978e-004 -5.151058e+001 1.001789e+000 -1.311204e-001
12599385 9.999651e-001 -3.057047e-001 4.764333e-005 1.079207e+002 2.193013e-004 -3.222141e+001 1.000626e+000 -3.090005e-001
12899370 9.998429e-001 -3.222130e-001 6.651636e-005 5.424484e+001 1.414580e-004 -1.201721e+001 9.993606e-001 -3.989497e-001
13199355 1.000251e+000 -3.702223e-001 2.651834e-005 1.103406e+002 1.635491e-004 1.089514e+002 9.988824e-001 -2.078653e-001
13499340 9.999222e-001 -3.484465e-001 4.438802e-005 1.695030e+002 2.704130e-004 6.949046e+001 9.989308e-001 -3.040136e-001
13799325 9.991308e-001 -3.292800e-001 4.505698e-005 1.767113e+001 6.245544e-005 5.632480e+000 9.979957e-001 -1.634741e-001
14099310 9.998769e-001 -3.481037e-001 8.013222e-005 -5.102317e+001 1.454647e-004 1.020031e+002 9.999506e-001 -2.119737e-001
14399295 9.999271e-001 -3.781574e-001 5.836552e-005 -1.696275e+002 1.828855e-004 -2.360113e+001 1.000624e+000 -2.528166e-001
14699280 1.000190e+000 -3.411775e-001 6.873618e-005 -3.120848e+001 3.086577e-004 7.929324e+001 1.000681e+000 -2.777439e-001
14999265 9.997701e-001 -3.363790e-001 3.861175e-005 1.258664e+002 1.892665e-004 -1.525210e+002 9.984745e-001 -3.169917e-001
15299250 9.994407e-001 -3.405651e-001 9.077949e-005 -1.375381e+002 1.337245e-004 -3.038990e+000 1.000746e+000 -2.957008e-001
15599235 9.992109e-001 -3.231589e-001 4.821520e-005 -6.791150e+001 3.155639e-004 -1.274467e+002 1.000945e+000 -2.759967e-001
15899220 9.997167e-001 -3.370108e-001 1.032520e-004 -4.573496e+001 2.180069e-004 -2.619577e+001 1.000072e+000 -2.314164e-001
16199205 9.999303e-001 -3.611375e-001 3.567917e-005 8.692764e+001 3.787014e-004 -1.461979e+002 1.001055e+000 -2.316588e-001
16499190 9.996376e-001 -3.085915e-001 6.410552e-005 -1.193058e+002 8.581764e-005 -2.947880e+001 1.000121e+000 -2.739776e-001
16799175 9.990363e-001 -3.468583e-001 1.450531e-005 -2.389927e+001 2.328837e-004 1.639645e+002 1.001231e+000 -3.523725e-001
17099160 9.992591e-001 -3.834909e-001 1.091609e-004 -1.739509e+002 4.686019e-005 1.020178e+002 1.001874e+000 -2.605636e-001
17399145 9.992418e-001 -4.179972e-001 6.437351e-005 -3.120977e+001 3.400182e-004 1.295879e+002 1.001165e+000 -3.104315e-001
17699130 9.997163e-001 -3.935790e-001 7.822028e-005 2.390141e+001 3.078304e-004 -4.917056e+001 1.000764e+000 -2.060195e-001
17999115 9.989702e-001 -4.106732e-001 3.747385e-005 5.055993e+001 4.593036e-005 -9.596662e+001 1.001900e+000 -3.355407e-001
18299100 9.992231e-001 -3.994197e-001 9.919245e-005 1.399914e+002 1.735380e-004 4.356712e+000 1.000172e+000 -3.040737e-001
18599085 9.996839e-001 -4.042170e-001 3.404548e-005 -1.088144e+002 2.790151e-004 1.091587e+002 9.994440e-001 -3.478367e-001
18899070 9.999278e-001 -3.826504e-001 5.993914e-005 1.749935e+002 2.940285e-004 -1.192647e+002 1.001044e+000 -2.754067e-001
19199055 1.000380e+000 -4.168785e-001 8.993314e-005 1.284214e+002 2.472465e-004 6.475105e+001 1.000045e+000 -3.147229e-001
19499040 1.000279e+000 -4.662760e-001 3.235888e-005 -6.786758e+001 1.440779e-004 1.535614e+002 1.000881e+000 -2.977549e-001
19799025 1.000617e+000 -4.263394e-001 1.129525e-004 -1.711117e+001 5.667014e-005 2.245951e+001 1.000455e+000 -2.374602e-001
20099010 9.998202e-001 -4.333422e-001 1.948630e-005 -1.158491e+002 7.377696e-005 -1.497565e+002 9.996688e-001 -3.185684e-001
20398995 9.998273e-001 -4.042873e-001 9.299401e-005 -1.172014e+002 8.669852e-005 -7.727923e+001 9.992459e-001 -3.424262e-001
20698980 9.990190e-001 -4.240757e-001 4.660424e-005 1.080484e+002 2.060486e-004 1.128493e+002 9.974603e-001 -2.959431e-001
20998965 9.996940e-001 -4.350943e-001 7.151344e-005 -1.390368e+002 2.930622e-004 -4.156634e+001 9.999045e-001 -2.817767e-001
21298950 9.995860e-001 -4.203662e-001 8.328775e-005 -1.108212e+002 1.175709e-004 -3.231033e+001 1.000686e+000 -2.497809e-001
21598935 9.996298e-001 -4.731299e-001 6.896265e-005 -1.248804e+002 2.460119e-004 -1.539716e+001 9.998776e-001 -2.593752e-001
21898920 9.993567e-001 -4.735549e-001 2.554838e-005 1.426343e+002 1.764840e-004 4.179827e+001 9.983864e-001 -2.831889e-001
22198905 9.998263e-001 -4.559651e-001 2.441348e-005 -1.368945e+002 2.065808e-004 -1.066735e+002 1.000484e+000 -3.397066e-001
22498890 1.000034e+000 -4.419781e-001 3.316644e-005 -2.605807e+001 3.923569e-005 9.147077e+001 1.000145e+000 -4.053276e-001
22798875 9.999889e-001 -4.662716e-001 3.306798e-005 -8.021075e+001 7.529306e-005 -1.106372e+002 1.000330e+000 -4.023066e-001
23098860 1.000153e+000 -4.842198e-001 3.451584e-005 7.151880e+001 1.696221e-004 -7.791934e+001 1.000967e+000 -4.101877e-001
23398845 1.000939e+000 -4.679609e-001 1.175726e-004 -6.580782e+001 4.183397e-004 1.074659e+002 1.000536e+000 -4.388913e-001
23698830 9.997316e-001 -5.171206e-001 1.047383e-004 5.860194e+001 2.174569e-004 -4.399950e+001 1.000811e+000 -3.462957e-001
23998815 9.998155e-001 -5.180948e-001 1.222224e-004 -7.034698e+000 1.948756e-004 2.335803e-002 9.986827e-001 -4.009342e-001
24298800 1.000108e+000 -5.496206e-001 1.373706e-004 -6.007888e+001 1.954417e-004 -1.393923e+002 9.994274e-001 -4.645590e-001
24598785 9.997919e-001 -5.568265e-001 3.067760e-005 3.819789e+001 9.065973e-005 9.218143e+001 1.000803e+000 -3.675144e-001
24898770 9.997623e-001 -5.164508e-001 3.890716e-005 -3.157697e+001 1.349117e-004 1.290586e+002 1.000389e+000 -4.106770e-001
25198755 1.000041e+000 -5.433791e-001 1.078202e-004 -5.816087e+001 2.163123e-004 -1.914275e+001 1.001403e+000 -3.704880e-001
25498740 9.995981e-001 -5.674669e-001 1.014626e-004 -1.503208e+002 7.213681e-005 1.646214e+002 1.000119e+000 -3.760972e-001
25798725 9.997585e-001 -5.516267e-001 4.879848e-005 1.006425e+002 3.284852e-004 5.080898e+001 9.998009e-001 -5.347487e-001
26098710 1.000148e+000 -5.186370e-001 1.126724e-004 9.704739e+001 1.850869e-004 5.423586e+001 1.000001e+000 -4.462290e-001
26398695 9.996151e-001 -5.703223e-001 7.118148e-005 1.184178e+002 1.827831e-004 -8.581458e+001 1.002630e+000 -3.827970e-001
26698680 1.000156e+000 -5.563413e-001 1.145754e-004 -1.207935e+001 1.891916e-004 4.548965e+001 1.001509e+000 -4.332174e-001
26998665 1.000583e+000 -5.742601e-001 1.095943e-004 -3.761008e+001 2.046056e-004 -1.150667e+002 1.000837e+000 -4.044014e-001
27298650 1.000097e+000 -5.506879e-001 5.193951e-005 -6.621401e-001 3.031348e-004 1.779854e+001 9.999267e-001 -3.953605e-001
27598635 9.997944e-001 -5.667084e-001 1.570733e-004 2.788290e+001 3.423300e-004 1.273193e+002 1.001087e+000 -4.493472e-001
27898620 1.000385e+000 -5.389917e-001 5.205440e-005 -8.776392e+001 2.322937e-005 -1.598987e+001 1.000788e+000 -4.430007e-001
28198605 9.995064e-001 -5.886019e-001 8.595853e-005 -9.616479e+001 1.497832e-004 1.233225e+002 1.001659e+000 -4.481776e-001
28498590 1.000144e+000 -6.356155e-001 1.294616e-004 -1.717689e+002 3.126675e-004 -8.228897e+001 1.000098e+000 -4.712673e-001
28798575 9.988217e-001 -6.473788e-001 5.912398e-005 5.504763e+001 1.076343e-004 1.695423e+002 1.000187e+000 -4.910927e-001
29098560 1.000179e+000 -5.907444e-001 9.493362e-005 6.970477e+001 1.148076e-004 -6.599360e+001 1.000537e+000 -4.168453e-001
29398545 1.000073e+000 -5.782512e-001 1.206258e-004 6.093112e+001 3.514480e-004 1.024090e+002 1.001200e+000 -4.296468e-001
29698530 9.993300e-001 -5.605547e-001 8.372324e-005 5.539804e+001 2.277911e-004 1.371412e+000 1.001749e+000 -4.626996e-001
29998515 9.994833e-001 -6.209326e-001 3.333486e-005 -8.517914e+001 1.315432e-004 -6.165179e+000 1.002393e+000 -4.837996e-001
30298500 9.998673e-001 -6.357334e-001 1.524254e-005 -1.790405e+002 1.510105e-004 -1.413261e+002 1.001893e+000 -4.238801e-001
30598485 9.996487e-001 -5.789480e-001 6.072620e-005 -5.078977e+001 1.381713e-004 1.286146e+001 1.001061e+000 -5.542313e-001
30898470 9.996512e-001 -5.949470e-001 8.593701e-005 1.181385e+002 4.160340e-004 -1.685574e+002 1.000400e+000 -4.611160e-001
31198455 1.000145e+000 -5.754331e-001 4.297862e-005 3.438640e+001 2.252992e-004 -2.334782e+001 1.000569e+000 -4.813023e-001
31498440 9.997494e-001 -6.364011e-001 1.067320e-004 1.085053e+002 9.732176e-005 -1.178931e+002 9.997465e-001 -4.357596e-001
31798425 9.997350e-001 -6.720672e-001 1.259778e-004 -1.556344e+002 1.455894e-004 1.029420e+001 1.000568e+000 -4.664617e-001
32098410 9.999269e-001 -6.569545e-001 1.201421e-004 -1.578642e+002 3.093639e-005 6.751566e+001 1.000955e+000 -4.717411e-001
32398395 9.999185e-001 -7.138656e-001 8.644914e-005 -1.428227e+002 2.658022e-004 1.300747e+000 1.000716e+000 -4.472350e-001
32698380 1.000695e+000 -6.628967e-001 2.680065e-005 5.581906e+001 3.136841e-004 1.525053e+002 1.000201e+000 -5.168537e-001
32998365 1.000499e+000 -6.849902e-001 5.103910e-005 1.739307e+002 2.597508e-004 -4.994184e+001 1.000865e+000 -4.435347e-001
33298350 1.000327e+000 -6.996000e-001 1.116643e-004 5.846718e+001 1.099360e-004 9.361188e+001 1.001441e+000 -4.816552e-001
33598335 1.000355e+000 -6.672989e-001 2.653655e-005 5.535255e+001 1.845172e-004 -4.875614e+001 1.000714e+000 -5.094543e-001
33898320 9.994259e-001 -7.094010e-001 4.760598e-005 -1.632073e+002 2.758826e-004 8.304018e+001 1.000230e+000 -4.553079e-001
34198305 1.000068e+000 -6.908736e-001 1.297869e-004 1.010917e+001 1.973892e-004 1.453699e+002 1.000079e+000 -5.167264e-001
34498290 9.996066e-001 -6.817080e-001 1.369024e-004 -4.160608e+001 2.513136e-004 -1.561089e+001 9.990305e-001 -4.443966e-001
34798275 9.988162e-001 -7.243876e-001 6.024386e-005 -9.596801e+001 1.108782e-004 1.408470e+002 9.982362e-001 -5.148544e-001
35098260 9.990575e-001 -7.470470e-001 7.721725e-005 -9.327381e+001 1.921766e-004 2.634614e+000 1.000551e+000 -4.681134e-001
35398245 9.999703e-001 -7.493619e-001 1.147062e-004 3.108163e+001 5.635974e-005 -1.054634e+001 1.002459e+000 -4.669051e-001
35698230 1.000104e+000 -7.577450e-001 1.195134e-004 4.296086e+001 1.299980e-004 -6.267569e+001 1.001492e+000 -5.002406e-001
35998215 9.997816e-001 -7.465860e-001 9.527854e-005 4.102464e+001 2.488860e-004 8.168005e+001 1.001485e+000 -4.854462e-001
36298200 9.999241e-001 -7.541841e-001 9.591853e-005 1.008348e+002 1.215681e-004 -7.264873e+001 1.001432e+000 -5.648723e-001
36598185 1.000749e+000 -7.312755e-001 1.114251e-004 8.209090e+001 1.990852e-004 1.010213e+002 1.000158e+000 -5.139961e-001
36898170 1.000162e+000 -7.631769e-001 6.765162e-005 5.443942e+001 2.013379e-004 -1.310804e+002 1.000467e+000 -5.211539e-001
37198155 1.000053e+000 -7.063169e-001 9.765525e-005 1.632399e+002 7.565809e-005 -4.165635e+001 1.000044e+000 -5.574074e-001
37498140 1.000427e+000 -7.797920e-001 8.464428e-005 -1.796798e+002 7.046750e-005 7.157727e+001 1.000905e+000 -4.698868e-001
37798125 9.996781e-001 -7.770332e-001 3.568560e-005 1.557000e+002 1.285544e-004 -2.367101e+001 1.000888e+000 -5.430272e-001
38098110 1.000028e+000 -7.329221e-001 1.219232e-004 2.064320e+001 1.525017e-004 4.883070e+001 1.000292e+000 -6.096961e-001
38398095 9.996945e-001 -7.616088e-001 1.059742e-004 9.922564e+001 1.570622e-004 -1.134436e+002 1.000906e+000 -5.761395e-001
38698080 9.996647e-001 -7.780313e-001 2.745929e-005 1.753818e+002 6.774868e-005 1.251372e+002 9.987231e-001 -5.399380e-001
38998065 1.000139e+000 -7.682852e-001 6.187710e-005 -1.489816e+002 8.793890e-005 -1.479064e+002 9.995530e-001 -5.586494e-001
39298050 1.000146e+000 -7.779666e-001 1.875889e-005 -1.793321e+002 1.455504e-004 -4.147813e+001 1.000164e+000 -5.162819e-001
39598035 1.000447e+000 -7.717694e-001 8.737885e-005 6.169204e+001 5.908090e-005 -1.721929e+002 1.001541e+000 -5.025387e-001
39898020 1.000975e+000 -7.555388e-001 8.886059e-005 -1.594042e+002 7.899787e-005 -3.938085e+001 1.001878e+000 -4.601925e-001
40198005 9.997780e-001 -8.202016e-001 8.461643e-005 -8.400908e+001 2.450028e-004 1.696986e+002 1.002174e+000 -6.548378e-001
40497990 1.000437e+000 -8.391149e-001 7.520191e-005 -1.024772e+002 4.973415e-004 1.354752e+002 1.002679e+000 -6.180012e-001
40797975 9.997684e-001 -8.047139e-001 2.019760e-004 -3.206151e+000 2.015034e-004 -1.685065e+002 1.002059e+000 -6.942620e-001
41097960 9.999006e-001 -7.540238e-001 1.393384e-004 -4.377657e+001 8.490264e-005 1.215460e+002 1.000668e+000 -6.915044e-001
41397945 1.000147e+000 -7.535990e-001 1.797810e-004 -5.934283e+001 1.217479e-004 4.965942e+001 1.002422e+000 -6.062365e-001
41697930 9.991841e-001 -8.081130e-001 7.594673e-005 1.220910e+002 3.086617e-004 4.616134e+000 1.001181e+000 -5.197129e-001
41997915 1.000850e+000 -7.624255e-001 9.661805e-005 -1.084441e+002 3.579150e-004 -1.172887e+002 1.000282e+000 -5.633900e-001
42297900 9.997205e-001 -7.915525e-001 1.482524e-004 1.756205e+002 1.647448e-004 1.547625e+002 1.002653e+000 -5.651318e-001
42597885 1.000470e+000 -9.039973e-001 2.354598e-004 -9.820124e+001 1.446718e-004 2.031183e-001 1.002635e+000 -5.738469e-001
42897870 1.000127e+000 -8.117072e-001 1.612188e-004 1.596879e+001 3.063747e-004 1.263680e+002 1.002122e+000 -6.713600e-001
43197855 1.000881e+000 -8.287382e-001 4.662718e-005 -1.038332e+001 3.573967e-004 1.589607e+002 1.001022e+000 -7.053699e-001
43497840 1.000176e+000 -8.814550e-001 4.895372e-005 1.201804e+002 1.931288e-004 -1.326735e+002 9.981437e-001 -6.261572e-001
43797825 9.994966e-001 -8.644296e-001 1.231684e-005 1.738694e+002 1.818731e-004 1.424874e+002 1.001394e+000 -6.624929e-001
44097810 1.000628e+000 -8.613700e-001 5.287230e-005 1.548654e+002 2.716036e-004 1.422530e+002 1.000786e+000 -7.166883e-001
44397795 1.000720e+000 -8.786391e-001 1.700556e-004 -1.385896e+002 3.302695e-004 4.084596e+001 1.000874e+000 -7.155576e-001
44697780 9.999498e-001 -8.705587e-001 4.662192e-005 8.032216e+000 2.038588e-005 -1.369945e+001 1.001432e+000 -6.611116e-001
44997765 9.999508e-001 -8.901865e-001 9.717267e-005 -8.615108e+001 5.759303e-004 5.734882e+001 1.003570e+000 -6.637701e-001
45297750 1.000577e+000 -8.820328e-001 7.258620e-005 1.009217e+001 1.007840e-004 1.345421e+002 1.001853e+000 -6.899755e-001
45597735 9.998257e-001 -8.810445e-001 1.381130e-004 4.825448e+001 1.474266e-004 -9.166985e+001 1.004988e+000 -6.658128e-001
45897720 1.000085e+000 -9.218056e-001 7.907624e-005 4.315646e+001 1.924125e-004 -3.795872e+001 1.003867e+000 -6.847980e-001
46197705 1.001542e+000 -9.215321e-001 8.007939e-005 -1.469142e+002 2.823970e-004 -1.144325e+002 1.003262e+000 -7.117931e-001
46497690 1.000234e+000 -8.810632e-001 3.688644e-005 -6.628016e+001 8.635420e-005 1.559506e+002 1.002236e+000 -6.647355e-001
46797675 9.998504e-001 -9.116357e-001 1.365529e-004 5.467400e+001 1.373379e-004 -1.259617e+002 1.002947e+000 -7.577369e-001
47097660 1.000721e+000 -9.493390e-001 1.070119e-004 9.896857e+001 2.970689e-004 -1.123324e+002 1.002234e+000 -8.225566e-001
47397645 1.000218e+000 -9.755641e-001 1.386573e-004 -2.040415e+001 2.142616e-004 1.129219e+002 1.001302e+000 -8.056631e-001
