!Agilent Technologies,N5230C,SG49000117,A.08.50.07
!Agilent N5230C: A.08.50.07
!Date: Thursday, May 16, 2024 17:45:04
!Correction: S11(Full 2 Port(1,2)) 
!S21(Full 2 Port(1,2)) 
!S12(Full 2 Port(1,2)) 
!S22(Full 2 Port(1,2)) 
!S2P File: Measurements: S11, S21, S12, S22:
# Hz S  MA   R 50
300000 1.007551e+000 -4.877110e-001 1.818290e-004 -4.405369e+001 1.426905e-004 1.550623e+002 1.014465e+000 -8.567387e-001
599985 9.827774e-001 2.380968e-001 4.129532e-005 1.664384e+002 4.819128e-004 -1.178448e+002 9.646789e-001 3.612022e-001
899970 9.964712e-001 -1.356788e-001 2.959469e-005 -1.538450e+002 2.060096e-004 5.818309e+001 9.849816e-001 -3.261468e-001
1199955 9.975844e-001 -8.278462e-002 7.356211e-005 1.556360e+002 1.589131e-004 -9.204071e+000 9.951084e-001 -1.830209e-001
1499940 9.936637e-001 1.000091e-001 8.087080e-005 1.361306e+002 2.064069e-004 1.652079e+002 9.938635e-001 7.045455e-002
1799925 9.919206e-001 1.862113e-001 4.789534e-005 1.243999e+002 1.712602e-004 3.822778e+001 9.902126e-001 3.863558e-002
2099910 9.986015e-001 -5.661628e-002 4.324341e-005 -1.693261e+002 2.295827e-004 1.457407e+002 9.997818e-001 5.934010e-003
2399895 9.991646e-001 -1.758021e-001 5.744598e-005 1.418724e+002 2.050768e-004 1.318744e+002 1.003519e+000 -7.645507e-002
2699880 9.995475e-001 -2.522106e-001 5.931183e-005 -4.405193e+001 2.327919e-004 1.308627e+002 9.957064e-001 -2.590769e-001
2999865 9.997131e-001 -1.804528e-001 9.167026e-005 1.086286e+002 2.308125e-004 -8.751796e+001 9.982217e-001 -1.843714e-001
3299850 1.000288e+000 -1.542108e-001 7.112835e-005 -7.634222e+001 8.508696e-005 -1.335301e+002 9.989915e-001 -2.104973e-001
3599835 9.998302e-001 -1.934600e-001 1.186893e-005 4.067714e+001 1.854979e-004 4.145282e+001 9.993501e-001 -2.151724e-001
3899820 9.995324e-001 -1.793479e-001 6.785469e-005 -1.787895e+001 2.293850e-004 1.135958e+002 9.990214e-001 -1.697598e-001
4199805 1.000021e+000 -2.634100e-001 8.345191e-005 1.368909e+002 1.723628e-004 4.549427e+001 9.998804e-001 -2.568370e-001
4499790 9.999609e-001 -2.229587e-001 7.958578e-005 -4.224557e+001 1.760520e-004 1.569423e+002 1.000911e+000 -1.963034e-001
4799775 9.999490e-001 -1.990920e-001 5.310515e-005 -1.153675e+002 2.011110e-004 4.296966e+001 9.999890e-001 -1.821582e-001
5099760 1.000253e+000 -2.118545e-001 8.034877e-005 -2.405479e+001 6.849456e-005 1.307877e+002 1.001107e+000 -1.340730e-001
5399745 1.000732e+000 -1.741825e-001 2.781544e-005 7.949020e+001 6.575907e-005 -1.202658e+002 1.000363e+000 -9.294984e-002
5699730 1.000246e+000 -1.828570e-001 1.095289e-004 1.004341e+002 1.104126e-004 -2.211873e+001 1.001201e+000 -1.822627e-001
5999715 9.995149e-001 -1.601367e-001 2.983521e-005 6.688655e+001 8.028122e-005 1.367162e+002 1.000871e+000 -9.020526e-002
6299700 1.000039e+000 -1.630694e-001 7.628079e-005 1.120132e+002 4.945483e-005 -1.330729e+002 1.000563e+000 -1.725878e-001
6599685 9.997346e-001 -1.802394e-001 1.068196e-004 1.490295e+002 7.205779e-005 2.053806e+001 9.999543e-001 -1.894685e-001
6899670 9.990833e-001 -1.958555e-001 2.712739e-005 5.768936e+001 1.076166e-004 -3.019654e+001 9.999725e-001 -1.985554e-001
7199655 9.996237e-001 -2.350244e-001 7.389742e-005 2.353383e+001 1.574633e-004 -1.314714e+002 1.000784e+000 -2.575240e-001
7499640 9.992037e-001 -2.339329e-001 1.276131e-004 -4.140893e+001 1.859099e-005 -5.578086e+001 1.000837e+000 -2.753218e-001
7799625 9.997028e-001 -2.717042e-001 6.042398e-005 -1.704958e+002 1.519747e-004 9.636700e+001 9.995253e-001 -2.512842e-001
8099610 9.999856e-001 -2.387422e-001 3.351188e-005 -1.168672e+002 1.919827e-004 -1.535815e+002 9.996310e-001 -2.166564e-001
8399595 9.998537e-001 -2.493491e-001 3.973494e-005 -8.779334e+000 1.161002e-004 8.239013e+000 9.999492e-001 -2.706702e-001
8699580 9.995869e-001 -2.461383e-001 2.773661e-005 2.361809e+001 3.308846e-004 5.150268e+000 1.000014e+000 -2.148653e-001
8999565 9.996516e-001 -2.417062e-001 9.942212e-006 1.469624e+002 1.324534e-004 -1.699355e+002 9.990609e-001 -2.276002e-001
9299550 9.997423e-001 -2.682421e-001 4.860839e-005 1.059798e+001 1.615597e-004 1.762678e+001 9.994994e-001 -1.927328e-001
9599535 9.995562e-001 -3.241433e-001 3.091599e-005 1.023350e+002 1.076975e-004 1.229945e+002 9.981250e-001 -3.515303e-001
9899520 9.997841e-001 -3.546627e-001 2.900306e-005 1.366803e+001 1.176700e-004 8.469183e+001 9.976751e-001 -4.234232e-001
10199505 1.000485e+000 -2.540424e-001 1.737998e-005 -7.583773e+000 8.506318e-005 -4.034848e+001 1.000553e+000 -2.353226e-001
10499490 9.997551e-001 -2.680044e-001 3.516813e-005 2.753171e+001 1.405039e-004 -3.513914e+001 1.000306e+000 -3.140660e-001
10799475 1.000044e+000 -2.692299e-001 5.678682e-005 1.539645e+002 9.845439e-006 1.344188e+002 9.991271e-001 -1.484582e-001
11099460 9.997983e-001 -2.594632e-001 7.353103e-005 -1.073974e+002 1.079140e-004 5.908933e+001 9.987628e-001 -1.987268e-001
11399445 9.992816e-001 -2.810228e-001 1.615738e-005 -1.754833e+002 3.791383e-005 7.381754e+001 9.992479e-001 -2.003440e-001
11699430 9.995845e-001 -2.818440e-001 5.666381e-005 9.870432e+001 1.457549e-004 -2.964697e+001 9.998804e-001 -1.833627e-001
11999415 9.993784e-001 -2.687755e-001 6.058994e-005 -1.571792e+002 2.469604e-004 -3.675854e+001 1.001112e+000 -2.397619e-001
12299400 9.996664e-001 -2.713431e-001 1.367378e-005 7.774121e+001 2.046900e-004 4.934577e+001 9.999964e-001 -2.131190e-001
12599385 1.000012e+000 -3.066018e-001 6.795847e-005 -1.289541e+000 1.505585e-004 -1.330297e+002 9.997442e-001 -3.082291e-001
12899370 9.997470e-001 -3.685048e-001 8.095689e-005 -4.772639e+001 1.305602e-004 -1.191371e+002 1.000586e+000 -4.556112e-001
13199355 9.999499e-001 -3.402777e-001 2.842019e-005 1.520228e+002 1.047577e-004 1.600279e+002 9.997469e-001 -2.482057e-001
13499340 9.996805e-001 -3.394401e-001 1.050574e-005 -6.581736e+001 3.291776e-004 1.601258e+002 9.981663e-001 -3.287744e-001
13799325 9.997725e-001 -3.668681e-001 6.976583e-005 -4.177127e+001 3.017658e-004 -7.461056e+000 9.987578e-001 -1.533106e-001
14099310 9.995936e-001 -3.726813e-001 6.976538e-005 -6.108140e+001 2.315195e-004 -1.719523e+002 1.000314e+000 -2.364929e-001
14399295 1.000140e+000 -3.641305e-001 5.284243e-005 -1.477706e+002 1.443854e-004 7.083442e+001 1.000976e+000 -2.388739e-001
14699280 1.000017e+000 -3.530093e-001 8.100111e-005 5.692522e+001 5.283873e-005 1.468731e+002 1.001308e+000 -2.494782e-001
14999265 1.000038e+000 -3.480138e-001 5.712843e-005 -1.283243e+002 1.728172e-004 3.814832e+001 9.992740e-001 -2.874267e-001
15299250 9.990071e-001 -3.579916e-001 9.026970e-005 -1.493406e+002 3.563751e-005 -1.487027e+002 9.998763e-001 -2.745408e-001
15599235 9.996592e-001 -3.556326e-001 4.118342e-005 -1.687912e+002 2.042927e-004 -4.265269e+001 9.989163e-001 -2.828490e-001
15899220 9.995784e-001 -4.054851e-001 4.115222e-005 -1.159338e+002 3.432111e-004 7.842420e+001 1.000362e+000 -2.362247e-001
16199205 9.999100e-001 -3.821700e-001 7.695893e-005 5.561502e+001 1.355474e-004 3.480927e+000 1.001106e+000 -2.480488e-001
16499190 9.997941e-001 -3.727007e-001 4.884089e-005 1.063894e+002 1.385916e-004 4.080210e+001 1.000895e+000 -2.506624e-001
16799175 9.993553e-001 -3.762798e-001 6.995920e-005 9.465457e+000 3.606863e-004 1.351525e+002 1.001407e+000 -2.901528e-001
17099160 9.999804e-001 -4.020222e-001 3.160555e-005 -1.164788e+002 1.628919e-004 -3.588045e+001 1.000804e+000 -3.485067e-001
17399145 9.998546e-001 -4.336334e-001 4.058684e-005 -1.609023e+002 1.353078e-004 1.387260e+002 1.000446e+000 -3.413711e-001
17699130 9.995075e-001 -4.372430e-001 9.777301e-005 4.651379e-001 1.541737e-004 -2.545072e+001 1.000669e+000 -2.611554e-001
17999115 9.998828e-001 -4.078422e-001 1.053576e-004 1.770588e+002 4.067696e-004 1.056901e+002 1.000566e+000 -3.046032e-001
18299100 9.991139e-001 -4.116787e-001 9.082293e-005 -9.033942e+001 7.980343e-005 1.566034e+002 9.999707e-001 -3.340158e-001
18599085 9.991978e-001 -4.671409e-001 5.777079e-005 6.983813e+000 3.184094e-004 8.262135e+001 1.000575e+000 -3.615722e-001
18899070 9.999113e-001 -4.488240e-001 2.781103e-005 -9.759648e-001 1.586726e-004 1.411322e+002 1.000528e+000 -3.005306e-001
19199055 1.000316e+000 -4.516769e-001 9.570525e-005 -1.087904e+001 2.124435e-004 -1.184767e+002 9.999604e-001 -2.695109e-001
19499040 1.000612e+000 -4.528899e-001 6.233143e-005 -1.841460e+001 1.378956e-004 1.582092e+002 9.990838e-001 -2.648521e-001
19799025 9.998061e-001 -4.281286e-001 1.173703e-005 1.412045e+002 2.456010e-004 1.417163e+002 9.996488e-001 -3.269198e-001
20099010 9.995220e-001 -3.993263e-001 6.579615e-005 -1.356041e+001 1.668036e-004 -1.163466e+002 9.993696e-001 -3.621259e-001
20398995 9.999373e-001 -4.275056e-001 1.062635e-005 1.467274e+002 3.621435e-005 9.749226e+001 1.000304e+000 -3.911957e-001
20698980 9.993284e-001 -4.383295e-001 9.933456e-005 -5.710178e+000 1.070437e-004 8.459200e+001 9.996256e-001 -3.542866e-001
20998965 9.993541e-001 -4.851674e-001 8.038339e-005 1.023027e+002 2.327147e-004 -2.943646e+001 9.995266e-001 -2.882241e-001
21298950 9.986848e-001 -4.173332e-001 4.812464e-005 -4.897515e+001 3.042226e-005 1.615353e+002 9.982911e-001 -2.966545e-001
21598935 9.988081e-001 -4.916863e-001 2.048451e-005 1.545824e+002 1.302831e-004 6.274339e+000 9.988657e-001 -3.023628e-001
21898920 9.994331e-001 -5.132104e-001 1.103926e-004 -5.238526e+000 2.474097e-004 7.703848e+001 9.990070e-001 -2.706841e-001
22198905 9.998388e-001 -5.099765e-001 1.628388e-005 2.089329e+001 2.326778e-004 -4.652682e+001 9.993567e-001 -3.588444e-001
22498890 9.999421e-001 -4.850152e-001 8.637376e-005 6.171231e+000 2.804198e-004 9.454464e+001 9.999288e-001 -3.538000e-001
22798875 9.999342e-001 -4.757671e-001 8.198101e-005 -2.443326e+001 3.355187e-004 -2.845043e+001 1.001417e+000 -4.212088e-001
23098860 9.999779e-001 -5.357823e-001 1.066512e-005 1.200968e+002 3.311899e-004 7.823221e+001 1.000276e+000 -3.748762e-001
23398845 9.995717e-001 -5.366983e-001 2.517405e-005 -1.195566e-001 5.486249e-005 -1.155672e+002 1.000746e+000 -3.519932e-001
23698830 1.000464e+000 -5.275183e-001 9.779863e-005 1.320608e+002 3.164286e-004 -2.195969e+001 9.998556e-001 -4.057616e-001
23998815 1.000146e+000 -5.753129e-001 8.947444e-005 1.337485e+002 1.403653e-004 1.721924e+002 9.990215e-001 -3.926661e-001
24298800 1.000106e+000 -5.706645e-001 1.089074e-004 -9.634741e+001 3.044116e-004 3.262857e+001 9.983755e-001 -2.907577e-001
24598785 9.995525e-001 -5.680246e-001 3.870287e-005 1.338780e+002 6.641543e-005 -4.221368e+001 1.000534e+000 -3.797910e-001
24898770 9.995788e-001 -5.650066e-001 8.657068e-005 8.687530e+001 1.595309e-004 -4.117485e+000 1.000933e+000 -3.903297e-001
25198755 9.994850e-001 -5.874919e-001 1.097476e-004 5.276331e+001 1.837183e-004 9.589684e+001 9.992349e-001 -4.137591e-001
25498740 9.996138e-001 -5.993901e-001 1.041694e-004 -1.274631e+002 2.528249e-004 -1.969143e+001 9.999001e-001 -4.417289e-001
25798725 9.997381e-001 -5.953227e-001 4.812542e-005 1.004863e+002 2.144886e-004 7.064059e+001 9.991117e-001 -4.519751e-001
26098710 1.000329e+000 -5.674352e-001 1.289465e-004 -8.141035e+000 3.499185e-004 -1.579567e+002 1.000857e+000 -4.038645e-001
26398695 1.000857e+000 -5.914451e-001 1.207162e-004 1.359815e+002 2.405728e-004 5.936577e+001 1.000711e+000 -4.213450e-001
26698680 9.996452e-001 -5.367547e-001 8.465751e-005 -4.254192e+001 1.980519e-004 9.071359e+001 1.000346e+000 -3.801020e-001
26998665 1.000208e+000 -5.778746e-001 2.583026e-005 -4.609314e+001 2.491650e-004 9.643000e+000 9.993126e-001 -3.857458e-001
27298650 1.000040e+000 -5.926841e-001 1.465242e-004 6.623437e+001 4.291406e-005 1.378121e+002 9.993157e-001 -3.768030e-001
27598635 9.996271e-001 -5.629352e-001 1.231064e-005 6.303634e+001 9.409027e-005 1.612493e+002 1.001176e+000 -4.333844e-001
27898620 1.000310e+000 -5.961015e-001 6.729350e-005 -8.562708e+001 3.416005e-004 1.329463e+002 1.001611e+000 -4.084830e-001
28198605 9.991411e-001 -6.270969e-001 5.758470e-005 -9.739390e+001 1.345690e-004 -8.206386e+001 1.001017e+000 -4.485691e-001
28498590 1.000303e+000 -6.338330e-001 7.822471e-005 -1.263057e+002 2.341333e-004 3.220530e+001 9.998015e-001 -5.409302e-001
28798575 9.988461e-001 -6.575745e-001 8.568636e-005 5.310930e+001 9.972737e-005 1.302089e+002 1.000182e+000 -5.210615e-001
29098560 9.994311e-001 -6.317587e-001 7.285918e-005 7.836853e+001 1.752731e-004 -1.187379e+002 1.000100e+000 -4.708726e-001
29398545 9.995152e-001 -6.298529e-001 9.275909e-005 -9.305886e+001 6.888570e-005 -1.343500e+002 1.001364e+000 -4.481597e-001
29698530 9.996027e-001 -6.103500e-001 1.089204e-004 -4.883595e+001 1.183273e-004 -5.509568e+001 1.001870e+000 -4.314374e-001
29998515 9.990243e-001 -6.393393e-001 6.597286e-005 -9.551353e+001 1.128142e-004 1.074884e+002 1.001254e+000 -4.965979e-001
30298500 9.995459e-001 -6.782415e-001 8.789789e-005 -4.300858e+001 2.408685e-004 -1.507376e+001 1.001795e+000 -4.863263e-001
30598485 1.000464e+000 -6.284522e-001 3.873222e-005 1.282375e+002 7.534120e-005 1.137489e+002 1.001357e+000 -4.481935e-001
30898470 9.997934e-001 -6.326391e-001 1.325912e-004 9.374992e+001 9.754865e-005 -6.288862e+001 9.994552e-001 -4.488298e-001
31198455 1.000286e+000 -6.007729e-001 5.162372e-005 1.755780e+002 1.954676e-004 1.683742e+002 1.000062e+000 -5.038243e-001
31498440 1.000323e+000 -7.079564e-001 6.012531e-005 -2.200778e+001 2.005285e-004 -4.274975e+001 1.001364e+000 -4.638265e-001
31798425 9.997183e-001 -7.182807e-001 5.653611e-005 2.440652e+001 2.374908e-004 8.076299e+001 1.000622e+000 -4.049383e-001
32098410 1.000375e+000 -6.968870e-001 1.203668e-004 -1.309974e+002 1.971259e-004 -9.550610e+001 1.000704e+000 -4.224180e-001
32398395 1.000097e+000 -6.813775e-001 1.310309e-004 1.135624e+002 3.661020e-004 1.049161e+001 1.000934e+000 -3.784836e-001
32698380 9.998907e-001 -7.068725e-001 7.220407e-005 -1.546997e+002 4.705850e-005 6.548921e+001 1.001554e+000 -4.465725e-001
32998365 1.000487e+000 -6.991237e-001 9.011713e-005 6.905376e+001 2.175369e-004 6.381067e+001 1.000227e+000 -3.606182e-001
33298350 9.993839e-001 -6.838259e-001 6.828008e-005 1.157502e+002 2.851020e-004 -1.393332e+002 1.000287e+000 -4.892716e-001
33598335 9.994113e-001 -7.599592e-001 1.060208e-004 8.043333e+001 6.181663e-005 3.514300e+001 1.001385e+000 -4.705620e-001
33898320 9.991727e-001 -7.533437e-001 6.173118e-005 8.477679e+001 2.715696e-004 1.553147e+002 1.000658e+000 -5.157071e-001
34198305 9.989641e-001 -7.528999e-001 6.219418e-005 -3.159508e+000 1.083610e-004 -8.290162e+001 1.000369e+000 -4.665816e-001
34498290 9.995633e-001 -7.979608e-001 9.903414e-005 2.852720e+001 2.026063e-004 6.877660e+001 9.986878e-001 -4.941380e-001
34798275 9.997618e-001 -7.831473e-001 1.830845e-004 -5.471019e+001 6.180356e-005 -7.037717e+001 9.994737e-001 -5.295058e-001
35098260 9.994456e-001 -7.657357e-001 3.011197e-005 -1.727450e+002 1.005326e-004 9.840821e+001 1.000621e+000 -4.526953e-001
35398245 9.999923e-001 -7.841745e-001 9.978837e-005 -7.130159e+001 2.513150e-004 -1.143811e+002 1.001070e+000 -4.945974e-001
35698230 9.998128e-001 -7.935545e-001 6.611650e-005 8.820432e+001 2.594054e-004 8.999507e+001 1.001789e+000 -5.275369e-001
35998215 1.000026e+000 -8.015660e-001 2.838401e-005 6.445584e+001 2.221729e-004 -1.652221e+002 1.000709e+000 -4.998938e-001
36298200 9.995306e-001 -8.098862e-001 6.102285e-005 4.496727e+001 9.783128e-005 -2.120151e+001 1.000095e+000 -5.445727e-001
36598185 1.000837e+000 -7.921945e-001 1.983001e-004 -2.885260e+001 4.091299e-005 -1.260133e+002 9.999491e-001 -5.662320e-001
36898170 1.000227e+000 -8.210257e-001 7.532291e-005 3.175340e+000 1.971766e-004 -1.173260e+001 1.000354e+000 -5.773387e-001
37198155 9.998477e-001 -8.323511e-001 8.031671e-005 -1.230505e+002 1.801935e-004 -1.522378e+002 9.998829e-001 -5.972675e-001
37498140 1.000244e+000 -8.046541e-001 8.032997e-005 -1.337370e+002 5.508533e-005 -7.670965e+001 1.000999e+000 -4.882767e-001
37798125 9.991068e-001 -8.061589e-001 4.144200e-005 -1.001235e+002 1.567712e-004 -1.568032e+002 1.001391e+000 -5.597841e-001
38098110 9.992097e-001 -8.532075e-001 1.024228e-004 -5.430464e+001 1.670980e-005 -1.451457e+002 1.000790e+000 -5.316530e-001
38398095 9.997342e-001 -8.537170e-001 7.440543e-005 1.491590e+002 1.065936e-004 6.481991e+001 1.000014e+000 -6.557944e-001
38698080 9.992476e-001 -8.269593e-001 2.805864e-005 6.712878e+001 1.176455e-004 -9.956727e+001 1.000613e+000 -6.130375e-001
38998065 9.992855e-001 -8.455960e-001 6.018927e-005 -9.428410e+001 1.572734e-004 1.079216e+002 1.000053e+000 -5.743493e-001
39298050 1.000192e+000 -8.347591e-001 7.544235e-005 1.683505e+002 7.854931e-005 -7.153516e-001 1.000075e+000 -5.781695e-001
39598035 1.000447e+000 -8.323458e-001 1.249016e-004 -8.280786e+001 1.827510e-004 1.644768e+002 1.000552e+000 -5.443400e-001
39898020 9.999174e-001 -8.136406e-001 3.614600e-005 7.233878e+001 4.716794e-005 -8.568505e+001 1.002387e+000 -4.381992e-001
40198005 9.995050e-001 -8.803949e-001 7.525198e-005 1.014235e+002 3.920101e-004 -1.662469e+002 1.001188e+000 -6.393375e-001
40497990 9.996079e-001 -8.739939e-001 1.640742e-004 9.398492e+001 2.684274e-004 -8.406768e+001 1.002110e+000 -7.579613e-001
40797975 1.000374e+000 -8.700086e-001 1.138488e-004 6.980586e+001 2.905948e-004 -3.314405e+001 1.000789e+000 -5.912455e-001
41097960 1.000034e+000 -8.312979e-001 9.307142e-005 -2.380577e+001 1.854456e-004 1.189338e+002 1.001133e+000 -6.117142e-001
41397945 9.988032e-001 -8.175976e-001 1.267961e-004 -5.502388e+001 2.628609e-004 -3.788914e+001 1.002061e+000 -5.587208e-001
41697930 9.989889e-001 -8.684261e-001 8.420852e-005 -7.139159e+001 2.712432e-004 -1.899124e+001 1.001074e+000 -5.575128e-001
41997915 9.990546e-001 -8.552156e-001 1.332532e-004 1.476155e+002 9.045506e-005 -1.663430e+002 1.000812e+000 -4.811389e-001
42297900 1.000559e+000 -8.844614e-001 1.405982e-004 9.376659e+001 1.512419e-004 9.511167e+001 1.001640e+000 -5.138619e-001
42597885 9.998425e-001 -8.630475e-001 7.379935e-005 7.568230e+001 4.249427e-004 -8.748954e+001 1.001780e+000 -5.386917e-001
42897870 1.000383e+000 -8.370137e-001 1.464890e-004 2.914442e+001 2.912925e-004 -1.297827e+002 1.001860e+000 -6.210667e-001
43197855 9.998548e-001 -9.064112e-001 5.837964e-005 -8.155008e+001 7.712103e-005 -1.204591e+002 1.001228e+000 -6.733103e-001
43497840 1.000545e+000 -8.979672e-001 1.225589e-004 1.416411e+002 2.935342e-004 1.139177e+002 1.000288e+000 -6.822485e-001
43797825 9.996026e-001 -9.317856e-001 1.177824e-004 -1.368830e+002 2.520116e-004 -1.669819e+002 9.997807e-001 -7.643669e-001
44097810 9.997520e-001 -8.712171e-001 5.484328e-005 5.401298e+001 3.203468e-004 1.701162e+001 1.002185e+000 -6.000032e-001
44397795 9.992641e-001 -8.221360e-001 4.986091e-005 -5.171049e+001 1.840350e-004 6.277098e+001 1.002946e+000 -7.723274e-001
44697780 1.000315e+000 -9.137674e-001 8.848649e-005 1.311985e+002 2.240290e-004 -9.347590e+001 1.002693e+000 -7.613845e-001
44997765 1.000688e+000 -9.229545e-001 1.516435e-004 -1.105068e+002 4.307208e-004 -4.929227e+001 1.001777e+000 -7.249906e-001
45297750 1.000426e+000 -9.860530e-001 8.462163e-005 -6.588190e+001 2.714430e-004 -1.039666e+001 1.002708e+000 -6.797031e-001
45597735 1.000597e+000 -9.988710e-001 2.166191e-004 -7.678133e+001 2.345413e-004 1.187228e+002 1.001670e+000 -5.490381e-001
45897720 1.000527e+000 -8.884586e-001 3.733199e-005 -5.952265e+001 1.557921e-004 -1.409779e+002 1.002490e+000 -6.857663e-001
46197705 1.001097e+000 -1.028033e+000 1.279554e-004 7.251196e+001 2.228516e-004 -1.672692e+002 1.002492e+000 -6.983154e-001
46497690 1.000271e+000 -9.967294e-001 6.573418e-005 -1.726264e+002 7.126082e-005 -1.488522e+002 1.003261e+000 -7.797543e-001
46797675 1.000378e+000 -9.483990e-001 1.516655e-004 -9.747908e+001 3.218980e-004 1.588839e+002 1.002820e+000 -7.399297e-001
47097660 1.001243e+000 -9.317747e-001 8.089562e-005 4.910880e+001 4.013437e-004 1.451362e+002 1.001304e+000 -7.709312e-001
47397645 1.000622e+000 -1.001837e+000 1.770630e-004 -1.003727e+001 1.956286e-004 1.606544e+002 1.001129e+000 -7.618161e-001
