!Agilent Technologies,N5230C,SG49000117,A.08.50.07
!Agilent N5230C: A.08.50.07
!Date: Thursday, May 16, 2024 19:25:37
!Correction: S11(Full 2 Port(1,2)) 
!S21(Full 2 Port(1,2)) 
!S12(Full 2 Port(1,2)) 
!S22(Full 2 Port(1,2)) 
!S2P File: Measurements: S11, S21, S12, S22:
# Hz S  MA   R 50
300000 1.006388e+000 -6.356102e-001 3.661218e-004 -7.130331e+001 1.445799e-004 -5.171808e+001 1.013394e+000 -4.385245e-001
599985 9.827834e-001 3.210194e-001 2.763675e-005 -6.294332e+001 8.231463e-005 9.254009e+001 9.652077e-001 3.107083e-001
899970 9.971753e-001 -1.080698e-001 4.412901e-005 5.588501e+001 2.674197e-005 -3.779945e+001 9.843279e-001 -4.457044e-001
1199955 9.974080e-001 -1.014068e-001 3.654298e-005 1.400501e+002 9.745212e-005 1.252221e+002 9.962165e-001 -2.253428e-001
1499940 9.940542e-001 1.499239e-001 7.759681e-005 9.516618e+001 1.767354e-004 7.094868e+001 9.923534e-001 3.352165e-002
1799925 9.924310e-001 2.190694e-001 7.918028e-005 -1.435677e+002 2.114370e-004 4.005486e+001 9.884382e-001 -8.669139e-002
2099910 9.986231e-001 -4.362356e-003 7.301113e-005 -4.128786e+001 1.140659e-004 -2.133056e+001 9.972123e-001 -5.440674e-002
2399895 9.988033e-001 -1.722506e-001 1.111767e-004 5.619220e+001 8.924313e-005 -1.736088e+002 1.002800e+000 -1.570451e-001
2699880 9.994872e-001 -2.613529e-001 4.109673e-005 -1.204617e+002 2.260684e-004 -1.192783e+002 9.951625e-001 -2.565590e-001
2999865 9.999444e-001 -1.170208e-001 9.059043e-005 -7.754759e+001 7.523915e-005 1.003738e+002 9.973015e-001 -2.335453e-001
3299850 1.000481e+000 -1.340593e-001 3.861707e-005 -1.488362e+002 5.826359e-005 6.817789e+001 9.971086e-001 -2.468888e-001
3599835 1.000322e+000 -1.257639e-001 4.806575e-005 -1.466452e+002 1.557134e-004 1.701858e+002 9.970065e-001 -2.508387e-001
3899820 9.994205e-001 -1.512953e-001 6.535020e-005 4.578283e+001 3.387283e-004 -1.796242e+002 9.981896e-001 -2.939630e-001
4199805 1.000242e+000 -1.957970e-001 1.176622e-004 1.430061e+001 1.161238e-004 -6.192287e+001 1.000144e+000 -4.097872e-001
4499790 1.000159e+000 -2.013006e-001 9.955355e-005 3.122168e+001 1.051473e-005 4.688617e+000 9.988180e-001 -2.898450e-001
4799775 1.000390e+000 -1.280156e-001 3.607213e-005 1.213110e+002 1.052896e-004 7.274428e+001 9.982513e-001 -3.263676e-001
5099760 1.000317e+000 -1.149953e-001 4.727304e-005 6.510311e+001 1.878676e-004 1.653866e+002 9.999901e-001 -3.658762e-001
5399745 1.000905e+000 -1.298487e-001 5.713689e-005 1.697051e+002 7.368228e-005 -9.371344e+000 9.997371e-001 -2.849633e-001
5699730 1.000155e+000 -1.208295e-001 9.728911e-005 1.614468e+001 2.251304e-004 -1.753892e+002 9.995829e-001 -2.725726e-001
5999715 9.998443e-001 -9.771407e-002 1.400581e-005 -2.510308e+001 1.038996e-004 -1.604240e+002 9.999362e-001 -2.496367e-001
6299700 9.996202e-001 -1.205936e-001 7.039996e-005 -6.763629e+001 9.781066e-005 -3.008558e+001 1.000367e+000 -3.081335e-001
6599685 9.998081e-001 -1.470290e-001 9.560939e-005 -8.053537e+001 1.197000e-004 -2.308163e+000 1.000152e+000 -3.706372e-001
6899670 1.000085e+000 -1.502209e-001 6.670794e-005 -2.169683e+001 1.876614e-004 -1.150137e+002 9.992265e-001 -4.280364e-001
7199655 9.998025e-001 -1.668188e-001 8.001903e-005 -1.188556e+002 3.509517e-005 3.731261e+001 9.993986e-001 -4.631189e-001
7499640 1.000065e+000 -1.807011e-001 8.530628e-005 -1.679019e+002 6.118920e-005 -1.544601e+002 9.997936e-001 -4.305704e-001
7799625 9.999765e-001 -1.527937e-001 4.712000e-005 1.477304e+002 1.196296e-004 5.842801e+001 9.979092e-001 -3.989325e-001
8099610 9.999321e-001 -1.351486e-001 2.228313e-005 1.243655e+002 1.354539e-004 8.379442e+001 9.990046e-001 -4.139873e-001
8399595 1.000154e+000 -1.418411e-001 4.751364e-005 1.605113e+002 3.340230e-006 1.797502e+002 9.989708e-001 -5.147799e-001
8699580 9.995530e-001 -1.169079e-001 3.304595e-005 1.759590e+002 2.185655e-004 -6.716696e+001 9.992551e-001 -4.966722e-001
8999565 1.000378e+000 -1.381961e-001 6.507160e-005 1.145398e+002 2.354066e-004 1.195049e+002 9.978861e-001 -5.388979e-001
9299550 1.000070e+000 -1.571898e-001 1.709161e-005 1.209159e+002 9.597676e-005 -7.215931e+001 9.986449e-001 -4.704802e-001
9599535 9.995463e-001 -2.115149e-001 2.518478e-005 1.793046e+002 1.358174e-004 -2.990054e+001 9.976003e-001 -6.018204e-001
9899520 9.997731e-001 -2.289749e-001 3.438954e-005 -1.661043e+002 1.714836e-004 3.657282e+001 9.964086e-001 -6.940695e-001
10199505 1.000172e+000 -1.673678e-001 8.924941e-005 1.498796e+002 2.510009e-004 1.647759e+002 9.988565e-001 -5.360651e-001
10499490 9.998801e-001 -1.280777e-001 2.851214e-005 -1.301031e+002 7.645239e-005 -1.597933e+002 9.978831e-001 -5.084888e-001
10799475 1.000113e+000 -1.236453e-001 5.664840e-005 -1.605519e+002 2.124223e-004 7.377438e+001 9.981467e-001 -5.028101e-001
11099460 9.998202e-001 -1.350438e-001 7.340790e-005 -6.797680e+001 7.064035e-005 1.134032e+002 9.985816e-001 -5.260528e-001
11399445 9.998412e-001 -1.415787e-001 1.342443e-004 1.645672e+002 2.409666e-004 -1.036541e+002 9.986020e-001 -5.556352e-001
11699430 1.000279e+000 -1.528545e-001 1.206696e-004 -7.717437e+001 9.151441e-005 -1.617149e+002 9.992752e-001 -4.992180e-001
11999415 1.000065e+000 -1.580026e-001 3.766166e-005 1.724297e+002 9.774254e-005 1.634277e+002 9.999623e-001 -6.028299e-001
12299400 9.996403e-001 -1.525289e-001 2.942527e-005 1.013836e+002 1.332558e-004 4.327446e+000 1.000393e+000 -5.006821e-001
12599385 1.000015e+000 -1.713501e-001 6.830076e-005 -2.154273e+001 1.531538e-004 -1.117063e+002 9.992335e-001 -6.377242e-001
12899370 1.000206e+000 -2.055213e-001 7.256513e-005 7.046020e+001 1.825551e-004 2.270893e+001 9.985319e-001 -7.523792e-001
13199355 1.000565e+000 -1.769138e-001 1.887912e-005 -1.057168e+002 5.508866e-005 3.993866e+001 9.985273e-001 -5.802535e-001
13499340 1.000474e+000 -2.031838e-001 6.085837e-005 1.384847e+002 1.493793e-004 1.394779e+002 9.977543e-001 -6.203737e-001
13799325 1.000257e+000 -1.750873e-001 4.550396e-005 4.222674e+000 2.697121e-004 -5.357814e+000 9.982195e-001 -6.600035e-001
14099310 1.000063e+000 -2.068326e-001 1.099890e-004 1.527938e+002 2.267535e-004 1.370945e+002 9.988568e-001 -6.172376e-001
14399295 1.000300e+000 -2.081739e-001 3.975563e-005 1.620190e+002 2.104105e-004 -5.256442e+001 1.000453e+000 -6.382992e-001
14699280 1.000343e+000 -1.972896e-001 1.191838e-004 -1.564968e+002 9.418740e-005 1.515453e+002 1.000648e+000 -7.214226e-001
14999265 1.000043e+000 -1.896362e-001 1.484023e-005 2.356784e+000 1.563533e-004 -7.711402e+001 9.990123e-001 -7.655376e-001
15299250 1.000145e+000 -1.829719e-001 3.918860e-005 3.296917e-002 2.156142e-004 1.427346e+002 9.985822e-001 -7.111040e-001
15599235 9.996650e-001 -2.018909e-001 4.935218e-005 3.465715e+001 1.698678e-004 -2.474814e+001 9.999444e-001 -6.912487e-001
15899220 1.000752e+000 -1.893019e-001 2.416266e-005 9.497830e+001 1.971104e-004 1.086242e+002 9.989818e-001 -6.983538e-001
16199205 1.000114e+000 -1.698918e-001 6.897569e-005 7.097336e+001 2.535359e-004 -1.349477e+002 1.000546e+000 -7.360287e-001
16499190 1.000444e+000 -1.869275e-001 4.355952e-005 5.282970e+001 1.957521e-004 4.266348e+001 1.001126e+000 -6.828979e-001
16799175 1.000307e+000 -2.095610e-001 1.092957e-004 2.420985e+001 1.197154e-004 1.159049e+002 1.000073e+000 -7.078943e-001
17099160 1.000326e+000 -2.274240e-001 4.297029e-005 6.859238e+001 4.456463e-004 -6.307411e+001 9.996251e-001 -7.223536e-001
17399145 1.000493e+000 -2.340239e-001 3.853250e-005 -8.609299e+001 3.324507e-004 1.249038e+002 1.000797e+000 -7.076584e-001
17699130 1.000240e+000 -2.001181e-001 6.328362e-005 -1.453529e+002 7.348005e-005 -1.621092e+002 1.000175e+000 -7.511615e-001
17999115 9.997212e-001 -2.063394e-001 1.786507e-005 1.460981e+002 4.418568e-004 4.512385e+001 9.994017e-001 -8.375624e-001
18299100 9.998385e-001 -2.025178e-001 5.553549e-005 1.421165e+002 5.732536e-006 -1.781587e+002 1.000119e+000 -8.193635e-001
18599085 1.000269e+000 -2.012765e-001 6.953352e-005 1.506050e+002 1.227220e-004 3.626815e+001 9.985639e-001 -7.882466e-001
18899070 1.000244e+000 -2.382838e-001 1.524003e-006 -9.713602e+001 2.407784e-004 1.737048e+002 9.989965e-001 -7.876276e-001
19199055 1.000592e+000 -2.452131e-001 5.196443e-005 9.459285e+001 1.516533e-004 -9.237240e+001 9.977100e-001 -7.590205e-001
19499040 1.001182e+000 -2.420914e-001 3.270001e-005 -4.533067e+001 3.147183e-004 1.693291e+002 9.992431e-001 -8.224040e-001
19799025 1.000724e+000 -2.154955e-001 1.005395e-004 -7.580648e+001 1.262746e-004 -8.951169e+000 9.985685e-001 -7.838870e-001
20099010 1.000155e+000 -2.300098e-001 1.586955e-004 1.039091e+002 1.640038e-004 2.872364e+001 9.975044e-001 -8.038464e-001
20398995 9.998571e-001 -1.890921e-001 8.254348e-005 7.782915e+001 1.637772e-005 1.197050e+002 9.982278e-001 -8.890546e-001
20698980 1.000095e+000 -1.987405e-001 1.602645e-004 6.582580e-001 1.741078e-004 1.396489e+002 9.974748e-001 -9.732985e-001
20998965 9.992787e-001 -2.334525e-001 5.965252e-006 -4.530653e+001 6.514182e-005 -9.051698e+001 9.988288e-001 -8.227231e-001
21298950 9.996497e-001 -2.039549e-001 2.870382e-005 4.618163e+001 1.776384e-004 1.162208e+002 9.972169e-001 -8.005998e-001
21598935 9.992602e-001 -2.500586e-001 7.424696e-005 1.278278e+002 2.323114e-004 -8.857165e+001 9.970138e-001 -8.194315e-001
21898920 9.998245e-001 -2.330620e-001 1.144424e-004 9.630841e+001 9.770341e-005 1.017644e+002 9.968023e-001 -8.659433e-001
22198905 9.999703e-001 -2.689064e-001 3.907355e-005 1.703131e+002 3.351631e-004 -1.659708e+002 9.994861e-001 -8.708774e-001
22498890 1.000515e+000 -2.365481e-001 1.621006e-004 -1.922923e+000 6.992649e-005 -7.009846e+001 1.000636e+000 -9.401326e-001
22798875 1.000479e+000 -2.169230e-001 3.077495e-005 1.292164e+002 8.348125e-005 7.356168e+001 9.994726e-001 -8.996257e-001
23098860 1.000398e+000 -2.298301e-001 7.445201e-005 1.556005e+002 6.014584e-005 -1.786881e+002 1.000324e+000 -9.571536e-001
23398845 1.000843e+000 -2.298811e-001 8.620508e-005 -4.288349e+001 1.436232e-004 1.324594e+002 9.987233e-001 -9.893512e-001
23698830 1.000605e+000 -2.751068e-001 8.622814e-005 -4.239509e+001 2.316577e-004 -1.318058e+002 9.981700e-001 -9.097218e-001
23998815 1.000342e+000 -2.903498e-001 1.043712e-004 1.232322e+002 1.266894e-004 7.365536e+001 9.976606e-001 -9.967710e-001
24298800 1.000417e+000 -2.493419e-001 7.095388e-006 1.646097e+002 2.172912e-004 -1.360954e+002 9.965481e-001 -1.020909e+000
24598785 1.000317e+000 -2.855903e-001 6.997421e-005 1.173796e+002 1.800315e-004 8.172124e+001 9.987358e-001 -9.657248e-001
24898770 9.999036e-001 -3.028060e-001 2.627160e-005 1.767712e+002 2.398002e-004 -1.415623e+002 9.990001e-001 -1.053298e+000
25198755 1.000440e+000 -3.144726e-001 2.676774e-005 -1.594997e+001 3.027635e-005 6.680289e+001 9.981995e-001 -1.051306e+000
25498740 1.000259e+000 -3.194908e-001 3.582105e-005 5.429514e+001 1.743774e-004 1.701996e+002 9.992628e-001 -1.081501e+000
25798725 1.000787e+000 -2.824632e-001 1.127804e-004 1.395964e+002 5.662132e-005 2.331291e+001 9.978716e-001 -1.109786e+000
26098710 1.001176e+000 -2.892663e-001 1.615600e-004 -6.005844e+001 1.975332e-004 8.512112e+001 9.993725e-001 -1.090660e+000
26398695 1.000417e+000 -3.064520e-001 7.932435e-005 -8.427962e+001 2.930044e-004 -1.206699e+002 9.999208e-001 -1.089262e+000
26698680 1.000893e+000 -2.740677e-001 7.994402e-005 1.771093e+002 2.752159e-004 1.436379e+002 9.978037e-001 -1.087174e+000
26998665 1.000311e+000 -2.948126e-001 8.185230e-005 1.467626e+002 2.986638e-004 -1.187090e+002 9.999319e-001 -1.110003e+000
27298650 9.997830e-001 -3.010272e-001 2.767366e-005 -6.883065e+001 1.219150e-004 -2.987459e+001 9.999160e-001 -1.148814e+000
27598635 9.999375e-001 -2.902326e-001 4.712646e-005 3.554486e+000 1.773958e-004 -1.239128e+002 9.987506e-001 -1.135440e+000
27898620 9.997794e-001 -2.707872e-001 3.695436e-005 -8.687719e+001 2.761469e-004 4.607969e+001 9.996549e-001 -1.143315e+000
28198605 1.000231e+000 -2.855376e-001 5.176524e-005 1.169181e+002 2.282220e-004 -1.244748e+002 9.994488e-001 -1.151507e+000
28498590 9.999048e-001 -3.313467e-001 6.464749e-005 -9.504389e+001 1.121034e-004 1.254265e+001 9.974352e-001 -1.162572e+000
28798575 9.996943e-001 -3.370550e-001 5.717971e-005 1.688475e+002 2.701302e-004 1.187903e+002 9.983217e-001 -1.202558e+000
29098560 9.996443e-001 -3.262363e-001 1.122601e-004 -1.499900e+002 7.717199e-005 5.456316e+000 9.980239e-001 -1.157080e+000
29398545 1.000263e+000 -2.932672e-001 1.534881e-004 -9.797765e+001 1.502800e-004 -7.956638e+000 9.996945e-001 -1.209105e+000
29698530 1.000050e+000 -2.726965e-001 3.419648e-005 -1.634957e+002 2.812244e-004 -9.087948e+001 1.000017e+000 -1.145575e+000
29998515 9.993992e-001 -3.213730e-001 1.186470e-004 -3.644592e+001 1.355793e-004 1.223854e+002 9.999164e-001 -1.187690e+000
30298500 1.000087e+000 -3.279368e-001 1.340046e-004 -4.740366e+001 1.713583e-004 -1.031237e+002 1.000345e+000 -1.301225e+000
30598485 1.000417e+000 -3.319895e-001 6.742177e-005 1.560551e+002 1.918290e-004 9.103012e+001 9.989759e-001 -1.256019e+000
30898470 1.001059e+000 -2.378038e-001 5.791852e-005 -1.258504e+002 1.791267e-004 1.549432e+002 9.986190e-001 -1.251472e+000
31198455 1.000358e+000 -2.444269e-001 7.918638e-005 1.475718e+002 6.452255e-005 -5.903894e+001 9.998611e-001 -1.295865e+000
31498440 1.000649e+000 -3.102624e-001 5.481663e-005 4.214996e+001 3.421917e-004 1.420493e+002 9.976859e-001 -1.288715e+000
31798425 1.000585e+000 -3.570885e-001 9.460805e-005 9.166792e+001 1.237192e-004 -6.182101e+001 9.986529e-001 -1.294253e+000
32098410 1.000512e+000 -3.683355e-001 7.210687e-005 -1.676555e+002 1.473730e-004 9.948576e+001 9.992911e-001 -1.275291e+000
32398395 1.000888e+000 -3.265263e-001 7.233528e-006 5.714711e+001 6.282755e-005 -7.429565e+001 9.994581e-001 -1.253850e+000
32698380 1.000782e+000 -3.388551e-001 8.459960e-005 4.177427e+001 2.606980e-004 2.524006e+001 9.991189e-001 -1.259103e+000
32998365 1.000491e+000 -3.397248e-001 8.171267e-005 7.118018e+001 4.287676e-005 -1.176495e+002 9.987726e-001 -1.324598e+000
33298350 1.000132e+000 -3.228180e-001 4.064658e-005 1.247193e+002 1.096072e-004 6.658376e+001 9.990273e-001 -1.277112e+000
33598335 1.000053e+000 -3.585754e-001 2.956032e-005 -1.128623e+001 9.011332e-005 1.734666e+002 9.992489e-001 -1.308986e+000
33898320 9.999172e-001 -3.576117e-001 1.765331e-004 -5.263429e+001 1.991372e-004 -7.123915e+001 9.982049e-001 -1.349606e+000
34198305 9.999549e-001 -3.951606e-001 1.506771e-004 -1.562779e+002 1.273071e-004 1.367580e+002 9.972655e-001 -1.386774e+000
34498290 1.000074e+000 -3.666404e-001 5.411856e-005 8.999665e+001 1.864302e-004 -2.403406e+001 9.978797e-001 -1.319284e+000
34798275 1.000540e+000 -4.053729e-001 4.119259e-005 1.078036e+002 2.340127e-005 -1.032569e+002 9.977456e-001 -1.361704e+000
35098260 1.000458e+000 -3.664281e-001 8.707828e-005 -7.076052e+001 4.430708e-005 -3.257171e+001 9.981647e-001 -1.345417e+000
35398245 1.000127e+000 -4.396744e-001 4.970299e-005 1.166396e+002 5.712935e-005 1.875024e+001 9.991015e-001 -1.301564e+000
35698230 1.000363e+000 -3.970856e-001 7.792708e-005 1.396844e+002 1.612558e-004 6.391172e+001 9.992169e-001 -1.339750e+000
35998215 1.000651e+000 -4.134024e-001 4.371554e-005 6.175164e+001 2.444779e-004 7.342661e+001 9.998785e-001 -1.459834e+000
36298200 1.000068e+000 -3.906651e-001 3.436808e-005 1.067818e+002 1.961791e-004 -1.211315e+002 9.995467e-001 -1.486889e+000
36598185 1.000417e+000 -3.991112e-001 6.606979e-005 -8.388763e+001 1.166353e-004 1.237450e+002 9.985787e-001 -1.421472e+000
36898170 1.000563e+000 -4.262302e-001 9.499501e-005 -1.795898e+002 1.879973e-004 -1.728113e+002 9.981210e-001 -1.510352e+000
37198155 1.001091e+000 -4.097191e-001 6.166307e-005 1.273919e+002 8.004432e-005 -1.306318e+001 9.973889e-001 -1.439753e+000
37498140 1.000488e+000 -4.240916e-001 1.882281e-005 2.614499e+000 6.626065e-005 -1.511623e+002 9.976563e-001 -1.456172e+000
37798125 1.000457e+000 -3.843655e-001 3.295531e-005 5.750604e+001 1.905563e-004 2.415996e+001 9.987829e-001 -1.469837e+000
38098110 1.000316e+000 -4.159585e-001 6.229996e-005 8.798526e+001 1.545247e-004 -1.560708e+002 9.983621e-001 -1.557598e+000
38398095 1.000007e+000 -3.973330e-001 9.916650e-005 -9.015404e+001 1.494757e-004 -3.510563e+001 9.975690e-001 -1.563562e+000
38698080 9.998301e-001 -4.259495e-001 4.070380e-005 1.856515e+001 3.628443e-004 1.077049e+002 9.978175e-001 -1.541737e+000
38998065 1.000735e+000 -4.087287e-001 6.848911e-005 -1.049511e+002 1.963945e-004 -1.129323e+002 9.977075e-001 -1.590038e+000
39298050 1.000355e+000 -4.290954e-001 7.593065e-005 -1.151052e+001 2.355559e-004 8.216461e+001 9.979324e-001 -1.480252e+000
39598035 1.000774e+000 -4.032426e-001 4.619550e-005 -8.132822e+001 1.880180e-004 -1.561734e+002 9.991326e-001 -1.458243e+000
39898020 1.001377e+000 -3.814867e-001 8.572416e-005 -1.061007e+002 2.145633e-004 -1.184859e+002 1.000147e+000 -1.445509e+000
40198005 1.000328e+000 -4.196033e-001 1.413603e-004 4.482074e+001 8.624921e-005 5.965410e+001 9.991307e-001 -1.605995e+000
40497990 1.000169e+000 -4.358657e-001 8.945919e-005 7.170780e+000 1.544360e-004 1.058977e+002 1.000266e+000 -1.556246e+000
40797975 1.000927e+000 -4.504622e-001 1.225492e-004 8.918356e+001 1.674347e-004 -7.116717e+000 9.996086e-001 -1.647848e+000
41097960 1.000288e+000 -3.496400e-001 2.635157e-004 -1.366963e+002 1.345000e-004 1.377655e+002 9.980770e-001 -1.615782e+000
41397945 9.987597e-001 -3.848102e-001 2.391005e-004 -6.205096e+001 2.416258e-004 4.360682e+000 1.001789e+000 -1.565689e+000
41697930 9.998614e-001 -3.607950e-001 1.814059e-004 1.419418e+002 4.174991e-004 5.382502e+001 1.000124e+000 -1.538835e+000
41997915 1.000085e+000 -3.682544e-001 1.117514e-004 -1.518752e+002 3.008799e-004 -1.415582e+002 9.993529e-001 -1.578360e+000
42297900 1.000266e+000 -4.152129e-001 1.642148e-004 -1.573729e+002 2.848904e-004 -1.549257e+001 1.000452e+000 -1.576478e+000
42597885 1.000605e+000 -3.313968e-001 1.627588e-004 -8.941277e+001 1.586847e-004 -1.715572e+002 9.983529e-001 -1.686450e+000
42897870 1.001268e+000 -4.067074e-001 3.635053e-005 1.551669e+002 3.580351e-005 -3.825967e+001 9.992161e-001 -1.753802e+000
43197855 1.001480e+000 -4.053997e-001 1.707473e-004 -1.679399e+002 3.091763e-004 1.426605e+002 9.985714e-001 -1.796848e+000
43497840 1.001063e+000 -4.154308e-001 1.644863e-004 -8.780270e+001 2.318675e-004 1.119738e+002 9.991530e-001 -1.848032e+000
43797825 1.000813e+000 -4.238075e-001 2.739344e-004 6.044833e+001 1.890042e-004 -5.237024e+001 9.977789e-001 -1.777627e+000
44097810 1.000645e+000 -4.558825e-001 4.454427e-005 9.654630e+001 8.162377e-005 1.589546e+002 9.977626e-001 -1.810271e+000
44397795 1.000805e+000 -4.729147e-001 1.213718e-004 -4.645724e+001 5.411195e-004 -1.363363e+002 9.982834e-001 -1.741407e+000
44697780 1.001188e+000 -4.210544e-001 5.487491e-005 -4.087280e+001 2.019868e-004 1.503059e+002 1.000769e+000 -1.802957e+000
44997765 1.000783e+000 -4.258505e-001 6.669983e-005 1.221181e+002 2.096872e-004 -1.676967e+002 1.001678e+000 -1.768774e+000
45297750 1.001739e+000 -4.408369e-001 1.403456e-004 1.606740e+002 4.355466e-004 1.680824e+002 1.000023e+000 -1.719464e+000
45597735 1.001207e+000 -4.629781e-001 7.253692e-005 -1.446550e+002 8.526381e-005 2.302539e+001 1.001580e+000 -1.753701e+000
45897720 1.000430e+000 -4.702489e-001 2.284428e-004 1.696929e+002 5.575800e-005 9.233053e+001 1.002870e+000 -1.780982e+000
46197705 1.000234e+000 -4.671468e-001 1.814519e-004 4.888591e+001 3.735934e-004 1.288563e+002 9.993448e-001 -1.819297e+000
46497690 1.001398e+000 -4.946519e-001 6.720996e-005 1.714731e+001 2.918396e-004 1.624866e+002 9.989380e-001 -1.858130e+000
46797675 1.001218e+000 -3.802807e-001 9.313643e-005 1.182913e+002 3.834089e-004 -1.633160e+002 9.992455e-001 -1.913197e+000
47097660 1.001127e+000 -4.799902e-001 8.094507e-005 -1.408208e+002 8.929322e-005 1.385247e+002 9.996468e-001 -1.896224e+000
47397645 1.000612e+000 -5.037921e-001 5.060232e-005 -9.385278e+001 1.702345e-004 -9.481139e+001 9.995118e-001 -1.980632e+000
