!Agilent Technologies,N5230C,SG49000117,A.08.50.07
!Agilent N5230C: A.08.50.07
!Date: Thursday, May 16, 2024 19:24:44
!Correction: S11(Full 2 Port(1,2)) 
!S21(Full 2 Port(1,2)) 
!S12(Full 2 Port(1,2)) 
!S22(Full 2 Port(1,2)) 
!S2P File: Measurements: S11, S21, S12, S22:
# Hz S  MA   R 50
300000 1.005309e+000 -5.766080e-001 1.956373e-004 -9.460760e+001 2.279856e-005 -1.111962e+002 1.015768e+000 -8.469618e-001
599985 9.828919e-001 3.305399e-001 6.537224e-005 -1.205184e+002 2.489394e-004 -1.091344e+002 9.649050e-001 2.957133e-001
899970 9.969556e-001 -1.268749e-001 6.543857e-005 -1.496160e+002 2.345709e-004 1.107212e+001 9.848669e-001 -4.447496e-001
1199955 9.973575e-001 -9.451103e-002 9.365150e-005 -3.237923e+001 1.623618e-004 -1.832759e+001 9.940039e-001 -3.218417e-001
1499940 9.940070e-001 1.615973e-001 4.112371e-005 1.537732e+002 8.411211e-005 5.268768e+001 9.919904e-001 9.724265e-002
1799925 9.919616e-001 2.018629e-001 4.231314e-005 -1.236153e+001 1.276438e-004 -1.054836e+002 9.894454e-001 -6.775402e-002
2099910 9.990400e-001 -6.415425e-003 1.025099e-004 1.294982e+002 7.167886e-005 9.102472e+001 9.978929e-001 -1.149542e-001
2399895 9.992075e-001 -1.646768e-001 9.426758e-005 7.499132e+001 2.356184e-004 1.461895e+002 1.003057e+000 -3.764720e-002
2699880 9.995715e-001 -2.456671e-001 1.749346e-005 1.167829e+002 2.659417e-004 -7.992810e+001 9.932550e-001 -2.740666e-001
2999865 9.999484e-001 -1.514989e-001 4.459540e-005 4.793269e+001 1.274948e-004 9.902785e+001 9.979421e-001 -2.271490e-001
3299850 1.000354e+000 -1.207410e-001 4.651967e-005 1.795501e+002 7.310811e-005 -7.946092e+001 9.977990e-001 -3.082024e-001
3599835 9.999456e-001 -1.646011e-001 2.508791e-005 -1.077800e+002 9.646240e-005 1.632574e+002 9.971585e-001 -3.134496e-001
3899820 9.996245e-001 -1.523967e-001 4.527415e-005 -3.141039e+001 1.067566e-004 3.467907e+001 9.977578e-001 -3.053986e-001
4199805 1.000139e+000 -1.801205e-001 4.553357e-005 7.287235e+001 1.515990e-004 -1.468559e+002 9.984149e-001 -3.461177e-001
4499790 1.000303e+000 -1.528855e-001 6.330838e-005 -8.917671e+001 2.044402e-004 -2.015531e+001 1.000130e+000 -3.718947e-001
4799775 9.999042e-001 -1.289528e-001 3.816144e-005 9.904611e+000 2.628079e-004 6.582961e+001 9.997334e-001 -3.031229e-001
5099760 1.000633e+000 -1.562968e-001 1.161868e-004 7.438824e+001 1.243971e-004 -3.233157e+001 9.997626e-001 -2.990717e-001
5399745 1.000507e+000 -1.173948e-001 7.015281e-005 -6.789121e+001 2.240801e-004 -3.687618e+001 9.989405e-001 -3.201758e-001
5699730 1.000290e+000 -1.069619e-001 1.069747e-004 7.669841e+001 6.642659e-005 -6.675671e+001 1.000309e+000 -3.251777e-001
5999715 9.994802e-001 -8.824424e-002 3.299089e-005 3.126648e+001 7.984052e-005 -1.263720e+002 1.000120e+000 -3.040959e-001
6299700 9.998186e-001 -1.354110e-001 3.675399e-005 9.074240e+001 4.512805e-005 8.922789e+001 9.996018e-001 -3.262982e-001
6599685 9.999518e-001 -1.275720e-001 1.033647e-004 8.024773e+001 9.755017e-005 6.785181e+001 9.988644e-001 -3.621290e-001
6899670 1.000091e+000 -1.324198e-001 3.864419e-005 1.242486e+002 1.168684e-004 1.719866e+002 9.991508e-001 -4.112010e-001
7199655 1.000197e+000 -1.357227e-001 4.843938e-005 6.895370e+001 1.420338e-004 1.312590e+002 9.991664e-001 -4.289711e-001
7499640 1.000115e+000 -1.642263e-001 2.906085e-005 -8.786752e+001 7.620837e-005 9.991856e+001 9.995934e-001 -5.069822e-001
7799625 1.000403e+000 -1.535231e-001 2.720568e-005 -1.608702e+002 7.728611e-005 -1.098624e+002 9.982309e-001 -4.250795e-001
8099610 9.999590e-001 -1.374077e-001 8.681683e-005 7.489127e+001 1.249488e-004 -7.174036e+001 9.985132e-001 -5.298328e-001
8399595 1.000046e+000 -1.578674e-001 4.738383e-005 -1.301638e+002 1.216879e-004 9.123794e+001 9.981576e-001 -4.891455e-001
8699580 1.000463e+000 -1.295796e-001 9.907739e-005 1.269403e+002 2.304586e-004 -3.043264e+001 9.987355e-001 -5.087259e-001
8999565 1.000164e+000 -1.652102e-001 5.759756e-005 4.718478e+001 2.207745e-004 -6.577590e+000 9.993560e-001 -5.073989e-001
9299550 9.995351e-001 -1.339659e-001 7.665824e-005 -1.772959e+002 8.822762e-005 9.169756e+001 9.979662e-001 -4.718641e-001
9599535 1.000247e+000 -2.164620e-001 4.345088e-005 7.550828e+001 9.011015e-005 -2.782952e+001 9.970298e-001 -6.567935e-001
9899520 9.998337e-001 -2.708605e-001 7.014600e-005 1.514389e+002 1.122857e-004 3.532897e+001 9.965351e-001 -7.573544e-001
10199505 9.996774e-001 -1.811292e-001 7.311075e-005 -8.638354e+001 1.622079e-004 -1.493807e+002 9.992561e-001 -5.091922e-001
10499490 9.997141e-001 -1.390185e-001 9.364070e-005 -1.654627e+002 5.361616e-005 1.667498e+002 9.993191e-001 -5.483985e-001
10799475 1.000005e+000 -1.391169e-001 1.651368e-004 1.222441e+002 4.282743e-005 -8.608128e+001 9.981555e-001 -4.710042e-001
11099460 1.000073e+000 -1.507872e-001 6.036297e-005 1.471974e+001 3.617155e-004 1.712525e+002 9.984863e-001 -5.673067e-001
11399445 1.000182e+000 -1.306529e-001 7.246227e-005 -1.955413e+001 2.122642e-004 -9.850203e+001 9.976963e-001 -5.570321e-001
11699430 9.999497e-001 -1.517189e-001 4.559798e-005 -1.479632e+002 4.149754e-004 1.641887e+002 9.978390e-001 -5.725333e-001
11999415 1.000664e+000 -1.648338e-001 9.258112e-005 1.786750e+002 8.878588e-005 6.151991e+001 9.999268e-001 -5.757063e-001
12299400 1.000089e+000 -1.667780e-001 4.053483e-005 -1.763629e+002 1.437959e-004 1.118410e+002 1.000027e+000 -6.347463e-001
12599385 1.000199e+000 -1.927026e-001 5.144814e-005 1.795498e+002 1.906383e-004 -1.856750e+001 9.995896e-001 -6.358727e-001
12899370 1.000158e+000 -2.088719e-001 6.716450e-005 -8.462200e-001 1.087958e-004 1.623905e+002 9.992750e-001 -7.867498e-001
13199355 1.000449e+000 -2.032888e-001 6.371928e-005 1.545201e+002 2.336746e-004 -7.964664e+001 9.980741e-001 -6.732608e-001
13499340 1.000186e+000 -2.040400e-001 1.275697e-004 5.139337e+000 3.307186e-004 -1.005092e+002 9.984376e-001 -6.333648e-001
13799325 1.000359e+000 -2.231172e-001 1.318820e-004 -8.245653e+001 7.817447e-005 4.266787e+001 9.987276e-001 -6.404050e-001
14099310 1.000630e+000 -2.071144e-001 1.491362e-005 1.622005e+002 3.634144e-004 -1.400250e+002 9.985104e-001 -7.284454e-001
14399295 1.000814e+000 -2.191103e-001 8.056188e-005 1.499183e+002 1.468029e-004 1.407904e+002 1.000109e+000 -6.434318e-001
14699280 1.000041e+000 -2.215118e-001 7.181089e-005 4.654305e+001 5.903827e-005 1.456129e+002 1.000221e+000 -6.959349e-001
14999265 9.995215e-001 -2.181667e-001 4.407113e-005 -3.181001e+001 1.521232e-004 -1.309821e-001 9.985457e-001 -7.487476e-001
15299250 1.000107e+000 -1.926830e-001 1.550962e-005 -1.172143e+002 2.856830e-004 -6.961588e+001 9.981515e-001 -7.332368e-001
15599235 1.000301e+000 -1.711271e-001 4.537982e-005 -1.315606e+002 3.024848e-004 6.942865e+001 9.982179e-001 -7.413406e-001
15899220 1.000592e+000 -1.916665e-001 5.296147e-005 1.373823e+002 2.597918e-005 -1.528847e+002 9.981267e-001 -7.826298e-001
16199205 1.000428e+000 -1.821926e-001 7.572520e-005 7.092143e+001 1.986969e-004 -8.159901e+001 9.983345e-001 -7.094647e-001
16499190 9.999478e-001 -1.894423e-001 5.890232e-005 -1.431062e+002 1.203071e-004 7.883871e+001 1.000122e+000 -6.989179e-001
16799175 9.997934e-001 -2.039826e-001 9.151457e-005 -5.799659e+001 1.647429e-004 -7.500101e+001 9.995586e-001 -7.406859e-001
17099160 1.000208e+000 -1.997551e-001 1.400153e-004 1.623168e+002 1.686524e-004 1.530928e+002 1.000662e+000 -8.198587e-001
17399145 9.999677e-001 -2.127308e-001 5.088792e-005 1.714910e+002 7.610009e-005 -4.097704e+001 9.988940e-001 -7.386971e-001
17699130 1.000039e+000 -2.293591e-001 4.191439e-005 -3.523166e+001 1.969453e-004 -1.787976e+002 9.990249e-001 -8.209317e-001
17999115 9.997117e-001 -2.065507e-001 5.106757e-005 1.130756e+002 1.208125e-004 -7.485748e+001 9.996734e-001 -8.527873e-001
18299100 1.000049e+000 -1.794576e-001 6.488397e-006 -5.752919e+001 5.236984e-005 -9.432730e+001 9.987676e-001 -8.175707e-001
18599085 1.000095e+000 -2.037583e-001 1.204402e-004 -1.642581e+002 1.645141e-004 -3.101000e+001 9.989068e-001 -7.983744e-001
18899070 9.997499e-001 -2.424381e-001 3.324584e-005 1.555460e+002 2.115591e-004 8.949338e+001 9.986054e-001 -8.272576e-001
19199055 1.000226e+000 -2.572086e-001 7.891334e-005 -1.121852e+001 1.460389e-004 -1.390972e+002 9.986805e-001 -8.103988e-001
19499040 1.000046e+000 -2.004979e-001 1.943050e-005 -2.232866e+000 1.287204e-004 4.346397e+001 9.974916e-001 -8.265536e-001
19799025 1.000566e+000 -1.982415e-001 5.716668e-005 7.538097e+001 3.754193e-004 -6.470785e+001 9.989592e-001 -8.253645e-001
20099010 1.000340e+000 -1.921457e-001 8.942351e-005 1.312298e+002 3.063253e-004 9.426574e+001 9.975638e-001 -8.564874e-001
20398995 9.997385e-001 -2.221774e-001 1.117671e-004 -7.955833e+001 1.697857e-004 -1.223282e+002 9.979041e-001 -9.190146e-001
20698980 9.998559e-001 -2.164323e-001 7.642499e-005 -2.161287e+001 2.110295e-004 -1.678596e+001 9.966816e-001 -9.480478e-001
20998965 9.994394e-001 -2.266074e-001 1.092294e-004 9.400923e+001 1.788772e-005 -1.631572e+002 9.980764e-001 -9.374929e-001
21298950 9.995894e-001 -2.286657e-001 8.219085e-005 -2.949282e+001 2.306737e-004 5.985861e+001 9.975489e-001 -8.943595e-001
21598935 9.995456e-001 -2.535955e-001 9.368027e-005 6.284285e+001 1.934424e-004 -6.510496e+001 9.971129e-001 -8.274933e-001
21898920 9.999535e-001 -2.782445e-001 4.323204e-005 5.640252e+001 3.615756e-004 -8.298194e+000 9.971833e-001 -9.606722e-001
22198905 1.000310e+000 -2.473844e-001 1.171068e-004 1.157877e+002 1.469439e-004 1.607341e+002 9.984528e-001 -9.559191e-001
22498890 1.000336e+000 -2.231252e-001 4.689331e-005 9.726450e+001 1.757377e-004 -2.792236e+001 1.001307e+000 -9.151793e-001
22798875 1.000819e+000 -1.948663e-001 3.665082e-005 2.298692e+001 2.623176e-004 7.841586e+001 1.000598e+000 -9.660087e-001
23098860 1.000472e+000 -2.736802e-001 3.861940e-005 1.040674e+002 1.710246e-004 1.726322e+002 9.994419e-001 -1.080067e+000
23398845 1.001252e+000 -2.518653e-001 3.915401e-005 -5.443012e+001 3.968307e-004 6.673176e+001 9.988823e-001 -1.029888e+000
23698830 1.000294e+000 -2.399575e-001 8.780130e-005 -7.956844e+001 6.498607e-005 1.633434e+002 9.966817e-001 -9.600739e-001
23998815 1.000207e+000 -2.466575e-001 5.254092e-005 -1.429631e+002 1.377259e-004 3.329773e+001 9.976573e-001 -1.018602e+000
24298800 9.996015e-001 -2.527268e-001 2.187210e-005 5.710825e+001 1.663810e-004 -1.543916e+002 9.975226e-001 -1.080668e+000
24598785 1.000243e+000 -3.082114e-001 7.090313e-005 1.110742e+001 2.378655e-004 1.310291e+001 9.978739e-001 -1.067003e+000
24898770 1.000324e+000 -2.961296e-001 1.142444e-005 1.701949e+002 2.077551e-004 -1.112259e+002 9.991835e-001 -1.104499e+000
25198755 1.000337e+000 -3.115220e-001 9.067881e-005 -1.304633e+001 2.270276e-004 4.692500e+001 9.975786e-001 -1.118632e+000
25498740 9.999171e-001 -2.856879e-001 6.323270e-005 1.584289e+002 8.371073e-005 1.480901e+002 9.996659e-001 -1.174186e+000
25798725 9.999647e-001 -2.786339e-001 6.078869e-005 2.171660e+001 3.372899e-004 -1.843729e+000 9.985303e-001 -1.134283e+000
26098710 1.000614e+000 -2.807972e-001 6.323455e-005 -2.997035e+001 1.417943e-004 1.649522e+002 9.986125e-001 -1.148581e+000
26398695 1.000359e+000 -3.107305e-001 6.019686e-005 7.940514e+001 1.617392e-004 -1.485626e+002 9.999413e-001 -1.111836e+000
26698680 1.001106e+000 -2.396274e-001 1.581283e-004 1.584990e+002 3.889015e-004 3.421132e+001 9.990425e-001 -1.145079e+000
26998665 9.997647e-001 -2.671589e-001 1.034780e-004 9.408015e+001 1.709258e-004 -3.757387e+001 9.983834e-001 -1.172592e+000
27298650 1.000234e+000 -2.806180e-001 9.306618e-005 -1.239436e+002 2.292234e-004 5.053890e+001 9.987639e-001 -1.194340e+000
27598635 9.994885e-001 -3.021547e-001 4.937592e-005 -1.366214e+002 1.723662e-004 -1.622501e+002 9.995352e-001 -1.190530e+000
27898620 1.000262e+000 -2.401270e-001 7.368044e-005 6.482788e+001 2.786682e-004 1.515159e-001 1.000286e+000 -1.190457e+000
28198605 1.000708e+000 -2.582396e-001 1.041455e-004 7.461519e+001 2.620742e-004 -1.701073e+002 1.000813e+000 -1.235163e+000
28498590 9.997074e-001 -3.159744e-001 5.837326e-005 1.760469e+002 1.116767e-004 -1.030027e+002 9.990070e-001 -1.218494e+000
28798575 1.000122e+000 -3.402228e-001 1.922606e-005 -1.125467e+002 2.421210e-004 2.413859e+001 9.979981e-001 -1.294633e+000
29098560 1.000422e+000 -3.051871e-001 1.243584e-004 -5.088360e+000 1.435505e-004 -1.026049e+002 9.994939e-001 -1.273756e+000
29398545 9.999515e-001 -2.762545e-001 3.234487e-005 -1.068992e+002 4.160906e-004 -8.303776e+000 9.999365e-001 -1.209685e+000
29698530 1.000070e+000 -3.039420e-001 9.716813e-005 -6.879116e+001 1.177457e-004 1.593471e+002 1.000631e+000 -1.200162e+000
29998515 1.000319e+000 -3.194058e-001 1.381116e-005 1.956651e+001 3.282687e-005 -6.886686e+001 1.001086e+000 -1.250321e+000
30298500 9.994059e-001 -3.037471e-001 4.518050e-005 -1.020993e+002 2.262962e-004 1.240579e+002 9.990836e-001 -1.296167e+000
30598485 1.001029e+000 -2.804356e-001 4.738497e-005 8.067966e+001 7.229411e-005 -7.165182e+001 9.994656e-001 -1.363366e+000
30898470 1.000505e+000 -2.631674e-001 7.555797e-005 -8.197634e+001 2.681673e-004 1.126960e+002 9.987352e-001 -1.349135e+000
31198455 1.000547e+000 -3.163611e-001 1.368292e-004 -1.083699e+002 7.978347e-005 1.128032e+002 9.985245e-001 -1.301617e+000
31498440 1.000090e+000 -3.012236e-001 3.393977e-005 -7.778471e+001 4.363228e-005 6.287665e+000 9.989331e-001 -1.365217e+000
31798425 1.000595e+000 -3.861685e-001 7.046115e-006 -1.663053e+002 1.209272e-004 -1.124797e+002 9.990109e-001 -1.358567e+000
32098410 1.000354e+000 -3.926370e-001 4.320151e-005 -9.026831e+001 3.174733e-004 6.806222e+001 1.000263e+000 -1.307447e+000
32398395 1.000864e+000 -3.851775e-001 6.559731e-005 1.348025e+002 1.407229e-004 -1.325418e+002 1.000128e+000 -1.355914e+000
32698380 1.000820e+000 -3.325712e-001 1.398575e-004 4.491114e+001 6.336787e-005 2.959974e+001 9.985580e-001 -1.339185e+000
32998365 1.000483e+000 -3.354375e-001 1.093678e-004 1.218967e+001 2.003490e-004 -1.048299e+002 9.982288e-001 -1.381845e+000
33298350 1.000870e+000 -3.093862e-001 6.690426e-005 -1.541688e+002 2.321185e-004 -2.423097e+001 9.984414e-001 -1.413332e+000
33598335 9.998188e-001 -3.444607e-001 6.068301e-005 -1.066967e+002 1.557468e-004 -9.078594e+001 9.990165e-001 -1.384603e+000
33898320 9.994127e-001 -3.538602e-001 7.527156e-005 1.359782e+001 4.876225e-005 1.036244e+002 9.987866e-001 -1.391567e+000
34198305 1.000444e+000 -3.559132e-001 3.589811e-005 -5.997705e+001 1.068305e-004 1.680232e+002 9.984428e-001 -1.451149e+000
34498290 1.000383e+000 -3.822938e-001 9.211264e-005 1.283996e+002 2.399692e-004 -8.486221e+001 9.972525e-001 -1.411942e+000
34798275 1.000106e+000 -3.892371e-001 1.248330e-004 -3.361893e+001 1.055136e-004 5.576361e+001 9.974261e-001 -1.503454e+000
35098260 1.000754e+000 -3.753021e-001 7.429181e-005 -1.546785e+002 8.863316e-005 -5.729539e+001 9.987699e-001 -1.433896e+000
35398245 1.000126e+000 -4.135432e-001 8.655369e-005 -3.747005e+001 2.246323e-004 7.624610e+001 9.997350e-001 -1.430896e+000
35698230 9.996276e-001 -3.819607e-001 1.634926e-004 -3.852060e+001 2.143892e-004 -9.013054e+001 9.995157e-001 -1.521680e+000
35998215 1.000336e+000 -3.930622e-001 4.654744e-005 -1.165491e+002 1.977475e-004 1.281817e+001 9.985605e-001 -1.495982e+000
36298200 1.000370e+000 -3.843756e-001 5.766084e-005 -2.815188e+001 4.900612e-005 9.157647e+001 9.985593e-001 -1.561162e+000
36598185 1.000419e+000 -4.277842e-001 5.624459e-005 -7.812556e+001 2.329720e-004 4.994658e+001 9.988000e-001 -1.561372e+000
36898170 1.000804e+000 -4.240236e-001 6.702410e-005 -1.328679e+002 4.752457e-005 -1.316600e+002 9.978690e-001 -1.589505e+000
37198155 1.001000e+000 -3.771745e-001 5.524627e-005 -1.504910e+002 6.705165e-005 1.398461e+002 9.995325e-001 -1.518568e+000
37498140 1.000407e+000 -4.067435e-001 4.498631e-005 1.173529e+002 1.239737e-004 -1.481476e+002 9.981935e-001 -1.556039e+000
37798125 9.999039e-001 -4.124568e-001 6.157233e-005 -2.888975e+001 4.814648e-005 -7.334891e+001 9.979807e-001 -1.574412e+000
38098110 9.993380e-001 -3.810529e-001 1.002107e-004 1.440746e+002 1.860774e-004 7.972516e+001 9.979454e-001 -1.587198e+000
38398095 1.000431e+000 -4.085885e-001 1.398238e-004 4.028535e+000 1.029775e-004 -8.172828e+001 9.976999e-001 -1.649113e+000
38698080 9.996840e-001 -3.869902e-001 7.684816e-005 1.457626e+002 1.568166e-004 3.339174e+001 9.982694e-001 -1.609411e+000
38998065 1.000416e+000 -4.109983e-001 6.630064e-005 -9.259013e+001 2.760585e-004 -5.399218e+001 9.982382e-001 -1.637256e+000
39298050 1.000950e+000 -3.981579e-001 6.629787e-005 -1.201792e+002 1.038563e-004 6.079205e+001 9.989560e-001 -1.596275e+000
39598035 1.000309e+000 -4.145833e-001 3.152345e-005 1.303616e+002 1.894162e-004 -2.853526e+001 9.999576e-001 -1.565659e+000
39898020 1.001044e+000 -3.545211e-001 5.718138e-005 9.308399e+000 7.535016e-005 1.309776e+002 9.998447e-001 -1.560804e+000
40198005 1.000698e+000 -3.784104e-001 2.377578e-004 2.163772e+001 1.829593e-004 -8.430062e+001 9.991436e-001 -1.779668e+000
40497990 1.000454e+000 -3.691983e-001 1.260149e-004 -9.476902e+001 4.048708e-004 -7.200889e+000 9.995561e-001 -1.742646e+000
40797975 1.001380e+000 -4.382345e-001 2.549409e-004 -8.524947e+001 4.654532e-004 -3.968277e+001 9.997663e-001 -1.825123e+000
41097960 9.994435e-001 -4.202913e-001 1.144202e-004 -7.248625e+001 9.299994e-005 -2.044194e+001 9.988576e-001 -1.626868e+000
41397945 9.996252e-001 -3.708042e-001 2.297843e-004 1.717612e+002 2.168603e-004 6.904935e+001 9.991031e-001 -1.706667e+000
41697930 1.000283e+000 -4.052601e-001 1.002707e-005 -1.116234e+002 1.882451e-004 1.638555e+001 9.986064e-001 -1.638302e+000
41997915 9.992954e-001 -3.949042e-001 1.582207e-004 1.250141e+002 1.825457e-004 7.973853e+001 9.994032e-001 -1.602672e+000
42297900 1.000553e+000 -3.537006e-001 1.951523e-004 -8.366902e+001 1.236696e-004 -1.263263e+002 1.000470e+000 -1.712215e+000
42597885 1.000768e+000 -3.792135e-001 9.997453e-005 1.545075e+002 2.295396e-004 1.647607e+002 9.977362e-001 -1.744761e+000
42897870 1.001289e+000 -4.282017e-001 1.723733e-004 1.357931e+002 1.222006e-004 -1.272016e+002 9.983674e-001 -1.869392e+000
43197855 1.000242e+000 -4.171858e-001 1.071053e-004 -7.432727e+001 9.812933e-005 1.699911e+002 9.986570e-001 -1.868133e+000
43497840 1.000643e+000 -4.174584e-001 1.053281e-004 -9.659105e+001 2.955413e-004 -1.653618e+002 9.985258e-001 -1.853492e+000
43797825 9.998322e-001 -4.827560e-001 4.618409e-005 9.112247e+001 2.680721e-004 5.823591e+001 9.985441e-001 -1.826540e+000
44097810 1.000943e+000 -4.136965e-001 9.696209e-005 5.754417e+001 2.365410e-004 6.857195e+001 1.000010e+000 -1.884787e+000
44397795 1.000010e+000 -4.238292e-001 1.640861e-004 4.479501e+001 8.165230e-005 -1.644648e+002 9.995799e-001 -1.924435e+000
44697780 1.000656e+000 -5.274405e-001 1.741294e-004 7.895444e+001 2.911430e-004 1.171879e+002 9.996774e-001 -1.830683e+000
44997765 1.000721e+000 -4.822750e-001 4.983179e-005 -7.770255e+001 1.617719e-004 -5.808351e+001 9.998399e-001 -1.935261e+000
45297750 1.001814e+000 -5.131574e-001 4.501505e-005 -1.476363e+002 9.675385e-005 1.752659e+002 1.000824e+000 -1.835669e+000
45597735 1.001848e+000 -4.821289e-001 9.441199e-005 1.182499e+002 5.715086e-004 2.547476e+001 1.000754e+000 -2.011744e+000
45897720 1.002345e+000 -4.484732e-001 9.234729e-005 1.454102e+002 2.685061e-004 4.353226e+001 1.002921e+000 -1.954284e+000
46197705 1.001366e+000 -4.729315e-001 1.336492e-004 -1.485924e+002 1.148122e-004 4.070092e+001 1.001394e+000 -1.886606e+000
46497690 1.001629e+000 -4.759243e-001 7.082771e-005 -3.938795e+000 2.776808e-004 -7.040816e+001 1.001527e+000 -1.984704e+000
46797675 1.001604e+000 -4.434298e-001 8.340138e-005 9.518660e+000 4.466019e-004 -1.790053e+002 9.986076e-001 -1.875262e+000
47097660 1.001222e+000 -5.063638e-001 3.043057e-005 -1.422929e+002 9.116661e-005 3.041067e+001 9.984775e-001 -2.122416e+000
