!Agilent Technologies,N5230C,SG49000117,A.08.50.07
!Agilent N5230C: A.08.50.07
!Date: Thursday, May 16, 2024 19:23:52
!Correction: S11(Full 2 Port(1,2)) 
!S21(Full 2 Port(1,2)) 
!S12(Full 2 Port(1,2)) 
!S22(Full 2 Port(1,2)) 
!S2P File: Measurements: S11, S21, S12, S22:
# Hz S  MA   R 50
300000 1.006037e+000 -4.534087e-001 2.749536e-004 1.700399e+002 2.275356e-004 7.523683e+001 1.017073e+000 -6.216788e-001
599985 9.827272e-001 3.245681e-001 4.897551e-005 1.769605e+002 1.370892e-004 -1.707877e+002 9.654296e-001 3.010457e-001
899970 9.977199e-001 -1.093577e-001 5.993843e-005 9.965982e+001 2.005457e-004 -4.348980e+001 9.835152e-001 -5.213702e-001
1199955 9.983184e-001 -8.524016e-002 2.707633e-005 1.405859e+002 2.268681e-004 1.084244e+002 9.961669e-001 -3.267439e-001
1499940 9.944156e-001 1.157571e-001 5.695262e-005 -9.219591e+001 1.950474e-004 4.871645e+001 9.922953e-001 4.070734e-002
1799925 9.923955e-001 1.566379e-001 4.499384e-005 -2.124365e+001 1.322685e-004 -3.770897e+001 9.893239e-001 -3.237147e-002
2099910 9.986730e-001 -2.930048e-002 2.806926e-005 8.658531e+001 5.229538e-005 7.983899e+001 9.977520e-001 -2.815316e-002
2399895 9.988661e-001 -1.158199e-001 1.188250e-004 1.345720e+002 1.390458e-004 1.001242e+002 1.003034e+000 -8.480139e-002
2699880 9.998396e-001 -2.709407e-001 1.154678e-004 4.685736e+001 1.264045e-004 -4.505959e+001 9.948251e-001 -2.650747e-001
2999865 9.995534e-001 -1.266050e-001 4.575910e-005 1.377116e+001 3.197856e-005 -1.528926e+002 9.982322e-001 -3.146776e-001
3299850 1.000388e+000 -1.101615e-001 4.973893e-005 -1.762922e+002 7.442708e-005 1.155181e+002 9.977326e-001 -2.878768e-001
3599835 9.997517e-001 -1.230833e-001 5.004464e-005 1.658898e+002 6.181331e-005 5.746085e+001 9.978126e-001 -2.940741e-001
3899820 9.991760e-001 -1.403610e-001 1.705335e-005 -1.605442e+002 2.566702e-005 1.114462e+002 9.983049e-001 -3.336626e-001
4199805 1.000023e+000 -1.881848e-001 6.872465e-005 1.493645e+002 1.322051e-004 -1.031825e+002 9.993085e-001 -3.262311e-001
4499790 1.000503e+000 -1.508336e-001 7.980096e-005 -3.042587e+001 1.844202e-004 -5.213976e+001 9.985884e-001 -4.164216e-001
4799775 1.000412e+000 -1.557207e-001 5.927802e-005 -2.671955e+001 8.016053e-005 -3.269967e+001 9.990285e-001 -3.386257e-001
5099760 1.000236e+000 -1.391918e-001 6.089214e-005 -4.416333e+001 1.566031e-004 -7.854081e+001 9.993920e-001 -3.214311e-001
5399745 1.000186e+000 -9.170535e-002 3.612786e-005 1.707848e+002 2.163932e-004 -7.486066e+001 9.989354e-001 -2.834676e-001
5699730 1.000501e+000 -1.108389e-001 1.156932e-005 -1.132967e+002 2.352724e-004 -8.442307e+001 1.001029e+000 -3.453476e-001
5999715 9.989439e-001 -9.026348e-002 8.785683e-005 1.274185e+001 2.446571e-004 1.550780e+001 9.996310e-001 -2.796472e-001
6299700 9.999137e-001 -1.272933e-001 1.372648e-005 -9.560822e+000 1.664235e-004 5.645519e+001 9.995453e-001 -3.794247e-001
6599685 9.998838e-001 -1.364155e-001 1.010730e-004 1.158482e+002 1.780575e-004 -8.563767e+001 1.000208e+000 -4.236295e-001
6899670 1.000180e+000 -1.281970e-001 1.203179e-005 -7.757069e+001 1.952748e-004 -1.617144e+002 9.998325e-001 -4.187648e-001
7199655 9.999436e-001 -1.512302e-001 6.474637e-005 -9.034927e+001 3.468214e-005 1.183767e+002 9.998704e-001 -5.189834e-001
7499640 9.999478e-001 -1.897092e-001 1.262195e-005 -1.481647e+002 1.180428e-004 1.450726e+002 9.991163e-001 -5.397352e-001
7799625 1.000426e+000 -1.634723e-001 1.996654e-005 -1.370447e+001 2.991151e-004 8.678772e+001 9.979842e-001 -4.471705e-001
8099610 1.000637e+000 -1.370715e-001 1.200493e-004 1.043400e+002 1.070636e-004 -3.743592e+001 9.987385e-001 -4.906550e-001
8399595 9.998971e-001 -1.483321e-001 8.684943e-005 -1.728748e+002 1.841842e-004 -1.688376e+002 9.992608e-001 -5.622526e-001
8699580 1.000360e+000 -1.641404e-001 2.348266e-005 -7.970217e+001 9.887748e-005 1.625320e+002 1.000052e+000 -5.028459e-001
8999565 9.997864e-001 -1.477186e-001 5.767880e-005 1.110553e+002 5.884725e-005 -1.434681e+002 9.992819e-001 -6.133146e-001
9299550 1.000084e+000 -1.456132e-001 7.694696e-005 -3.778712e+001 1.916118e-004 8.525110e+001 9.992596e-001 -5.504732e-001
9599535 9.997782e-001 -1.982553e-001 4.371767e-005 4.648381e+001 8.437109e-005 1.632799e+002 9.981690e-001 -6.250832e-001
9899520 9.997837e-001 -2.595610e-001 3.317227e-005 -1.625190e+002 1.024602e-004 -1.360210e+002 9.962685e-001 -8.192047e-001
10199505 1.000482e+000 -1.511769e-001 7.662559e-005 3.651368e+001 1.100510e-004 8.791690e+001 9.987762e-001 -5.765154e-001
10499490 9.999470e-001 -1.436760e-001 4.661862e-005 7.387038e+001 1.293340e-004 1.553494e+002 9.980375e-001 -5.870200e-001
10799475 9.999280e-001 -1.255044e-001 5.049704e-005 -9.360239e+001 2.641877e-004 5.554211e+001 9.984539e-001 -5.201143e-001
11099460 1.000227e+000 -1.361917e-001 5.230623e-005 -1.126014e+001 1.627937e-004 1.215236e+002 9.987962e-001 -5.744389e-001
11399445 1.000288e+000 -1.346726e-001 1.863676e-005 2.772677e+001 4.995395e-005 1.431324e+001 9.977372e-001 -5.674878e-001
11699430 9.998255e-001 -1.864401e-001 7.468290e-005 1.617120e+002 2.483064e-004 6.319859e+001 9.995371e-001 -5.740854e-001
11999415 9.999969e-001 -1.661985e-001 6.528151e-005 -7.670209e+001 9.755205e-005 -1.065111e+002 9.993069e-001 -6.500760e-001
12299400 1.000260e+000 -1.899804e-001 8.339063e-005 4.397729e+001 1.827638e-004 -1.508555e+002 9.994016e-001 -6.177885e-001
12599385 1.000476e+000 -1.736822e-001 1.343296e-004 -1.771811e+002 1.880429e-004 -2.574711e+001 9.994836e-001 -6.655980e-001
12899370 9.998097e-001 -1.868134e-001 8.324427e-005 -1.609432e+002 9.602408e-005 -1.471316e+002 9.973590e-001 -8.311172e-001
13199355 9.997164e-001 -1.794342e-001 9.665233e-005 6.448155e+001 9.028186e-005 1.791593e+002 9.984721e-001 -7.241769e-001
13499340 9.999372e-001 -2.247806e-001 1.112727e-004 1.651852e+002 2.198613e-004 1.020919e+002 9.992308e-001 -7.289479e-001
13799325 1.000090e+000 -1.765538e-001 3.361705e-005 1.496610e+002 2.612215e-004 -1.052798e+002 9.979981e-001 -7.287678e-001
14099310 9.999417e-001 -1.804921e-001 6.901201e-005 -1.105320e+002 1.071608e-004 7.625945e+001 9.997537e-001 -6.709151e-001
14399295 1.000291e+000 -2.322461e-001 8.484058e-005 2.938274e+001 1.587528e-004 -1.981110e+001 9.994708e-001 -6.809400e-001
14699280 1.000342e+000 -1.870675e-001 5.968920e-005 -1.114396e+002 2.659732e-004 6.511603e+001 9.989215e-001 -6.247238e-001
14999265 9.994910e-001 -1.882880e-001 1.349667e-004 -1.346902e+002 1.406050e-004 -3.631571e+001 9.981680e-001 -7.949378e-001
15299250 9.996796e-001 -1.762310e-001 4.387478e-005 -8.978884e+001 1.864580e-004 -1.442142e+002 9.980087e-001 -7.751250e-001
15599235 9.994788e-001 -1.638043e-001 8.747232e-005 -1.532238e+002 3.732663e-004 1.293236e+002 9.987074e-001 -7.743227e-001
15899220 1.000056e+000 -1.793879e-001 8.906293e-005 -2.141597e+001 2.042456e-004 -6.762119e+001 1.000216e+000 -7.390534e-001
16199205 1.000269e+000 -1.759731e-001 6.539376e-005 -4.981861e+001 2.539338e-004 8.058486e+001 1.000571e+000 -8.323835e-001
16499190 9.999556e-001 -1.704071e-001 1.782971e-005 -1.488086e+002 1.819049e-004 -9.775471e+001 1.000226e+000 -7.502241e-001
16799175 9.997764e-001 -2.139670e-001 5.561347e-005 -1.541403e+002 3.922205e-004 5.753145e+001 1.001119e+000 -7.677454e-001
17099160 1.000361e+000 -2.348759e-001 1.009516e-004 3.165589e+001 1.876102e-004 -1.555244e+002 1.000133e+000 -7.816289e-001
17399145 1.000633e+000 -2.125602e-001 3.872152e-005 9.550641e+001 6.523207e-005 4.994741e+001 1.000274e+000 -8.311497e-001
17699130 1.000323e+000 -2.076528e-001 8.533335e-005 5.896175e+001 4.728463e-005 -1.449764e+002 1.000552e+000 -8.511345e-001
17999115 9.998009e-001 -2.209273e-001 6.111276e-005 -7.898501e+001 1.018159e-004 -3.386836e+001 9.999309e-001 -8.879285e-001
18299100 9.997690e-001 -2.083520e-001 1.250468e-004 -7.807117e+001 2.010657e-004 1.451688e+002 9.998647e-001 -9.076750e-001
18599085 1.000045e+000 -2.480829e-001 1.749928e-004 -1.763056e+002 9.250137e-005 1.407092e+002 9.993693e-001 -9.232702e-001
18899070 1.000048e+000 -2.253085e-001 1.278667e-004 8.988503e+001 1.157536e-004 9.322230e+001 9.974978e-001 -8.469102e-001
19199055 1.000149e+000 -2.478615e-001 4.099514e-005 1.374205e+002 1.491348e-004 -3.329221e+001 9.985340e-001 -8.624021e-001
19499040 1.000147e+000 -2.350444e-001 4.068745e-005 -1.361608e+002 1.827952e-004 -5.529640e+000 9.995062e-001 -8.551742e-001
19799025 1.000699e+000 -2.132625e-001 1.605526e-005 -5.196618e+001 2.174862e-004 1.649145e+002 9.986404e-001 -8.482389e-001
20099010 9.999947e-001 -2.069474e-001 3.469358e-005 1.567930e+002 8.025297e-005 -8.061851e+001 9.994594e-001 -9.345953e-001
20398995 9.996346e-001 -2.152671e-001 1.469696e-004 1.240554e+002 2.445069e-004 9.528541e+001 9.990768e-001 -9.853079e-001
20698980 9.999580e-001 -2.398671e-001 1.692459e-005 -1.007595e+002 1.470917e-004 1.716204e+002 9.987842e-001 -9.878787e-001
20998965 9.994985e-001 -2.114128e-001 1.058997e-004 9.110564e+001 2.233973e-004 7.967271e+001 9.982966e-001 -9.543519e-001
21298950 9.991727e-001 -2.135990e-001 7.461218e-005 1.606978e+002 1.708938e-004 -1.233287e+002 9.985366e-001 -9.304482e-001
21598935 9.989707e-001 -2.124640e-001 1.201265e-004 2.701516e+001 9.431803e-005 5.652709e+000 9.973702e-001 -9.121293e-001
21898920 9.998214e-001 -2.624908e-001 4.965141e-005 -4.259758e+001 1.624128e-004 7.896457e+001 9.978131e-001 -1.063581e+000
22198905 9.995885e-001 -2.696038e-001 4.308726e-005 5.278250e+001 3.974310e-004 -7.619456e+001 9.989668e-001 -1.028606e+000
22498890 1.000480e+000 -2.450194e-001 9.506963e-005 6.780723e-001 1.782637e-004 5.942887e+001 9.985980e-001 -1.038158e+000
22798875 1.000908e+000 -2.061190e-001 1.327879e-004 -4.140511e+001 2.480698e-004 -9.742235e+001 1.000280e+000 -1.084500e+000
23098860 1.000444e+000 -2.294680e-001 8.996171e-005 -1.635379e+002 1.964399e-004 1.969065e+001 9.990695e-001 -1.116257e+000
23398845 1.000430e+000 -2.515400e-001 2.381989e-005 4.456120e+001 2.146618e-004 1.519170e+002 9.991071e-001 -1.021751e+000
23698830 1.000745e+000 -2.560203e-001 7.022262e-005 5.399911e+001 1.992249e-004 -3.684921e+001 9.984394e-001 -1.134693e+000
23998815 1.000788e+000 -3.026797e-001 9.893547e-005 9.236166e+001 9.315437e-005 1.397675e+002 9.975975e-001 -1.084138e+000
24298800 9.999793e-001 -2.417460e-001 2.140456e-005 -1.510452e+002 2.017200e-004 2.836712e+001 9.987711e-001 -1.115445e+000
24598785 1.000415e+000 -2.924781e-001 8.329018e-005 1.043185e+001 1.541173e-004 4.491861e+001 9.985507e-001 -1.127817e+000
24898770 1.000405e+000 -2.776547e-001 8.517989e-005 -1.241797e+002 2.158590e-004 -1.487728e+002 9.981416e-001 -1.213403e+000
25198755 1.000318e+000 -3.219973e-001 1.196025e-004 -5.508326e+001 1.332642e-004 -7.756149e+001 9.984619e-001 -1.131027e+000
25498740 1.000242e+000 -2.741763e-001 8.856160e-005 -5.526078e+001 1.933979e-004 1.775633e+002 9.985070e-001 -1.230492e+000
25798725 1.000083e+000 -2.909560e-001 5.867294e-005 -1.705166e+002 1.545450e-004 4.624886e+001 9.989888e-001 -1.313205e+000
26098710 1.000335e+000 -2.632762e-001 7.906994e-005 -2.683375e+001 1.450293e-004 -1.011017e+002 9.991414e-001 -1.260762e+000
26398695 1.000806e+000 -2.688518e-001 6.739120e-005 -1.457080e+002 6.909257e-005 1.290525e+002 9.990597e-001 -1.173957e+000
26698680 1.000658e+000 -2.972488e-001 6.277273e-005 -1.481659e+002 1.393150e-004 6.998831e+001 9.999133e-001 -1.229259e+000
26998665 1.000238e+000 -3.032970e-001 1.139487e-004 -8.035993e+001 1.782573e-004 8.318098e+001 9.995772e-001 -1.193613e+000
27298650 1.000519e+000 -3.104478e-001 3.075319e-005 9.210424e+000 5.469772e-004 1.701532e+002 9.987288e-001 -1.334789e+000
27598635 1.000970e+000 -2.881825e-001 8.675624e-005 -1.783240e+002 1.461049e-004 -1.335787e+001 9.990536e-001 -1.264606e+000
27898620 9.999811e-001 -2.829120e-001 3.452317e-005 1.094394e+000 3.482485e-005 -1.067058e+002 1.000593e+000 -1.289159e+000
28198605 1.000130e+000 -2.842264e-001 8.847829e-005 1.217376e+002 2.135092e-004 9.326278e+000 9.996527e-001 -1.295114e+000
28498590 9.996704e-001 -2.944898e-001 1.033995e-004 -1.156588e+001 1.576456e-004 -8.039663e+001 9.985294e-001 -1.316229e+000
28798575 1.000165e+000 -2.966516e-001 3.287820e-005 1.425392e+002 4.213331e-005 -1.096903e+002 9.973831e-001 -1.377970e+000
29098560 9.998869e-001 -3.308800e-001 4.936031e-005 -4.360277e+001 2.000544e-004 8.794592e+001 9.989493e-001 -1.320356e+000
29398545 1.000611e+000 -3.009158e-001 6.969065e-005 -9.782547e+001 1.767892e-004 -3.615698e+001 9.991497e-001 -1.240851e+000
29698530 9.999947e-001 -2.536395e-001 8.986078e-005 1.700336e+002 1.541954e-004 -1.756931e+002 9.999592e-001 -1.322530e+000
29998515 1.000513e+000 -3.210645e-001 1.398966e-004 3.312873e+001 1.020497e-004 9.631866e+000 1.000153e+000 -1.394937e+000
30298500 1.000253e+000 -2.786156e-001 6.434992e-005 1.123091e+002 9.049078e-005 5.035591e+001 1.000149e+000 -1.418090e+000
30598485 1.000274e+000 -2.973391e-001 1.072332e-004 -1.602711e+002 2.236990e-004 -1.281419e+001 9.999784e-001 -1.381386e+000
30898470 1.000844e+000 -2.639375e-001 5.637608e-005 -5.617823e+001 2.173871e-005 1.384429e+002 9.989164e-001 -1.425192e+000
31198455 1.000323e+000 -2.962100e-001 1.111392e-004 -9.655247e+001 1.599385e-004 -1.524859e+002 9.981693e-001 -1.352946e+000
31498440 1.000559e+000 -3.246981e-001 1.161482e-004 -3.431259e+001 1.564957e-004 -1.314293e+001 1.000182e+000 -1.387167e+000
31798425 1.000244e+000 -3.661946e-001 1.167744e-004 4.511636e+001 2.833988e-004 1.022844e+002 9.997278e-001 -1.367676e+000
32098410 1.000705e+000 -3.540643e-001 9.170565e-005 5.764749e+001 1.646993e-004 -1.178937e+001 9.995632e-001 -1.367262e+000
32398395 1.001071e+000 -3.542224e-001 8.641282e-005 1.730471e+002 2.144093e-004 6.298661e+001 1.000114e+000 -1.416682e+000
32698380 1.000806e+000 -3.432575e-001 1.525806e-004 -1.755933e+002 1.644161e-004 -1.231348e+002 9.993965e-001 -1.450992e+000
32998365 1.000189e+000 -3.417752e-001 8.944350e-005 1.281615e+002 1.142981e-004 2.432891e+001 9.997416e-001 -1.421114e+000
33298350 1.000067e+000 -3.256875e-001 9.458331e-005 -1.073630e+002 2.115791e-004 -9.636992e+001 9.984688e-001 -1.496922e+000
33598335 1.000024e+000 -3.596147e-001 1.041242e-004 1.259346e+001 9.595219e-005 1.434230e+001 9.977279e-001 -1.514313e+000
33898320 1.000246e+000 -3.539883e-001 1.195611e-004 -2.217422e+001 1.315276e-004 1.053847e+002 9.990867e-001 -1.520191e+000
34198305 1.000050e+000 -4.076739e-001 8.309613e-005 -1.166424e+001 2.001683e-004 -1.074809e+002 9.969230e-001 -1.527691e+000
34498290 9.995234e-001 -3.489410e-001 4.893211e-005 1.394649e+002 1.173595e-004 5.890393e+001 9.979151e-001 -1.553534e+000
34798275 9.999483e-001 -4.001611e-001 1.313038e-004 5.955928e+001 2.421239e-004 -9.753443e+001 9.982695e-001 -1.565092e+000
35098260 1.000695e+000 -3.991247e-001 4.071842e-005 -8.322513e+000 1.128673e-004 7.816427e+001 9.991168e-001 -1.555594e+000
35398245 1.001384e+000 -4.176095e-001 1.358253e-004 5.091850e+000 4.295475e-005 -1.450720e+002 9.995635e-001 -1.552907e+000
35698230 1.000362e+000 -3.797682e-001 4.182522e-005 1.558091e+002 2.003808e-004 -1.710406e+001 9.999210e-001 -1.562565e+000
35998215 1.000461e+000 -3.650249e-001 4.517684e-005 1.275169e+002 1.379409e-004 -1.743313e+002 9.992263e-001 -1.618986e+000
36298200 1.000446e+000 -3.883905e-001 9.702352e-005 5.866710e+001 1.975793e-004 1.466266e+001 9.992263e-001 -1.671645e+000
36598185 1.000818e+000 -4.223705e-001 1.154743e-004 6.139663e+001 2.247951e-004 1.411337e+002 9.983028e-001 -1.660483e+000
36898170 1.000269e+000 -3.654428e-001 1.037993e-004 -1.282122e+002 6.042721e-005 -5.211617e+001 9.987133e-001 -1.671853e+000
37198155 1.000728e+000 -4.077604e-001 7.598502e-005 -1.136400e+002 2.311608e-004 1.516178e+002 9.993089e-001 -1.629513e+000
37498140 1.000524e+000 -4.079770e-001 1.098745e-004 -6.652127e+001 7.145335e-005 -2.967747e+001 9.988552e-001 -1.621856e+000
37798125 1.000186e+000 -3.765143e-001 1.044578e-004 -3.518046e+001 1.958463e-004 3.918563e+001 9.991246e-001 -1.704438e+000
38098110 9.999708e-001 -3.588694e-001 2.439869e-005 7.009723e+001 1.663613e-004 1.795291e+002 9.986192e-001 -1.692133e+000
38398095 9.998890e-001 -3.791533e-001 5.540865e-005 -3.987821e+001 1.379484e-004 8.704739e+001 9.981002e-001 -1.768279e+000
38698080 9.999000e-001 -4.053650e-001 3.851493e-005 -1.755952e+001 1.559785e-004 -1.691037e+002 9.980949e-001 -1.763793e+000
38998065 9.997022e-001 -3.969836e-001 9.083930e-005 -4.533464e+001 1.467260e-004 2.346021e+001 9.981244e-001 -1.680500e+000
39298050 1.000798e+000 -4.180396e-001 4.901144e-005 -1.718504e+002 2.171130e-004 1.423715e+002 9.979655e-001 -1.704048e+000
39598035 1.000306e+000 -3.471557e-001 1.118766e-004 1.734768e+002 2.082143e-004 -8.392626e+000 1.000007e+000 -1.704567e+000
39898020 1.001444e+000 -3.582686e-001 7.221703e-005 -1.434111e+002 2.369374e-004 7.891933e+001 9.999511e-001 -1.627397e+000
40198005 1.000259e+000 -3.877677e-001 2.642706e-004 1.358162e+002 2.723201e-004 1.530467e+002 1.001087e+000 -1.942504e+000
40497990 1.000942e+000 -3.846212e-001 1.063525e-004 1.656445e+002 3.059771e-004 -1.421760e+002 1.000084e+000 -1.847531e+000
40797975 1.001367e+000 -3.892722e-001 9.249271e-005 -1.192990e+001 4.707085e-005 1.660568e+002 9.986650e-001 -1.892029e+000
41097960 1.000110e+000 -4.136243e-001 9.034923e-005 9.106842e+001 4.819725e-005 1.729384e+002 1.001249e+000 -1.719022e+000
41397945 9.998954e-001 -3.766462e-001 1.683098e-004 -1.203936e+002 2.404137e-004 9.418444e+001 1.000404e+000 -1.752241e+000
41697930 9.998109e-001 -3.473572e-001 1.700188e-004 1.074810e+002 1.583088e-004 5.624249e+001 1.000240e+000 -1.834481e+000
41997915 1.000128e+000 -3.479206e-001 1.902201e-004 1.985727e+001 2.009584e-004 3.378025e+000 1.000150e+000 -1.779505e+000
42297900 9.992621e-001 -4.144298e-001 2.507470e-004 8.868604e+001 1.557171e-004 2.677478e+001 9.994236e-001 -1.789451e+000
42597885 1.000492e+000 -3.940550e-001 1.129756e-004 1.059394e+002 1.039277e-004 -1.148644e+002 1.000776e+000 -1.876327e+000
42897870 1.000944e+000 -3.937959e-001 1.381239e-004 4.205680e+001 1.667634e-004 1.348945e+002 9.994011e-001 -1.876863e+000
43197855 1.001050e+000 -4.382296e-001 7.166192e-005 -5.726191e+000 2.657347e-004 -6.673871e+001 1.000022e+000 -2.068496e+000
43497840 1.001205e+000 -4.658192e-001 1.239150e-004 -2.364975e+001 2.193379e-004 1.663289e+002 9.989444e-001 -1.900500e+000
43797825 1.000564e+000 -4.474440e-001 1.683314e-004 -1.600263e+002 5.991272e-004 -1.319256e+002 9.979182e-001 -1.984807e+000
44097810 1.000874e+000 -3.700666e-001 4.106615e-005 -1.066824e+002 2.301167e-004 1.463238e+002 1.001027e+000 -1.999531e+000
44397795 1.001031e+000 -4.451089e-001 1.436010e-004 -7.395612e+001 3.518805e-004 1.133653e+002 1.000045e+000 -2.031639e+000
44697780 1.001712e+000 -4.070282e-001 2.114855e-005 -1.199358e+001 2.785454e-004 -1.165237e+002 9.996376e-001 -1.994784e+000
44997765 1.001862e+000 -4.673884e-001 1.081006e-004 -1.427376e+002 1.761516e-004 1.330645e+002 1.000233e+000 -2.081224e+000
45297750 1.002271e+000 -4.882158e-001 1.330446e-004 -1.443883e+002 3.292387e-004 6.615436e+001 1.001561e+000 -2.015950e+000
45597735 1.002198e+000 -5.000266e-001 2.322229e-004 -3.649119e+000 1.975985e-004 3.521900e+001 1.001552e+000 -2.046381e+000
45897720 1.000099e+000 -4.764604e-001 1.135776e-004 1.589301e+002 2.876994e-005 1.615821e+002 1.000648e+000 -2.064430e+000
46197705 1.000347e+000 -4.958976e-001 6.179730e-005 -1.638595e+002 3.924704e-004 -1.058375e+002 1.000471e+000 -2.098794e+000
46497690 1.000274e+000 -4.346027e-001 9.290504e-005 -1.723027e+002 1.768128e-004 -1.254748e+002 9.997693e-001 -2.160629e+000
46797675 1.001755e+000 -4.362476e-001 4.739154e-005 -1.049608e+002 2.358624e-004 4.217110e+001 9.991437e-001 -2.138749e+000
47097660 1.001285e+000 -4.887395e-001 7.435198e-005 -1.540743e+002 6.321973e-005 -2.295595e+001 1.000563e+000 -2.156675e+000
