!Agilent Technologies,N5230C,SG49000117,A.08.50.07
!Agilent N5230C: A.08.50.07
!Date: Thursday, May 16, 2024 19:22:39
!Correction: S11(Full 2 Port(1,2)) 
!S21(Full 2 Port(1,2)) 
!S12(Full 2 Port(1,2)) 
!S22(Full 2 Port(1,2)) 
!S2P File: Measurements: S11, S21, S12, S22:
# Hz S  MA   R 50
300000 1.003954e+000 -6.890693e-001 2.918078e-004 -4.725452e+001 1.540291e-004 1.015246e+002 1.011921e+000 -7.513021e-001
599985 9.833276e-001 3.309822e-001 6.059488e-005 -1.058678e+002 4.165741e-004 -1.175940e+002 9.644610e-001 2.212906e-001
899970 9.980158e-001 -9.490184e-002 4.796798e-005 1.467639e+002 2.770031e-004 -6.815842e+001 9.842510e-001 -4.265266e-001
1199955 9.978060e-001 -7.917087e-002 1.813473e-005 4.511385e+001 1.434761e-004 1.270369e+002 9.949744e-001 -2.542632e-001
1499940 9.937693e-001 1.458554e-001 7.035128e-005 -5.116862e+001 2.579867e-004 5.209599e+001 9.920978e-001 5.173558e-002
1799925 9.919174e-001 2.289273e-001 8.804004e-005 -1.668319e+002 2.136052e-004 1.182917e+002 9.907362e-001 -4.084859e-002
2099910 9.990799e-001 -2.034606e-002 5.580691e-005 -1.295669e+002 9.065471e-005 -1.402100e+002 9.987503e-001 -6.376817e-002
2399895 9.990802e-001 -1.560707e-001 7.392128e-005 5.525269e+001 2.404597e-004 1.368130e+002 1.003705e+000 -1.734525e-001
2699880 9.993838e-001 -2.626074e-001 4.958777e-005 1.325252e+002 3.436506e-004 -7.959992e+001 9.949061e-001 -3.600976e-001
2999865 9.999173e-001 -1.830400e-001 7.424758e-005 1.733305e+002 1.408073e-004 8.661366e+001 9.978979e-001 -3.041508e-001
3299850 1.000360e+000 -1.062968e-001 5.409634e-005 -1.548183e+002 2.195617e-004 1.345458e+001 9.985183e-001 -3.213226e-001
3599835 1.000358e+000 -1.185943e-001 6.679515e-005 6.792020e+001 3.693188e-005 7.546166e+001 9.979427e-001 -3.072240e-001
3899820 9.994478e-001 -1.468107e-001 3.184435e-005 5.515945e+001 8.881590e-005 -6.025802e+001 9.981085e-001 -3.031711e-001
4199805 1.000449e+000 -1.960427e-001 8.641377e-005 -1.370319e+002 4.607635e-005 -4.436755e+001 9.996362e-001 -3.860069e-001
4499790 1.000119e+000 -1.465178e-001 5.246720e-005 -1.775514e+002 1.805900e-004 -7.902068e+001 1.000382e+000 -4.125521e-001
4799775 1.000631e+000 -1.425815e-001 6.430190e-005 -6.077391e+001 8.353381e-005 1.102673e+002 9.999104e-001 -3.880986e-001
5099760 1.000931e+000 -1.285093e-001 2.125726e-005 1.596380e+002 5.862356e-005 1.965041e+001 9.999771e-001 -3.840756e-001
5399745 1.000736e+000 -1.597217e-001 6.650805e-005 -7.189726e+001 8.487915e-005 8.428259e+001 9.988981e-001 -3.639956e-001
5699730 1.000262e+000 -1.183092e-001 8.861590e-005 -1.003510e+002 3.228752e-005 1.199448e+002 1.000882e+000 -3.363563e-001
5999715 9.995355e-001 -9.807277e-002 4.067476e-005 -5.469001e+001 8.361715e-005 -9.693937e+001 9.995294e-001 -3.252703e-001
6299700 1.000129e+000 -1.446732e-001 3.316227e-005 1.496457e+002 1.591233e-004 -9.357973e+001 9.997705e-001 -4.014517e-001
6599685 9.996974e-001 -1.178230e-001 1.265641e-004 -2.527625e+000 1.205463e-004 -1.193638e+002 9.999607e-001 -4.470046e-001
6899670 1.000008e+000 -1.314255e-001 9.420219e-005 -2.451498e+001 3.991072e-005 -1.369299e+002 1.000597e+000 -4.468596e-001
7199655 1.000051e+000 -1.441872e-001 7.020166e-005 -9.777023e+001 1.507008e-004 -3.106260e+001 9.989445e-001 -4.831850e-001
7499640 1.000151e+000 -1.777638e-001 8.153934e-005 -1.323389e+002 8.475012e-005 -1.631468e+002 9.998231e-001 -5.857419e-001
7799625 1.000396e+000 -1.536832e-001 6.419259e-005 1.149357e+002 7.219897e-005 1.954975e+001 9.989170e-001 -4.405616e-001
8099610 1.000149e+000 -1.283905e-001 6.049738e-005 4.666563e+001 1.005653e-004 -1.310046e+002 9.991863e-001 -5.278395e-001
8399595 1.000085e+000 -1.329010e-001 7.022099e-005 -3.704650e+001 6.719767e-005 8.410947e+001 9.984820e-001 -5.486543e-001
8699580 1.000213e+000 -1.552056e-001 7.931331e-005 9.958717e+001 7.122598e-005 -1.439630e+002 9.989770e-001 -5.842839e-001
8999565 9.999183e-001 -1.293495e-001 2.728210e-005 -6.575677e+001 1.222755e-004 1.226309e+002 9.984081e-001 -5.974682e-001
9299550 9.999110e-001 -1.640848e-001 8.680911e-005 -1.658027e+002 2.565231e-005 -3.710110e+001 9.976975e-001 -5.341347e-001
9599535 9.999934e-001 -2.003792e-001 9.106708e-005 1.645187e+002 1.640522e-004 6.937005e+001 9.973447e-001 -6.281607e-001
9899520 1.000396e+000 -2.307169e-001 4.934537e-005 1.331676e+002 5.591327e-005 -8.264848e+001 9.962617e-001 -8.085703e-001
10199505 9.999705e-001 -1.373595e-001 7.704700e-005 1.120331e+002 1.212755e-004 1.319383e+002 9.988052e-001 -6.124502e-001
10499490 9.995995e-001 -1.563313e-001 3.772189e-005 1.454582e+002 3.050568e-005 -5.814907e+001 9.989493e-001 -6.181208e-001
10799475 9.997243e-001 -1.249501e-001 4.359883e-005 1.350419e+002 1.609564e-004 -5.476411e+001 9.980567e-001 -5.025539e-001
11099460 1.000142e+000 -1.489551e-001 7.025643e-005 -6.676730e+001 1.114262e-004 -1.272746e+002 9.989129e-001 -6.023777e-001
11399445 1.000130e+000 -1.448172e-001 2.115826e-005 8.882069e+001 2.550610e-004 6.516341e+001 9.981152e-001 -5.846982e-001
11699430 1.000139e+000 -1.506340e-001 1.299769e-005 -5.122873e+000 4.030445e-005 -1.196455e+002 9.990550e-001 -6.816157e-001
11999415 1.000358e+000 -1.665605e-001 4.367193e-005 1.425774e+002 2.379898e-004 -1.300249e+000 9.998659e-001 -6.881832e-001
12299400 1.000133e+000 -1.577388e-001 7.269459e-005 1.261402e+001 1.696537e-004 1.745739e+002 1.000577e+000 -5.900099e-001
12599385 1.000502e+000 -1.789815e-001 4.215769e-005 -3.019282e+001 7.861500e-005 1.776494e+002 9.993064e-001 -6.996824e-001
12899370 1.000524e+000 -2.011785e-001 8.226137e-005 1.134705e+002 1.306130e-004 -3.945606e+001 9.983132e-001 -8.753163e-001
13199355 1.000119e+000 -1.703264e-001 3.957565e-005 1.058472e+002 1.313383e-004 -1.388019e+002 9.981872e-001 -7.335645e-001
13499340 1.000191e+000 -1.920043e-001 4.467018e-005 1.705494e+002 3.057857e-004 -4.195200e+001 9.973769e-001 -7.410067e-001
13799325 1.000296e+000 -2.308027e-001 9.080966e-005 1.635691e+002 1.121482e-004 1.669472e+002 9.973493e-001 -7.309510e-001
14099310 1.000249e+000 -1.809190e-001 6.048237e-005 -1.231605e+002 2.510422e-004 -1.789051e+001 9.988428e-001 -7.837358e-001
14399295 1.000377e+000 -1.619958e-001 6.464363e-005 8.034220e+000 3.305775e-005 -1.204231e+002 1.000248e+000 -7.118343e-001
14699280 1.000408e+000 -1.990724e-001 6.139593e-005 -1.206679e+002 8.217840e-005 -1.174103e+002 9.988886e-001 -8.084067e-001
14999265 1.000243e+000 -2.038533e-001 1.277212e-004 -9.144076e+001 3.135701e-004 1.154924e+002 9.991844e-001 -7.627628e-001
15299250 9.997084e-001 -2.063060e-001 7.063058e-005 7.521680e+001 5.510433e-005 -7.925427e+001 9.988352e-001 -8.300242e-001
15599235 1.000240e+000 -2.040276e-001 6.309878e-005 9.794347e+001 5.317056e-005 -1.691686e+002 9.985695e-001 -8.727261e-001
15899220 9.997849e-001 -2.090257e-001 5.242613e-005 6.643657e+001 2.628575e-004 -9.302886e+001 1.000013e+000 -7.762542e-001
16199205 1.001281e+000 -1.860469e-001 4.833739e-005 1.352559e+001 1.403579e-004 5.075893e+001 1.000357e+000 -7.923666e-001
16499190 1.000530e+000 -1.904905e-001 1.602847e-004 -9.879758e+001 5.585236e-005 -7.333070e+001 9.996769e-001 -8.950770e-001
16799175 9.996741e-001 -1.445423e-001 4.318086e-005 -6.663624e+001 2.009242e-004 1.102648e+002 1.000631e+000 -8.731861e-001
17099160 1.000103e+000 -1.963273e-001 1.399644e-004 7.610815e+001 2.649779e-004 -1.681685e+002 9.997783e-001 -8.403343e-001
17399145 1.000064e+000 -2.296800e-001 2.193023e-005 1.591112e+002 1.805732e-004 5.686100e+000 1.000942e+000 -7.885708e-001
17699130 1.000309e+000 -2.324446e-001 1.208980e-005 -1.024281e+002 2.535025e-004 1.523280e+002 9.995461e-001 -9.220027e-001
17999115 9.997996e-001 -1.982060e-001 1.006471e-006 7.904174e+001 1.434687e-004 -7.746656e+000 9.998949e-001 -9.436294e-001
18299100 1.000084e+000 -1.628417e-001 2.591757e-005 -3.860232e+001 2.498816e-004 1.789070e+002 9.993525e-001 -9.485868e-001
18599085 1.000071e+000 -2.342701e-001 1.502063e-004 -7.653768e+001 2.113355e-004 -3.138668e+001 9.980171e-001 -9.757373e-001
18899070 1.000510e+000 -2.559931e-001 3.556088e-005 -6.456043e+000 3.488659e-004 1.032099e+002 9.987567e-001 -9.256719e-001
19199055 1.000218e+000 -2.224244e-001 9.046731e-005 5.295832e+001 4.239875e-004 -1.437898e+002 9.988386e-001 -9.297579e-001
19499040 1.000624e+000 -2.368429e-001 9.760548e-005 1.023532e+002 8.831096e-005 -2.213905e+001 9.986075e-001 -9.284048e-001
19799025 1.001220e+000 -2.232519e-001 5.386585e-005 9.531425e+001 9.896768e-005 -8.529807e+001 9.978812e-001 -9.331263e-001
20099010 1.000073e+000 -2.302023e-001 5.856331e-005 -1.491487e+002 6.178762e-005 7.865482e+001 9.972299e-001 -1.065023e+000
20398995 1.000082e+000 -2.173543e-001 5.072064e-005 -1.749888e+002 8.745529e-005 -1.428856e+002 9.983736e-001 -1.031642e+000
20698980 9.992644e-001 -2.437835e-001 1.060659e-004 -1.430143e+002 1.298411e-004 -7.314854e+000 9.981435e-001 -1.014700e+000
20998965 1.000216e+000 -1.871457e-001 6.829356e-005 -7.353708e+001 2.393463e-004 1.672656e+002 9.978560e-001 -9.590922e-001
21298950 9.996819e-001 -2.247993e-001 4.929743e-005 1.966799e+001 1.386723e-004 -2.234560e+001 9.993513e-001 -1.000118e+000
21598935 9.990389e-001 -2.766530e-001 1.789627e-005 1.497468e+002 4.476883e-004 9.706728e+001 9.993468e-001 -9.560103e-001
21898920 1.000064e+000 -3.003755e-001 2.324405e-005 -9.036148e+001 8.078796e-005 -1.059629e+002 9.977698e-001 -1.094736e+000
22198905 9.994037e-001 -2.083896e-001 6.084292e-005 2.756698e+001 2.123128e-004 -1.922788e+000 9.980428e-001 -1.037956e+000
22498890 1.000336e+000 -2.176989e-001 6.603690e-005 1.791748e+002 5.282299e-005 -8.386040e+001 1.000479e+000 -1.046678e+000
22798875 1.000888e+000 -2.365467e-001 3.969411e-005 -1.732752e+002 3.070660e-004 -2.360752e+001 1.000157e+000 -1.138926e+000
23098860 1.000483e+000 -2.458434e-001 6.170227e-005 1.759780e+002 9.811758e-005 1.632056e+002 9.982319e-001 -1.156373e+000
23398845 1.000756e+000 -2.404545e-001 1.853667e-005 -6.600374e+001 2.837923e-004 -4.303618e+001 9.995367e-001 -1.173095e+000
23698830 1.000440e+000 -2.252203e-001 7.862214e-005 8.850307e+001 3.024155e-004 1.528720e+002 9.986976e-001 -1.231928e+000
23998815 9.996999e-001 -2.805091e-001 1.228251e-004 1.674077e+002 1.601872e-004 8.784007e+001 9.979759e-001 -1.149299e+000
24298800 1.000272e+000 -3.146756e-001 1.393962e-004 -8.087635e+001 2.297078e-004 1.119450e+002 9.978564e-001 -1.105541e+000
24598785 1.000494e+000 -2.619649e-001 1.079991e-004 1.475244e+001 4.463507e-004 -5.908200e+001 9.988952e-001 -1.162583e+000
24898770 1.000443e+000 -2.799107e-001 2.624903e-005 -1.351803e+001 1.878378e-004 8.749218e+001 9.993024e-001 -1.181088e+000
25198755 9.999445e-001 -2.812520e-001 2.995560e-005 -1.648965e+002 2.245729e-004 -1.767574e+002 9.995470e-001 -1.254542e+000
25498740 9.999567e-001 -2.856080e-001 8.577642e-005 -8.384126e+001 1.381388e-004 -2.046921e+001 9.981859e-001 -1.260254e+000
25798725 9.996350e-001 -2.687271e-001 3.783111e-005 -1.206593e+002 1.309738e-004 3.632099e+001 9.984692e-001 -1.276294e+000
26098710 1.000716e+000 -2.892391e-001 2.653705e-005 -1.793146e+002 1.897956e-004 -1.612629e+002 9.992390e-001 -1.306219e+000
26398695 1.001194e+000 -2.370808e-001 1.652955e-005 1.760677e+002 1.083593e-004 1.563339e+002 1.000394e+000 -1.275833e+000
26698680 1.001247e+000 -2.622575e-001 4.374190e-005 4.721555e+001 2.329174e-004 -6.100866e+001 1.000201e+000 -1.285581e+000
26998665 1.001219e+000 -2.781584e-001 5.889108e-005 7.145629e+001 1.505089e-004 1.317787e+002 9.996349e-001 -1.291394e+000
27298650 1.000478e+000 -2.832162e-001 9.125812e-005 -4.833988e+001 1.768431e-004 -4.403257e+001 9.980121e-001 -1.361111e+000
27598635 1.001223e+000 -2.456926e-001 3.795289e-005 -1.160763e+002 1.411555e-004 7.248708e+001 1.000262e+000 -1.337151e+000
27898620 9.997659e-001 -2.748606e-001 6.421628e-005 1.769446e+001 1.595358e-004 -1.409603e+002 9.997289e-001 -1.336097e+000
28198605 1.000299e+000 -2.853524e-001 7.628927e-005 -1.347237e+002 2.564773e-004 9.510526e+001 9.981263e-001 -1.401783e+000
28498590 1.000362e+000 -2.992709e-001 4.824962e-005 -1.408849e+002 2.067234e-004 -1.420432e+002 9.998503e-001 -1.416459e+000
28798575 1.000007e+000 -3.743698e-001 5.940948e-005 1.750554e+001 1.990416e-004 -1.246165e+001 9.977766e-001 -1.480287e+000
29098560 1.000008e+000 -3.296027e-001 1.006064e-004 -7.562330e+001 8.616789e-005 -8.625568e+001 9.986046e-001 -1.431860e+000
29398545 9.994367e-001 -3.114324e-001 7.919760e-005 1.466239e+002 1.691032e-004 6.295567e+000 9.996800e-001 -1.371305e+000
29698530 9.999635e-001 -2.817504e-001 9.055684e-005 1.639962e+001 1.505376e-004 1.042016e+002 1.000311e+000 -1.410192e+000
29998515 9.998387e-001 -3.208136e-001 6.832779e-005 -1.542309e+002 3.220613e-004 -1.255043e+001 1.000640e+000 -1.462781e+000
30298500 9.995330e-001 -3.520354e-001 6.009262e-005 -1.480554e+002 2.219509e-004 1.316699e+002 1.000144e+000 -1.528120e+000
30598485 1.000355e+000 -3.159613e-001 4.628557e-005 7.334632e+001 1.860810e-004 -1.179063e+002 9.999188e-001 -1.455937e+000
30898470 1.000531e+000 -3.173852e-001 2.966539e-005 -1.384892e+002 1.200967e-004 6.709819e+001 9.977688e-001 -1.516678e+000
31198455 1.000445e+000 -2.810902e-001 7.127285e-005 1.119331e+002 1.135692e-004 -1.580695e+002 9.984723e-001 -1.498608e+000
31498440 1.000489e+000 -3.458362e-001 8.159725e-005 1.788468e+002 1.509627e-004 -1.062192e+001 9.986321e-001 -1.479351e+000
31798425 9.998575e-001 -3.600801e-001 4.140056e-005 -1.418331e+002 2.984671e-004 1.702690e+002 9.982111e-001 -1.502595e+000
32098410 1.000592e+000 -3.741121e-001 1.096638e-004 9.062373e+001 1.570969e-004 -1.495669e+002 9.996346e-001 -1.513773e+000
32398395 1.000057e+000 -3.471642e-001 8.469487e-005 -2.749129e+001 1.538794e-004 1.056638e+002 1.000875e+000 -1.506439e+000
32698380 1.001508e+000 -3.381593e-001 1.169691e-005 -1.311445e+002 1.546082e-004 -1.859031e+001 9.998457e-001 -1.599442e+000
32998365 1.000590e+000 -3.315634e-001 1.853790e-005 2.000889e+001 1.416955e-004 1.685993e+002 9.990900e-001 -1.628528e+000
33298350 9.997312e-001 -3.517363e-001 3.901094e-005 4.116689e+000 5.590361e-005 -4.514125e+000 9.989408e-001 -1.556725e+000
33598335 1.000130e+000 -3.425464e-001 3.651880e-005 -1.463282e+002 2.192020e-004 9.725358e+001 9.989630e-001 -1.574526e+000
33898320 1.000263e+000 -3.841860e-001 9.459295e-005 -1.144976e+001 2.624692e-004 -1.342573e+002 9.986320e-001 -1.599730e+000
34198305 9.998295e-001 -3.728425e-001 1.541483e-004 -9.325829e+001 2.297228e-004 1.641707e+001 9.990143e-001 -1.611766e+000
34498290 1.000222e+000 -3.956853e-001 1.194845e-005 1.693853e+002 2.245355e-004 1.725943e+002 9.981185e-001 -1.607429e+000
34798275 1.000195e+000 -3.478681e-001 1.070137e-004 3.523637e+001 1.213188e-004 -5.373662e-001 9.976408e-001 -1.649002e+000
35098260 9.999719e-001 -4.100484e-001 3.987574e-005 6.047738e+001 2.374175e-004 1.638734e+002 9.990934e-001 -1.624187e+000
35398245 1.000672e+000 -3.953902e-001 1.163025e-004 -1.583401e+002 2.530422e-005 -5.811416e+000 9.997768e-001 -1.644725e+000
35698230 9.998844e-001 -4.517302e-001 1.066452e-004 1.655810e+002 2.616584e-004 1.191308e+002 1.000708e+000 -1.661056e+000
35998215 1.000293e+000 -3.950009e-001 7.019026e-005 -1.066447e+002 1.723567e-004 1.700607e+002 9.989986e-001 -1.646026e+000
36298200 9.998668e-001 -3.397422e-001 7.528999e-005 1.024111e+002 2.001146e-004 1.754425e+002 9.988962e-001 -1.757837e+000
36598185 1.000134e+000 -3.895158e-001 1.565038e-005 -9.108774e+001 1.443687e-004 -2.819205e+001 9.988520e-001 -1.772193e+000
36898170 1.000696e+000 -3.953366e-001 4.132524e-005 1.444630e+002 9.874949e-005 -1.562892e+002 9.988289e-001 -1.778513e+000
37198155 9.998862e-001 -3.937166e-001 7.026296e-005 5.043300e+001 9.353712e-005 -1.198049e+001 9.982978e-001 -1.714868e+000
37498140 1.000583e+000 -4.122438e-001 5.393960e-005 1.610002e+002 1.024605e-004 -1.619692e+002 9.988297e-001 -1.721190e+000
37798125 1.000179e+000 -3.909518e-001 4.750501e-005 3.551448e+001 1.946492e-004 -4.108132e+001 9.996220e-001 -1.779283e+000
38098110 9.999763e-001 -3.629480e-001 1.482913e-004 4.340513e+001 1.030440e-004 1.053351e+002 9.983842e-001 -1.794851e+000
38398095 9.996314e-001 -4.021662e-001 9.363230e-006 -8.513158e+001 2.115890e-004 -1.531440e+002 9.979479e-001 -1.866809e+000
38698080 9.996096e-001 -3.688837e-001 1.843521e-005 9.695201e+001 1.171865e-004 1.237662e+002 9.988032e-001 -1.866978e+000
38998065 1.000248e+000 -3.828350e-001 8.571479e-005 1.175745e+002 3.475792e-004 -1.124774e+002 9.972275e-001 -1.876639e+000
39298050 1.000595e+000 -3.951878e-001 8.642660e-005 1.334061e+002 1.661483e-004 9.758392e+001 9.982498e-001 -1.851082e+000
39598035 1.000589e+000 -3.801210e-001 9.127613e-005 -9.316158e+001 1.034657e-004 1.369171e+002 9.994605e-001 -1.808270e+000
39898020 1.001178e+000 -3.768820e-001 1.205528e-004 7.467379e+001 7.703658e-005 1.092008e+002 9.994746e-001 -1.789184e+000
40198005 9.993076e-001 -3.713827e-001 5.524395e-005 1.920308e+001 5.280511e-004 -1.140272e+001 9.990972e-001 -2.010157e+000
40497990 1.000373e+000 -4.759892e-001 1.444875e-004 -1.573356e+002 2.155981e-004 1.461122e+000 1.000101e+000 -1.899661e+000
40797975 1.000442e+000 -3.864896e-001 1.564458e-004 1.786598e+002 7.750430e-005 1.617070e+002 9.994658e-001 -1.968617e+000
41097960 9.993524e-001 -4.108090e-001 1.094528e-004 1.519055e+002 2.392100e-004 -6.572511e+001 9.989196e-001 -1.969247e+000
41397945 1.000066e+000 -4.050422e-001 2.258884e-004 -5.044215e+001 2.629824e-004 9.820891e+001 9.988199e-001 -1.952302e+000
41697930 1.000380e+000 -3.592325e-001 9.070837e-005 4.583060e+001 1.272055e-004 5.563758e+001 1.000290e+000 -1.879255e+000
41997915 9.997692e-001 -4.372401e-001 1.407115e-004 -1.589688e+002 2.140327e-004 1.661430e+002 9.993647e-001 -1.913570e+000
42297900 1.000434e+000 -4.431161e-001 7.281489e-005 9.479848e+001 1.948038e-004 1.506409e+002 9.993811e-001 -1.842071e+000
42597885 1.000052e+000 -3.850503e-001 1.210560e-004 -8.806060e+001 8.695137e-005 -3.626171e+001 9.993648e-001 -1.928543e+000
42897870 1.000249e+000 -3.833857e-001 8.220375e-005 -1.305028e+002 2.761263e-004 8.112872e+001 9.981821e-001 -2.028067e+000
43197855 9.999995e-001 -4.828628e-001 1.715415e-004 9.546244e+001 1.145015e-004 6.277860e+001 9.996539e-001 -2.113665e+000
43497840 1.001327e+000 -5.049541e-001 4.152281e-005 1.537397e+001 1.268673e-004 -4.240609e+001 9.993056e-001 -2.104011e+000
43797825 1.000823e+000 -4.474643e-001 2.710103e-005 -1.711740e+002 1.128484e-004 -3.830450e+001 1.000232e+000 -2.069502e+000
44097810 1.000607e+000 -4.522428e-001 2.280575e-004 8.707652e+001 1.156772e-004 -1.575690e+002 1.000542e+000 -2.216615e+000
44397795 1.000546e+000 -4.192590e-001 8.340908e-005 -1.973943e+000 8.342214e-005 8.255035e+001 1.000543e+000 -2.150448e+000
44697780 1.000340e+000 -4.651818e-001 1.309780e-004 -2.810918e+001 9.816024e-005 -1.061059e+002 9.998838e-001 -2.116600e+000
44997765 1.002112e+000 -4.214177e-001 8.067844e-005 2.713817e+000 2.220013e-004 1.460111e+002 1.001390e+000 -2.181497e+000
45297750 1.002019e+000 -4.914682e-001 4.899693e-005 1.637671e+002 3.503055e-004 3.984080e+001 1.000861e+000 -2.092605e+000
45597735 1.001575e+000 -4.967253e-001 5.158472e-005 -1.105901e+002 3.414497e-004 -1.217257e+002 1.001976e+000 -2.140443e+000
45897720 1.001759e+000 -4.802645e-001 1.095300e-004 7.533647e+001 2.337768e-004 7.385818e+001 1.001552e+000 -2.125233e+000
46197705 1.002320e+000 -4.881063e-001 2.367908e-004 -1.701822e+002 4.929120e-004 1.464325e+002 1.000966e+000 -2.060990e+000
46497690 1.001612e+000 -5.326797e-001 1.403653e-004 -1.576509e+002 2.344687e-004 6.977564e+001 9.996508e-001 -2.217424e+000
46797675 1.000371e+000 -4.843647e-001 5.224139e-005 -1.183295e+002 4.541953e-005 1.385306e+002 9.992526e-001 -2.228157e+000
47097660 1.001475e+000 -3.818186e-001 7.728278e-005 -1.075310e+002 3.140080e-004 5.984909e+001 9.998626e-001 -2.324451e+000
