!Agilent Technologies,N5230C,SG49000117,A.08.50.07
!Agilent N5230C: A.08.50.07
!Date: Thursday, May 16, 2024 19:28:45
!Correction: S11(Full 2 Port(1,2)) 
!S21(Full 2 Port(1,2)) 
!S12(Full 2 Port(1,2)) 
!S22(Full 2 Port(1,2)) 
!S2P File: Measurements: S11, S21, S12, S22:
# Hz S  MA   R 50
300000 1.007011e+000 -4.386317e-001 2.041833e-004 1.775290e+002 3.057295e-004 1.658109e+002 1.013254e+000 -7.920516e-001
599985 9.838786e-001 2.653879e-001 8.329764e-005 -1.489192e+002 1.866121e-004 -1.736138e+002 9.655628e-001 2.530812e-001
899970 9.971485e-001 -1.744751e-001 1.081378e-004 1.340048e+002 1.443530e-004 7.833714e+001 9.848169e-001 -4.732389e-001
1199955 9.979132e-001 -9.704916e-002 6.017627e-005 -1.613464e+001 1.859415e-004 -6.239663e+001 9.962171e-001 -2.198695e-001
1499940 9.943444e-001 1.238370e-001 1.145274e-004 1.071621e+002 4.909144e-005 3.187713e+001 9.923579e-001 4.352952e-002
1799925 9.916903e-001 2.036772e-001 1.029354e-004 1.514945e+002 2.221329e-004 2.000975e+001 9.904498e-001 -8.508305e-002
2099910 9.990668e-001 -6.804624e-003 5.528229e-005 -1.780662e+002 1.664862e-004 -2.045175e+001 9.971852e-001 -6.074844e-002
2399895 9.995249e-001 -1.370707e-001 1.008137e-004 7.779526e+001 3.237946e-004 1.714443e+002 1.003208e+000 -1.027473e-001
2699880 9.994636e-001 -2.491590e-001 2.976917e-005 -8.148643e+001 1.172922e-004 -6.327613e+000 9.951454e-001 -2.519468e-001
2999865 9.999655e-001 -1.561379e-001 5.624747e-005 9.820131e+001 1.657235e-004 -1.216468e+002 9.980226e-001 -2.467811e-001
3299850 1.000169e+000 -1.108400e-001 6.352334e-005 -1.399938e+002 2.445184e-004 -1.670772e+002 9.978163e-001 -2.801298e-001
3599835 1.000490e+000 -1.303454e-001 8.011157e-005 4.658253e+001 1.694489e-004 9.237376e+001 9.977356e-001 -2.343571e-001
3899820 9.996355e-001 -1.529059e-001 3.951840e-005 -1.058635e+002 3.455145e-006 -3.215898e+001 9.980049e-001 -2.432914e-001
4199805 1.000279e+000 -1.890608e-001 1.064426e-004 -3.406079e+001 5.006318e-005 1.040798e+002 1.000432e+000 -3.225752e-001
4499790 1.000863e+000 -1.397878e-001 2.985976e-005 -1.113845e+002 1.470036e-004 8.428067e+001 9.993302e-001 -2.832412e-001
4799775 1.000412e+000 -1.435753e-001 9.305301e-006 1.233185e+002 5.159628e-005 6.249485e+001 9.989487e-001 -3.052817e-001
5099760 1.000476e+000 -1.388036e-001 6.551841e-005 -2.799828e+000 1.551627e-004 -7.760303e+001 1.000640e+000 -2.466079e-001
5399745 1.000187e+000 -1.211393e-001 1.381500e-004 7.590630e+000 1.226008e-004 -1.366829e+002 9.993859e-001 -2.375607e-001
5699730 1.000027e+000 -1.331461e-001 1.251157e-005 -1.566562e+002 1.607212e-004 -1.531724e+002 1.000814e+000 -2.808275e-001
5999715 9.998055e-001 -9.702070e-002 7.146420e-005 -1.648015e+002 1.946695e-004 -2.021914e+001 1.000313e+000 -2.605365e-001
6299700 9.998885e-001 -1.195579e-001 3.508926e-005 -9.820639e+001 1.069421e-004 9.660223e+001 9.996294e-001 -2.571287e-001
6599685 9.996139e-001 -1.296190e-001 1.041246e-005 -1.180053e+002 2.324472e-004 -1.738024e+002 9.994628e-001 -2.906734e-001
6899670 1.000498e+000 -9.849871e-002 6.839602e-005 1.256481e+002 1.119251e-004 2.498872e+001 9.998270e-001 -3.309335e-001
7199655 1.000055e+000 -1.678795e-001 7.258234e-005 9.501537e+001 1.484075e-004 -1.606439e+002 9.991711e-001 -3.963008e-001
7499640 1.000240e+000 -1.759288e-001 6.813800e-005 1.550821e+002 2.662834e-004 -3.601381e+001 9.992496e-001 -4.383374e-001
7799625 9.999747e-001 -1.459762e-001 9.694620e-005 -1.468857e+002 1.749166e-004 1.412060e+002 9.981952e-001 -3.647760e-001
8099610 9.999557e-001 -1.527287e-001 2.802919e-005 -4.169437e+001 1.186120e-004 6.674177e+000 9.983034e-001 -3.809727e-001
8399595 9.999350e-001 -1.394189e-001 6.169600e-005 1.299628e+002 9.853982e-005 9.684200e+001 9.981782e-001 -4.081734e-001
8699580 1.000174e+000 -1.532698e-001 2.903030e-005 -1.782177e+002 7.278976e-005 1.677169e+002 9.990198e-001 -3.762048e-001
8999565 1.000222e+000 -1.269945e-001 1.027364e-004 -2.549561e+001 1.088417e-004 -1.100646e+002 9.994162e-001 -3.789639e-001
9299550 1.000459e+000 -1.429721e-001 4.383839e-005 3.419181e+000 1.218985e-004 -1.310753e+002 9.977117e-001 -3.972888e-001
9599535 9.999183e-001 -2.032581e-001 6.849845e-005 -1.439124e+002 2.032868e-004 -7.482030e+001 9.981204e-001 -5.553299e-001
9899520 9.997510e-001 -2.615548e-001 1.069258e-004 1.384846e+002 1.356730e-004 -5.311752e+001 9.970814e-001 -6.792298e-001
10199505 1.000163e+000 -1.763854e-001 6.692622e-005 -1.459366e+002 6.802668e-005 -4.007539e+001 9.985309e-001 -4.329759e-001
10499490 9.998883e-001 -1.384239e-001 6.097807e-005 -7.561143e+001 1.212426e-004 -7.442815e+001 9.988042e-001 -3.590478e-001
10799475 9.994209e-001 -1.348431e-001 2.993033e-005 -9.987358e+001 1.295574e-004 1.587831e+002 9.985954e-001 -4.131916e-001
11099460 1.000020e+000 -1.266854e-001 1.827944e-005 1.612341e+002 1.076604e-004 9.458070e+001 9.982902e-001 -4.010045e-001
11399445 9.998378e-001 -1.586951e-001 3.629388e-005 1.306411e+002 4.196363e-004 4.137820e+001 9.983601e-001 -4.095506e-001
11699430 1.000189e+000 -1.615773e-001 3.574511e-005 -1.639304e+002 1.289148e-004 2.164746e+001 9.977331e-001 -4.102233e-001
11999415 9.995299e-001 -1.704345e-001 1.010433e-004 2.715228e+001 1.902730e-004 6.633763e+000 9.989129e-001 -4.078131e-001
12299400 9.999779e-001 -1.631814e-001 6.325245e-005 -1.276960e+002 8.966337e-005 1.572723e+002 1.000554e+000 -3.592589e-001
12599385 1.000258e+000 -1.797395e-001 5.916897e-005 1.565685e+002 2.440192e-004 7.524773e+001 9.997888e-001 -5.067675e-001
12899370 1.000456e+000 -1.993445e-001 1.976717e-005 -1.042566e+002 1.110473e-004 1.736102e+002 9.984047e-001 -6.337019e-001
13199355 1.000065e+000 -1.774160e-001 9.090698e-005 6.789080e+001 1.221601e-004 -1.093641e+002 9.987650e-001 -4.458976e-001
13499340 9.992610e-001 -1.595397e-001 3.808965e-005 -3.413143e+000 1.969453e-004 3.893368e+001 9.974537e-001 -5.484250e-001
13799325 1.000484e+000 -2.272392e-001 5.739780e-005 5.543071e+001 1.596305e-004 4.977061e+001 9.969772e-001 -5.320274e-001
14099310 1.000175e+000 -1.953359e-001 7.255332e-005 -7.060662e+001 2.040789e-004 -4.496767e+001 9.989957e-001 -5.269185e-001
14399295 1.000432e+000 -2.017647e-001 7.554797e-005 1.761605e+002 2.775021e-004 -1.529764e+002 1.000088e+000 -4.822765e-001
14699280 1.000008e+000 -1.777493e-001 9.896098e-005 1.032958e+002 1.310645e-004 -6.233770e+001 9.997854e-001 -5.210895e-001
14999265 9.998012e-001 -1.667877e-001 5.645509e-005 -5.838923e+001 1.598152e-004 1.415054e+002 9.979394e-001 -5.341631e-001
15299250 9.993525e-001 -1.630122e-001 3.156606e-005 -7.079633e+001 3.907854e-004 -2.367829e+001 9.976614e-001 -5.866333e-001
15599235 1.000147e+000 -2.077997e-001 6.899899e-005 -1.371643e+002 2.966170e-004 2.855742e+001 9.991356e-001 -6.088474e-001
15899220 1.000419e+000 -1.718262e-001 6.277019e-005 -1.001919e+002 2.735494e-004 -1.651000e+002 9.999312e-001 -5.409428e-001
16199205 9.992922e-001 -1.760039e-001 9.624027e-005 1.220244e+001 2.632214e-004 -1.024314e+002 9.996755e-001 -5.544152e-001
16499190 1.000018e+000 -2.095836e-001 6.991661e-005 -1.946320e+001 1.918682e-004 1.677249e+002 1.001293e+000 -6.303601e-001
16799175 1.000537e+000 -1.986467e-001 1.904009e-005 -1.492114e+002 1.597874e-004 -4.569778e+001 1.001373e+000 -5.562301e-001
17099160 1.000175e+000 -2.064907e-001 8.043223e-005 1.226409e+002 1.778737e-004 8.670774e+001 9.989801e-001 -5.745842e-001
17399145 1.000598e+000 -2.092329e-001 1.235615e-004 -8.751179e+001 6.675077e-005 -1.116195e+002 1.000333e+000 -6.071500e-001
17699130 1.000052e+000 -2.429851e-001 1.415510e-005 -8.219888e+001 2.348665e-004 8.546175e+001 9.991561e-001 -5.826496e-001
17999115 1.000252e+000 -1.886933e-001 1.599606e-005 -1.242980e+002 2.404723e-004 1.670052e+002 9.990048e-001 -5.694014e-001
18299100 9.997860e-001 -2.079710e-001 4.824871e-005 -2.704424e+001 3.316613e-004 7.824918e+001 9.994980e-001 -6.702937e-001
18599085 9.999720e-001 -2.110053e-001 3.648845e-005 -1.694165e+002 2.702639e-004 -1.604434e+002 9.973170e-001 -6.433463e-001
18899070 1.000316e+000 -1.859077e-001 9.851629e-005 1.353147e+002 3.186960e-005 3.492407e+001 9.999354e-001 -5.727186e-001
19199055 1.000470e+000 -2.289647e-001 5.187520e-005 -2.852553e+001 1.213885e-004 1.475526e+002 9.989020e-001 -6.128659e-001
19499040 1.000540e+000 -2.195693e-001 6.627460e-005 8.711928e+001 2.033513e-004 1.686261e-001 9.983634e-001 -6.024650e-001
19799025 1.000612e+000 -2.196267e-001 1.320847e-004 -1.432550e+002 1.312067e-004 1.520990e+002 9.997441e-001 -6.400945e-001
20099010 1.000409e+000 -2.315657e-001 6.094783e-005 -3.443365e+001 1.671232e-004 -8.556376e+001 9.982935e-001 -5.733577e-001
20398995 9.995921e-001 -2.178893e-001 6.101878e-005 -7.240510e+001 2.058175e-004 1.486980e+002 9.988043e-001 -6.680707e-001
20698980 1.000012e+000 -1.967527e-001 1.285527e-004 6.487441e+001 8.119420e-005 -5.772001e+001 9.994313e-001 -6.749650e-001
20998965 9.998561e-001 -2.168989e-001 3.734626e-005 4.379479e+001 1.865508e-004 6.877209e+001 9.984185e-001 -7.204378e-001
21298950 9.993896e-001 -2.051113e-001 2.822581e-005 -8.673981e+001 1.316790e-004 -8.365440e+001 9.982429e-001 -5.942484e-001
21598935 9.993382e-001 -2.466885e-001 2.690970e-005 -6.688140e+001 2.997383e-004 1.454205e+000 9.980469e-001 -6.236770e-001
21898920 9.992909e-001 -2.560294e-001 6.627976e-005 1.209870e+001 1.947242e-004 1.799930e+002 9.978330e-001 -6.638129e-001
22198905 1.000131e+000 -2.538818e-001 6.162094e-005 -8.677344e+001 2.244106e-004 -1.178095e+002 9.988356e-001 -7.347872e-001
22498890 1.000065e+000 -2.313781e-001 1.642079e-005 -1.588959e+002 1.289116e-004 -2.924156e+000 9.999567e-001 -6.903137e-001
22798875 1.000092e+000 -2.945837e-001 1.239112e-004 2.153849e+001 6.382608e-005 -6.787333e+000 9.993550e-001 -7.552364e-001
23098860 1.000497e+000 -2.535970e-001 3.853554e-005 4.817462e+001 3.430371e-004 -3.500888e+001 9.987663e-001 -7.508012e-001
23398845 1.000708e+000 -2.529711e-001 7.568880e-005 1.333572e+002 2.301291e-004 6.587329e+001 1.000503e+000 -7.670187e-001
23698830 1.000414e+000 -2.384976e-001 1.243073e-004 3.862249e+001 3.131704e-004 -5.482395e+001 9.985680e-001 -7.176117e-001
23998815 1.000379e+000 -2.849390e-001 3.668512e-005 -9.824572e+001 2.086089e-004 1.570030e+002 9.967733e-001 -7.106116e-001
24298800 1.000096e+000 -2.673244e-001 1.686372e-004 -1.204834e+002 2.052863e-005 2.939735e+001 9.979159e-001 -7.790497e-001
24598785 9.998035e-001 -3.349885e-001 1.035463e-004 -5.520316e+001 3.026629e-004 1.328196e+002 9.987327e-001 -7.739126e-001
24898770 9.996035e-001 -2.664545e-001 8.128719e-005 1.002097e+002 3.614024e-004 -1.521287e+002 1.000026e+000 -8.009974e-001
25198755 9.999904e-001 -2.801948e-001 9.788712e-005 -1.359330e+002 6.121206e-005 -8.000875e+001 9.991775e-001 -8.004430e-001
25498740 1.000320e+000 -2.995089e-001 8.015014e-005 -6.699073e+001 1.700270e-004 1.678563e+002 9.982283e-001 -7.672355e-001
25798725 1.000160e+000 -3.210944e-001 7.695146e-005 1.473186e+002 1.173573e-004 1.638689e+002 9.995434e-001 -8.897512e-001
26098710 1.000321e+000 -2.752778e-001 1.103527e-004 1.146131e+002 4.459381e-004 1.388094e+002 9.998010e-001 -8.571458e-001
26398695 1.000275e+000 -2.334808e-001 3.229287e-006 1.256557e+002 3.142577e-004 4.194146e+001 9.995737e-001 -8.285609e-001
26698680 1.000568e+000 -2.819957e-001 3.102678e-005 -4.961486e+001 1.951083e-004 1.201936e+002 9.991378e-001 -7.939613e-001
26998665 1.000596e+000 -2.696991e-001 1.441925e-005 -6.837147e+001 1.500940e-004 -4.245221e+001 9.983833e-001 -8.887171e-001
27298650 1.000179e+000 -2.843184e-001 1.175424e-004 -1.401692e+002 1.350063e-004 5.369512e+001 9.982584e-001 -8.967981e-001
27598635 1.000129e+000 -2.771099e-001 6.926200e-005 -6.795871e+001 1.423949e-004 1.779377e+002 9.997560e-001 -8.719242e-001
27898620 9.999710e-001 -2.758479e-001 2.508821e-005 7.919096e+001 8.574186e-005 1.129473e+002 1.000048e+000 -9.090137e-001
28198605 1.000160e+000 -2.732817e-001 2.153961e-005 4.409464e+001 1.868461e-004 1.597568e+002 9.986639e-001 -9.124669e-001
28498590 1.000010e+000 -3.007151e-001 1.205988e-004 -9.689092e+001 3.348623e-004 3.248140e+001 1.000134e+000 -9.378499e-001
28798575 9.998457e-001 -3.572856e-001 1.859285e-005 2.173396e+001 2.107240e-004 -1.213193e+002 9.977932e-001 -9.090183e-001
29098560 1.000478e+000 -3.237506e-001 1.746181e-004 -6.816249e+001 1.668497e-004 -4.999560e+001 9.986916e-001 -8.413350e-001
29398545 1.000020e+000 -2.734367e-001 9.399460e-005 -2.097235e+001 1.060085e-004 -8.293820e+001 9.997247e-001 -9.363062e-001
29698530 1.000432e+000 -3.355915e-001 1.341196e-004 -1.103784e+002 1.196832e-004 -6.198785e+001 9.994450e-001 -8.506348e-001
29998515 1.000240e+000 -2.992409e-001 6.888573e-005 -1.022227e+002 1.631499e-004 1.222880e+002 9.998319e-001 -9.705467e-001
30298500 1.000660e+000 -2.982116e-001 9.274622e-005 2.417348e+001 2.478199e-004 -1.460660e+002 1.000203e+000 -1.030443e+000
30598485 9.999636e-001 -3.054202e-001 9.588557e-005 -1.547286e+002 1.151853e-004 1.191843e+002 9.993849e-001 -9.340011e-001
30898470 9.997129e-001 -2.898627e-001 6.081026e-005 1.124288e+002 8.146923e-005 -1.500908e+002 9.985771e-001 -9.396662e-001
31198455 1.000762e+000 -2.895732e-001 6.615823e-006 -8.109170e+000 7.770440e-005 -6.396957e+001 9.983465e-001 -9.399897e-001
31498440 1.000548e+000 -3.215787e-001 7.495902e-005 -7.957955e+001 2.050630e-004 8.205605e+001 9.995438e-001 -9.759266e-001
31798425 1.000602e+000 -3.578410e-001 6.421821e-005 3.661501e+001 1.683506e-004 -4.634715e+001 9.992418e-001 -1.027264e+000
32098410 1.000496e+000 -4.283634e-001 4.858642e-005 9.952415e+001 9.483850e-005 2.637661e+001 9.994880e-001 -9.670542e-001
32398395 1.001047e+000 -3.646707e-001 2.749398e-005 -2.511623e+000 9.025082e-005 -1.765768e+002 9.992753e-001 -9.702612e-001
32698380 1.000729e+000 -3.209880e-001 9.245301e-005 1.251306e+002 9.764401e-005 5.321213e+001 9.992180e-001 -9.472852e-001
32998365 1.000889e+000 -3.560711e-001 1.236211e-004 6.001670e+001 1.007324e-004 1.020501e+002 1.000325e+000 -1.032749e+000
33298350 1.001184e+000 -3.254609e-001 2.133596e-005 7.001089e+001 8.993507e-005 4.344975e+001 9.989557e-001 -1.048343e+000
33598335 9.998991e-001 -3.523214e-001 1.046927e-004 -1.582467e+002 1.345384e-004 1.445439e+002 9.986285e-001 -9.778673e-001
33898320 1.000180e+000 -3.508125e-001 1.159013e-004 -2.988775e+001 8.600840e-005 -3.274293e+001 9.990356e-001 -1.044797e+000
34198305 9.998832e-001 -3.969060e-001 6.453018e-005 -1.442932e+002 2.545773e-004 1.092021e+002 9.978657e-001 -1.024639e+000
34498290 9.993315e-001 -3.850942e-001 7.676458e-005 8.428481e+001 5.181560e-005 1.490999e+001 9.986821e-001 -1.015697e+000
34798275 9.996097e-001 -3.794022e-001 4.300002e-005 7.055150e+000 2.480698e-004 9.363798e+001 9.968736e-001 -1.055820e+000
35098260 1.000459e+000 -4.146775e-001 4.996149e-005 1.740118e+002 1.178795e-004 1.387171e+002 9.993967e-001 -1.025578e+000
35398245 9.997664e-001 -4.404313e-001 3.615110e-005 8.619409e+001 2.764028e-004 2.655659e+001 9.994801e-001 -1.037953e+000
35698230 9.995392e-001 -3.969662e-001 5.994267e-005 -4.201011e+001 1.585686e-004 1.577431e+002 1.000005e+000 -1.044977e+000
35998215 1.000260e+000 -4.165788e-001 1.036227e-004 -1.654051e+002 7.899115e-005 3.733171e+001 1.000132e+000 -1.081846e+000
36298200 1.000135e+000 -3.861271e-001 1.006029e-004 1.410225e+002 1.295068e-004 1.034632e+002 9.989626e-001 -1.134737e+000
36598185 1.001192e+000 -4.465850e-001 9.231480e-005 4.298019e+001 2.137934e-004 -7.939468e+001 9.979359e-001 -1.138662e+000
36898170 1.000723e+000 -4.038688e-001 2.233829e-005 6.837447e+001 2.096880e-004 5.664651e+001 9.985378e-001 -1.108878e+000
37198155 1.000799e+000 -3.792544e-001 3.446007e-005 -9.221118e+001 2.232671e-004 -1.475491e+002 9.993783e-001 -1.106999e+000
37498140 1.000410e+000 -3.799408e-001 4.684318e-005 2.621142e+001 1.823206e-004 6.855025e+001 9.998778e-001 -1.091097e+000
37798125 9.999108e-001 -3.780075e-001 6.125699e-005 7.175040e+001 5.855901e-005 -3.893210e+001 9.993267e-001 -1.138639e+000
38098110 1.000136e+000 -3.811124e-001 1.077699e-004 1.551290e+002 1.019604e-004 1.220829e+002 9.983034e-001 -1.142733e+000
38398095 1.000524e+000 -3.749021e-001 1.759916e-004 2.434781e+001 5.486594e-005 8.788110e+001 9.981385e-001 -1.257058e+000
38698080 9.997706e-001 -4.081143e-001 1.361928e-004 1.421158e+002 8.223225e-005 2.923199e+001 9.976444e-001 -1.235549e+000
38998065 1.000080e+000 -3.804808e-001 5.130851e-005 -1.644840e+002 2.040485e-004 6.291125e+001 9.988611e-001 -1.170394e+000
39298050 1.000438e+000 -4.053563e-001 8.957355e-005 -6.213522e+001 3.499301e-005 -2.610201e+001 9.985784e-001 -1.171978e+000
39598035 1.001151e+000 -3.807376e-001 1.074667e-004 3.577636e+001 2.798614e-004 7.635671e+000 9.996880e-001 -1.146158e+000
39898020 1.001582e+000 -3.601144e-001 1.422948e-004 -4.017285e+000 1.865378e-004 1.484533e+002 1.000177e+000 -1.103035e+000
40198005 1.000872e+000 -4.108829e-001 7.363877e-005 -1.498391e+002 2.247100e-004 -2.377386e+001 1.000987e+000 -1.312702e+000
40497990 1.000870e+000 -4.330489e-001 1.280618e-004 1.105944e+002 2.785378e-004 -1.388348e+002 1.000579e+000 -1.241689e+000
40797975 1.000439e+000 -4.556525e-001 4.825380e-005 1.054537e+002 3.004455e-005 1.439644e+002 9.995868e-001 -1.329027e+000
41097960 1.000087e+000 -3.847312e-001 1.391837e-004 1.149593e+002 1.431191e-004 3.529105e+001 9.993815e-001 -1.299101e+000
41397945 1.000075e+000 -3.496390e-001 1.677494e-005 1.723615e+002 2.987543e-004 -1.292025e+002 1.000334e+000 -1.211450e+000
41697930 9.994191e-001 -3.348108e-001 6.513103e-005 -2.236158e+000 2.635148e-004 1.748942e+002 9.988365e-001 -1.225206e+000
41997915 1.000708e+000 -4.207160e-001 4.750348e-005 1.184149e+002 1.944939e-004 -1.182224e+001 9.997435e-001 -1.286392e+000
42297900 1.001303e+000 -3.859601e-001 3.245461e-005 5.161866e+001 2.947227e-004 1.407778e+002 9.995829e-001 -1.191856e+000
42597885 1.000354e+000 -4.235472e-001 7.806991e-005 -1.163975e+002 1.113950e-004 1.343246e+002 1.001324e+000 -1.200272e+000
42897870 1.002018e+000 -4.593615e-001 8.290971e-005 -6.545914e+001 1.985171e-004 5.067205e+001 9.991209e-001 -1.409793e+000
43197855 1.000431e+000 -3.577353e-001 1.289109e-004 -1.122588e+001 2.044945e-004 -1.500242e+001 9.996026e-001 -1.384743e+000
43497840 1.002200e+000 -4.679208e-001 1.106546e-004 -1.595654e+002 5.711383e-005 -7.301433e+001 9.976572e-001 -1.381007e+000
43797825 1.000640e+000 -4.448644e-001 1.033963e-004 1.062334e+002 1.822473e-004 1.700664e+002 9.987823e-001 -1.429733e+000
44097810 1.000153e+000 -4.844705e-001 6.736615e-005 -5.878180e+001 2.043714e-004 -9.768562e+000 9.999853e-001 -1.371502e+000
44397795 1.000498e+000 -4.089277e-001 7.662589e-005 6.125851e+001 1.490577e-006 3.545243e+001 9.998726e-001 -1.430587e+000
44697780 1.000658e+000 -4.578308e-001 1.293326e-004 5.757187e+000 1.579988e-004 -5.488219e+001 1.000648e+000 -1.563188e+000
44997765 1.001537e+000 -4.548084e-001 1.476731e-004 4.012439e+001 1.690560e-004 1.138170e+002 1.001625e+000 -1.417757e+000
45297750 1.001194e+000 -4.731805e-001 1.215276e-004 -5.833627e+001 2.310157e-004 1.240834e+001 1.001290e+000 -1.405503e+000
45597735 1.001575e+000 -4.970265e-001 2.270937e-004 -1.429843e+002 3.480327e-004 7.989787e+001 9.998451e-001 -1.393299e+000
45897720 1.001376e+000 -5.024431e-001 1.775631e-004 1.777694e+002 2.073405e-004 -1.610785e+001 9.991039e-001 -1.439368e+000
46197705 1.001042e+000 -4.497792e-001 2.403637e-004 -1.421455e+002 4.977703e-004 -1.675128e+002 1.000426e+000 -1.412104e+000
46497690 1.001429e+000 -4.189453e-001 1.211652e-004 -9.384004e+001 1.470584e-004 1.687099e+002 1.000490e+000 -1.453804e+000
46797675 1.001402e+000 -4.695577e-001 1.360062e-004 1.424655e+002 5.819644e-004 1.040049e+002 9.994181e-001 -1.431996e+000
47097660 1.000428e+000 -4.892026e-001 6.936501e-005 -1.507371e+002 1.933135e-004 -8.402807e+001 1.000329e+000 -1.523255e+000
47397645 1.000404e+000 -4.499699e-001 1.325921e-004 4.040932e+001 7.157733e-005 8.745390e+001 9.988552e-001 -1.543747e+000
