!Agilent Technologies,N5230C,SG49000117,A.08.50.07
!Agilent N5230C: A.08.50.07
!Date: Thursday, May 16, 2024 19:28:06
!Correction: S11(Full 2 Port(1,2)) 
!S21(Full 2 Port(1,2)) 
!S12(Full 2 Port(1,2)) 
!S22(Full 2 Port(1,2)) 
!S2P File: Measurements: S11, S21, S12, S22:
# Hz S  MA   R 50
300000 1.006133e+000 -6.438381e-001 2.306457e-004 -8.361523e-001 3.375906e-004 2.110820e+001 1.012119e+000 -6.682693e-001
599985 9.831504e-001 2.902114e-001 7.052429e-005 -1.235644e+002 1.338674e-004 -1.400443e+002 9.629264e-001 3.310561e-001
899970 9.964144e-001 -1.091941e-001 3.373474e-005 -8.541375e+001 1.193255e-004 -3.116338e+001 9.850118e-001 -3.802262e-001
1199955 9.975000e-001 -8.141314e-002 3.802333e-005 5.639028e+001 2.178027e-004 1.286094e+002 9.944701e-001 -1.975121e-001
1499940 9.943258e-001 1.287954e-001 1.272146e-004 1.555620e+002 1.129206e-004 1.078867e+002 9.911792e-001 2.146329e-002
1799925 9.919849e-001 2.276521e-001 1.246491e-004 5.809482e-001 1.921322e-004 -3.301975e+001 9.893412e-001 -5.740422e-002
2099910 9.987479e-001 -3.985067e-002 4.370266e-005 1.557253e+002 1.928758e-004 -7.105099e+001 9.959831e-001 -2.300426e-002
2399895 9.994289e-001 -1.302049e-001 3.448817e-005 1.091268e+002 1.215076e-004 1.322400e+002 1.002056e+000 -1.002857e-001
2699880 1.000140e+000 -2.318440e-001 7.906740e-005 -1.061480e+002 1.579625e-004 -2.846264e+001 9.934046e-001 -2.970880e-001
2999865 9.997482e-001 -1.276844e-001 1.680641e-005 1.587545e+002 1.282021e-004 -1.154419e+002 9.975023e-001 -1.721525e-001
3299850 1.000614e+000 -1.312487e-001 3.011609e-005 1.789997e+002 7.980947e-005 -4.254594e+001 9.971204e-001 -3.018207e-001
3599835 1.000525e+000 -1.297446e-001 3.453553e-005 1.485635e+002 8.905743e-006 7.827303e+001 9.969444e-001 -2.236668e-001
3899820 9.995272e-001 -1.473401e-001 4.030943e-005 9.988207e-002 1.432370e-004 8.917043e+001 9.966990e-001 -2.631647e-001
4199805 1.000378e+000 -1.879744e-001 5.306930e-005 1.423550e+002 1.709058e-004 -1.503431e+002 9.985484e-001 -3.390641e-001
4499790 1.000327e+000 -1.644430e-001 4.127008e-005 -1.249154e+002 1.332096e-004 -1.520639e+002 9.996690e-001 -3.386272e-001
4799775 1.000641e+000 -1.515994e-001 3.377989e-005 5.190522e+000 1.395730e-004 -1.628828e+002 9.977211e-001 -3.052903e-001
5099760 1.000841e+000 -1.291805e-001 1.196047e-004 1.280595e+002 7.206228e-005 1.554555e+002 9.993106e-001 -2.446476e-001
5399745 1.000471e+000 -1.302793e-001 6.709883e-005 3.467503e+001 8.424596e-005 1.155175e+002 9.984160e-001 -2.438897e-001
5699730 1.000302e+000 -1.084439e-001 3.396285e-005 4.246229e+001 3.672711e-004 -1.320479e+002 9.989825e-001 -2.843727e-001
5999715 9.997952e-001 -1.205087e-001 6.320136e-005 1.316711e+002 1.832468e-004 7.139127e+001 9.985926e-001 -2.737243e-001
6299700 1.000185e+000 -1.009936e-001 7.794280e-005 -8.074016e+001 7.682419e-005 5.295231e+001 9.993452e-001 -2.707671e-001
6599685 9.996299e-001 -1.043949e-001 3.863882e-005 -1.407271e+002 2.305953e-004 -1.667260e+002 9.986597e-001 -3.030211e-001
6899670 9.997142e-001 -1.666324e-001 5.399014e-005 1.530374e+002 8.745845e-005 -9.375917e+000 9.995875e-001 -3.597695e-001
7199655 9.998332e-001 -1.473943e-001 5.336384e-005 1.766740e+002 4.113964e-004 -9.739194e+001 9.988753e-001 -3.862858e-001
7499640 9.999427e-001 -2.018175e-001 2.703168e-005 1.745497e+002 1.168819e-004 -4.214421e+001 9.981120e-001 -4.315502e-001
7799625 1.000237e+000 -1.596293e-001 1.944874e-005 5.529865e+001 8.215523e-005 1.022823e+002 9.972139e-001 -3.771975e-001
8099610 9.999443e-001 -1.481841e-001 3.790046e-005 -1.543606e+002 1.571649e-005 -1.708888e+002 9.983394e-001 -4.557199e-001
8399595 9.999256e-001 -1.643330e-001 1.033025e-004 -1.337080e+002 1.825535e-004 -1.581768e+002 9.983010e-001 -4.103772e-001
8699580 1.000380e+000 -1.760735e-001 5.735863e-005 7.028753e+001 1.598172e-004 -3.224726e+001 9.979302e-001 -3.951808e-001
8999565 1.000225e+000 -1.341892e-001 6.365160e-005 1.258539e+000 5.424944e-005 -9.730847e+000 9.986773e-001 -4.238088e-001
9299550 1.000387e+000 -1.608180e-001 3.322968e-005 4.081055e+001 4.676024e-005 8.833572e+001 9.983290e-001 -4.222321e-001
9599535 9.996239e-001 -2.103554e-001 1.206783e-004 1.764181e+001 2.056778e-004 9.634818e+001 9.964010e-001 -5.596668e-001
9899520 1.000098e+000 -2.291129e-001 2.275982e-005 5.785455e+001 1.959416e-005 -3.920128e+001 9.958203e-001 -6.294540e-001
10199505 1.000784e+000 -1.432203e-001 7.625673e-005 -1.227716e+002 2.899796e-005 -2.547267e+001 9.969538e-001 -4.945345e-001
10499490 9.997559e-001 -1.469394e-001 3.217766e-005 1.782803e+001 4.523922e-005 4.050665e+001 9.973128e-001 -5.335690e-001
10799475 1.000226e+000 -1.351687e-001 1.030535e-004 1.231241e+002 4.977315e-005 -8.498251e+001 9.982527e-001 -4.184413e-001
11099460 1.000203e+000 -1.431291e-001 5.028002e-005 1.221455e+002 7.142765e-005 1.279876e+002 9.978409e-001 -4.924073e-001
11399445 1.000187e+000 -1.459662e-001 8.144303e-005 1.522874e+002 1.085707e-004 7.406937e+001 9.990485e-001 -4.726811e-001
11699430 1.000290e+000 -1.655428e-001 6.752487e-005 5.838942e+001 1.538293e-004 -1.626942e+002 9.988186e-001 -4.514033e-001
11999415 1.000467e+000 -1.801714e-001 6.326560e-005 2.366897e+000 2.097198e-004 -8.436563e+001 9.990959e-001 -4.120637e-001
12299400 9.999381e-001 -1.184627e-001 4.071484e-005 9.735128e+001 6.757743e-005 7.887868e+001 9.998009e-001 -3.702529e-001
12599385 9.998089e-001 -1.387864e-001 1.428252e-004 4.605132e+001 1.504925e-004 -5.382624e+001 9.983575e-001 -5.738172e-001
12899370 1.000576e+000 -1.928196e-001 3.079110e-005 4.731400e+001 5.601390e-005 -6.776835e+001 9.976813e-001 -6.791764e-001
13199355 1.000139e+000 -2.016484e-001 2.715837e-005 4.639540e+001 4.079185e-004 -7.468060e+001 9.977242e-001 -4.428035e-001
13499340 1.000615e+000 -2.035396e-001 8.584172e-005 1.545179e+002 1.344391e-004 -8.488883e+000 9.974335e-001 -5.740221e-001
13799325 9.997655e-001 -1.920896e-001 5.962400e-005 8.565033e+001 3.714721e-004 9.867837e+001 9.969673e-001 -5.295966e-001
14099310 1.000179e+000 -1.906976e-001 3.547211e-005 -1.232361e+001 3.049693e-004 -1.305584e+002 9.973341e-001 -4.772919e-001
14399295 1.000531e+000 -2.008636e-001 1.858391e-005 4.399487e+001 2.570453e-004 1.104438e+002 9.979601e-001 -4.738564e-001
14699280 9.996605e-001 -1.980244e-001 5.924986e-005 1.672282e+002 1.273888e-004 8.514675e+001 9.984342e-001 -4.779602e-001
14999265 1.000109e+000 -2.007443e-001 2.693414e-005 7.606123e+001 5.921219e-005 1.031798e+002 9.982347e-001 -6.008880e-001
15299250 9.995946e-001 -1.778617e-001 1.833346e-005 1.232197e+002 1.190674e-004 -1.096912e+002 9.974311e-001 -5.833421e-001
15599235 1.000075e+000 -1.733536e-001 5.405665e-005 1.300725e+002 9.477035e-005 6.429805e+001 9.988748e-001 -6.034266e-001
15899220 1.000591e+000 -1.803960e-001 9.353562e-005 1.142531e+002 2.538001e-004 -1.660983e+002 9.988580e-001 -5.605906e-001
16199205 1.000214e+000 -1.554752e-001 1.175596e-004 1.395305e+002 4.835934e-005 1.204967e+001 9.999132e-001 -5.600440e-001
16499190 1.000500e+000 -1.988501e-001 9.475258e-005 -7.594473e+001 1.911561e-004 1.317224e+002 9.984878e-001 -5.650743e-001
16799175 1.000151e+000 -2.160548e-001 1.033163e-004 1.348924e+002 2.444534e-004 -2.440771e+001 9.986251e-001 -6.182442e-001
17099160 1.000164e+000 -2.163075e-001 7.210533e-005 -1.417062e+002 1.444094e-004 1.368179e+002 1.000930e+000 -6.867089e-001
17399145 1.000493e+000 -2.476081e-001 1.091567e-004 1.646869e+002 1.523019e-004 -5.767630e+001 9.988139e-001 -6.236152e-001
17699130 1.000222e+000 -2.250728e-001 1.945488e-005 7.635703e+001 2.501034e-004 1.704305e+002 9.986408e-001 -6.332990e-001
17999115 1.000348e+000 -2.228435e-001 1.128348e-004 1.370051e+002 1.070184e-004 1.096464e+001 9.986526e-001 -5.901922e-001
18299100 9.995469e-001 -1.905521e-001 1.221803e-004 -9.156015e+001 2.463714e-004 6.133992e+001 9.979504e-001 -6.746621e-001
18599085 1.000150e+000 -2.491476e-001 1.531136e-005 1.259212e+002 2.442336e-004 -1.651463e+002 9.983944e-001 -6.537396e-001
18899070 9.999788e-001 -2.240499e-001 3.545457e-005 -1.660028e+002 1.986995e-004 1.648843e+002 9.986939e-001 -6.726470e-001
19199055 1.000720e+000 -2.727662e-001 2.864010e-005 2.667987e+001 2.541639e-004 9.613026e+001 9.985153e-001 -5.795851e-001
19499040 1.000866e+000 -2.171022e-001 3.236562e-005 -1.156647e+002 6.895597e-005 1.250155e+002 9.986023e-001 -6.415302e-001
19799025 1.000303e+000 -2.413777e-001 1.243576e-004 9.390567e+000 1.570419e-004 -1.599393e+002 9.984982e-001 -5.848702e-001
20099010 1.000368e+000 -2.326815e-001 7.332631e-005 -2.831322e-001 2.777795e-004 1.785848e+001 9.977157e-001 -7.711068e-001
20398995 1.000017e+000 -2.293968e-001 7.154261e-005 5.632949e+000 2.501692e-004 1.465966e+002 9.965270e-001 -7.456058e-001
20698980 9.998515e-001 -2.272802e-001 5.892240e-005 9.561452e+001 3.423449e-005 -9.289881e+001 9.976183e-001 -7.279258e-001
20998965 1.000116e+000 -1.873111e-001 6.052000e-005 7.614944e+001 2.439009e-004 7.005913e+001 9.980459e-001 -6.959863e-001
21298950 9.991118e-001 -2.294084e-001 1.313436e-005 1.513970e+002 1.856277e-004 1.548799e+002 9.962874e-001 -7.061697e-001
21598935 1.000096e+000 -2.380528e-001 7.011124e-005 -1.499027e+002 2.398618e-004 6.852402e+001 9.983097e-001 -6.830871e-001
21898920 9.998057e-001 -2.519643e-001 7.111382e-005 -5.548923e+001 8.011917e-005 -1.613452e+002 9.971157e-001 -6.841412e-001
22198905 9.999084e-001 -2.297231e-001 2.499595e-005 -1.467634e+002 1.783526e-004 1.281258e+002 9.980350e-001 -7.249029e-001
22498890 9.996141e-001 -2.225863e-001 1.138527e-004 -2.274265e+001 2.590937e-004 -1.241197e+002 9.974929e-001 -8.032308e-001
22798875 1.000455e+000 -2.438021e-001 7.003255e-005 -7.943439e+001 2.061479e-004 -5.302763e+001 9.988044e-001 -8.367145e-001
23098860 1.000915e+000 -2.386941e-001 2.465599e-005 1.238802e+002 3.036155e-004 1.436004e+002 9.990664e-001 -7.853337e-001
23398845 1.001079e+000 -2.635717e-001 1.335173e-004 -1.308071e+002 3.193467e-004 -1.018400e+002 9.978507e-001 -8.367217e-001
23698830 1.000400e+000 -2.517785e-001 1.049539e-004 5.438762e+001 1.926643e-004 8.271738e+001 9.966776e-001 -8.052702e-001
23998815 1.000356e+000 -2.417805e-001 4.871887e-005 1.217853e+002 2.154620e-004 -6.694820e+001 9.969146e-001 -8.129166e-001
24298800 1.000577e+000 -2.904643e-001 2.950929e-005 9.323264e+001 3.040281e-004 7.233658e+001 9.968053e-001 -8.361561e-001
24598785 9.995729e-001 -3.037904e-001 6.401740e-005 1.930409e+001 1.828687e-004 -1.101982e+002 9.975536e-001 -8.811891e-001
24898770 1.000494e+000 -2.861461e-001 8.759255e-005 -1.448433e+002 2.519490e-004 6.461502e+001 9.981131e-001 -7.816454e-001
25198755 1.000125e+000 -2.874149e-001 1.350666e-004 -1.233611e+002 1.729640e-004 -1.227232e+002 9.982294e-001 -8.558159e-001
25498740 9.994279e-001 -3.257035e-001 3.809457e-005 1.533161e+002 1.286196e-004 8.861523e+001 9.979143e-001 -8.800175e-001
25798725 1.000259e+000 -2.846141e-001 5.060694e-005 3.866301e+001 2.585050e-004 -1.600109e+002 9.972032e-001 -8.806115e-001
26098710 1.000702e+000 -2.551490e-001 9.953025e-005 9.370298e+001 1.952005e-004 -1.016359e+002 9.990062e-001 -8.719658e-001
26398695 1.001207e+000 -3.221063e-001 2.872282e-005 1.588029e+002 2.162364e-004 1.446549e+002 9.989187e-001 -9.131122e-001
26698680 1.000344e+000 -2.751954e-001 6.865398e-005 1.373743e+002 1.623874e-004 -1.012334e+002 9.984944e-001 -8.538139e-001
26998665 1.000487e+000 -2.954890e-001 8.835145e-005 3.181004e+001 1.212352e-004 7.349843e+001 9.983170e-001 -8.952483e-001
27298650 9.999613e-001 -2.880816e-001 1.375879e-004 -2.438276e+001 2.279162e-004 -2.865192e+001 9.977679e-001 -8.892904e-001
27598635 9.997388e-001 -2.846177e-001 7.128994e-005 -1.179705e+002 2.664578e-004 1.165138e+002 9.990799e-001 -9.083812e-001
27898620 9.999637e-001 -3.065781e-001 1.002275e-004 7.366741e+001 1.864474e-004 -1.398774e+001 9.997731e-001 -9.679977e-001
28198605 1.000271e+000 -2.929783e-001 9.592729e-005 1.616618e+002 1.444502e-004 1.394612e+002 9.994162e-001 -9.828177e-001
28498590 1.000213e+000 -3.152422e-001 2.730571e-005 -6.790433e+001 1.839187e-004 -8.470776e+001 9.979373e-001 -9.876762e-001
28798575 9.996009e-001 -3.463963e-001 4.247501e-005 -8.648753e+001 1.630732e-004 3.251098e+001 9.975800e-001 -1.002055e+000
29098560 9.998557e-001 -3.242623e-001 1.843574e-004 -1.508916e+002 4.381586e-004 -1.253340e+002 9.981409e-001 -9.285744e-001
29398545 9.998844e-001 -2.868495e-001 8.740699e-005 9.106215e+001 5.671194e-005 1.629929e+002 9.978862e-001 -9.668812e-001
29698530 1.001248e+000 -2.956100e-001 1.440919e-004 -4.082132e+001 2.985257e-004 9.636201e+001 9.981421e-001 -9.459026e-001
29998515 9.995914e-001 -3.239555e-001 1.175234e-004 1.714369e+002 1.973831e-004 -3.177057e+001 9.999995e-001 -9.077800e-001
30298500 9.998548e-001 -3.187102e-001 8.434638e-005 -9.273557e+001 3.263522e-005 -3.102463e+001 9.988137e-001 -1.079394e+000
30598485 1.000653e+000 -2.781680e-001 4.409286e-005 1.521268e+002 1.751472e-004 -1.312836e+002 9.978248e-001 -1.012738e+000
30898470 9.991160e-001 -2.983998e-001 2.351419e-005 7.051640e+001 2.073705e-004 1.289124e+002 9.967680e-001 -1.093041e+000
31198455 9.998015e-001 -2.933703e-001 2.793110e-005 2.947155e+001 3.341320e-004 -1.580655e+002 9.988756e-001 -1.048247e+000
31498440 1.000314e+000 -3.618189e-001 9.498378e-005 1.487314e+002 6.266373e-005 -4.061672e+000 9.986551e-001 -9.641556e-001
31798425 1.000470e+000 -3.409614e-001 1.196195e-004 6.087130e+001 2.480590e-004 -1.418596e+002 9.989352e-001 -1.020831e+000
32098410 1.000373e+000 -3.698345e-001 1.114775e-004 5.317159e+000 1.195377e-004 3.086258e+001 9.991124e-001 -1.027322e+000
32398395 1.000771e+000 -3.606353e-001 7.965010e-006 7.040823e+001 1.955893e-004 -1.399206e+002 9.994327e-001 -1.031205e+000
32698380 1.000996e+000 -3.333021e-001 5.141725e-005 1.113020e+002 6.796236e-005 9.555727e+001 9.987459e-001 -1.027984e+000
32998365 1.000795e+000 -3.679889e-001 5.395718e-005 -9.877844e+001 1.517213e-004 -1.161981e+002 9.971073e-001 -1.048219e+000
33298350 1.000908e+000 -3.426673e-001 7.993053e-005 7.918031e+001 6.763393e-005 -7.479711e+000 9.977697e-001 -1.122886e+000
33598335 9.997754e-001 -3.437449e-001 1.123499e-004 -1.191254e+002 1.844519e-004 -1.708892e+002 9.978972e-001 -1.100663e+000
33898320 9.998974e-001 -3.386661e-001 6.666590e-005 9.739633e+001 1.461596e-004 -6.853705e+001 9.983743e-001 -1.151869e+000
34198305 9.999527e-001 -3.637558e-001 8.943379e-005 -4.293159e+001 5.843177e-005 1.036626e+002 9.967114e-001 -1.139814e+000
34498290 9.996049e-001 -3.768884e-001 1.799062e-004 1.442237e+002 1.785617e-004 -7.760806e+001 9.983962e-001 -1.061700e+000
34798275 9.998070e-001 -3.813251e-001 9.538848e-005 -1.308837e+002 1.890700e-004 -5.137445e+001 9.967305e-001 -1.162094e+000
35098260 1.000419e+000 -3.878423e-001 1.125712e-004 -4.438841e+001 1.362967e-004 5.767984e+001 9.983708e-001 -1.124699e+000
35398245 9.997701e-001 -4.028323e-001 5.467411e-005 6.636116e+001 1.369173e-004 8.234618e+001 9.981520e-001 -1.112144e+000
35698230 1.000615e+000 -3.908827e-001 2.073452e-005 -1.269420e+002 6.926518e-005 -1.366161e+002 9.996188e-001 -1.131866e+000
35998215 1.000002e+000 -3.859515e-001 2.102039e-004 -1.017949e+002 3.820323e-004 4.647061e+000 9.984800e-001 -1.132082e+000
36298200 1.000076e+000 -4.076901e-001 8.453425e-005 -5.809350e+001 1.308888e-004 1.534834e+002 9.975703e-001 -1.250273e+000
36598185 1.000484e+000 -4.057077e-001 4.619697e-005 -1.033068e+001 1.395385e-004 1.700060e+000 9.985813e-001 -1.206374e+000
36898170 1.000642e+000 -3.878178e-001 1.060126e-004 -8.702111e+001 8.448969e-005 -9.524562e+001 9.979455e-001 -1.174545e+000
37198155 1.000846e+000 -4.266972e-001 1.427603e-004 8.154018e+001 4.592175e-005 -1.762987e+001 9.975710e-001 -1.181600e+000
37498140 1.000400e+000 -3.836618e-001 5.165675e-005 7.631231e+001 1.544539e-004 1.038004e+002 9.973662e-001 -1.159351e+000
37798125 1.000164e+000 -3.697793e-001 8.281851e-005 -1.032246e+002 1.767207e-004 -1.008574e+002 9.984337e-001 -1.234974e+000
38098110 9.998405e-001 -3.647712e-001 1.070323e-004 -7.177763e+001 2.540017e-005 -6.180191e+001 9.983267e-001 -1.272498e+000
38398095 1.000058e+000 -3.766055e-001 5.679321e-005 1.356275e+002 7.014655e-005 -6.236446e+001 9.965203e-001 -1.277484e+000
38698080 9.998332e-001 -3.863666e-001 3.463542e-005 8.622815e+001 1.384844e-004 8.154420e+001 9.977511e-001 -1.260764e+000
38998065 1.000951e+000 -4.127273e-001 8.692940e-005 6.086793e+001 7.194740e-005 1.206170e+002 9.968889e-001 -1.279627e+000
39298050 1.000901e+000 -4.103693e-001 5.158956e-005 4.628441e+001 1.487717e-004 -8.455734e+001 9.977183e-001 -1.248411e+000
39598035 1.001377e+000 -3.897059e-001 4.925207e-005 8.098968e+001 2.338779e-004 -1.293757e+002 9.983516e-001 -1.224976e+000
39898020 1.001032e+000 -3.379232e-001 7.385648e-005 -1.073727e+002 3.326324e-005 -1.259531e+002 9.986137e-001 -1.173853e+000
40198005 1.000633e+000 -3.585509e-001 1.077689e-004 -1.941057e+001 2.354814e-004 -2.752068e+001 9.998685e-001 -1.435941e+000
40497990 1.001006e+000 -4.398040e-001 5.486925e-005 -1.366888e+002 1.503276e-004 -1.062110e+002 9.995967e-001 -1.295336e+000
40797975 1.001033e+000 -4.496133e-001 5.674184e-005 -1.251622e+002 4.298575e-004 -5.601895e+001 9.993071e-001 -1.360471e+000
41097960 1.000120e+000 -3.617219e-001 2.219186e-004 1.757122e+002 2.590878e-004 1.331214e+002 9.990851e-001 -1.426632e+000
41397945 9.996414e-001 -3.746561e-001 1.612831e-004 -8.164131e+001 3.160932e-004 -1.615356e+002 9.994228e-001 -1.287094e+000
41697930 9.998658e-001 -3.306259e-001 1.553711e-004 -1.435178e+002 9.770386e-005 4.230590e+001 1.000407e+000 -1.303924e+000
41997915 9.988130e-001 -3.558418e-001 1.454515e-004 -1.679876e+002 2.329173e-004 -1.690628e+002 9.979257e-001 -1.351536e+000
42297900 1.000766e+000 -4.047159e-001 8.630052e-005 8.385341e+001 4.631615e-004 -1.131187e+002 9.989288e-001 -1.167606e+000
42597885 1.000277e+000 -4.553192e-001 1.844745e-004 7.849508e+001 2.626882e-004 5.295088e+000 9.997458e-001 -1.317384e+000
42897870 1.001703e+000 -4.036441e-001 1.417616e-004 1.452047e+002 3.156300e-005 -9.731551e+001 9.997848e-001 -1.371058e+000
43197855 1.000992e+000 -4.285582e-001 1.028617e-004 -1.127787e+002 3.169126e-004 1.885086e+001 9.988247e-001 -1.487080e+000
43497840 1.001778e+000 -3.931406e-001 2.035312e-004 -5.898784e+001 2.804223e-004 1.698998e+002 9.986326e-001 -1.454282e+000
43797825 1.000733e+000 -4.057698e-001 1.437703e-004 1.731351e+002 1.926521e-004 1.112077e+001 9.986336e-001 -1.462098e+000
44097810 9.998835e-001 -4.637187e-001 1.270599e-004 3.680414e+001 3.461190e-004 -1.643506e+002 9.969298e-001 -1.437872e+000
44397795 1.000648e+000 -3.869192e-001 5.224115e-005 1.406731e+002 3.199615e-004 -3.287075e+001 9.987330e-001 -1.481249e+000
44697780 1.000802e+000 -4.384128e-001 1.427771e-004 -9.710454e+001 6.574466e-004 -1.605779e+002 9.987289e-001 -1.520725e+000
44997765 1.000675e+000 -4.515669e-001 5.174043e-006 -2.552027e+001 2.840474e-004 1.347699e+002 1.000070e+000 -1.438753e+000
45297750 1.001059e+000 -4.511988e-001 1.538050e-005 7.554375e+001 2.013537e-004 2.949264e+001 1.000528e+000 -1.432198e+000
45597735 1.001177e+000 -4.412427e-001 1.548664e-004 6.198421e+001 2.704507e-004 1.706725e+002 1.000311e+000 -1.435356e+000
45897720 1.000680e+000 -4.389884e-001 1.107840e-004 -1.248601e+002 2.186795e-004 6.528088e+001 9.978627e-001 -1.507167e+000
46197705 1.002087e+000 -4.613018e-001 1.344129e-004 2.278474e+001 3.558869e-004 4.408858e+001 1.000465e+000 -1.524263e+000
46497690 1.002339e+000 -4.850866e-001 1.695121e-004 -2.787005e+000 2.487086e-004 8.014595e+001 9.979545e-001 -1.578918e+000
46797675 1.001780e+000 -4.575529e-001 7.532816e-005 -1.001428e+002 2.279812e-004 -1.453173e+002 9.996217e-001 -1.527970e+000
47097660 1.001581e+000 -4.782909e-001 2.206517e-004 1.245159e+002 3.400724e-004 -3.848030e+001 9.995886e-001 -1.628125e+000
47397645 1.001429e+000 -4.178969e-001 4.989937e-005 1.453633e+002 7.878984e-005 -1.059334e+002 9.978570e-001 -1.657751e+000
