!Agilent Technologies,N5230C,SG49000117,A.08.50.07
!Agilent N5230C: A.08.50.07
!Date: Thursday, May 16, 2024 19:27:20
!Correction: S11(Full 2 Port(1,2)) 
!S21(Full 2 Port(1,2)) 
!S12(Full 2 Port(1,2)) 
!S22(Full 2 Port(1,2)) 
!S2P File: Measurements: S11, S21, S12, S22:
# Hz S  MA   R 50
300000 1.008298e+000 -4.897128e-001 1.801255e-004 -9.497293e+001 1.286451e-004 1.221947e+001 1.018514e+000 -6.943918e-001
599985 9.833331e-001 2.713774e-001 4.561741e-005 -1.237647e+002 2.073506e-004 -8.918930e+001 9.646119e-001 2.848383e-001
899970 9.966158e-001 -1.199661e-001 1.298483e-004 1.009558e+002 1.667248e-004 -1.431873e+002 9.841387e-001 -4.415603e-001
1199955 9.981691e-001 -4.990834e-002 6.911428e-005 1.350320e+002 2.777016e-004 -3.373832e+001 9.952472e-001 -3.182549e-001
1499940 9.940097e-001 1.151031e-001 1.112182e-004 1.244480e+002 1.450488e-004 -4.945496e+001 9.925573e-001 3.523256e-002
1799925 9.927307e-001 1.859418e-001 5.795323e-005 5.381390e+001 3.906665e-005 1.461955e+002 9.891602e-001 -7.626227e-002
2099910 9.984969e-001 -6.007027e-004 8.766897e-005 -1.947891e+000 2.221309e-004 5.223188e+001 9.973854e-001 5.172163e-002
2399895 9.992417e-001 -1.207533e-001 7.180205e-005 1.744710e+002 9.746227e-005 1.747588e+002 1.002397e+000 -4.694125e-002
2699880 9.997044e-001 -2.491271e-001 1.045522e-004 -8.624634e+001 1.014012e-004 -8.936986e+001 9.944344e-001 -3.276949e-001
2999865 1.000037e+000 -1.361715e-001 2.577718e-005 -2.465391e+001 2.248043e-004 -1.844567e+001 9.980659e-001 -2.092358e-001
3299850 1.000039e+000 -1.587731e-001 1.626744e-004 1.575958e+002 1.301215e-004 1.439021e+002 9.979188e-001 -2.685277e-001
3599835 1.000096e+000 -1.005023e-001 9.111608e-005 -3.810619e+001 3.347194e-005 -3.614195e-001 9.971090e-001 -2.401104e-001
3899820 9.994134e-001 -1.532771e-001 4.975275e-005 1.213634e+002 1.826831e-005 9.889108e+001 9.977673e-001 -2.515156e-001
4199805 1.000233e+000 -2.039540e-001 7.715810e-005 -1.674978e+002 5.833546e-005 1.077546e+002 9.984818e-001 -3.229336e-001
4499790 1.000371e+000 -1.850075e-001 5.110386e-005 5.898145e+001 1.608979e-004 -1.376071e+002 9.988205e-001 -3.675005e-001
4799775 1.000642e+000 -1.545793e-001 1.057769e-004 2.447771e+001 9.518523e-005 5.547218e+001 9.993857e-001 -2.584689e-001
5099760 1.000519e+000 -1.312199e-001 7.439534e-005 8.215589e+001 1.220021e-004 1.365916e+002 9.988438e-001 -2.621066e-001
5399745 1.000992e+000 -1.437698e-001 5.129682e-005 -1.238893e+002 1.810583e-004 8.624532e+001 9.999986e-001 -3.029091e-001
5699730 1.000276e+000 -1.337480e-001 2.856838e-005 1.113739e+002 1.038534e-004 1.508875e+002 1.000217e+000 -2.911499e-001
5999715 9.992214e-001 -7.172309e-002 2.857701e-005 9.116592e+000 1.590404e-004 -1.229625e+002 9.995219e-001 -2.290984e-001
6299700 9.997079e-001 -1.238468e-001 5.772890e-005 -5.767518e+001 1.315633e-004 -1.550925e+002 9.989466e-001 -3.270749e-001
6599685 9.997998e-001 -1.094450e-001 1.857139e-005 -1.706784e+002 1.159886e-004 8.948763e+001 9.995505e-001 -3.668812e-001
6899670 9.998932e-001 -1.105829e-001 6.976775e-005 1.022441e+002 9.535011e-005 -1.663630e+002 9.982821e-001 -3.217731e-001
7199655 9.999532e-001 -1.567426e-001 4.052314e-005 1.529928e+002 3.935413e-005 -2.195550e+001 9.994689e-001 -3.767218e-001
7499640 9.998619e-001 -1.753578e-001 3.313411e-005 -1.134347e+002 1.147310e-004 -7.939652e+000 9.995305e-001 -4.191324e-001
7799625 1.000211e+000 -1.499472e-001 4.158208e-005 -1.576643e+002 4.641826e-005 -1.561442e+002 9.978187e-001 -3.596712e-001
8099610 9.998558e-001 -1.495945e-001 1.069612e-004 -8.672036e+001 2.611442e-004 -6.065213e+001 9.983055e-001 -4.518949e-001
8399595 1.000055e+000 -1.387453e-001 1.402379e-005 8.431853e+001 1.235503e-004 -1.459883e+002 9.983420e-001 -3.903656e-001
8699580 9.999153e-001 -1.916927e-001 7.650368e-005 -1.569685e+002 2.346599e-004 7.664249e+001 9.988627e-001 -3.699947e-001
8999565 1.000162e+000 -1.809182e-001 4.416782e-005 1.174827e+002 1.242879e-004 -1.698500e+002 9.990312e-001 -4.771920e-001
9299550 9.999276e-001 -1.652573e-001 9.864083e-005 -1.453289e+002 1.292914e-004 -2.597900e+001 9.988275e-001 -4.662183e-001
9599535 1.000036e+000 -2.205552e-001 3.045046e-005 -2.516582e+001 4.372663e-005 -2.907032e+001 9.963461e-001 -5.459799e-001
9899520 9.996181e-001 -2.364643e-001 1.387560e-004 -1.125539e+002 1.496418e-004 7.068936e+001 9.965894e-001 -6.900319e-001
10199505 1.000504e+000 -1.384289e-001 6.131268e-005 -6.848707e+001 1.025620e-004 9.383659e+001 9.987187e-001 -4.697439e-001
10499490 1.000332e+000 -1.342724e-001 3.478946e-005 1.077732e+002 5.553199e-005 8.955901e+001 9.993886e-001 -4.471182e-001
10799475 1.000398e+000 -1.373115e-001 7.318065e-005 -1.380939e+002 1.050475e-004 1.135786e+001 9.985101e-001 -4.153595e-001
11099460 1.000099e+000 -1.337553e-001 5.454922e-005 -1.325596e+001 1.107866e-004 -1.375514e+002 9.996140e-001 -4.637575e-001
11399445 1.000061e+000 -1.094231e-001 6.661695e-005 -2.220749e+001 2.278195e-004 -1.025338e+002 9.981163e-001 -4.691389e-001
11699430 9.996120e-001 -1.633910e-001 3.024776e-005 -7.860149e+001 2.893561e-005 -1.682538e+002 9.987809e-001 -4.308036e-001
11999415 9.998686e-001 -1.385685e-001 5.089333e-005 -1.188383e+002 2.340320e-004 5.392645e+001 9.986432e-001 -4.956194e-001
12299400 1.000037e+000 -1.392477e-001 7.177088e-005 8.798024e+001 2.173687e-004 -1.369683e+002 1.000017e+000 -3.960770e-001
12599385 1.000165e+000 -1.684185e-001 9.373268e-005 -4.820941e+001 1.690345e-004 -7.339927e+001 1.000174e+000 -5.596758e-001
12899370 1.000172e+000 -1.923623e-001 5.215928e-005 1.493524e+002 2.417918e-004 9.033282e+001 9.982930e-001 -7.326007e-001
13199355 1.000013e+000 -2.166941e-001 7.142658e-005 4.248917e+001 1.754474e-004 1.451448e+002 9.973664e-001 -5.142081e-001
13499340 1.000223e+000 -1.619918e-001 6.065217e-005 -7.372479e+001 1.074354e-004 -1.266547e+002 9.980882e-001 -5.267288e-001
13799325 9.997221e-001 -1.883106e-001 2.809298e-005 -1.102887e+002 2.376781e-004 8.467433e+001 9.982861e-001 -5.082386e-001
14099310 1.000303e+000 -2.359222e-001 8.315027e-005 -7.322690e+001 1.396922e-004 -1.232732e+002 9.994445e-001 -5.157583e-001
14399295 1.000290e+000 -2.110222e-001 1.649889e-005 -5.236343e+001 3.208671e-004 6.365239e+000 9.995007e-001 -4.889368e-001
14699280 1.000718e+000 -2.271576e-001 3.704324e-005 5.709476e+001 1.826543e-004 -1.776757e+002 9.989240e-001 -5.650366e-001
14999265 9.997385e-001 -1.937777e-001 7.555036e-005 8.713805e+000 1.068593e-004 -1.836978e+001 9.977033e-001 -5.215040e-001
15299250 9.992239e-001 -2.000538e-001 1.138580e-004 7.327000e+001 1.508127e-004 -6.833270e+001 9.979090e-001 -6.447158e-001
15599235 9.995397e-001 -2.113980e-001 6.473789e-005 -2.944175e+001 2.591005e-004 -5.899145e+001 9.993307e-001 -6.448448e-001
15899220 1.000432e+000 -1.681694e-001 8.551381e-005 5.401451e+001 2.235462e-004 -1.751834e+002 9.979931e-001 -6.056354e-001
16199205 1.000195e+000 -1.622286e-001 1.688036e-005 -5.858256e+001 3.465285e-004 -4.129825e+001 1.000571e+000 -6.541021e-001
16499190 9.996998e-001 -1.878612e-001 9.140284e-005 -1.261029e+002 1.724215e-004 1.012452e+002 1.001597e+000 -6.488871e-001
16799175 1.000053e+000 -2.085446e-001 8.253963e-005 4.578727e+001 1.313123e-004 2.836802e+001 1.000150e+000 -6.561274e-001
17099160 9.997442e-001 -1.831787e-001 7.600210e-005 6.878966e+001 1.113666e-004 1.100829e+002 9.998719e-001 -6.483199e-001
17399145 1.000113e+000 -2.264731e-001 9.913528e-005 1.089186e+002 4.255417e-004 -2.667004e+001 9.996442e-001 -6.543856e-001
17699130 1.000401e+000 -1.938541e-001 6.770895e-005 -1.505678e+002 1.265054e-004 -1.478505e+002 9.993123e-001 -7.280458e-001
17999115 1.000325e+000 -1.969055e-001 6.371772e-005 -2.651763e+001 1.275377e-004 -1.813949e+001 9.996290e-001 -6.976656e-001
18299100 9.995589e-001 -2.033605e-001 1.021595e-004 1.488035e+002 3.421794e-004 9.778873e+001 9.992408e-001 -6.538100e-001
18599085 1.000071e+000 -2.574151e-001 5.441482e-005 -3.292292e+001 4.367515e-005 -3.605146e+001 9.995420e-001 -7.088118e-001
18899070 1.000405e+000 -2.288417e-001 4.185338e-005 7.274070e+000 2.515341e-004 1.582804e+002 9.977129e-001 -6.749543e-001
19199055 1.000311e+000 -2.068323e-001 2.137154e-005 6.003474e+001 1.857459e-004 -9.901662e+001 9.983981e-001 -6.313934e-001
19499040 1.000646e+000 -2.583496e-001 3.383082e-005 -8.200806e+001 3.612645e-004 7.538268e+001 9.986318e-001 -6.828363e-001
19799025 1.000283e+000 -2.103361e-001 7.032054e-005 1.667785e+002 1.389361e-004 7.065410e+001 9.987431e-001 -6.558048e-001
20099010 1.000388e+000 -2.604097e-001 4.158761e-005 -1.472192e+002 2.399202e-004 9.510040e+001 9.977052e-001 -7.115274e-001
20398995 9.999459e-001 -2.205007e-001 8.299755e-005 -1.471756e+002 4.673240e-005 1.639058e+002 9.985141e-001 -7.840229e-001
20698980 9.999291e-001 -2.191923e-001 3.529597e-005 1.259818e+002 1.005113e-004 4.630930e+001 9.996614e-001 -7.678434e-001
20998965 9.999565e-001 -2.476479e-001 9.492863e-005 -1.765004e+002 6.758761e-005 2.465193e+001 9.972867e-001 -6.720346e-001
21298950 1.000146e+000 -2.291991e-001 7.399450e-005 1.432009e+002 1.623383e-004 -2.888741e+001 9.979543e-001 -7.010525e-001
21598935 9.995813e-001 -2.306679e-001 4.610516e-005 5.930506e+001 7.799893e-005 1.730508e+002 9.974493e-001 -7.313647e-001
21898920 9.999186e-001 -2.438887e-001 1.231398e-004 -1.559694e+002 1.300243e-004 -6.410005e+001 9.976921e-001 -7.531072e-001
22198905 9.998451e-001 -2.692038e-001 2.196978e-005 3.274465e+001 2.837624e-004 1.042275e+002 9.993464e-001 -7.744793e-001
22498890 1.000147e+000 -2.286778e-001 1.069054e-004 1.130491e+002 1.367439e-004 1.639584e+002 1.000253e+000 -7.877762e-001
22798875 1.000383e+000 -1.937937e-001 6.323755e-005 3.442363e+001 3.436577e-004 -1.774816e+002 1.000044e+000 -8.008834e-001
23098860 1.000477e+000 -2.429828e-001 9.645514e-005 9.820222e+001 2.659422e-004 -6.250276e+001 9.988066e-001 -8.286571e-001
23398845 1.000528e+000 -3.134360e-001 1.128031e-004 1.123851e+002 1.568366e-004 -3.934286e+000 9.996427e-001 -8.240204e-001
23698830 1.000134e+000 -2.961876e-001 1.406140e-004 -1.249326e+002 2.015419e-004 1.547177e+002 9.977973e-001 -7.382945e-001
23998815 1.000363e+000 -2.765638e-001 1.327180e-004 1.342936e+002 8.230239e-005 -7.779093e+001 9.976994e-001 -8.470781e-001
24298800 1.000295e+000 -3.051391e-001 2.998449e-005 1.215857e+002 1.374386e-004 -1.357006e+002 9.980463e-001 -8.488535e-001
24598785 1.001083e+000 -2.737377e-001 3.248054e-005 -5.285789e+001 2.840715e-004 1.017491e+002 9.973962e-001 -8.851420e-001
24898770 1.000417e+000 -3.080294e-001 1.611532e-004 8.794047e+000 2.996593e-004 -4.086683e+001 9.988806e-001 -8.762075e-001
25198755 9.998137e-001 -3.273985e-001 6.980261e-005 -9.762003e+001 2.976681e-004 7.401090e+001 9.984891e-001 -8.441304e-001
25498740 1.000500e+000 -2.735734e-001 8.634530e-005 1.574967e+002 3.238157e-004 6.646796e+001 9.982644e-001 -8.440037e-001
25798725 1.000357e+000 -2.886685e-001 9.194139e-005 -1.042003e+002 3.385059e-004 -1.896879e+000 9.978426e-001 -9.896766e-001
26098710 1.000805e+000 -2.678857e-001 1.582189e-005 1.492690e+002 1.662028e-004 -1.303373e+002 9.992657e-001 -9.042114e-001
26398695 1.000897e+000 -3.063610e-001 8.173488e-005 1.786386e+001 1.051952e-004 1.217947e+002 9.996898e-001 -9.172488e-001
26698680 1.000485e+000 -2.999700e-001 7.759076e-005 -1.167917e+002 9.093259e-005 -1.214652e+002 9.979409e-001 -9.096283e-001
26998665 1.000161e+000 -2.764244e-001 5.597753e-005 7.471048e+001 3.303753e-004 2.251343e+001 9.986912e-001 -8.814654e-001
27298650 1.000087e+000 -3.068315e-001 1.116765e-004 1.780011e+002 3.106288e-004 1.249206e+002 9.988226e-001 -9.423952e-001
27598635 1.000085e+000 -2.820733e-001 4.540440e-005 -5.749741e+001 7.949625e-005 -3.192438e+001 9.994169e-001 -9.323566e-001
27898620 1.000734e+000 -2.916818e-001 8.354013e-005 -8.719248e+001 6.996476e-005 1.036820e+002 9.990200e-001 -1.006996e+000
28198605 9.998577e-001 -2.644354e-001 1.337796e-004 -4.493382e+001 1.699602e-004 -3.485635e+001 1.000606e+000 -1.041160e+000
28498590 1.000406e+000 -3.154912e-001 5.910561e-005 -1.254933e+002 1.197663e-004 1.137615e+002 9.988802e-001 -1.035027e+000
28798575 1.000053e+000 -3.272774e-001 6.452382e-005 -1.500148e+002 1.311384e-004 -1.338018e+002 9.988653e-001 -1.078138e+000
29098560 9.998338e-001 -3.215053e-001 1.049405e-004 7.425419e+001 1.852690e-004 7.498438e+001 9.982690e-001 -9.817846e-001
29398545 9.998955e-001 -2.749384e-001 1.223108e-004 -1.315292e+002 6.251405e-005 6.569204e+001 9.990941e-001 -9.987801e-001
29698530 9.997967e-001 -2.745603e-001 7.982003e-005 1.024841e+001 6.295377e-005 1.315179e+002 9.994212e-001 -9.490262e-001
29998515 9.997532e-001 -3.113629e-001 3.014544e-005 -8.337138e+001 1.496690e-004 -1.315575e+002 9.995861e-001 -1.021401e+000
30298500 1.000332e+000 -3.114752e-001 9.098221e-005 -1.060980e+002 3.204542e-004 -8.227013e+000 9.997039e-001 -1.040381e+000
30598485 1.000527e+000 -3.141662e-001 8.488058e-005 -1.739767e+002 1.876897e-004 9.108863e+001 9.992218e-001 -1.058772e+000
30898470 1.000282e+000 -2.851011e-001 4.966112e-005 -1.029086e+002 1.384141e-004 -4.932099e+001 9.987835e-001 -1.115768e+000
31198455 1.000326e+000 -2.536985e-001 1.164712e-004 -3.884434e+001 1.910610e-004 1.287412e+002 9.992186e-001 -1.058550e+000
31498440 9.999015e-001 -3.459569e-001 5.267944e-005 6.300904e+001 2.440695e-004 -8.890202e+001 9.997790e-001 -1.025512e+000
31798425 1.000277e+000 -3.503820e-001 1.331166e-005 -1.591741e+002 2.010568e-004 8.093173e+001 1.000216e+000 -1.078626e+000
32098410 1.001049e+000 -3.931062e-001 6.000470e-005 1.730456e+002 1.864767e-004 -9.591535e+001 9.998703e-001 -1.082976e+000
32398395 1.001110e+000 -3.639964e-001 6.288780e-005 4.530877e+001 3.982593e-004 6.454478e+001 9.998395e-001 -1.080417e+000
32698380 1.000337e+000 -3.493654e-001 1.794461e-005 -9.589930e+001 1.886676e-004 -1.593801e+002 9.991094e-001 -1.119343e+000
32998365 1.000633e+000 -3.544594e-001 2.934370e-005 9.103992e+000 2.516064e-004 -1.063503e+001 9.993235e-001 -1.132031e+000
33298350 1.000662e+000 -3.331611e-001 5.456974e-005 2.821608e+001 8.781454e-005 1.167885e+002 9.996462e-001 -1.187765e+000
33598335 9.994447e-001 -3.452784e-001 8.704207e-005 6.516912e+000 1.472744e-004 -1.941734e+001 9.988924e-001 -1.142972e+000
33898320 1.000297e+000 -3.756664e-001 4.561138e-005 9.869320e+000 8.791454e-005 9.010928e+001 9.985903e-001 -1.127972e+000
34198305 1.000740e+000 -3.766448e-001 7.376807e-005 -3.533603e+001 1.782680e-004 -4.946252e+001 9.984002e-001 -1.169963e+000
34498290 9.994479e-001 -3.941352e-001 1.184161e-004 -2.930826e+001 3.330660e-004 1.434015e+002 9.977257e-001 -1.155804e+000
34798275 1.000092e+000 -3.906507e-001 2.082040e-005 -5.573439e+001 1.375159e-004 -4.805333e+001 9.985905e-001 -1.190115e+000
35098260 9.998899e-001 -3.800301e-001 4.327376e-005 1.974557e+001 2.591400e-004 9.528329e+001 9.982079e-001 -1.147674e+000
35398245 1.000068e+000 -4.259090e-001 3.775208e-005 -3.822810e+001 2.427240e-004 -1.509982e+002 9.987081e-001 -1.103334e+000
35698230 1.000403e+000 -4.089838e-001 5.933352e-005 8.074139e+001 4.695190e-005 1.624973e+002 1.000159e+000 -1.185282e+000
35998215 1.000284e+000 -3.327157e-001 7.741159e-005 2.427676e+001 8.656411e-005 -1.280366e+002 9.988927e-001 -1.175414e+000
36298200 1.000452e+000 -3.836476e-001 1.045230e-005 1.470375e+002 1.078591e-004 3.989779e+001 9.980564e-001 -1.228225e+000
36598185 1.000552e+000 -4.104322e-001 4.339669e-005 -5.943528e+001 2.428133e-004 -1.208984e+002 9.990420e-001 -1.209082e+000
36898170 1.001375e+000 -3.862262e-001 7.003097e-005 8.949044e+001 5.302583e-005 1.650894e+001 9.982503e-001 -1.285886e+000
37198155 1.001268e+000 -3.856706e-001 4.792747e-005 -9.735590e+001 3.675044e-005 1.033042e+002 9.981912e-001 -1.219706e+000
37498140 1.000591e+000 -4.071745e-001 5.402292e-005 3.732994e+001 7.750512e-005 -9.485168e+000 9.989834e-001 -1.216322e+000
37798125 1.000732e+000 -4.093988e-001 9.880723e-005 -1.295760e+002 1.209864e-004 -1.259075e+002 9.981384e-001 -1.283189e+000
38098110 9.991963e-001 -3.641767e-001 4.976827e-005 5.993180e+001 2.339747e-004 -6.719263e+001 9.985074e-001 -1.287527e+000
38398095 9.999860e-001 -3.784485e-001 9.666777e-005 -2.108112e+001 1.018627e-004 -1.026996e+002 9.984732e-001 -1.279301e+000
38698080 9.999704e-001 -3.592062e-001 7.083985e-005 -1.920286e-003 1.174802e-004 1.063906e+001 9.981086e-001 -1.345374e+000
38998065 9.996676e-001 -3.900221e-001 1.285423e-004 -5.869344e+001 1.052417e-004 -1.354433e+002 9.980281e-001 -1.325780e+000
39298050 1.000380e+000 -3.895192e-001 4.540339e-005 5.492927e+001 1.598293e-004 -1.940126e+001 9.988724e-001 -1.278996e+000
39598035 1.000672e+000 -3.596474e-001 1.211925e-004 -1.319227e+001 8.493289e-005 8.754699e+001 9.998260e-001 -1.262995e+000
39898020 1.000572e+000 -3.809533e-001 9.640464e-005 8.820374e+001 2.393967e-004 -1.018638e+002 9.995642e-001 -1.215279e+000
40198005 1.000078e+000 -4.018135e-001 1.154707e-004 -6.436639e+001 2.272214e-004 -7.369883e+001 9.987839e-001 -1.415839e+000
40497990 1.001042e+000 -3.871584e-001 8.170645e-005 1.280829e+002 3.000111e-004 1.493574e+001 9.996784e-001 -1.419157e+000
40797975 1.000617e+000 -4.579779e-001 1.388844e-004 4.129657e+001 1.214386e-004 -6.059437e+001 9.990519e-001 -1.375875e+000
41097960 9.998301e-001 -3.643152e-001 1.959483e-005 -1.394644e+002 2.207287e-004 -4.376105e+001 9.981753e-001 -1.347311e+000
41397945 9.989931e-001 -3.569621e-001 1.523669e-004 -3.197485e+001 1.714688e-004 -2.668365e+001 9.997386e-001 -1.348128e+000
41697930 9.991025e-001 -3.511193e-001 2.897605e-004 -1.739047e+002 1.909182e-004 -1.535381e+001 9.986385e-001 -1.276780e+000
41997915 1.001307e+000 -4.075746e-001 1.240220e-004 -3.890027e+001 9.638572e-005 1.259121e+002 1.001018e+000 -1.286117e+000
42297900 1.000392e+000 -3.700942e-001 7.222647e-005 -1.549752e+002 1.338482e-004 -1.428006e+002 9.993994e-001 -1.359545e+000
42597885 1.001101e+000 -3.823136e-001 1.627415e-004 -1.237360e+002 1.462685e-004 -1.724488e+002 9.994888e-001 -1.451960e+000
42897870 1.000807e+000 -4.712721e-001 2.095076e-004 6.417302e+001 1.094196e-004 5.001616e+001 9.992217e-001 -1.420479e+000
43197855 1.001531e+000 -4.550928e-001 2.170786e-004 -1.177877e+001 1.736403e-004 1.779965e+002 9.981264e-001 -1.488426e+000
43497840 1.000653e+000 -4.533281e-001 1.639148e-004 9.578017e+001 7.751202e-005 8.517352e+001 9.986920e-001 -1.496959e+000
43797825 1.000962e+000 -4.538321e-001 5.675478e-005 -1.380207e+001 2.572052e-004 -6.534119e+001 9.980601e-001 -1.533164e+000
44097810 1.000595e+000 -4.386841e-001 3.643259e-005 2.269406e+001 2.050153e-004 1.015467e+002 9.983557e-001 -1.549532e+000
44397795 1.001779e+000 -4.032797e-001 3.993843e-005 2.375703e+001 1.052682e-004 6.267495e+001 9.997495e-001 -1.492800e+000
44697780 1.001933e+000 -4.761838e-001 1.231831e-004 -1.661616e+002 4.687753e-004 -9.496957e+000 1.000648e+000 -1.540116e+000
44997765 1.000696e+000 -4.605452e-001 1.457500e-004 -3.415676e+001 2.120682e-004 9.703517e+001 9.991448e-001 -1.559335e+000
45297750 1.001141e+000 -4.402147e-001 9.613804e-005 1.088260e+002 3.661624e-005 6.324062e+000 1.001992e+000 -1.562878e+000
45597735 1.001580e+000 -4.482307e-001 1.697505e-004 -1.384275e+002 3.585722e-004 4.899873e+000 1.001744e+000 -1.562580e+000
45897720 1.000862e+000 -4.475821e-001 1.264141e-004 -1.752443e+002 2.969245e-004 -1.121076e+002 1.002364e+000 -1.543340e+000
46197705 1.001391e+000 -5.081183e-001 1.524032e-004 -7.425264e+001 9.028493e-005 -8.265694e+000 9.998011e-001 -1.542716e+000
46497690 1.001615e+000 -3.949915e-001 3.951965e-005 3.024170e+001 2.781998e-004 8.037109e+001 1.001186e+000 -1.533386e+000
46797675 1.002145e+000 -4.234208e-001 3.258104e-005 1.039087e+002 4.135197e-004 5.874758e+001 9.990793e-001 -1.535765e+000
47097660 1.001024e+000 -5.017918e-001 8.535978e-005 -1.019402e+001 3.842927e-004 5.909213e+001 1.000455e+000 -1.746285e+000
