!Agilent Technologies,N5230C,SG49000117,A.08.50.07
!Agilent N5230C: A.08.50.07
!Date: Thursday, May 16, 2024 19:26:36
!Correction: S11(Full 2 Port(1,2)) 
!S21(Full 2 Port(1,2)) 
!S12(Full 2 Port(1,2)) 
!S22(Full 2 Port(1,2)) 
!S2P File: Measurements: S11, S21, S12, S22:
# Hz S  MA   R 50
300000 1.006376e+000 -4.717526e-001 1.299398e-004 -1.579807e+002 4.220079e-004 -9.191824e+001 1.016933e+000 -7.906876e-001
599985 9.834642e-001 2.885315e-001 1.360455e-005 -1.538076e+002 1.291558e-004 1.719787e+002 9.663838e-001 1.748050e-001
899970 9.972051e-001 -1.040712e-001 5.788826e-005 -2.021551e+001 1.625210e-004 1.749363e+002 9.857750e-001 -4.842039e-001
1199955 9.979990e-001 -7.648035e-002 5.683840e-005 -5.610676e+001 1.003593e-004 6.655921e+001 9.959546e-001 -2.313459e-001
1499940 9.941142e-001 1.220741e-001 4.209926e-005 -1.594556e+002 8.593495e-005 1.628024e+002 9.913799e-001 2.074026e-002
1799925 9.919533e-001 2.251334e-001 1.311637e-004 9.106414e+001 1.459896e-004 1.605490e+002 9.898729e-001 -8.286802e-002
2099910 9.988911e-001 -6.525700e-003 5.805665e-006 -1.531808e+001 1.265423e-004 -1.530885e+002 9.977148e-001 -9.808724e-003
2399895 9.994550e-001 -1.566678e-001 7.202195e-005 1.261840e+002 1.267079e-004 8.763255e+001 1.003286e+000 -8.980116e-002
2699880 9.997686e-001 -2.544686e-001 1.644745e-004 -5.581291e+001 1.237752e-004 -1.483624e+002 9.945097e-001 -3.080668e-001
2999865 9.998088e-001 -1.101608e-001 1.012245e-004 -1.550013e+002 8.075927e-005 -1.428508e+002 9.979729e-001 -2.107164e-001
3299850 1.000363e+000 -1.374168e-001 5.586049e-005 -6.065646e+001 1.477893e-004 -1.584360e+002 9.970454e-001 -3.053103e-001
3599835 1.000668e+000 -1.067730e-001 3.831632e-005 6.656746e+001 1.088133e-004 -5.886338e+001 9.974014e-001 -3.006232e-001
3899820 9.994128e-001 -1.472045e-001 2.906455e-005 3.532326e+001 1.831042e-004 -1.388001e+002 9.981205e-001 -2.548262e-001
4199805 1.001025e+000 -1.751369e-001 7.240595e-005 1.185355e+002 1.758983e-004 -9.879944e+001 9.992098e-001 -3.021238e-001
4499790 1.000942e+000 -1.382812e-001 1.030089e-004 -3.255990e+001 2.125079e-004 -1.441286e+002 9.990941e-001 -3.519885e-001
4799775 1.000032e+000 -1.077695e-001 3.456595e-005 -1.321840e+001 1.429450e-004 1.303412e+002 9.991890e-001 -3.047699e-001
5099760 1.000372e+000 -1.364322e-001 3.892680e-005 1.242003e+002 2.070781e-004 1.138104e+002 9.998725e-001 -2.693479e-001
5399745 1.000568e+000 -1.156881e-001 8.100100e-005 5.370443e+001 9.366820e-005 -1.170641e+002 9.990969e-001 -3.085813e-001
5699730 1.000002e+000 -1.201685e-001 5.427418e-005 -6.809756e+001 1.837819e-004 -3.939587e+001 1.000443e+000 -3.261719e-001
5999715 9.994645e-001 -1.107456e-001 5.394961e-005 -1.060307e+002 8.580488e-005 1.057876e+002 9.994011e-001 -3.110338e-001
6299700 1.000113e+000 -1.290254e-001 6.070944e-005 1.385502e+001 2.919967e-004 1.166041e+002 9.988608e-001 -3.407438e-001
6599685 9.999146e-001 -1.321301e-001 5.296143e-005 -5.934828e+001 2.587250e-004 -1.371220e+002 9.993328e-001 -3.204167e-001
6899670 9.996674e-001 -1.217719e-001 5.170485e-005 -7.780289e+001 1.406446e-004 1.120563e+002 9.987376e-001 -3.750414e-001
7199655 9.998433e-001 -1.260781e-001 1.822676e-005 -4.695875e+001 1.007407e-004 8.389545e+001 9.990414e-001 -4.357987e-001
7499640 9.996362e-001 -1.732331e-001 6.797249e-005 -1.329346e+002 1.831879e-004 8.358105e+001 9.992262e-001 -4.325207e-001
7799625 1.000271e+000 -1.495078e-001 5.273292e-005 -1.563204e+002 1.925081e-004 -1.632956e+002 9.976460e-001 -4.179616e-001
8099610 1.000531e+000 -1.424286e-001 1.641407e-005 1.538876e+002 2.716605e-004 -1.004490e+002 9.980302e-001 -4.073338e-001
8399595 1.000023e+000 -1.738210e-001 3.889407e-005 6.529010e+001 3.471970e-005 1.543310e+002 9.977409e-001 -4.585716e-001
8699580 1.000088e+000 -1.357098e-001 5.204323e-005 1.171370e+002 1.159202e-004 -1.435428e+002 9.988039e-001 -4.664441e-001
8999565 1.000085e+000 -1.373554e-001 7.972092e-005 -2.439073e+001 1.933682e-004 5.153990e+000 9.994229e-001 -3.913645e-001
9299550 9.998452e-001 -1.328674e-001 2.495130e-005 1.763421e+002 7.227277e-005 -1.598813e+002 9.980358e-001 -4.463642e-001
9599535 9.996722e-001 -1.800128e-001 2.525951e-005 1.449650e+002 1.200577e-004 -8.435766e-001 9.968718e-001 -5.872821e-001
9899520 9.999906e-001 -2.666396e-001 8.131269e-005 -3.347133e+001 6.914425e-005 5.510171e+001 9.957443e-001 -6.899027e-001
10199505 1.000824e+000 -1.277397e-001 6.591510e-005 1.336042e+002 4.907156e-005 1.254854e+002 9.981160e-001 -4.639164e-001
10499490 1.000168e+000 -1.596256e-001 7.153994e-005 -1.054301e+002 2.349009e-004 1.672979e+001 9.984738e-001 -4.807691e-001
10799475 1.000091e+000 -1.344746e-001 5.430787e-005 7.815252e+001 1.180443e-004 -6.056887e+001 9.979865e-001 -4.657938e-001
11099460 9.999024e-001 -1.453504e-001 4.341556e-005 2.560024e+001 6.062173e-005 -4.814523e+001 9.983958e-001 -5.134920e-001
11399445 1.000095e+000 -1.520758e-001 8.678541e-005 2.770038e+001 9.622282e-005 1.463582e+002 9.972614e-001 -4.748182e-001
11699430 1.000357e+000 -1.554808e-001 5.955539e-005 4.419426e+001 1.739656e-004 6.373610e+001 9.996275e-001 -4.325307e-001
11999415 9.999779e-001 -1.344616e-001 8.117259e-005 -1.644749e+002 5.146923e-005 -1.591196e+002 9.994355e-001 -4.811131e-001
12299400 9.996800e-001 -1.757527e-001 5.645086e-005 -1.697539e+002 4.749373e-005 2.460000e+001 9.997436e-001 -5.198243e-001
12599385 1.000156e+000 -1.478810e-001 3.146374e-005 1.260801e+002 1.294847e-004 -9.485306e+001 9.997441e-001 -5.727563e-001
12899370 1.000251e+000 -1.915612e-001 5.368928e-005 6.967036e+001 1.577659e-004 1.770054e+002 9.986379e-001 -7.003925e-001
13199355 1.000078e+000 -1.908296e-001 2.243520e-005 -2.544002e+001 2.940096e-004 3.804363e+001 9.981248e-001 -6.018754e-001
13499340 9.999819e-001 -2.256888e-001 7.933710e-005 1.578098e+002 2.501928e-004 5.749197e+001 9.972366e-001 -5.997591e-001
13799325 9.999468e-001 -1.892406e-001 2.669325e-005 -2.801534e+001 1.923171e-004 -8.066537e+001 9.976380e-001 -6.073140e-001
14099310 9.996905e-001 -2.038413e-001 6.726780e-005 -4.882066e+001 2.035576e-004 6.394551e+001 9.990889e-001 -5.961660e-001
14399295 9.999041e-001 -1.951716e-001 1.097622e-006 -1.916035e+001 3.676385e-005 -4.833926e+001 9.994704e-001 -6.056439e-001
14699280 1.000291e+000 -1.852273e-001 9.522973e-005 -9.432130e+001 2.177878e-004 -1.144010e+002 9.988424e-001 -6.059348e-001
14999265 9.998604e-001 -1.836543e-001 5.382843e-005 1.151570e+002 1.498953e-004 1.133695e+002 9.978417e-001 -6.510268e-001
15299250 9.995549e-001 -1.731440e-001 1.000390e-004 -1.497785e+002 2.355490e-004 -1.544552e+002 9.984034e-001 -6.541313e-001
15599235 9.999847e-001 -2.198744e-001 1.320377e-004 2.417852e+001 9.350406e-005 -1.528764e+002 9.989718e-001 -7.045332e-001
15899220 1.000887e+000 -1.657695e-001 6.667459e-005 -5.162989e+001 3.736451e-005 -1.799897e+002 9.989468e-001 -6.291931e-001
16199205 1.000638e+000 -1.957078e-001 3.648567e-005 4.265606e+001 2.832126e-004 6.474581e+001 1.001620e+000 -6.592261e-001
16499190 1.000665e+000 -1.905118e-001 6.718102e-005 1.186479e+002 1.319938e-004 -1.697506e+002 9.998062e-001 -6.595098e-001
16799175 1.000095e+000 -1.891278e-001 1.030114e-004 5.492075e+001 4.532372e-004 -5.050045e+001 1.001256e+000 -6.378217e-001
17099160 9.997815e-001 -2.208091e-001 8.381682e-005 -6.629199e+001 2.116212e-004 1.488636e+002 9.999422e-001 -7.377883e-001
17399145 9.996523e-001 -2.408023e-001 5.396996e-005 1.127604e+002 3.532777e-004 -4.913388e+001 9.989519e-001 -7.436988e-001
17699130 1.000375e+000 -2.549064e-001 3.246317e-005 -8.380856e+001 3.158136e-004 1.020458e+002 9.996194e-001 -7.130271e-001
17999115 1.000448e+000 -2.048435e-001 5.739078e-005 1.332889e+002 2.026328e-004 -2.366838e+001 9.991673e-001 -7.817395e-001
18299100 1.000298e+000 -1.883262e-001 1.169889e-005 1.416597e+002 7.799394e-005 1.262778e+002 9.985231e-001 -6.571066e-001
18599085 1.000007e+000 -2.077124e-001 1.562464e-004 8.737598e+001 3.687077e-005 1.582387e+002 1.000170e+000 -7.558743e-001
18899070 1.000066e+000 -2.411894e-001 6.804302e-005 -7.846456e+001 3.444324e-004 5.460910e+001 1.000084e+000 -6.708119e-001
19199055 1.000610e+000 -2.464402e-001 4.838036e-005 6.913808e+001 5.139925e-005 6.392780e+001 9.983497e-001 -7.171418e-001
19499040 1.000320e+000 -2.503687e-001 1.044959e-004 1.468938e+002 3.876007e-004 6.678283e+001 9.983513e-001 -7.596207e-001
19799025 1.000544e+000 -2.149581e-001 9.416936e-005 -6.908679e+000 2.979898e-004 -1.196143e+002 9.978597e-001 -6.870463e-001
20099010 1.000375e+000 -2.365291e-001 4.719934e-005 1.146173e+002 1.204072e-004 1.942982e+001 9.981809e-001 -7.416151e-001
20398995 1.000174e+000 -2.386309e-001 1.152139e-004 -1.516799e+002 1.581856e-004 1.374277e+002 9.990481e-001 -8.039131e-001
20698980 9.989293e-001 -2.389205e-001 1.056855e-004 -1.018741e+001 1.869104e-004 -8.577716e+001 9.981435e-001 -8.598596e-001
20998965 9.995257e-001 -2.336328e-001 7.386175e-005 -3.918499e+001 3.142267e-004 1.097346e+002 9.980265e-001 -7.486583e-001
21298950 9.989502e-001 -2.294635e-001 8.852015e-005 1.056646e+001 1.254431e-004 -7.299635e+001 9.952803e-001 -7.501537e-001
21598935 9.996328e-001 -2.497004e-001 7.780272e-005 6.091222e+001 1.220643e-004 9.435934e+001 9.981968e-001 -7.516005e-001
21898920 9.996845e-001 -2.654055e-001 6.337784e-005 1.974602e+001 1.811122e-004 -5.510097e+001 9.994679e-001 -7.678497e-001
22198905 9.998032e-001 -2.626492e-001 6.797275e-005 -1.068982e+002 1.112541e-004 6.744250e+001 9.978164e-001 -8.407881e-001
22498890 1.000048e+000 -2.330312e-001 1.156237e-004 -1.476237e+002 4.428995e-005 6.943362e+001 1.000381e+000 -8.845853e-001
22798875 1.000884e+000 -2.261401e-001 6.712797e-005 4.982108e+001 2.061808e-004 -9.781351e+001 9.999908e-001 -8.133155e-001
23098860 1.000260e+000 -2.759777e-001 5.956665e-005 1.036091e+002 2.095870e-004 1.282016e+002 9.988728e-001 -8.328055e-001
23398845 9.999715e-001 -2.648880e-001 6.459189e-005 -1.376441e+002 1.421772e-004 2.198098e+001 9.988589e-001 -8.643484e-001
23698830 1.000242e+000 -2.766610e-001 1.427303e-004 -1.619192e+002 2.979843e-004 1.321674e+002 9.981698e-001 -8.936055e-001
23998815 9.998037e-001 -2.710455e-001 3.102365e-005 -1.298462e+002 2.978041e-004 -8.493882e+001 9.957228e-001 -9.315737e-001
24298800 9.997677e-001 -2.810927e-001 3.365975e-005 1.485200e+002 3.221486e-004 8.229440e+001 9.991848e-001 -9.425995e-001
24598785 9.997985e-001 -2.592745e-001 3.954680e-005 -1.302131e+002 9.730110e-005 -1.478824e+002 9.976554e-001 -8.606386e-001
24898770 1.000540e+000 -2.925950e-001 6.960808e-005 -9.669336e+001 2.476453e-004 -3.651847e+001 9.989919e-001 -9.119015e-001
25198755 9.998701e-001 -3.149010e-001 4.328862e-005 -1.428335e+001 3.427480e-004 -1.752799e+002 9.990371e-001 -9.555244e-001
25498740 1.000505e+000 -2.647166e-001 6.299091e-005 3.917952e+000 2.287306e-004 -5.894335e+001 9.987005e-001 -9.805526e-001
25798725 1.000083e+000 -3.067814e-001 9.364055e-005 -4.353260e+001 1.428462e-004 7.389740e+001 9.994841e-001 -1.040619e+000
26098710 1.000837e+000 -2.610687e-001 6.297727e-005 -3.953966e+000 2.212206e-004 -7.911551e+001 9.988101e-001 -9.835376e-001
26398695 1.001152e+000 -3.039824e-001 7.582271e-005 5.803661e+001 2.299168e-004 1.473158e+002 9.994114e-001 -9.950988e-001
26698680 1.001520e+000 -2.909015e-001 1.338275e-004 -1.591971e+002 2.645909e-004 -1.588392e+001 9.984573e-001 -9.702438e-001
26998665 1.000247e+000 -2.606936e-001 9.591704e-005 -1.468792e+002 3.056510e-004 1.012955e+002 9.985220e-001 -1.084150e+000
27298650 9.999350e-001 -2.864096e-001 6.354997e-005 1.351658e+002 2.057547e-004 -9.676405e+001 9.995701e-001 -9.511031e-001
27598635 1.000767e+000 -2.481989e-001 1.354722e-004 -8.503496e+001 1.015543e-004 8.989983e+001 9.995697e-001 -9.955248e-001
27898620 1.000222e+000 -3.000254e-001 9.634046e-005 5.445796e+001 4.752491e-005 -1.611143e+002 1.000055e+000 -1.071279e+000
28198605 9.998506e-001 -3.054924e-001 7.001955e-005 -1.009638e+000 2.560910e-004 1.482089e+001 1.000491e+000 -1.080356e+000
28498590 9.999955e-001 -3.427492e-001 6.138955e-005 9.982108e+001 1.046599e-004 -1.116116e+002 9.986265e-001 -1.162462e+000
28798575 1.000005e+000 -3.198258e-001 2.852192e-005 -1.655285e+002 1.393646e-004 1.046163e+002 9.981012e-001 -1.163328e+000
29098560 9.999794e-001 -3.026703e-001 7.182422e-005 -3.861881e+001 1.712110e-004 1.477734e+002 9.988160e-001 -1.091340e+000
29398545 1.000520e+000 -3.077932e-001 5.867049e-005 -1.494965e+002 8.790120e-005 7.552098e+000 9.990439e-001 -1.042368e+000
29698530 9.997520e-001 -2.878234e-001 1.199773e-004 1.627016e+001 1.450357e-004 1.552043e+002 9.994127e-001 -1.116066e+000
29998515 9.999622e-001 -2.889725e-001 5.409467e-005 -2.436495e+001 1.839271e-004 -8.911931e+001 9.988120e-001 -1.136160e+000
30298500 1.000440e+000 -2.840510e-001 7.442949e-005 -1.226440e+002 1.074938e-004 1.294353e+000 9.991688e-001 -1.144947e+000
30598485 1.000613e+000 -2.999116e-001 4.691019e-005 -3.593433e+001 2.699764e-004 -8.318327e+001 9.989185e-001 -1.187938e+000
30898470 1.000091e+000 -2.808493e-001 1.055538e-004 3.824084e+001 2.033414e-004 8.525113e+001 9.979571e-001 -1.176640e+000
31198455 1.000529e+000 -2.752843e-001 4.057338e-005 -2.258149e+001 2.026036e-004 -9.647249e+001 9.984765e-001 -1.141948e+000
31498440 1.000479e+000 -3.067089e-001 1.163244e-004 -9.542598e+001 3.376083e-004 1.147749e+002 9.991488e-001 -1.092207e+000
31798425 1.000573e+000 -3.616897e-001 4.096176e-005 -4.654957e+001 1.428574e-004 1.715046e+002 1.000227e+000 -1.196630e+000
32098410 1.000198e+000 -3.720535e-001 1.900227e-004 8.700282e+000 1.240304e-004 9.317677e+001 9.991491e-001 -1.104365e+000
32398395 1.001355e+000 -3.796674e-001 3.974549e-005 -2.415037e+000 9.112146e-005 -1.065605e+002 9.995114e-001 -1.228598e+000
32698380 1.000553e+000 -3.775347e-001 1.114681e-004 -2.328822e+001 2.803785e-004 8.835947e+001 9.987020e-001 -1.169823e+000
32998365 1.000876e+000 -3.417521e-001 1.386224e-004 5.481334e+001 6.744242e-005 -5.103583e+001 9.988693e-001 -1.181072e+000
33298350 1.000475e+000 -3.011361e-001 1.158255e-004 -1.170620e+002 1.845894e-004 -1.011002e+001 9.990277e-001 -1.257766e+000
33598335 9.999915e-001 -3.527091e-001 1.161035e-004 -7.830947e+001 1.390660e-004 -1.708900e+002 9.983400e-001 -1.246013e+000
33898320 1.000182e+000 -3.379663e-001 1.437981e-005 -1.761783e+002 1.697749e-004 3.375195e+001 9.982424e-001 -1.278033e+000
34198305 9.995412e-001 -3.758801e-001 3.738050e-005 9.075329e+001 5.692624e-005 -1.743773e+002 9.982645e-001 -1.233991e+000
34498290 9.996758e-001 -3.600768e-001 9.557603e-005 -1.162644e+002 2.331884e-004 -2.472088e+001 9.980924e-001 -1.249456e+000
34798275 9.997270e-001 -3.781601e-001 4.506332e-005 -9.652948e+001 1.700705e-004 1.457840e+002 9.986897e-001 -1.230669e+000
35098260 1.000540e+000 -3.746265e-001 9.862259e-005 7.900938e+001 2.699597e-004 8.399033e+000 9.994537e-001 -1.235592e+000
35398245 1.000291e+000 -4.222380e-001 4.109860e-005 -1.661210e+002 1.503664e-004 1.622611e+002 9.993944e-001 -1.190775e+000
35698230 9.999064e-001 -4.074552e-001 7.741369e-005 7.940076e+001 2.545926e-004 -6.129520e+001 9.988773e-001 -1.329183e+000
35998215 9.997800e-001 -3.912292e-001 7.276261e-005 -1.098992e+002 2.067319e-004 7.796841e+001 9.988386e-001 -1.286045e+000
36298200 1.000911e+000 -3.866531e-001 1.244518e-004 -9.586712e+001 1.935829e-004 -3.066898e+001 9.986284e-001 -1.337872e+000
36598185 1.000698e+000 -3.937592e-001 5.919216e-005 -4.017120e+001 1.818708e-004 1.714531e+002 9.987208e-001 -1.308119e+000
36898170 1.000258e+000 -4.030831e-001 1.070352e-004 -9.933292e+001 1.054613e-004 -1.267783e+002 9.981046e-001 -1.329407e+000
37198155 1.001702e+000 -4.390574e-001 2.748991e-005 -8.824336e+001 1.387139e-004 -4.605182e+001 9.985827e-001 -1.334076e+000
37498140 9.998888e-001 -3.894033e-001 7.890946e-005 -9.775930e+001 2.993716e-004 -1.058342e+002 9.995196e-001 -1.343013e+000
37798125 1.000851e+000 -3.676069e-001 8.215015e-005 -3.369803e+001 2.003624e-004 1.064259e+002 9.994135e-001 -1.368894e+000
38098110 9.999135e-001 -3.813598e-001 9.607933e-005 1.194033e+002 7.029744e-005 -7.044086e+001 9.983993e-001 -1.371123e+000
38398095 9.997680e-001 -4.267275e-001 1.030205e-004 1.171289e+001 1.239042e-004 8.641902e+001 9.977390e-001 -1.407845e+000
38698080 9.998294e-001 -4.020865e-001 2.653049e-005 -1.427988e+002 6.831585e-005 -1.056322e+001 9.977239e-001 -1.453216e+000
38998065 1.000649e+000 -4.163888e-001 3.661224e-005 1.245280e+002 1.744227e-004 2.953019e+001 9.973325e-001 -1.379190e+000
39298050 1.000357e+000 -4.177803e-001 5.483196e-005 -8.614607e+001 1.172301e-004 -1.289828e+002 9.986255e-001 -1.383026e+000
39598035 1.000585e+000 -3.992417e-001 5.363176e-005 6.187970e+001 1.436478e-004 3.791142e+001 9.990811e-001 -1.367500e+000
39898020 1.001209e+000 -3.547216e-001 1.257090e-005 2.626513e+001 2.402589e-005 1.917104e+001 9.986031e-001 -1.350191e+000
40198005 1.000434e+000 -4.407070e-001 8.517635e-005 -1.733334e+002 6.511688e-005 -1.666661e+002 1.000727e+000 -1.519858e+000
40497990 1.000173e+000 -3.962387e-001 1.184347e-004 -5.329728e+001 3.075781e-004 -3.168880e+001 1.000567e+000 -1.535844e+000
40797975 1.000217e+000 -4.305743e-001 1.415201e-004 -1.591224e+002 1.320674e-004 -4.296712e+001 1.000998e+000 -1.497163e+000
41097960 9.997263e-001 -4.322411e-001 1.727659e-004 -6.783497e+001 8.112409e-005 1.632721e+001 9.996513e-001 -1.443254e+000
41397945 9.993609e-001 -3.838540e-001 1.280314e-004 -1.355027e+002 2.055868e-004 -1.313602e+002 9.988183e-001 -1.433656e+000
41697930 9.995790e-001 -3.778860e-001 5.058136e-005 1.309350e+002 3.983078e-004 9.230988e+001 9.988897e-001 -1.406385e+000
41997915 9.997746e-001 -3.472600e-001 2.012259e-004 -7.400282e+001 3.552212e-004 1.340056e+002 9.996021e-001 -1.476754e+000
42297900 9.997493e-001 -3.533116e-001 6.730277e-005 1.299750e+001 3.299083e-004 -2.187041e+001 9.981294e-001 -1.411535e+000
42597885 1.000231e+000 -4.172309e-001 6.847987e-005 -5.590430e+001 4.072193e-005 6.171128e+001 9.994599e-001 -1.478688e+000
42897870 1.000790e+000 -3.946617e-001 1.236962e-004 2.249874e+001 2.349165e-004 9.039780e+001 9.983097e-001 -1.629251e+000
43197855 1.000478e+000 -4.149408e-001 1.048246e-004 1.303577e+002 5.320298e-004 -7.149207e+001 9.986144e-001 -1.582221e+000
43497840 1.000932e+000 -4.607926e-001 1.122635e-004 -1.978158e+001 1.362182e-004 -5.891648e+000 9.989883e-001 -1.599712e+000
43797825 1.000540e+000 -4.584168e-001 1.486626e-004 -9.803628e+001 1.450778e-004 -5.161269e+001 9.997568e-001 -1.614856e+000
44097810 1.000630e+000 -4.751764e-001 1.738696e-004 1.746402e+002 1.445949e-004 -1.560180e+002 9.991727e-001 -1.591137e+000
44397795 1.000516e+000 -4.319474e-001 1.624373e-004 -8.049863e+001 2.041297e-004 3.198755e+001 1.000744e+000 -1.623072e+000
44697780 1.001329e+000 -4.652413e-001 1.922961e-004 1.103723e+002 4.633167e-005 -6.524988e+001 1.000267e+000 -1.591123e+000
44997765 1.001100e+000 -5.325450e-001 1.902575e-004 -1.272904e+002 4.610187e-004 1.472187e+002 1.001575e+000 -1.592789e+000
45297750 1.001438e+000 -4.897746e-001 1.650627e-004 -8.800135e+000 1.184980e-004 -1.873342e+001 1.000052e+000 -1.658846e+000
45597735 1.001215e+000 -5.390174e-001 1.410326e-004 1.175262e+002 4.226274e-004 3.163894e+001 1.000122e+000 -1.553384e+000
45897720 1.001273e+000 -4.644319e-001 1.307156e-004 -1.327722e+002 1.689372e-004 1.370058e+002 1.000133e+000 -1.628055e+000
46197705 1.001558e+000 -4.659240e-001 4.821880e-005 8.193336e+000 1.279659e-004 1.130298e+002 1.000313e+000 -1.617653e+000
46497690 1.000905e+000 -4.334786e-001 1.294067e-004 -1.000397e+002 1.538015e-004 -1.111049e+002 1.000365e+000 -1.560920e+000
46797675 1.001566e+000 -5.151166e-001 6.695365e-005 -9.645896e+001 1.599755e-004 -3.118068e+000 1.001057e+000 -1.782351e+000
47097660 1.001428e+000 -5.318096e-001 1.849478e-004 9.454841e+000 1.821316e-004 1.414666e+002 9.981766e-001 -1.755578e+000
