!Agilent Technologies,N5230C,SG49000117,A.08.50.07
!Agilent N5230C: A.08.50.07
!Date: Sunday, March 17, 2024 01:15:41
!Correction: S11(Off) 
!S21(Off) 
!S12(Off) 
!S22(Full 1 Port(2)) 
!S2P File: Measurements: S11, S21, S12, S22:
# Hz S  RI   R 50
300000000 -1.538691e-006 1.661078e-006 -6.141401e-001 -6.612460e-001 -9.880907e-006 2.578653e-006 1.016310e+000 -1.333490e-001
300285000 8.771705e-006 -8.994120e-006 -6.298969e-001 -6.382246e-001 -6.353080e-006 -8.328999e-006 1.016938e+000 -1.329895e-001
300570000 4.218100e-006 1.221971e-005 -6.449729e-001 -6.148914e-001 1.593616e-005 -4.742787e-007 1.017381e+000 -1.335883e-001
300855000 9.687617e-006 4.693496e-006 -6.589622e-001 -5.914097e-001 1.305051e-005 5.130159e-007 1.017714e+000 -1.330651e-001
301140000 -6.399023e-006 -1.539035e-005 -6.721792e-001 -5.679294e-001 9.148826e-006 5.874196e-006 1.017149e+000 -1.339760e-001
301425000 1.534266e-005 -1.122115e-007 -6.845432e-001 -5.443713e-001 3.259152e-006 6.126823e-006 1.018051e+000 -1.335267e-001
301710000 9.305948e-006 4.489206e-006 -6.960205e-001 -5.206964e-001 -1.731249e-006 7.766366e-006 1.018342e+000 -1.352542e-001
301995000 -6.621788e-007 3.015644e-006 -7.068409e-001 -4.971969e-001 1.518942e-006 -1.279440e-006 1.017078e+000 -1.335469e-001
302280000 5.242472e-006 1.613049e-005 -7.167501e-001 -4.736918e-001 7.811550e-007 -3.622408e-006 1.017925e+000 -1.341469e-001
302565000 -1.330193e-005 -1.250601e-005 -7.259983e-001 -4.502262e-001 1.991055e-006 7.203821e-006 1.018555e+000 -1.346466e-001
302850000 -8.643586e-006 -1.436134e-006 -7.344263e-001 -4.269263e-001 -1.250790e-006 -8.810765e-006 1.016991e+000 -1.335638e-001
303135000 -3.176860e-006 5.761890e-006 -7.421768e-001 -4.035541e-001 1.641170e-007 6.306642e-006 1.017186e+000 -1.345949e-001
303420000 -1.167071e-005 2.789657e-007 -7.493544e-001 -3.804367e-001 -4.618732e-006 7.840137e-006 1.016928e+000 -1.361391e-001
303705000 -1.108034e-005 1.135357e-006 -7.557974e-001 -3.573773e-001 -9.682602e-006 1.213222e-005 1.019050e+000 -1.353348e-001
303990000 5.501295e-007 -7.367575e-006 -7.615968e-001 -3.344665e-001 -3.156907e-007 6.192786e-006 1.016748e+000 -1.346300e-001
304275000 6.833577e-006 -1.784995e-005 -7.668740e-001 -3.116920e-001 4.670975e-006 -1.697973e-007 1.017388e+000 -1.352117e-001
304560000 9.982400e-006 -1.682172e-006 -7.714822e-001 -2.889859e-001 -1.851240e-005 6.067759e-007 1.017468e+000 -1.349671e-001
304845000 7.818892e-006 -7.874349e-006 -7.756131e-001 -2.665150e-001 -2.955135e-006 -1.890015e-006 1.016722e+000 -1.350732e-001
305130000 9.900624e-006 -1.199544e-005 -7.791584e-001 -2.441911e-001 -2.376866e-006 4.732233e-006 1.016250e+000 -1.350462e-001
305415000 1.925436e-005 -7.312407e-006 -7.821587e-001 -2.219547e-001 -1.087143e-005 -2.365700e-005 1.017313e+000 -1.356137e-001
305700000 -1.489159e-006 8.061397e-007 -7.846013e-001 -1.999304e-001 -7.365715e-006 -1.551788e-005 1.017724e+000 -1.351608e-001
305985000 -2.438034e-006 2.205337e-006 -7.866248e-001 -1.779570e-001 -1.389167e-007 -1.376631e-005 1.018116e+000 -1.363648e-001
306270000 -1.254411e-005 3.120056e-006 -7.880310e-001 -1.562110e-001 3.077005e-006 -1.385107e-005 1.018900e+000 -1.347757e-001
306555000 4.669319e-006 1.142636e-005 -7.891585e-001 -1.345670e-001 6.818187e-007 -4.508737e-007 1.018458e+000 -1.372800e-001
306840000 -7.778267e-006 5.622328e-007 -7.896847e-001 -1.130542e-001 5.769201e-006 -1.475792e-005 1.017037e+000 -1.350535e-001
307125000 1.100760e-005 6.173155e-006 -7.898899e-001 -9.167667e-002 6.564530e-006 -2.192462e-006 1.017164e+000 -1.363297e-001
307410000 3.047309e-006 -4.431328e-006 -7.895626e-001 -7.055903e-002 6.276000e-006 -2.434236e-005 1.017871e+000 -1.365522e-001
307695000 -2.458471e-006 9.700788e-006 -7.887873e-001 -4.956665e-002 3.338164e-006 -2.928738e-006 1.018196e+000 -1.372025e-001
307980000 -5.213979e-006 -1.684348e-005 -7.878090e-001 -2.866672e-002 1.473344e-005 -4.996623e-006 1.016780e+000 -1.370199e-001
308265000 -9.351746e-006 -8.625080e-007 -7.862811e-001 -7.966038e-003 -8.246285e-006 5.605756e-006 1.016806e+000 -1.371549e-001
308550000 -5.564509e-006 5.278987e-006 -7.843853e-001 1.264617e-002 6.463628e-006 -5.886811e-006 1.016405e+000 -1.364022e-001
308835000 1.051349e-008 -1.548265e-006 -7.820843e-001 3.309992e-002 1.961604e-006 -1.062452e-006 1.016585e+000 -1.377214e-001
309120000 3.392894e-006 -7.526216e-006 -7.794957e-001 5.338019e-002 6.763965e-006 -3.818061e-006 1.018312e+000 -1.385018e-001
309405000 9.836544e-007 -5.802714e-006 -7.764812e-001 7.358682e-002 1.619302e-006 -2.509512e-006 1.019626e+000 -1.373366e-001
309690000 2.696884e-006 1.947615e-006 -7.731000e-001 9.367701e-002 -4.129678e-006 -1.137815e-005 1.018431e+000 -1.374903e-001
309975000 -1.666818e-005 4.616484e-006 -7.693151e-001 1.136186e-001 8.588362e-006 -9.531727e-006 1.017091e+000 -1.377332e-001
310260000 2.931635e-006 -2.437819e-006 -7.652218e-001 1.334354e-001 6.031622e-006 5.464139e-006 1.019189e+000 -1.375993e-001
310545000 -1.156379e-006 -6.505691e-006 -7.608291e-001 1.531572e-001 4.087777e-006 -2.502191e-006 1.017922e+000 -1.386156e-001
310830000 9.589957e-006 9.064946e-006 -7.560294e-001 1.727432e-001 7.312603e-006 -6.955640e-006 1.019302e+000 -1.384968e-001
311115000 -1.220946e-005 -8.393188e-006 -7.508547e-001 1.922719e-001 2.679235e-006 -4.813462e-006 1.017465e+000 -1.383383e-001
311400000 6.983956e-006 -2.408273e-006 -7.453294e-001 2.116076e-001 1.296920e-005 -6.011453e-006 1.017717e+000 -1.385877e-001
311685000 -1.403134e-005 -4.445807e-006 -7.394520e-001 2.308960e-001 3.792131e-006 -3.309799e-006 1.018365e+000 -1.383036e-001
311970000 -8.985940e-006 -3.317163e-006 -7.332592e-001 2.500827e-001 -5.855402e-006 9.817769e-006 1.016616e+000 -1.385579e-001
312255000 -6.032903e-006 -4.240044e-006 -7.267340e-001 2.691574e-001 1.253658e-005 6.948354e-006 1.017586e+000 -1.387254e-001
312540000 3.074599e-006 -1.099121e-005 -7.198004e-001 2.882342e-001 9.008904e-006 -6.263504e-006 1.017422e+000 -1.390330e-001
312825000 -8.689468e-006 -1.285525e-005 -7.124628e-001 3.071281e-001 -7.949030e-006 9.035067e-006 1.017664e+000 -1.395616e-001
313110000 2.192326e-006 5.655295e-006 -7.047617e-001 3.260106e-001 -8.749988e-007 -1.554975e-006 1.017677e+000 -1.405991e-001
313395000 -5.735946e-006 -6.704279e-007 -6.967590e-001 3.447331e-001 -1.076169e-005 1.548835e-005 1.017633e+000 -1.388537e-001
313680000 -1.133919e-005 -1.709372e-007 -6.882655e-001 3.634409e-001 -3.764215e-006 5.844599e-006 1.018762e+000 -1.389743e-001
313965000 3.221096e-006 -1.771864e-005 -6.794801e-001 3.820581e-001 1.213691e-005 1.625644e-006 1.018097e+000 -1.396389e-001
314250000 6.356444e-006 4.450402e-006 -6.702610e-001 4.005126e-001 -9.118862e-006 -6.339604e-006 1.016872e+000 -1.397917e-001
314535000 -3.691698e-006 -2.615626e-006 -6.606272e-001 4.189759e-001 6.292434e-006 7.203887e-006 1.017298e+000 -1.396696e-001
314820000 -8.697870e-006 -3.236258e-006 -6.506806e-001 4.373190e-001 2.082574e-007 1.402666e-005 1.017481e+000 -1.407941e-001
315105000 1.406852e-005 7.294211e-006 -6.401560e-001 4.555745e-001 9.942740e-007 9.598056e-006 1.015052e+000 -1.407498e-001
315390000 1.272093e-005 7.983902e-006 -6.293355e-001 4.737348e-001 -6.464475e-006 -6.265543e-006 1.018170e+000 -1.405926e-001
315675000 6.334198e-006 1.110351e-005 -6.179744e-001 4.918616e-001 8.619424e-006 -6.292787e-006 1.016611e+000 -1.398125e-001
315960000 -9.485354e-006 2.304813e-006 -6.062143e-001 5.098037e-001 1.172747e-005 -1.179257e-006 1.016938e+000 -1.404817e-001
316245000 -7.366176e-006 7.263834e-006 -5.939292e-001 5.276923e-001 1.743374e-006 8.195007e-006 1.016283e+000 -1.404792e-001
316530000 -6.989914e-006 -7.034891e-006 -5.812500e-001 5.455112e-001 1.425240e-005 1.076003e-006 1.017513e+000 -1.411338e-001
316815000 -1.493965e-005 -1.468425e-005 -5.680060e-001 5.631778e-001 -8.764401e-006 6.866203e-006 1.017855e+000 -1.399971e-001
317100000 5.818753e-006 -1.965480e-005 -5.544068e-001 5.807070e-001 -6.158480e-006 -5.208859e-006 1.016505e+000 -1.401370e-001
317385000 -1.112325e-005 -2.402348e-005 -5.400612e-001 5.981282e-001 -1.340005e-005 -3.787366e-006 1.018400e+000 -1.396140e-001
317670000 5.256526e-006 -1.589810e-005 -5.252659e-001 6.153880e-001 -1.469211e-005 -1.214453e-005 1.018316e+000 -1.413379e-001
317955000 1.001805e-006 -4.980530e-006 -5.099260e-001 6.324816e-001 -8.725317e-006 -7.862639e-006 1.018780e+000 -1.407919e-001
318240000 1.851871e-006 -1.680614e-005 -4.940462e-001 6.494802e-001 7.720491e-006 -9.131014e-006 1.017500e+000 -1.413785e-001
318525000 6.469147e-006 -9.326864e-006 -4.775773e-001 6.661586e-001 -1.705315e-005 -2.143623e-006 1.017719e+000 -1.408929e-001
318810000 -2.730216e-006 -9.832338e-007 -4.605715e-001 6.828325e-001 -6.256271e-007 -1.523066e-005 1.017245e+000 -1.415030e-001
319095000 1.146625e-005 -7.604766e-006 -4.427946e-001 6.990752e-001 -3.404301e-007 -9.640494e-006 1.016804e+000 -1.406439e-001
319380000 1.765723e-006 4.404397e-006 -4.244330e-001 7.152051e-001 6.677733e-006 -4.039536e-006 1.018175e+000 -1.425479e-001
319665000 3.546648e-006 -1.365214e-006 -4.055376e-001 7.310415e-001 3.118228e-006 -1.255411e-005 1.018283e+000 -1.411433e-001
319950000 -7.797412e-006 -6.152456e-006 -3.859324e-001 7.465839e-001 6.563459e-006 -8.146488e-006 1.017813e+000 -1.431896e-001
320235000 -1.153036e-005 4.323635e-006 -3.656475e-001 7.617958e-001 7.144512e-006 -1.733478e-005 1.018349e+000 -1.432751e-001
320520000 2.712632e-006 1.448889e-006 -3.446275e-001 7.766705e-001 1.982899e-006 8.690548e-006 1.017739e+000 -1.429817e-001
320805000 1.921914e-006 -4.568347e-006 -3.230212e-001 7.911612e-001 -1.070278e-005 3.575544e-006 1.016852e+000 -1.422799e-001
321090000 -4.678698e-006 1.827597e-006 -3.005777e-001 8.052137e-001 -1.362468e-005 5.940791e-006 1.016786e+000 -1.422671e-001
321375000 9.461462e-006 -4.778570e-006 -2.774521e-001 8.189728e-001 -1.034440e-005 -6.951082e-006 1.017371e+000 -1.424221e-001
321660000 4.669253e-006 2.906647e-006 -2.535863e-001 8.319942e-001 2.811490e-007 -1.569282e-005 1.018266e+000 -1.428651e-001
321945000 2.121183e-006 -1.943442e-005 -2.290011e-001 8.447037e-001 -1.421539e-005 -4.107330e-007 1.017508e+000 -1.439102e-001
322230000 1.518786e-006 -1.549595e-005 -2.036525e-001 8.567280e-001 -5.653593e-006 -1.108823e-006 1.017148e+000 -1.438946e-001
322515000 1.540118e-005 -1.101091e-005 -1.775632e-001 8.681700e-001 1.178922e-005 -1.568097e-005 1.016796e+000 -1.440832e-001
322800000 1.388994e-005 -1.455060e-005 -1.506892e-001 8.789729e-001 -2.427496e-006 -1.084439e-006 1.018744e+000 -1.433867e-001
323085000 4.313810e-006 -5.997627e-007 -1.230794e-001 8.889898e-001 -2.864013e-006 -1.136484e-006 1.017881e+000 -1.435555e-001
323370000 1.580166e-005 2.375265e-005 -9.472074e-002 8.982871e-001 -3.201382e-006 2.033923e-006 1.018220e+000 -1.441046e-001
323655000 3.066396e-006 -3.242610e-006 -6.562440e-002 9.067207e-001 1.827802e-006 -2.281199e-007 1.017538e+000 -1.446529e-001
323940000 -8.030074e-006 -1.744326e-005 -3.571589e-002 9.142979e-001 1.724414e-006 7.145822e-006 1.017533e+000 -1.450948e-001
324225000 -1.236483e-005 1.471399e-005 -5.207977e-003 9.208722e-001 -1.829324e-006 3.818259e-006 1.015967e+000 -1.445377e-001
324510000 -9.334999e-006 1.200253e-005 2.605958e-002 9.264799e-001 -4.964493e-006 5.583998e-006 1.018821e+000 -1.456945e-001
324795000 3.275209e-006 5.782058e-006 5.786079e-002 9.310115e-001 -7.655912e-006 1.872067e-005 1.018079e+000 -1.449544e-001
325080000 -5.087119e-007 6.015493e-008 9.045997e-002 9.343860e-001 1.729977e-006 -1.333889e-005 1.017748e+000 -1.446454e-001
325365000 2.383200e-006 -1.320142e-006 1.236003e-001 9.366000e-001 3.495754e-006 4.178808e-006 1.018415e+000 -1.447817e-001
325650000 -1.386838e-005 3.905807e-006 1.571991e-001 9.374636e-001 -1.188771e-005 -3.348199e-006 1.018212e+000 -1.444268e-001
325935000 -2.916909e-006 -9.883672e-006 1.913810e-001 9.370853e-001 -5.401215e-007 -2.678885e-006 1.017781e+000 -1.455086e-001
326220000 -1.480603e-005 -7.617596e-006 2.259983e-001 9.353280e-001 1.882567e-006 -9.354537e-006 1.018242e+000 -1.456427e-001
326505000 -2.753360e-006 6.321056e-007 2.610108e-001 9.320434e-001 -3.721357e-006 -2.460872e-005 1.017629e+000 -1.460538e-001
326790000 -6.047102e-006 1.703820e-006 2.963448e-001 9.272984e-001 -6.828782e-007 1.672713e-006 1.016560e+000 -1.451156e-001
327075000 5.073790e-006 1.107576e-005 3.318239e-001 9.210207e-001 1.858739e-005 -8.491988e-007 1.017412e+000 -1.465409e-001
327360000 -2.465555e-006 -3.550680e-006 3.674800e-001 9.130309e-001 1.240570e-005 1.999514e-005 1.018793e+000 -1.459630e-001
327645000 5.478903e-006 -3.831199e-006 4.032137e-001 9.034669e-001 5.176769e-006 -1.959853e-005 1.018209e+000 -1.457565e-001
327930000 -1.581497e-005 -1.516034e-006 4.389465e-001 8.922473e-001 3.794760e-006 -5.747735e-007 1.017510e+000 -1.455730e-001
328215000 -5.186935e-007 -4.181858e-006 4.744723e-001 8.792068e-001 -9.716942e-007 1.340581e-005 1.017853e+000 -1.463025e-001
328500000 -5.941925e-006 2.334908e-006 5.098080e-001 8.644220e-001 -7.881635e-006 -3.012354e-006 1.017120e+000 -1.469591e-001
328785000 -6.547666e-006 1.132820e-007 5.446272e-001 8.480260e-001 -1.782315e-006 6.245923e-006 1.017168e+000 -1.460768e-001
329070000 5.565726e-006 -1.691545e-006 5.790495e-001 8.297498e-001 1.876597e-006 -4.054992e-006 1.017650e+000 -1.465576e-001
329355000 -1.124566e-005 2.740581e-007 6.129928e-001 8.097174e-001 -5.107967e-006 6.817496e-006 1.017734e+000 -1.472502e-001
329640000 -2.655149e-006 1.844582e-006 6.460535e-001 7.879605e-001 -4.519438e-006 -1.785025e-005 1.017817e+000 -1.471391e-001
329925000 4.956351e-006 -6.765118e-007 6.783167e-001 7.645721e-001 -1.486606e-006 4.967005e-006 1.017363e+000 -1.470276e-001
330210000 -4.031705e-006 -2.147710e-006 7.096108e-001 7.393331e-001 -9.518241e-007 1.600964e-005 1.016735e+000 -1.475586e-001
330495000 6.707863e-006 2.330220e-006 7.398630e-001 7.125990e-001 1.769612e-006 2.624158e-006 1.016998e+000 -1.473362e-001
330780000 7.911912e-006 -1.027227e-006 7.688534e-001 6.842062e-001 2.369700e-006 -9.206467e-006 1.018110e+000 -1.481805e-001
331065000 -1.300936e-005 1.224974e-005 7.965956e-001 6.545258e-001 -3.273764e-006 -9.562926e-007 1.016258e+000 -1.467739e-001
331350000 -2.536334e-005 1.336183e-005 8.228719e-001 6.231895e-001 -8.188419e-006 -2.387445e-006 1.017034e+000 -1.476801e-001
331635000 -7.815006e-006 -3.591217e-006 8.476987e-001 5.906467e-001 1.124379e-006 3.192676e-006 1.018091e+000 -1.478406e-001
331920000 -8.038921e-007 3.208038e-006 8.709078e-001 5.569085e-001 7.335211e-006 1.039535e-006 1.017782e+000 -1.478826e-001
332205000 -3.323935e-006 4.122030e-006 8.923946e-001 5.219774e-001 -4.889762e-006 3.315688e-006 1.017172e+000 -1.487613e-001
332490000 -4.051984e-006 2.123055e-006 9.122148e-001 4.861243e-001 1.934872e-006 2.880531e-006 1.017926e+000 -1.481501e-001
332775000 3.698583e-006 6.217854e-006 9.301702e-001 4.493128e-001 4.774099e-006 -6.822285e-006 1.017474e+000 -1.488019e-001
333060000 3.754795e-007 4.832927e-006 9.462376e-001 4.118734e-001 -8.939473e-006 8.937150e-006 1.017610e+000 -1.487422e-001
333345000 -3.750369e-006 5.094263e-006 9.603727e-001 3.736382e-001 1.679021e-005 -1.419432e-005 1.018765e+000 -1.479833e-001
333630000 1.613734e-006 5.450988e-007 9.726622e-001 3.350372e-001 2.943758e-006 -8.016476e-006 1.017722e+000 -1.499660e-001
333915000 -1.194091e-005 -2.398426e-006 9.829625e-001 2.960548e-001 -9.456753e-006 -9.013225e-006 1.017238e+000 -1.491887e-001
334200000 -4.853558e-006 -8.976624e-006 9.913415e-001 2.568026e-001 3.651372e-006 -8.919314e-007 1.018177e+000 -1.500553e-001
334485000 -1.161602e-005 8.033161e-006 9.978543e-001 2.174827e-001 -6.180835e-006 8.104466e-007 1.017243e+000 -1.488278e-001
334770000 -6.030702e-006 -4.618674e-006 1.002422e+000 1.781542e-001 -5.501783e-006 -7.776567e-006 1.017725e+000 -1.496449e-001
335055000 -7.894836e-006 1.082481e-005 1.005190e+000 1.390664e-001 -9.665476e-006 -5.709875e-007 1.018240e+000 -1.493537e-001
335340000 3.210807e-006 6.032744e-006 1.005862e+000 1.001408e-001 4.233701e-006 -5.406545e-006 1.017969e+000 -1.507363e-001
335625000 -6.408501e-006 -5.220520e-006 1.005002e+000 6.163659e-002 7.148349e-006 7.514644e-006 1.018020e+000 -1.503228e-001
335910000 1.901416e-006 1.920490e-006 1.002244e+000 2.363098e-002 3.042542e-006 4.358793e-006 1.017647e+000 -1.499591e-001
336195000 -4.397645e-006 -3.027066e-006 9.977745e-001 -1.387315e-002 -8.539508e-007 2.914181e-006 1.016490e+000 -1.502701e-001
336480000 6.045403e-006 6.295923e-006 9.918966e-001 -5.064001e-002 -1.135276e-005 3.491203e-006 1.017747e+000 -1.498228e-001
336765000 -4.318660e-006 -1.466154e-006 9.844192e-001 -8.672655e-002 3.071443e-006 5.006720e-006 1.017668e+000 -1.506189e-001
337050000 -1.122426e-005 -4.618869e-006 9.754432e-001 -1.220291e-001 -2.020077e-006 6.250216e-006 1.018086e+000 -1.505018e-001
337335000 -2.098300e-006 4.442829e-006 9.652014e-001 -1.565131e-001 -1.558004e-005 1.965599e-006 1.017368e+000 -1.523084e-001
337620000 -8.530969e-006 1.122193e-006 9.536545e-001 -1.900151e-001 -4.453525e-006 1.156073e-006 1.017432e+000 -1.519491e-001
337905000 -1.391337e-005 3.823966e-006 9.408745e-001 -2.227327e-001 -6.624292e-006 -2.070263e-006 1.016250e+000 -1.503558e-001
338190000 -8.369085e-007 2.134808e-006 9.270311e-001 -2.543018e-001 -7.649176e-007 1.431276e-005 1.017096e+000 -1.520297e-001
338475000 -7.115034e-006 -2.219534e-006 9.120245e-001 -2.850021e-001 -7.584744e-006 3.266489e-006 1.017723e+000 -1.504275e-001
338760000 -1.662448e-005 -8.141501e-006 8.961195e-001 -3.145399e-001 -2.915716e-006 4.658530e-006 1.017426e+000 -1.512973e-001
339045000 -5.280906e-006 1.086668e-005 8.794900e-001 -3.429590e-001 -3.555617e-006 -9.489501e-006 1.017291e+000 -1.513198e-001
339330000 -5.378172e-006 3.794529e-007 8.618621e-001 -3.704660e-001 -1.847674e-006 1.084143e-006 1.018085e+000 -1.502786e-001
339615000 -1.429147e-005 -3.910722e-006 8.435947e-001 -3.969041e-001 4.381740e-006 -5.180800e-006 1.017759e+000 -1.521895e-001
339900000 6.877297e-006 4.570751e-007 8.247216e-001 -4.221378e-001 5.075627e-006 7.220451e-006 1.017049e+000 -1.528594e-001
340185000 -2.496180e-006 -3.191140e-006 8.051559e-001 -4.463955e-001 4.365151e-006 2.535068e-006 1.017400e+000 -1.525763e-001
340470000 7.901060e-006 3.898667e-006 7.851527e-001 -4.696342e-001 1.994769e-007 -4.897574e-006 1.017337e+000 -1.514632e-001
340755000 -6.975797e-007 -2.019954e-006 7.646804e-001 -4.917174e-001 1.489853e-005 1.690869e-005 1.017382e+000 -1.533420e-001
341040000 5.620807e-006 5.497694e-006 7.437108e-001 -5.128937e-001 -6.711445e-006 1.383469e-006 1.016963e+000 -1.533776e-001
341325000 7.405997e-007 -1.169369e-008 7.224609e-001 -5.330617e-001 -2.167960e-006 3.179639e-006 1.017922e+000 -1.512503e-001
341610000 -3.506743e-006 4.770774e-006 7.009291e-001 -5.521798e-001 1.193156e-006 1.572964e-006 1.018638e+000 -1.520604e-001
341895000 -3.263822e-006 2.308774e-006 6.790418e-001 -5.702260e-001 1.496198e-007 1.080501e-005 1.016627e+000 -1.537277e-001
342180000 4.425205e-006 -5.591023e-006 6.570413e-001 -5.874886e-001 -4.507681e-006 -1.168929e-006 1.018117e+000 -1.537188e-001
342465000 6.806925e-006 1.732558e-005 6.348082e-001 -6.038101e-001 -6.644104e-006 -8.717777e-006 1.017489e+000 -1.538720e-001
342750000 -1.698903e-006 -1.064064e-005 6.125182e-001 -6.191913e-001 -8.939327e-006 -9.829197e-006 1.019002e+000 -1.528047e-001
343035000 1.466120e-006 3.233572e-006 5.899602e-001 -6.336686e-001 -5.923089e-006 -3.963774e-006 1.017306e+000 -1.546962e-001
343320000 1.626314e-006 1.027420e-006 5.674692e-001 -6.473399e-001 -2.244172e-007 -1.399756e-005 1.016671e+000 -1.539122e-001
343605000 -9.101807e-006 6.684016e-006 5.449010e-001 -6.602172e-001 1.475213e-005 -3.476548e-006 1.016634e+000 -1.538785e-001
343890000 4.151977e-006 -2.799376e-006 5.222957e-001 -6.723303e-001 1.351959e-005 -5.792499e-006 1.017564e+000 -1.542836e-001
