!Agilent Technologies,N5230C,SG49000117,A.08.50.07
!Agilent N5230C: A.08.50.07
!Date: Sunday, March 17, 2024 03:01:15
!Correction: S11(Off) 
!S21(Off) 
!S12(Off) 
!S22(Off) 
!S2P File: Measurements: S11, S21, S12, S22:
# Hz S  RI   R 50
300000000 5.005949e-005 1.874180e-005 -7.497731e-001 -3.967862e-001 7.460397e-005 -2.760672e-005 -7.523113e-001 -3.978020e-001
300285000 1.643476e-005 1.085841e-004 -7.558363e-001 -3.725636e-001 6.472054e-007 1.097763e-005 -7.592410e-001 -3.739026e-001
300570000 -6.271629e-005 5.791269e-005 -7.622167e-001 -3.486398e-001 8.779619e-005 2.085787e-005 -7.652863e-001 -3.502678e-001
300855000 -2.643467e-005 7.209262e-005 -7.673784e-001 -3.250362e-001 8.957562e-005 6.899128e-005 -7.701505e-001 -3.258648e-001
301140000 -5.389695e-005 4.713746e-005 -7.722947e-001 -3.014726e-001 -6.097259e-005 7.751808e-005 -7.757818e-001 -3.027586e-001
301425000 -5.656548e-005 7.994733e-005 -7.767040e-001 -2.776513e-001 -5.826750e-005 -6.961713e-005 -7.801767e-001 -2.789971e-001
301710000 1.266187e-005 -1.380794e-004 -7.807700e-001 -2.544933e-001 9.695063e-007 4.863370e-005 -7.836034e-001 -2.555476e-001
301995000 2.799074e-005 3.167849e-005 -7.837425e-001 -2.313588e-001 -5.471104e-005 9.134656e-006 -7.867305e-001 -2.327458e-001
302280000 -7.267146e-005 3.982884e-005 -7.868996e-001 -2.084837e-001 6.885453e-005 1.783554e-005 -7.890985e-001 -2.093897e-001
302565000 -7.914493e-005 1.052657e-005 -7.878435e-001 -1.860507e-001 -1.256722e-004 -1.066096e-004 -7.907622e-001 -1.864377e-001
302850000 -3.974770e-005 1.036099e-004 -7.896535e-001 -1.635441e-001 6.966526e-005 -3.890842e-005 -7.922214e-001 -1.642779e-001
303135000 1.379275e-005 3.169074e-005 -7.904777e-001 -1.415654e-001 5.969956e-005 -5.770727e-006 -7.931910e-001 -1.415284e-001
303420000 -1.288700e-004 -1.407688e-005 -7.910143e-001 -1.190482e-001 4.627361e-006 1.005015e-004 -7.941883e-001 -1.195030e-001
303705000 1.210708e-004 -7.507424e-005 -7.906392e-001 -9.700573e-002 8.068371e-005 3.434266e-005 -7.932803e-001 -9.729981e-002
303990000 8.898226e-005 -4.949592e-005 -7.900196e-001 -7.521936e-002 4.716797e-005 -4.666709e-005 -7.928640e-001 -7.546330e-002
304275000 2.315396e-005 -9.161336e-005 -7.894661e-001 -5.349434e-002 -1.315348e-004 4.640283e-005 -7.920089e-001 -5.416668e-002
304560000 2.123897e-005 -2.128392e-005 -7.874340e-001 -3.233401e-002 5.645631e-005 1.803648e-006 -7.906763e-001 -3.227840e-002
304845000 -7.818183e-005 -1.746404e-005 -7.856913e-001 -1.114677e-002 -2.851022e-005 9.519444e-005 -7.891252e-001 -1.098336e-002
305130000 2.432262e-005 1.592633e-005 -7.833193e-001 1.006631e-002 3.494410e-005 8.807543e-005 -7.869446e-001 1.032149e-002
305415000 2.599980e-005 -3.877498e-005 -7.806847e-001 3.071009e-002 -4.238222e-005 5.091829e-005 -7.839900e-001 3.057357e-002
305700000 -3.816247e-005 3.378627e-006 -7.778765e-001 5.126591e-002 -5.459285e-005 -5.475986e-005 -7.808380e-001 5.230175e-002
305985000 4.018812e-005 1.097625e-005 -7.745898e-001 7.196405e-002 -1.404283e-005 -5.218121e-005 -7.772554e-001 7.257845e-002
306270000 -9.596341e-005 5.873442e-005 -7.705337e-001 9.230636e-002 2.373999e-005 9.564605e-005 -7.734892e-001 9.287175e-002
306555000 4.173123e-005 -2.884215e-005 -7.661509e-001 1.129235e-001 -9.536911e-005 -2.175417e-005 -7.691447e-001 1.127497e-001
306840000 -3.660472e-005 6.011998e-005 -7.615471e-001 1.329287e-001 -6.882461e-005 -9.468556e-005 -7.645311e-001 1.336545e-001
307125000 3.342501e-005 -1.623334e-005 -7.566481e-001 1.527647e-001 1.003779e-004 -1.637852e-005 -7.596393e-001 1.532455e-001
307410000 -1.113040e-005 1.277142e-007 -7.512898e-001 1.725064e-001 4.700798e-005 -2.137021e-005 -7.538372e-001 1.733484e-001
307695000 2.218438e-005 -8.066902e-005 -7.449799e-001 1.921014e-001 -5.185307e-006 -5.651772e-005 -7.486396e-001 1.923780e-001
307980000 1.648226e-004 -1.909587e-005 -7.390841e-001 2.111084e-001 -3.588237e-005 5.575683e-005 -7.420912e-001 2.125267e-001
308265000 1.243513e-005 -1.940346e-005 -7.328912e-001 2.306661e-001 -9.120692e-005 -7.400069e-005 -7.353023e-001 2.318664e-001
308550000 4.001689e-005 -8.848708e-005 -7.259648e-001 2.498381e-001 -5.818877e-005 -6.772183e-005 -7.285371e-001 2.506594e-001
308835000 4.998375e-005 -1.128770e-004 -7.190236e-001 2.685718e-001 6.950383e-005 -2.566195e-005 -7.217710e-001 2.698415e-001
309120000 2.587505e-005 -2.298059e-005 -7.108396e-001 2.878818e-001 3.952321e-005 3.089568e-005 -7.140928e-001 2.886918e-001
309405000 4.852253e-005 -1.532785e-005 -7.037064e-001 3.061489e-001 5.312520e-005 -2.685469e-005 -7.065094e-001 3.076766e-001
309690000 3.573280e-005 -9.350153e-005 -6.954567e-001 3.249720e-001 7.823702e-005 4.448020e-005 -6.978841e-001 3.263758e-001
309975000 5.993077e-005 -2.111129e-005 -6.867078e-001 3.436477e-001 2.136349e-005 3.074725e-005 -6.893055e-001 3.447762e-001
310260000 -1.243871e-005 7.542111e-005 -6.777879e-001 3.614695e-001 -6.784442e-005 -5.360011e-005 -6.805648e-001 3.635147e-001
310545000 1.303254e-004 1.637179e-005 -6.686218e-001 3.802727e-001 -5.917429e-005 6.485514e-005 -6.712692e-001 3.811736e-001
310830000 5.679217e-005 9.475244e-005 -6.589667e-001 3.982941e-001 -8.079283e-005 7.115199e-005 -6.613139e-001 3.999452e-001
311115000 1.140404e-004 8.677720e-005 -6.489530e-001 4.157923e-001 2.992476e-005 -8.932914e-005 -6.511064e-001 4.180575e-001
311400000 -7.167207e-005 -5.875833e-006 -6.378086e-001 4.339760e-001 2.205814e-005 -5.641498e-005 -6.407827e-001 4.363049e-001
311685000 -5.502734e-005 1.117561e-004 -6.269596e-001 4.517952e-001 -4.682891e-005 3.725586e-005 -6.298171e-001 4.532165e-001
311970000 -6.813526e-005 7.217554e-006 -6.158919e-001 4.691165e-001 -9.350417e-008 -1.498312e-004 -6.178660e-001 4.714571e-001
312255000 -1.451427e-005 -7.485526e-005 -6.043139e-001 4.869986e-001 9.640618e-006 -5.015376e-005 -6.065945e-001 4.890186e-001
312540000 2.593694e-005 -6.617184e-005 -5.918298e-001 5.040147e-001 8.526286e-006 8.886059e-005 -5.942909e-001 5.065154e-001
312825000 -2.647608e-005 -8.715282e-005 -5.791579e-001 5.216546e-001 2.285574e-005 -1.490429e-005 -5.814007e-001 5.235487e-001
313110000 6.369611e-005 3.270892e-005 -5.662014e-001 5.382919e-001 -2.185557e-005 -2.460221e-005 -5.686368e-001 5.400587e-001
313395000 1.037311e-004 -1.029616e-005 -5.530718e-001 5.552384e-001 9.463732e-005 -1.310054e-005 -5.550140e-001 5.571666e-001
313680000 1.012829e-005 1.877962e-005 -5.390788e-001 5.718355e-001 -3.194893e-005 -1.450387e-005 -5.411989e-001 5.743345e-001
313965000 -6.477084e-005 -3.737057e-005 -5.245971e-001 5.883736e-001 -5.138915e-005 9.271807e-005 -5.270996e-001 5.907359e-001
314250000 1.844566e-005 1.500627e-005 -5.093471e-001 6.049755e-001 -8.645288e-005 6.351971e-005 -5.114962e-001 6.076658e-001
314535000 -2.171576e-005 6.654212e-005 -4.943698e-001 6.211941e-001 -4.386859e-005 6.612282e-005 -4.962635e-001 6.236475e-001
314820000 2.663760e-005 5.665714e-005 -4.785838e-001 6.370947e-001 -6.070301e-005 3.691856e-005 -4.801702e-001 6.400582e-001
315105000 -1.547261e-005 -1.891110e-005 -4.619861e-001 6.530606e-001 -7.582874e-005 3.762377e-005 -4.640984e-001 6.562738e-001
315390000 -1.542948e-005 5.460914e-005 -4.448771e-001 6.687225e-001 -6.669609e-005 -5.255819e-005 -4.467628e-001 6.715038e-001
315675000 -5.205029e-005 -5.136231e-005 -4.276488e-001 6.843537e-001 -2.951547e-005 6.466653e-005 -4.287651e-001 6.869631e-001
315960000 -4.217944e-005 1.115717e-004 -4.094537e-001 6.997101e-001 -4.131269e-005 -3.023142e-005 -4.107720e-001 7.018375e-001
316245000 -1.879813e-004 8.142948e-005 -3.904991e-001 7.144172e-001 4.418404e-005 -2.307426e-006 -3.925628e-001 7.169935e-001
316530000 -2.033933e-005 7.867026e-005 -3.712023e-001 7.291815e-001 3.010495e-005 4.567745e-005 -3.727377e-001 7.316691e-001
316815000 -9.472633e-005 -8.424958e-005 -3.513480e-001 7.429520e-001 5.545486e-005 -2.744780e-005 -3.524465e-001 7.463070e-001
317100000 1.022923e-004 9.142860e-006 -3.309444e-001 7.566372e-001 1.406608e-004 -1.247373e-006 -3.322367e-001 7.603599e-001
317385000 6.196360e-005 -3.426000e-005 -3.094405e-001 7.703279e-001 1.116948e-005 3.690589e-005 -3.111159e-001 7.739568e-001
317670000 -3.680417e-006 1.550844e-005 -2.875571e-001 7.837998e-001 1.251592e-004 -6.114929e-005 -2.892033e-001 7.869639e-001
317955000 6.415794e-006 4.901170e-005 -2.655272e-001 7.960542e-001 4.222635e-005 4.102178e-005 -2.669816e-001 7.996457e-001
318240000 7.929703e-005 7.174279e-005 -2.423502e-001 8.088638e-001 -1.078239e-004 8.736091e-005 -2.436657e-001 8.120220e-001
318525000 -5.077647e-005 -8.892245e-005 -2.183817e-001 8.203247e-001 4.939529e-005 5.817205e-005 -2.193598e-001 8.240060e-001
318810000 -1.088460e-004 -9.243016e-005 -1.945518e-001 8.313051e-001 1.888653e-005 -4.076450e-006 -1.950045e-001 8.350745e-001
319095000 -2.746522e-005 1.492871e-005 -1.696487e-001 8.420516e-001 -4.087697e-005 1.119406e-004 -1.695104e-001 8.459097e-001
319380000 4.650035e-005 -1.304669e-005 -1.431700e-001 8.523661e-001 8.636125e-005 -3.754552e-005 -1.432793e-001 8.559384e-001
319665000 -3.614558e-005 -6.139313e-005 -1.167542e-001 8.611553e-001 -6.879089e-007 -4.594870e-005 -1.170923e-001 8.650069e-001
319950000 -3.216743e-005 6.853053e-005 -8.945619e-002 8.704627e-001 1.182867e-005 -8.081363e-005 -8.975623e-002 8.739504e-001
320235000 6.719573e-005 2.010199e-005 -6.155263e-002 8.784441e-001 -4.242940e-005 -5.473054e-005 -6.181690e-002 8.815379e-001
320520000 2.058910e-005 2.137109e-006 -3.300185e-002 8.852046e-001 8.843833e-005 8.868533e-005 -3.339297e-002 8.887307e-001
320805000 -6.782491e-005 -5.541162e-005 -3.798879e-003 8.912345e-001 9.476956e-005 2.470052e-005 -4.302710e-003 8.955898e-001
321090000 -5.937922e-006 -3.878833e-006 2.570827e-002 8.965908e-001 4.078605e-005 9.724879e-005 2.589315e-002 9.003832e-001
321375000 -5.846083e-005 2.947462e-005 5.662801e-002 9.011735e-001 1.109957e-005 -3.552342e-005 5.617775e-002 9.047623e-001
321660000 -1.001760e-004 -3.948642e-005 8.757030e-002 9.041734e-001 4.369611e-005 2.420382e-005 8.806477e-002 9.075983e-001
321945000 3.288055e-005 -9.820145e-006 1.189825e-001 9.067638e-001 -3.786167e-005 7.062284e-005 1.193452e-001 9.102966e-001
322230000 3.696009e-005 -6.974232e-005 1.508250e-001 9.074628e-001 5.873199e-005 -1.844925e-005 1.518769e-001 9.109139e-001
322515000 -4.601558e-006 7.294662e-005 1.836537e-001 9.066321e-001 1.850268e-006 -4.849828e-005 1.844118e-001 9.107167e-001
322800000 -1.289245e-004 1.103095e-004 2.166261e-001 9.058620e-001 -3.764749e-005 -1.393469e-005 2.181165e-001 9.090560e-001
323085000 -2.999539e-005 -8.457155e-005 2.500800e-001 9.025255e-001 -6.901118e-005 2.002760e-005 2.518604e-001 9.065631e-001
323370000 -3.301271e-005 4.524297e-005 2.845027e-001 8.983441e-001 -8.450053e-005 1.652302e-006 2.851509e-001 9.026851e-001
323655000 2.513911e-005 1.746354e-005 3.182694e-001 8.929422e-001 -9.503085e-006 7.416670e-005 3.193471e-001 8.966863e-001
323940000 3.278633e-005 6.428404e-005 3.528483e-001 8.861079e-001 -3.832851e-005 -6.930991e-005 3.541557e-001 8.899592e-001
324225000 -6.405548e-005 5.799036e-005 3.867515e-001 8.768449e-001 -1.675882e-005 -1.435011e-005 3.884830e-001 8.805858e-001
324510000 -1.168698e-005 1.263217e-004 4.210268e-001 8.672239e-001 -1.582619e-005 1.380201e-004 4.238828e-001 8.705638e-001
324795000 -1.160217e-004 5.708000e-005 4.557965e-001 8.558295e-001 -2.493035e-005 7.587211e-005 4.577943e-001 8.589526e-001
325080000 6.860684e-005 8.182695e-005 4.898749e-001 8.420311e-001 -1.627960e-005 -1.234483e-005 4.918621e-001 8.452266e-001
325365000 -5.078987e-005 9.047603e-005 5.247520e-001 8.260832e-001 -6.266293e-005 7.912155e-005 5.264379e-001 8.301068e-001
325650000 -1.536605e-004 1.443826e-004 5.583252e-001 8.099449e-001 -1.872751e-005 -8.433141e-005 5.597492e-001 8.134724e-001
325935000 -6.210481e-005 -2.015992e-005 5.903094e-001 7.906650e-001 -3.050733e-005 -3.315955e-005 5.931042e-001 7.938848e-001
326220000 2.010593e-005 7.134964e-006 6.235087e-001 7.706547e-001 -5.408971e-005 -9.054817e-005 6.259035e-001 7.738493e-001
326505000 -2.344380e-005 4.183143e-005 6.551821e-001 7.484577e-001 1.529977e-006 -6.589298e-005 6.582400e-001 7.517224e-001
326790000 -9.364348e-006 -3.767974e-005 6.863112e-001 7.254182e-001 -5.180425e-005 -2.716668e-005 6.887857e-001 7.285142e-001
327075000 -7.521884e-006 7.503796e-006 7.164176e-001 7.002406e-001 8.707512e-005 -1.531925e-005 7.195724e-001 7.030113e-001
327360000 -4.971855e-005 -1.030756e-005 7.455800e-001 6.724815e-001 -2.614882e-006 -1.895347e-005 7.484136e-001 6.760206e-001
327645000 -1.424279e-005 4.800515e-005 7.729772e-001 6.449314e-001 4.117945e-005 6.086372e-005 7.766947e-001 6.476684e-001
327930000 1.353380e-005 3.072844e-005 7.999117e-001 6.147444e-001 6.660509e-005 4.721926e-005 8.030364e-001 6.175988e-001
328215000 -2.956578e-005 1.002602e-005 8.252195e-001 5.835215e-001 -7.662911e-005 3.581437e-005 8.283169e-001 5.861904e-001
328500000 -1.468017e-004 -9.814053e-005 8.491312e-001 5.513396e-001 1.386422e-004 -1.204585e-004 8.527400e-001 5.532520e-001
328785000 -1.341294e-004 8.870470e-005 8.710877e-001 5.171124e-001 5.317306e-007 -2.774528e-005 8.745466e-001 5.198107e-001
329070000 4.331699e-005 -1.099790e-005 8.918229e-001 4.830844e-001 -2.999738e-005 -3.150502e-005 8.953725e-001 4.843561e-001
329355000 -1.643681e-004 -1.033132e-004 9.106450e-001 4.471147e-001 -2.621380e-006 8.051869e-005 9.146361e-001 4.482060e-001
329640000 -5.518397e-006 1.023613e-006 9.270657e-001 4.093009e-001 5.157874e-005 5.035657e-005 9.309197e-001 4.119999e-001
329925000 -4.930415e-005 -4.704619e-005 9.434085e-001 3.726267e-001 -3.757192e-005 4.400082e-005 9.462876e-001 3.742605e-001
330210000 -4.570509e-006 8.329487e-005 9.553929e-001 3.344849e-001 9.842344e-005 1.447416e-004 9.598563e-001 3.357243e-001
330495000 3.829782e-006 -1.072770e-004 9.672382e-001 2.952563e-001 -8.083516e-005 1.473032e-004 9.714237e-001 2.969523e-001
330780000 5.847968e-005 -1.374610e-005 9.771967e-001 2.564522e-001 -1.270226e-005 5.195310e-006 9.810879e-001 2.576546e-001
331065000 8.470487e-005 7.064372e-005 9.840312e-001 2.174983e-001 -1.525454e-004 -1.163014e-005 9.887363e-001 2.183286e-001
331350000 8.212311e-005 -7.019577e-005 9.898158e-001 1.782881e-001 -4.838169e-005 4.995422e-006 9.939616e-001 1.789758e-001
331635000 3.263821e-005 4.892304e-005 9.935527e-001 1.390835e-001 -4.191566e-005 -5.755868e-005 9.976643e-001 1.391437e-001
331920000 -1.097979e-004 1.449028e-005 9.951803e-001 9.969123e-002 -1.750997e-005 -1.434602e-005 9.989876e-001 9.974232e-002
332205000 -1.915969e-005 -2.405160e-005 9.945753e-001 6.051103e-002 5.554496e-005 -5.303309e-005 9.991922e-001 6.097697e-002
332490000 -1.781190e-005 -3.271621e-005 9.926518e-001 2.204147e-002 8.908121e-005 -5.324418e-005 9.968939e-001 2.263061e-002
332775000 2.058102e-006 -1.650137e-005 9.892941e-001 -1.615362e-002 1.174319e-004 -3.324152e-005 9.934284e-001 -1.595753e-002
333060000 3.663970e-005 -7.226082e-005 9.837870e-001 -5.304700e-002 -2.702161e-005 5.489173e-005 9.883103e-001 -5.356523e-002
333345000 -5.372988e-005 8.341914e-005 9.766978e-001 -9.076381e-002 3.247241e-005 9.742002e-006 9.814674e-001 -9.087247e-002
333630000 -1.314696e-005 -2.922761e-005 9.683441e-001 -1.266826e-001 4.384311e-005 5.901148e-005 9.724402e-001 -1.263480e-001
333915000 -3.073678e-006 -8.664085e-005 9.579001e-001 -1.620568e-001 4.990023e-005 -2.764558e-006 9.618987e-001 -1.621763e-001
334200000 4.768671e-005 -1.601686e-005 9.462687e-001 -1.961500e-001 -2.527345e-005 9.723400e-005 9.507121e-001 -1.969078e-001
334485000 -1.930416e-005 1.461605e-005 9.338418e-001 -2.296932e-001 7.274253e-005 -6.283198e-005 9.376547e-001 -2.306600e-001
334770000 -1.355628e-005 -4.454960e-005 9.197149e-001 -2.621747e-001 4.143739e-005 -6.884064e-005 9.236503e-001 -2.627188e-001
335055000 -4.114185e-005 1.123929e-004 9.042187e-001 -2.940351e-001 1.407693e-005 4.673588e-005 9.087335e-001 -2.951878e-001
335340000 -2.606317e-005 -4.830222e-005 8.879539e-001 -3.238720e-001 5.429328e-005 1.677020e-005 8.923596e-001 -3.254901e-001
335625000 -2.452821e-006 -3.575780e-005 8.711985e-001 -3.532173e-001 3.841194e-005 -5.694449e-005 8.753923e-001 -3.542273e-001
335910000 -2.054310e-007 3.729463e-005 8.529183e-001 -3.810284e-001 -2.932454e-005 6.834611e-005 8.567410e-001 -3.830050e-001
336195000 -5.001679e-005 5.590745e-005 8.345831e-001 -4.079171e-001 4.680234e-005 -8.734229e-005 8.375734e-001 -4.095246e-001
336480000 4.256854e-006 -5.803814e-005 8.144254e-001 -4.340345e-001 -5.194440e-005 1.938517e-005 8.181802e-001 -4.359908e-001
336765000 8.353153e-005 5.809852e-006 7.936605e-001 -4.583303e-001 -1.101720e-005 5.069383e-005 7.981676e-001 -4.606570e-001
337050000 -3.535322e-005 5.634736e-007 7.734908e-001 -4.821344e-001 -2.299000e-005 8.584258e-005 7.769668e-001 -4.840468e-001
337335000 -5.464886e-006 -6.904349e-005 7.518677e-001 -5.044704e-001 -6.597918e-005 3.915675e-005 7.549369e-001 -5.066976e-001
337620000 8.198123e-005 -1.087148e-005 7.306961e-001 -5.257561e-001 5.283747e-005 6.804170e-006 7.332838e-001 -5.281336e-001
337905000 -8.118346e-005 -9.667490e-005 7.080725e-001 -5.465992e-001 1.165949e-005 8.293810e-005 7.109650e-001 -5.485538e-001
338190000 1.933045e-005 -1.001591e-004 6.852459e-001 -5.646021e-001 6.987443e-006 3.687801e-005 6.888379e-001 -5.674838e-001
338475000 1.463399e-005 -3.647370e-005 6.617180e-001 -5.830144e-001 -6.624371e-005 1.882395e-005 6.653550e-001 -5.858967e-001
338760000 3.471139e-005 -3.494621e-005 6.398667e-001 -6.003591e-001 1.200720e-005 -4.212125e-005 6.424432e-001 -6.025420e-001
339045000 -3.327596e-005 -4.248303e-005 6.167521e-001 -6.165659e-001 -1.035760e-004 -5.170993e-005 6.188480e-001 -6.195148e-001
339330000 5.637308e-005 2.258815e-005 5.930997e-001 -6.318141e-001 -8.031160e-005 -6.919572e-005 5.958378e-001 -6.346138e-001
339615000 1.221308e-005 -1.657232e-005 5.693768e-001 -6.463553e-001 4.184572e-005 -1.838005e-005 5.719634e-001 -6.482580e-001
339900000 1.214332e-005 -1.171198e-005 5.457597e-001 -6.597225e-001 2.699034e-005 -3.055291e-005 5.484871e-001 -6.619486e-001
340185000 3.604187e-005 -3.043284e-005 5.226571e-001 -6.718704e-001 5.336465e-005 7.380138e-005 5.251467e-001 -6.746796e-001
340470000 -4.120664e-006 5.302355e-005 4.991789e-001 -6.830267e-001 -5.080570e-005 -1.833173e-005 5.011539e-001 -6.861014e-001
340755000 -7.905656e-005 -1.074635e-004 4.753248e-001 -6.939576e-001 -4.141960e-005 -3.829374e-005 4.773786e-001 -6.970801e-001
341040000 1.440894e-004 1.488214e-005 4.519085e-001 -7.041924e-001 -5.723472e-005 7.043617e-005 4.540061e-001 -7.069122e-001
341325000 2.208440e-005 -1.901271e-005 4.284716e-001 -7.131398e-001 3.050161e-005 -3.866649e-005 4.305142e-001 -7.157922e-001
341610000 -1.936731e-005 -4.417167e-005 4.049513e-001 -7.216887e-001 -1.139083e-004 -7.093633e-005 4.071440e-001 -7.245798e-001
341895000 7.286485e-005 4.254595e-005 3.823655e-001 -7.294237e-001 3.525302e-005 -1.036597e-005 3.838348e-001 -7.321572e-001
342180000 -8.188530e-005 -6.246203e-005 3.593411e-001 -7.360238e-001 2.358989e-005 -5.016353e-005 3.606102e-001 -7.394134e-001
342465000 4.116494e-005 -1.176583e-004 3.361820e-001 -7.426384e-001 -7.506520e-005 1.929280e-006 3.375932e-001 -7.454919e-001
342750000 -7.178033e-005 -6.880185e-005 3.130170e-001 -7.484168e-001 -6.696158e-005 1.844354e-005 3.144394e-001 -7.511548e-001
343035000 8.691847e-005 -1.116657e-004 2.901089e-001 -7.532480e-001 -7.005611e-005 1.366085e-004 2.915995e-001 -7.567200e-001
343320000 3.137894e-005 4.108247e-005 2.678521e-001 -7.579612e-001 -1.558295e-004 6.050767e-006 2.691742e-001 -7.606811e-001
343605000 -1.010691e-004 5.363211e-005 2.448869e-001 -7.615658e-001 6.444885e-006 3.416416e-005 2.464260e-001 -7.654114e-001
343890000 5.743077e-005 -5.188757e-005 2.231315e-001 -7.652942e-001 -5.695517e-006 4.376941e-006 2.240235e-001 -7.677425e-001
