!Agilent Technologies,N5230C,SG49000117,A.08.50.07
!Agilent N5230C: A.08.50.07
!Date: Sunday, March 17, 2024 01:18:33
!Correction: S11(Off) 
!S21(Off) 
!S12(Off) 
!S22(Full 1 Port(2)) 
!S2P File: Measurements: S11, S21, S12, S22:
# Hz S  RI   R 50
300000000 1.188105e-005 -5.265959e-006 -6.372846e-001 -6.285757e-001 5.590373e-006 2.885059e-006 9.968889e-001 -2.262466e-001
300285000 1.773581e-006 4.778469e-006 -6.517380e-001 -6.053104e-001 5.334524e-006 1.980439e-005 9.976283e-001 -2.262371e-001
300570000 2.106608e-006 6.822201e-006 -6.656225e-001 -5.816464e-001 1.148870e-005 3.898158e-006 9.980044e-001 -2.268225e-001
300855000 6.323979e-006 -1.338048e-005 -6.785210e-001 -5.580928e-001 -1.428989e-005 1.203765e-005 9.981987e-001 -2.261762e-001
301140000 1.494283e-005 -2.290673e-005 -6.905669e-001 -5.343252e-001 -3.045445e-006 1.443775e-007 9.973661e-001 -2.273223e-001
301425000 8.031780e-006 -1.288605e-005 -7.016603e-001 -5.106422e-001 1.550787e-005 -3.212275e-006 9.983256e-001 -2.269994e-001
301710000 -2.053098e-005 -1.204373e-005 -7.121521e-001 -4.869207e-001 1.571333e-005 6.600162e-006 9.983935e-001 -2.288641e-001
301995000 3.635901e-007 3.293213e-006 -7.218688e-001 -4.634071e-001 5.058717e-006 -2.055767e-005 9.976168e-001 -2.272318e-001
302280000 5.480739e-006 -1.583483e-005 -7.307563e-001 -4.398771e-001 -1.556606e-005 -3.497942e-006 9.981719e-001 -2.280483e-001
302565000 1.787171e-006 -5.000632e-006 -7.388627e-001 -4.164173e-001 -3.270216e-005 4.552571e-006 9.988363e-001 -2.285422e-001
302850000 6.105245e-006 -8.596066e-006 -7.463545e-001 -3.929974e-001 1.322361e-006 1.851934e-005 9.974049e-001 -2.274116e-001
303135000 -9.286289e-006 -9.351050e-006 -7.531872e-001 -3.697524e-001 4.848739e-006 4.007892e-006 9.973870e-001 -2.281249e-001
303420000 1.478545e-005 -2.282719e-005 -7.593861e-001 -3.467621e-001 -2.955695e-005 3.142242e-006 9.969484e-001 -2.301579e-001
303705000 3.496866e-006 2.239086e-006 -7.649215e-001 -3.237644e-001 -1.074192e-005 -5.787784e-006 9.987859e-001 -2.296859e-001
303990000 -3.370713e-005 8.426443e-006 -7.698735e-001 -3.008610e-001 2.230869e-005 -3.409681e-006 9.971132e-001 -2.288119e-001
304275000 -9.897311e-007 1.135964e-005 -7.742402e-001 -2.781539e-001 -2.167847e-006 1.080294e-005 9.975052e-001 -2.296160e-001
304560000 4.550275e-006 1.034670e-005 -7.779463e-001 -2.557059e-001 1.414562e-005 -1.026977e-005 9.975142e-001 -2.296624e-001
304845000 1.519419e-005 1.906204e-005 -7.811694e-001 -2.332541e-001 -1.720034e-006 -2.891943e-005 9.969497e-001 -2.294422e-001
305130000 -4.654933e-006 1.480364e-006 -7.838988e-001 -2.108999e-001 -1.200953e-005 5.705787e-006 9.962783e-001 -2.293744e-001
305415000 -3.578046e-006 -1.942956e-007 -7.862111e-001 -1.888566e-001 3.889490e-006 -1.623030e-005 9.971991e-001 -2.302247e-001
305700000 -5.069805e-006 -5.318320e-005 -7.879161e-001 -1.669096e-001 -7.928888e-007 1.130564e-005 9.977629e-001 -2.298763e-001
305985000 -1.519472e-006 4.673633e-006 -7.890876e-001 -1.451669e-001 -1.440325e-006 -3.049001e-007 9.979019e-001 -2.311718e-001
306270000 6.785383e-006 -2.904404e-005 -7.898312e-001 -1.235498e-001 -1.951942e-005 1.095921e-005 9.986157e-001 -2.299324e-001
306555000 1.389459e-005 4.437765e-006 -7.902340e-001 -1.020636e-001 1.125527e-006 9.109687e-006 9.980600e-001 -2.323364e-001
306840000 -7.636749e-006 -1.467045e-006 -7.901217e-001 -8.075530e-002 1.961020e-006 -1.515547e-005 9.970080e-001 -2.301296e-001
307125000 -8.901507e-006 -1.405283e-005 -7.894638e-001 -5.955777e-002 1.531366e-005 1.182348e-005 9.967830e-001 -2.315721e-001
307410000 1.750282e-005 1.090258e-005 -7.884920e-001 -3.845235e-002 3.889028e-006 1.050998e-005 9.976364e-001 -2.317446e-001
307695000 2.552150e-005 8.129604e-007 -7.872254e-001 -1.769570e-002 1.728851e-005 5.503667e-006 9.979272e-001 -2.325555e-001
307980000 1.246864e-005 -9.250630e-006 -7.853546e-001 3.107741e-003 -2.514280e-006 -4.340061e-006 9.962976e-001 -2.323896e-001
308265000 7.599375e-006 7.092389e-007 -7.832344e-001 2.361033e-002 2.434094e-006 1.874207e-006 9.964423e-001 -2.326737e-001
308550000 5.927147e-006 -2.317151e-006 -7.806692e-001 4.393584e-002 -1.093595e-005 -7.556350e-006 9.960057e-001 -2.318057e-001
308835000 5.906818e-006 2.455369e-005 -7.777115e-001 6.436352e-002 1.939440e-005 -9.029452e-006 9.962511e-001 -2.331412e-001
309120000 -6.336968e-006 -1.185715e-005 -7.745428e-001 8.448586e-002 -1.250846e-005 3.828437e-006 9.977521e-001 -2.341536e-001
309405000 -9.401727e-006 1.258365e-005 -7.707842e-001 1.045568e-001 -6.861062e-006 -4.127524e-007 9.990013e-001 -2.334764e-001
309690000 8.051375e-006 -6.532505e-006 -7.668428e-001 1.244291e-001 2.364293e-006 2.128435e-005 9.981403e-001 -2.336914e-001
309975000 -1.478704e-005 1.268007e-005 -7.624527e-001 1.441504e-001 -2.783164e-006 -2.929911e-006 9.968816e-001 -2.336968e-001
310260000 1.082046e-005 2.358145e-005 -7.578439e-001 1.638677e-001 6.043660e-006 3.669334e-006 9.986348e-001 -2.342593e-001
310545000 -1.877828e-005 -2.840270e-005 -7.526680e-001 1.834244e-001 5.205158e-006 4.570315e-006 9.971578e-001 -2.346497e-001
310830000 6.190162e-006 3.237339e-006 -7.473050e-001 2.028911e-001 3.240871e-006 -2.590543e-006 9.986717e-001 -2.349145e-001
311115000 -1.650987e-006 1.454730e-006 -7.414793e-001 2.222612e-001 -1.123543e-005 -7.074670e-006 9.968014e-001 -2.348330e-001
311400000 -7.699593e-006 6.953060e-006 -7.353082e-001 2.414569e-001 3.830092e-006 1.365520e-005 9.968812e-001 -2.352342e-001
311685000 -9.483720e-006 -4.845058e-007 -7.289203e-001 2.606456e-001 5.733491e-006 -3.918531e-006 9.975000e-001 -2.349378e-001
311970000 -1.146807e-006 1.796621e-005 -7.220600e-001 2.797422e-001 2.113742e-005 4.576336e-006 9.961171e-001 -2.347905e-001
312255000 -8.315806e-007 7.569181e-006 -7.148171e-001 2.986290e-001 1.391943e-005 -7.768144e-006 9.965758e-001 -2.352915e-001
312540000 -3.916149e-006 -9.030022e-009 -7.073002e-001 3.174711e-001 1.219582e-007 1.850909e-006 9.964253e-001 -2.355635e-001
312825000 -1.388140e-005 -1.180118e-005 -6.993558e-001 3.361597e-001 -1.232390e-005 -7.492862e-006 9.966640e-001 -2.361206e-001
313110000 1.900016e-005 1.761753e-005 -6.909887e-001 3.548310e-001 -5.866416e-006 3.316711e-006 9.963653e-001 -2.372274e-001
313395000 1.065851e-005 -2.400950e-005 -6.823562e-001 3.734700e-001 -2.476024e-006 6.973381e-006 9.966843e-001 -2.358910e-001
313680000 8.610580e-006 4.244685e-006 -6.731266e-001 3.920192e-001 -1.877469e-005 -6.585900e-006 9.976408e-001 -2.361079e-001
313965000 -1.206840e-005 1.100301e-005 -6.636785e-001 4.103865e-001 1.884140e-006 -3.337225e-007 9.969599e-001 -2.368118e-001
314250000 2.035050e-005 -7.904019e-006 -6.538264e-001 4.287202e-001 -9.186479e-006 -6.618286e-006 9.959707e-001 -2.370129e-001
314535000 1.896879e-006 2.698760e-006 -6.434490e-001 4.469923e-001 8.590541e-006 -1.521884e-005 9.960030e-001 -2.369627e-001
314820000 -1.472669e-006 1.425673e-006 -6.327149e-001 4.650547e-001 1.061552e-005 -1.148790e-005 9.960814e-001 -2.382169e-001
315105000 5.265935e-006 7.338856e-006 -6.213950e-001 4.830762e-001 1.255075e-005 1.700246e-005 9.938063e-001 -2.379943e-001
315390000 -1.175834e-005 -2.109964e-005 -6.099623e-001 5.011631e-001 -4.563364e-006 2.155892e-005 9.967288e-001 -2.383590e-001
315675000 2.249873e-006 -7.956095e-006 -5.977640e-001 5.188133e-001 2.137608e-006 1.649726e-005 9.956615e-001 -2.374054e-001
315960000 7.571738e-006 -9.055644e-006 -5.852214e-001 5.366586e-001 -1.683699e-006 2.026782e-006 9.953543e-001 -2.383082e-001
316245000 -5.743690e-006 3.908719e-006 -5.722368e-001 5.543516e-001 -4.482670e-006 4.459668e-006 9.949560e-001 -2.381648e-001
316530000 -2.840702e-006 -1.800507e-005 -5.587136e-001 5.717145e-001 -1.808062e-005 1.070795e-005 9.961427e-001 -2.389618e-001
316815000 -9.731619e-006 5.812094e-006 -5.447203e-001 5.891746e-001 -1.504842e-005 1.413851e-005 9.964262e-001 -2.379869e-001
317100000 1.587093e-005 -7.430102e-006 -5.302118e-001 6.064266e-001 -2.943044e-006 -1.773097e-006 9.950259e-001 -2.379919e-001
317385000 2.489631e-005 6.322524e-006 -5.150591e-001 6.234855e-001 -1.983942e-005 -6.459710e-006 9.971948e-001 -2.382026e-001
317670000 2.793481e-007 -6.646247e-006 -4.994100e-001 6.403809e-001 -4.117629e-006 -5.706383e-006 9.967895e-001 -2.393978e-001
317955000 -2.228743e-005 2.989114e-006 -4.832163e-001 6.572279e-001 -2.039773e-005 3.568106e-006 9.970984e-001 -2.394859e-001
318240000 -1.895005e-006 -1.207787e-005 -4.664688e-001 6.736144e-001 3.824866e-006 -2.319578e-005 9.960907e-001 -2.397549e-001
318525000 -1.457921e-005 -1.120298e-005 -4.489970e-001 6.899263e-001 5.697905e-006 -2.516696e-005 9.963949e-001 -2.394674e-001
318810000 3.396226e-006 -1.627038e-005 -4.309749e-001 7.060397e-001 5.931668e-006 1.619663e-006 9.952636e-001 -2.401299e-001
319095000 -2.048314e-005 3.578031e-006 -4.123257e-001 7.219102e-001 1.237338e-005 -7.281486e-006 9.953954e-001 -2.394033e-001
319380000 -6.041634e-006 -6.972793e-007 -3.930865e-001 7.374558e-001 1.422375e-005 6.578631e-006 9.959726e-001 -2.414375e-001
319665000 9.599356e-006 1.688589e-005 -3.732525e-001 7.527115e-001 1.050818e-005 6.657225e-006 9.966201e-001 -2.403461e-001
319950000 -7.323829e-007 1.081013e-005 -3.525772e-001 7.676460e-001 -2.185799e-005 6.660766e-006 9.955087e-001 -2.421907e-001
320235000 1.311948e-007 8.620769e-006 -3.313204e-001 7.821759e-001 -1.563102e-005 2.303373e-006 9.961719e-001 -2.423097e-001
320520000 -5.723739e-006 1.622414e-005 -3.093483e-001 7.962477e-001 7.217177e-006 1.905540e-005 9.959679e-001 -2.422784e-001
320805000 -2.136449e-006 -3.057633e-006 -2.866780e-001 8.100950e-001 -9.431905e-006 1.048127e-005 9.947816e-001 -2.411617e-001
321090000 4.559670e-006 -1.680226e-005 -2.632857e-001 8.232155e-001 -2.086827e-005 3.841737e-007 9.947979e-001 -2.416902e-001
321375000 -3.639208e-006 1.046127e-005 -2.390661e-001 8.360844e-001 -2.278094e-006 -4.272150e-006 9.954140e-001 -2.419168e-001
321660000 1.461961e-006 3.319505e-006 -2.141597e-001 8.483713e-001 -1.145648e-005 -2.743498e-005 9.961541e-001 -2.426122e-001
321945000 -7.780231e-006 -9.067591e-006 -1.884743e-001 8.599898e-001 5.302127e-006 1.603719e-006 9.952155e-001 -2.433991e-001
322230000 -1.077147e-005 -3.413649e-006 -1.620802e-001 8.709576e-001 -1.022884e-005 -2.433343e-005 9.948344e-001 -2.434290e-001
322515000 7.310874e-006 -3.593254e-005 -1.348539e-001 8.813729e-001 -3.096240e-006 7.582179e-006 9.943932e-001 -2.434109e-001
322800000 -1.071409e-005 -2.855165e-005 -1.070719e-001 8.908302e-001 -5.929791e-006 -1.434572e-005 9.964564e-001 -2.431879e-001
323085000 2.041404e-005 -2.315558e-005 -7.859601e-002 8.995633e-001 -2.248384e-006 -1.767501e-005 9.955198e-001 -2.435799e-001
323370000 9.967142e-006 -1.356358e-005 -4.905399e-002 9.075354e-001 -8.668168e-006 8.694750e-006 9.957346e-001 -2.440013e-001
323655000 1.296624e-005 -1.052822e-005 -1.898948e-002 9.145091e-001 6.852306e-006 1.887757e-006 9.952031e-001 -2.448798e-001
323940000 -3.975683e-006 8.141113e-006 1.169481e-002 9.204865e-001 9.189464e-006 -4.485493e-006 9.947330e-001 -2.452184e-001
324225000 2.318005e-005 1.276827e-005 4.308091e-002 9.255913e-001 -1.412222e-006 -8.840977e-006 9.932420e-001 -2.445159e-001
324510000 3.081029e-006 -1.627137e-005 7.513578e-002 9.294494e-001 -1.327650e-005 6.190319e-006 9.961473e-001 -2.462104e-001
324795000 -4.236032e-006 5.652437e-006 1.078044e-001 9.322436e-001 2.953059e-006 1.000895e-005 9.952559e-001 -2.454020e-001
325080000 1.684559e-005 5.331416e-007 1.409913e-001 9.337245e-001 2.826966e-006 -1.865331e-006 9.949711e-001 -2.452015e-001
325365000 -2.647182e-006 2.239059e-005 1.747990e-001 9.339256e-001 -1.967875e-005 8.406114e-006 9.955457e-001 -2.453871e-001
325650000 -3.194970e-005 7.198968e-006 2.089598e-001 9.327443e-001 -2.662562e-005 6.104956e-006 9.952369e-001 -2.452241e-001
325935000 -2.123309e-007 -1.238799e-005 2.437425e-001 9.303304e-001 -2.720234e-005 1.559602e-005 9.948732e-001 -2.464551e-001
326220000 -6.990340e-006 8.169799e-006 2.786147e-001 9.262705e-001 -1.636218e-006 -1.892272e-005 9.952887e-001 -2.467439e-001
326505000 -1.674334e-005 2.916177e-006 3.140305e-001 9.207931e-001 -6.412957e-006 -4.842423e-006 9.946755e-001 -2.470311e-001
326790000 3.195542e-006 7.570458e-006 3.494266e-001 9.137847e-001 -3.200172e-005 -1.884996e-005 9.936514e-001 -2.459261e-001
327075000 9.049691e-006 2.361125e-005 3.848982e-001 9.051456e-001 3.747633e-006 -2.033002e-005 9.945669e-001 -2.475444e-001
327360000 -1.309416e-005 1.669350e-005 4.205429e-001 8.947557e-001 3.079301e-005 -4.645861e-006 9.956901e-001 -2.474307e-001
327645000 -3.410243e-006 -1.565177e-005 4.560360e-001 8.825879e-001 3.127608e-005 -1.960818e-005 9.950159e-001 -2.470025e-001
327930000 9.492268e-006 3.149784e-006 4.913090e-001 8.688036e-001 3.371059e-005 -1.122337e-005 9.944233e-001 -2.470338e-001
328215000 7.260858e-006 1.275754e-005 5.264360e-001 8.533797e-001 -1.498663e-005 1.227039e-005 9.945623e-001 -2.477807e-001
328500000 6.887166e-007 5.133590e-006 5.610196e-001 8.362222e-001 1.362065e-005 8.101710e-006 9.940156e-001 -2.483650e-001
328785000 -9.713391e-007 -9.806436e-006 5.950462e-001 8.170732e-001 -2.898559e-005 3.029447e-006 9.941601e-001 -2.476118e-001
329070000 1.225539e-005 1.611251e-005 6.284226e-001 7.963187e-001 -1.381863e-005 1.813167e-005 9.942825e-001 -2.479374e-001
329355000 -4.504546e-006 -4.186561e-006 6.611084e-001 7.736987e-001 8.330065e-006 -3.554518e-006 9.942853e-001 -2.492363e-001
329640000 -1.749397e-005 3.519571e-006 6.926600e-001 7.496401e-001 -2.599408e-005 -3.789442e-006 9.946592e-001 -2.493001e-001
329925000 2.882841e-006 1.062073e-005 7.235352e-001 7.237308e-001 -6.968688e-006 -9.581132e-007 9.940259e-001 -2.489810e-001
330210000 9.284733e-006 1.623783e-006 7.531804e-001 6.964253e-001 7.246487e-006 -1.635051e-005 9.932629e-001 -2.492223e-001
330495000 -6.513918e-006 -2.743812e-007 7.816364e-001 6.673061e-001 1.066721e-005 -2.541861e-006 9.935843e-001 -2.493175e-001
330780000 1.449160e-005 -3.654075e-006 8.086233e-001 6.370236e-001 1.330394e-005 -8.409069e-006 9.945030e-001 -2.505333e-001
331065000 -1.763253e-005 1.904202e-005 8.341535e-001 6.052373e-001 1.775482e-005 -6.578955e-006 9.927165e-001 -2.488063e-001
331350000 2.027334e-006 1.836930e-005 8.580720e-001 5.719630e-001 -1.935947e-005 -3.271439e-006 9.933638e-001 -2.498848e-001
331635000 -2.131030e-005 2.177579e-005 8.804950e-001 5.377293e-001 -8.205679e-006 -5.766949e-006 9.945573e-001 -2.503747e-001
331920000 -2.605552e-005 8.476724e-006 9.011524e-001 5.024680e-001 -1.798026e-005 -8.567987e-006 9.941992e-001 -2.505557e-001
332205000 -1.608920e-006 -5.077210e-006 9.202095e-001 4.660947e-001 3.893404e-007 -1.039466e-005 9.933177e-001 -2.513677e-001
332490000 -2.242983e-005 -1.112130e-005 9.372450e-001 4.290668e-001 -4.395027e-006 -1.856861e-005 9.941360e-001 -2.509536e-001
332775000 1.263336e-006 -1.529503e-005 9.523920e-001 3.912469e-001 -6.681438e-006 -1.225219e-005 9.936782e-001 -2.515467e-001
333060000 1.436332e-005 -9.569912e-006 9.656686e-001 3.527896e-001 -1.456794e-005 -1.827757e-005 9.937634e-001 -2.515507e-001
333345000 -3.677823e-005 7.088162e-006 9.771334e-001 3.138670e-001 3.369392e-006 -8.364824e-006 9.948237e-001 -2.512126e-001
333630000 -9.936109e-006 -2.377406e-006 9.864592e-001 2.748264e-001 -1.272115e-005 8.185373e-006 9.938039e-001 -2.530922e-001
333915000 -8.937058e-006 4.149510e-006 9.939444e-001 2.355271e-001 -2.416415e-005 1.066165e-005 9.932695e-001 -2.523296e-001
334200000 -1.690903e-005 8.112529e-006 9.995902e-001 1.962318e-001 1.355381e-006 -1.272914e-005 9.941552e-001 -2.532749e-001
334485000 1.359432e-006 -2.541112e-006 1.003145e+000 1.568467e-001 1.334827e-006 -4.277175e-006 9.933480e-001 -2.519957e-001
334770000 -4.581530e-006 1.513206e-006 1.005048e+000 1.177328e-001 3.631278e-006 8.596852e-007 9.937438e-001 -2.530358e-001
335055000 9.142769e-006 -9.225444e-006 1.004954e+000 7.899439e-002 9.829415e-006 1.227626e-006 9.943823e-001 -2.530353e-001
335340000 -5.793827e-006 -1.332891e-005 1.003128e+000 4.061317e-002 -1.884459e-005 -6.644291e-006 9.938970e-001 -2.543411e-001
335625000 -8.687682e-006 -1.031712e-005 9.996110e-001 2.697134e-003 -5.045810e-006 1.093429e-005 9.935817e-001 -2.541469e-001
335910000 -3.028656e-005 -3.363048e-006 9.944260e-001 -3.457162e-002 -7.996523e-006 1.321318e-005 9.935176e-001 -2.539211e-001
336195000 -1.707820e-005 -1.106321e-005 9.875396e-001 -7.105937e-002 2.195324e-006 3.876002e-006 9.923711e-001 -2.538342e-001
336480000 -4.226929e-006 4.479049e-006 9.793471e-001 -1.068331e-001 -9.472956e-006 1.409287e-005 9.936647e-001 -2.536449e-001
336765000 2.207810e-005 8.150059e-006 9.696511e-001 -1.417424e-001 -6.761577e-006 1.625244e-005 9.932314e-001 -2.545315e-001
337050000 -5.610294e-008 -9.520242e-007 9.586440e-001 -1.757930e-001 4.149503e-006 -1.413628e-005 9.937171e-001 -2.545891e-001
337335000 1.027171e-005 -7.747264e-006 9.464527e-001 -2.090570e-001 9.859203e-006 8.782224e-006 9.929994e-001 -2.566816e-001
337620000 -2.371247e-007 -3.563581e-006 9.330021e-001 -2.412274e-001 -1.676755e-005 1.663587e-005 9.930782e-001 -2.561513e-001
337905000 9.356426e-007 -2.063601e-006 9.185808e-001 -2.724236e-001 -1.424456e-007 -1.192099e-005 9.920146e-001 -2.545122e-001
338190000 -4.991249e-007 2.572684e-006 9.029965e-001 -3.026024e-001 -4.497278e-006 1.043609e-006 9.926818e-001 -2.561828e-001
338475000 -1.097065e-005 8.748612e-006 8.866881e-001 -3.317084e-001 -7.833937e-006 -9.667248e-006 9.933430e-001 -2.548560e-001
338760000 -4.055089e-006 -1.831732e-005 8.692604e-001 -3.597449e-001 -1.320975e-005 -1.750419e-007 9.931359e-001 -2.558262e-001
339045000 5.220578e-006 -1.952259e-005 8.513325e-001 -3.866564e-001 -9.729318e-007 -7.219526e-008 9.930881e-001 -2.561001e-001
339330000 -1.476311e-005 1.239391e-005 8.324809e-001 -4.125244e-001 -6.121256e-007 -5.121070e-006 9.937313e-001 -2.548542e-001
339615000 1.713275e-005 5.058411e-006 8.131117e-001 -4.373767e-001 -4.987132e-006 1.209009e-005 9.931691e-001 -2.568865e-001
339900000 1.074783e-005 1.393020e-005 7.931896e-001 -4.610863e-001 9.705915e-006 7.354432e-007 9.923443e-001 -2.574573e-001
340185000 -1.732545e-006 2.762460e-005 7.727460e-001 -4.837865e-001 1.531276e-005 -1.769577e-005 9.928008e-001 -2.574073e-001
340470000 -3.838565e-006 -8.369663e-006 7.519512e-001 -5.054979e-001 1.024846e-005 6.981977e-006 9.927217e-001 -2.564136e-001
340755000 -2.136892e-005 1.480578e-005 7.306222e-001 -5.260491e-001 6.855654e-006 -7.096131e-006 9.927966e-001 -2.588530e-001
341040000 -1.385863e-005 1.451249e-006 7.091365e-001 -5.456607e-001 -6.874682e-006 1.620992e-005 9.920917e-001 -2.584546e-001
341325000 1.826010e-006 -9.433242e-006 6.872924e-001 -5.642899e-001 1.420023e-005 -2.589122e-006 9.935268e-001 -2.564832e-001
341610000 -8.498032e-006 -4.978290e-006 6.650894e-001 -5.818267e-001 -1.571595e-005 2.113199e-005 9.938322e-001 -2.573289e-001
341895000 -1.338502e-005 -2.815391e-005 6.428603e-001 -5.984571e-001 -1.609056e-005 5.644632e-006 9.918112e-001 -2.588854e-001
342180000 1.190374e-005 -3.625793e-006 6.205754e-001 -6.143137e-001 1.244559e-005 4.832898e-006 9.932120e-001 -2.593326e-001
342465000 1.135733e-005 1.164042e-006 5.978591e-001 -6.291432e-001 -1.045313e-005 2.834085e-006 9.921128e-001 -2.594129e-001
342750000 3.815764e-006 -5.687847e-006 5.752634e-001 -6.431731e-001 -6.871537e-006 -2.834817e-006 9.940473e-001 -2.586930e-001
343035000 1.182431e-005 1.269094e-005 5.525448e-001 -6.564114e-001 -1.323765e-005 1.078508e-005 9.919291e-001 -2.604931e-001
343320000 -9.885754e-006 2.831443e-005 5.298635e-001 -6.688617e-001 3.362273e-006 4.325033e-006 9.915908e-001 -2.599291e-001
343605000 -1.164045e-005 1.468739e-005 5.071577e-001 -6.802985e-001 -2.470983e-005 -6.599867e-006 9.915607e-001 -2.597898e-001
343890000 -6.713604e-006 7.441596e-006 4.843951e-001 -6.910675e-001 2.151766e-005 -1.081054e-005 9.922310e-001 -2.603118e-001
