!Agilent Technologies,N5230C,SG49000117,A.08.50.07
!Agilent N5230C: A.08.50.07
!Date: Sunday, March 17, 2024 02:59:40
!Correction: S11(Off) 
!S21(Off) 
!S12(Off) 
!S22(Off) 
!S2P File: Measurements: S11, S21, S12, S22:
# Hz S  RI   R 50
300000000 3.349111e-006 -2.978835e-005 -7.256301e-001 -4.667128e-001 -5.252762e-006 -9.911653e-005 -7.280256e-001 -4.687331e-001
300285000 6.976740e-005 -4.010995e-005 -7.345309e-001 -4.427882e-001 -6.483968e-005 -1.018004e-005 -7.378656e-001 -4.444326e-001
300570000 1.146814e-005 -2.943170e-005 -7.432803e-001 -4.186751e-001 -6.362417e-005 2.587367e-005 -7.454706e-001 -4.205371e-001
300855000 6.843128e-005 -5.306358e-005 -7.505534e-001 -3.942355e-001 8.596170e-006 5.974257e-005 -7.534155e-001 -3.959110e-001
301140000 -6.066930e-005 7.159530e-005 -7.570769e-001 -3.706374e-001 -4.555383e-005 3.561455e-005 -7.601370e-001 -3.718120e-001
301425000 -9.675528e-005 8.086798e-005 -7.635257e-001 -3.471929e-001 -2.329486e-006 5.785705e-005 -7.661521e-001 -3.481496e-001
301710000 -4.732534e-005 -3.440270e-006 -7.689456e-001 -3.238139e-001 6.305559e-005 2.351269e-005 -7.718303e-001 -3.249727e-001
301995000 1.555739e-005 6.726980e-005 -7.738650e-001 -3.004824e-001 4.043031e-005 7.464765e-005 -7.765808e-001 -3.014887e-001
302280000 -2.925072e-005 6.517577e-005 -7.777869e-001 -2.768637e-001 1.568635e-005 4.843517e-005 -7.812376e-001 -2.776118e-001
302565000 -8.119705e-005 8.551348e-005 -7.816440e-001 -2.533090e-001 -1.146924e-005 -1.603058e-005 -7.846603e-001 -2.549835e-001
302850000 -8.276709e-005 -4.561129e-005 -7.846515e-001 -2.310441e-001 8.471247e-006 -4.741626e-005 -7.880134e-001 -2.316836e-001
303135000 7.150100e-005 -2.635608e-005 -7.875878e-001 -2.076806e-001 -7.589797e-005 -4.474059e-005 -7.905622e-001 -2.088395e-001
303420000 4.678509e-006 -4.698675e-005 -7.893246e-001 -1.855493e-001 -7.422298e-005 -3.818481e-005 -7.919946e-001 -1.866062e-001
303705000 6.775693e-005 -1.743498e-005 -7.913191e-001 -1.633186e-001 -7.929387e-006 -6.269326e-005 -7.935208e-001 -1.637029e-001
303990000 -1.595943e-005 -1.604452e-005 -7.917618e-001 -1.412054e-001 -1.050784e-005 -1.506169e-004 -7.947850e-001 -1.416484e-001
304275000 -8.929320e-005 -1.209455e-005 -7.920057e-001 -1.188397e-001 -1.568684e-004 5.389065e-005 -7.948855e-001 -1.190363e-001
304560000 3.650318e-005 -8.713809e-006 -7.922422e-001 -9.706005e-002 2.498339e-005 -1.463474e-004 -7.953221e-001 -9.751628e-002
304845000 2.020846e-006 -9.571055e-006 -7.919198e-001 -7.506235e-002 -3.070659e-005 -9.429792e-005 -7.946237e-001 -7.596749e-002
305130000 8.930856e-005 -1.432172e-004 -7.904775e-001 -5.382923e-002 1.068804e-004 7.358794e-005 -7.939180e-001 -5.439452e-002
305415000 5.489878e-005 1.535174e-005 -7.898027e-001 -3.286964e-002 6.253512e-005 1.268135e-004 -7.925802e-001 -3.283552e-002
305700000 7.529407e-005 9.259530e-005 -7.881342e-001 -1.159485e-002 3.497981e-005 7.126387e-006 -7.909062e-001 -1.199535e-002
305985000 7.347993e-005 -1.086042e-004 -7.855450e-001 9.565050e-003 -2.901332e-006 7.224023e-005 -7.888455e-001 9.296516e-003
306270000 -4.731030e-005 1.285740e-004 -7.833615e-001 2.999671e-002 -5.912628e-005 -9.738611e-005 -7.865012e-001 3.032089e-002
306555000 2.222466e-005 -3.071711e-006 -7.798976e-001 5.102515e-002 1.327372e-004 5.317806e-005 -7.831947e-001 5.087778e-002
306840000 -4.283930e-005 9.405871e-006 -7.767446e-001 7.176290e-002 -1.538168e-005 -8.737131e-005 -7.796138e-001 7.214013e-002
307125000 -8.180707e-005 -5.178835e-005 -7.727137e-001 9.199988e-002 7.282173e-005 -8.003335e-005 -7.759603e-001 9.215264e-002
307410000 -1.704832e-004 -7.688818e-006 -7.686576e-001 1.120685e-001 -3.817638e-006 3.751637e-005 -7.722251e-001 1.121765e-001
307695000 4.771250e-005 -2.168505e-005 -7.644519e-001 1.320775e-001 1.762738e-004 -7.604771e-005 -7.675533e-001 1.322971e-001
307980000 -6.646979e-005 -4.421494e-005 -7.594233e-001 1.520786e-001 -8.534060e-005 2.431481e-005 -7.626396e-001 1.524567e-001
308265000 -4.777792e-005 -5.810626e-005 -7.538390e-001 1.717483e-001 -3.963813e-005 8.472568e-005 -7.570971e-001 1.722847e-001
308550000 2.913155e-005 1.741462e-006 -7.487027e-001 1.914600e-001 1.117536e-004 -6.125583e-006 -7.518049e-001 1.918440e-001
308835000 8.597301e-006 -2.624422e-005 -7.427299e-001 2.102955e-001 4.154518e-005 -5.757509e-005 -7.460413e-001 2.112465e-001
309120000 6.080040e-005 -3.211608e-005 -7.366129e-001 2.298465e-001 1.397322e-005 4.691195e-005 -7.392460e-001 2.307942e-001
309405000 5.954762e-005 -4.873050e-005 -7.293001e-001 2.489454e-001 -2.966198e-005 -8.703396e-006 -7.323624e-001 2.496300e-001
309690000 9.841182e-008 9.764515e-005 -7.233202e-001 2.684975e-001 4.352968e-005 -9.776642e-005 -7.255827e-001 2.687121e-001
309975000 9.199985e-005 3.866265e-005 -7.155349e-001 2.867144e-001 -9.637446e-006 5.006154e-005 -7.185581e-001 2.880969e-001
310260000 9.771530e-005 8.892732e-006 -7.077074e-001 3.056624e-001 3.413143e-005 7.624460e-005 -7.104383e-001 3.073751e-001
310545000 -5.762563e-005 7.827172e-005 -6.993537e-001 3.249537e-001 2.091741e-005 1.436319e-005 -7.021818e-001 3.260632e-001
310830000 -9.176326e-005 6.313950e-005 -6.914000e-001 3.428652e-001 9.757032e-005 -8.727724e-005 -6.937836e-001 3.444024e-001
311115000 -6.139011e-005 7.438287e-005 -6.825917e-001 3.614718e-001 -4.373428e-005 -1.957912e-005 -6.850757e-001 3.631841e-001
311400000 -4.377691e-005 -7.915113e-005 -6.735817e-001 3.804856e-001 1.358530e-006 7.872520e-005 -6.760122e-001 3.813542e-001
311685000 -3.619937e-005 -1.081666e-004 -6.635551e-001 3.981782e-001 -2.659053e-005 7.826832e-005 -6.658068e-001 3.998041e-001
311970000 2.857027e-005 -3.914064e-005 -6.533667e-001 4.168965e-001 2.904480e-005 6.046560e-006 -6.565552e-001 4.182516e-001
312255000 -5.311552e-005 -4.086215e-005 -6.433624e-001 4.342429e-001 1.698689e-004 1.632266e-005 -6.463234e-001 4.359525e-001
312540000 -3.142015e-005 8.503233e-006 -6.325036e-001 4.525672e-001 3.302202e-005 6.742544e-005 -6.353555e-001 4.539087e-001
312825000 -7.275073e-005 -7.435803e-005 -6.215407e-001 4.700443e-001 7.626608e-005 -1.279613e-004 -6.236566e-001 4.717132e-001
313110000 5.130325e-005 8.337537e-005 -6.096541e-001 4.877502e-001 9.701475e-006 -7.194381e-006 -6.122885e-001 4.896020e-001
313395000 -9.094428e-005 -9.672048e-005 -5.979335e-001 5.053245e-001 1.047332e-005 3.691625e-005 -6.001808e-001 5.077108e-001
313680000 4.596470e-005 -3.329701e-005 -5.854247e-001 5.228090e-001 -1.728140e-007 9.003910e-005 -5.874568e-001 5.246778e-001
313965000 -9.866890e-005 -1.044915e-004 -5.721655e-001 5.402884e-001 9.841087e-005 2.036304e-005 -5.748824e-001 5.421939e-001
314250000 -3.917105e-005 -2.150532e-005 -5.592144e-001 5.570841e-001 -6.143394e-005 -1.005067e-004 -5.612347e-001 5.595713e-001
314535000 1.028405e-004 7.555528e-005 -5.448660e-001 5.746635e-001 5.025270e-005 1.160069e-004 -5.474210e-001 5.764525e-001
314820000 4.360517e-005 8.115153e-005 -5.308108e-001 5.913560e-001 -3.707688e-005 -5.588902e-005 -5.324079e-001 5.935410e-001
315105000 -4.960599e-005 4.302220e-005 -5.158964e-001 6.081839e-001 -1.421815e-004 -4.505867e-005 -5.182925e-001 6.098403e-001
315390000 -2.624207e-005 -3.231754e-005 -5.009962e-001 6.242791e-001 -2.882585e-005 -5.435292e-005 -5.027432e-001 6.269649e-001
315675000 2.655137e-005 2.677537e-004 -4.845831e-001 6.398713e-001 2.137187e-006 -8.265978e-005 -4.868699e-001 6.430239e-001
315960000 -1.189382e-005 1.115041e-004 -4.679801e-001 6.568145e-001 -2.322873e-005 -2.767824e-005 -4.705239e-001 6.593109e-001
316245000 1.736394e-005 3.035573e-005 -4.510679e-001 6.726066e-001 -3.767091e-006 -3.982156e-006 -4.528438e-001 6.751679e-001
316530000 -7.156415e-005 3.789470e-005 -4.339226e-001 6.881225e-001 2.446517e-005 -3.854493e-005 -4.354607e-001 6.910650e-001
316815000 -1.455948e-005 -6.871322e-005 -4.157782e-001 7.037837e-001 3.768089e-005 2.891930e-006 -4.168546e-001 7.065601e-001
317100000 -2.326610e-005 -2.904952e-005 -3.971120e-001 7.189770e-001 6.184395e-007 5.956843e-005 -3.984655e-001 7.214950e-001
317385000 -2.249404e-005 -1.521514e-005 -3.772079e-001 7.342236e-001 4.627866e-006 -2.486190e-005 -3.785408e-001 7.374787e-001
317670000 5.820686e-005 4.756164e-005 -3.573996e-001 7.487347e-001 -1.037887e-004 4.138256e-005 -3.585328e-001 7.516319e-001
317955000 4.122366e-005 -1.141362e-004 -3.368669e-001 7.632217e-001 7.379217e-005 -9.287165e-005 -3.381764e-001 7.660581e-001
318240000 -9.062603e-005 -1.375185e-004 -3.151227e-001 7.765005e-001 3.132060e-005 -6.799783e-006 -3.173983e-001 7.796276e-001
318525000 8.433151e-005 -1.938595e-005 -2.938751e-001 7.898154e-001 3.637947e-005 1.233439e-004 -2.946996e-001 7.931657e-001
318810000 5.566132e-005 -2.651533e-005 -2.711657e-001 8.028793e-001 -4.565113e-005 1.008432e-004 -2.718320e-001 8.062130e-001
319095000 1.308898e-004 -5.353948e-005 -2.480196e-001 8.161101e-001 6.648829e-005 2.708870e-005 -2.482739e-001 8.191425e-001
319380000 6.279590e-005 -1.249349e-005 -2.235770e-001 8.277791e-001 1.068861e-005 -9.728979e-005 -2.246825e-001 8.311626e-001
319665000 7.981291e-005 -6.119879e-005 -1.992464e-001 8.389039e-001 -1.578490e-006 2.519192e-005 -2.000456e-001 8.426389e-001
319950000 9.645664e-005 -8.206108e-007 -1.735934e-001 8.497595e-001 -3.111895e-005 -2.289744e-006 -1.741027e-001 8.537653e-001
320235000 -3.933777e-005 7.828633e-005 -1.475796e-001 8.605341e-001 -9.341448e-005 2.495846e-005 -1.483526e-001 8.641288e-001
320520000 1.206041e-005 -4.154844e-005 -1.208935e-001 8.700794e-001 -8.757905e-005 -1.290561e-005 -1.211536e-001 8.732213e-001
320805000 -3.294915e-005 -3.951923e-005 -9.331953e-002 8.788756e-001 -2.137627e-005 5.481857e-005 -9.350175e-002 8.827870e-001
321090000 -3.257079e-005 -2.940431e-005 -6.467914e-002 8.873904e-001 6.140703e-005 2.130403e-005 -6.533614e-002 8.906901e-001
321375000 -1.218437e-004 -3.147930e-005 -3.594363e-002 8.946318e-001 -4.669085e-006 -3.089220e-005 -3.633264e-002 8.982388e-001
321660000 -2.659810e-005 -1.650211e-005 -6.380174e-003 9.005366e-001 2.695767e-005 -7.378592e-005 -6.809757e-003 9.046274e-001
321945000 -5.556495e-005 -3.859905e-006 2.348601e-002 9.068249e-001 5.629166e-005 -1.922381e-005 2.370871e-002 9.097362e-001
322230000 1.108551e-004 -1.401174e-004 5.367819e-002 9.110836e-001 9.227490e-006 -3.304030e-005 5.474194e-002 9.147004e-001
322515000 -9.932722e-005 -4.084370e-005 8.551480e-002 9.138578e-001 -4.940423e-006 -5.246689e-005 8.557449e-002 9.185106e-001
322800000 -8.387817e-005 -1.542055e-006 1.179329e-001 9.167266e-001 -9.382560e-007 -5.088151e-005 1.187486e-001 9.199887e-001
323085000 -1.651739e-006 -1.465673e-006 1.502583e-001 9.178662e-001 -3.377389e-005 6.371809e-005 1.510967e-001 9.212747e-001
323370000 -1.151765e-005 1.307688e-005 1.837094e-001 9.173106e-001 3.748206e-005 4.698237e-006 1.843281e-001 9.211730e-001
323655000 -8.814072e-005 -3.902383e-005 2.174440e-001 9.162788e-001 8.646143e-005 -1.389713e-006 2.182489e-001 9.198630e-001
323940000 2.083897e-005 -4.261617e-005 2.512335e-001 9.133362e-001 -6.920744e-006 -4.062636e-006 2.516963e-001 9.172201e-001
324225000 3.555469e-005 -8.083323e-005 2.856419e-001 9.089856e-001 7.348052e-006 -4.646543e-005 2.867295e-001 9.131709e-001
324510000 5.585802e-006 -3.197004e-006 3.201790e-001 9.038638e-001 -7.581863e-006 -3.969924e-005 3.211665e-001 9.073721e-001
324795000 1.938254e-006 -4.827444e-005 3.548939e-001 8.962829e-001 -2.227946e-005 7.455137e-005 3.561755e-001 8.996121e-001
325080000 -4.760289e-005 9.445595e-006 3.899802e-001 8.873220e-001 1.208871e-005 2.063090e-005 3.909797e-001 8.914974e-001
325365000 3.348033e-005 9.719493e-005 4.244319e-001 8.773265e-001 -9.606438e-005 -2.671475e-005 4.260275e-001 8.807606e-001
325650000 -4.361262e-005 7.730975e-005 4.593014e-001 8.652276e-001 -6.581242e-005 -5.278459e-006 4.610729e-001 8.688481e-001
325935000 5.795360e-005 -5.780362e-005 4.940353e-001 8.519884e-001 3.332338e-005 -3.553242e-005 4.965392e-001 8.551151e-001
326220000 7.087998e-005 6.245506e-005 5.279329e-001 8.363785e-001 -7.718277e-005 -5.888541e-005 5.306368e-001 8.395015e-001
326505000 -6.187147e-005 5.691149e-005 5.624915e-001 8.186396e-001 -2.369983e-006 1.308433e-004 5.643708e-001 8.221624e-001
326790000 2.974382e-006 -9.878028e-006 5.959430e-001 8.000180e-001 -6.360685e-008 1.470989e-005 5.980592e-001 8.037587e-001
327075000 -8.616869e-005 1.186538e-005 6.284237e-001 7.793109e-001 -3.028659e-005 -9.832739e-006 6.314123e-001 7.823207e-001
327360000 -1.192797e-004 1.443932e-005 6.614836e-001 7.567613e-001 2.936265e-005 -5.170470e-005 6.632268e-001 7.605600e-001
327645000 -3.827273e-005 -6.205223e-005 6.919642e-001 7.326101e-001 -6.384328e-005 2.503857e-005 6.949612e-001 7.366568e-001
327930000 -1.640051e-005 5.119219e-005 7.226916e-001 7.075165e-001 7.032936e-005 -1.864428e-005 7.258244e-001 7.103313e-001
328215000 8.228661e-005 4.225174e-005 7.518896e-001 6.802441e-001 1.744557e-005 -8.405784e-005 7.549382e-001 6.832377e-001
328500000 -2.157372e-005 5.397127e-005 7.801021e-001 6.516188e-001 8.407987e-005 4.295610e-005 7.835960e-001 6.543105e-001
328785000 5.098828e-005 -2.290268e-005 8.068787e-001 6.216037e-001 -4.615183e-005 1.721066e-005 8.099243e-001 6.240577e-001
329070000 -4.231370e-005 3.915393e-005 8.321316e-001 5.900756e-001 7.711458e-005 3.552907e-005 8.357983e-001 5.927408e-001
329355000 -2.924453e-005 2.918815e-005 8.559115e-001 5.568715e-001 -3.202488e-005 7.489866e-005 8.594929e-001 5.591825e-001
329640000 8.869355e-006 -5.763156e-005 8.779554e-001 5.230121e-001 8.631490e-005 5.252355e-005 8.817938e-001 5.246561e-001
329925000 -4.476040e-005 2.259578e-005 8.987741e-001 4.871590e-001 9.404953e-005 1.245499e-004 9.025592e-001 4.901439e-001
330210000 -3.773511e-005 5.302560e-005 9.174436e-001 4.512349e-001 4.691442e-005 3.026997e-005 9.216797e-001 4.530986e-001
330495000 -3.313331e-005 2.254594e-005 9.348814e-001 4.147492e-001 1.063942e-006 8.299558e-005 9.387086e-001 4.159765e-001
330780000 -5.568375e-005 -6.106389e-005 9.495421e-001 3.768493e-001 1.549923e-004 -3.297276e-005 9.539657e-001 3.783734e-001
331065000 -4.438797e-005 -4.454548e-005 9.631284e-001 3.380592e-001 -1.243484e-005 1.019264e-004 9.667462e-001 3.397517e-001
331350000 -3.866793e-005 -7.854719e-005 9.739635e-001 2.992574e-001 -5.628903e-005 1.169888e-004 9.779805e-001 3.010056e-001
331635000 2.646815e-006 8.042440e-005 9.831185e-001 2.599343e-001 -1.889428e-005 9.324210e-005 9.880474e-001 2.612403e-001
331920000 1.075430e-004 -1.634590e-005 9.907867e-001 2.205846e-001 3.212361e-005 -1.395318e-004 9.953432e-001 2.216475e-001
332205000 8.095570e-005 -6.069173e-006 9.966722e-001 1.818229e-001 -1.182871e-005 -3.218389e-005 1.000213e+000 1.817722e-001
332490000 -9.396268e-005 -1.547501e-005 9.997504e-001 1.415715e-001 5.624850e-005 -3.234033e-005 1.004618e+000 1.425589e-001
332775000 -5.074435e-005 -2.073287e-006 1.001502e+000 1.024218e-001 -3.241917e-005 -1.053859e-004 1.005735e+000 1.024180e-001
333060000 1.412559e-005 2.925791e-005 1.001293e+000 6.332070e-002 1.078195e-004 1.094603e-004 1.005547e+000 6.374685e-002
333345000 7.182537e-005 4.681602e-005 9.993412e-001 2.397975e-002 8.203682e-005 -3.177032e-005 1.003296e+000 2.493940e-002
333630000 -4.654071e-005 9.296070e-005 9.950245e-001 -1.331906e-002 4.428655e-005 -6.540777e-005 9.992694e-001 -1.379785e-002
333915000 3.247527e-005 -6.096892e-005 9.893131e-001 -5.093093e-002 3.668091e-005 -1.012241e-004 9.941812e-001 -5.113124e-002
334200000 1.359043e-005 -2.352046e-006 9.831119e-001 -8.766295e-002 2.258748e-005 5.148919e-005 9.868122e-001 -8.831763e-002
334485000 1.099325e-004 -2.192691e-007 9.739013e-001 -1.243602e-001 -1.885381e-005 1.675626e-005 9.779041e-001 -1.244303e-001
334770000 1.150455e-004 1.710616e-004 9.639235e-001 -1.588836e-001 2.889108e-005 -3.179596e-005 9.682485e-001 -1.602328e-001
335055000 4.306107e-005 -1.686165e-005 9.525637e-001 -1.932411e-001 -8.190859e-006 1.985691e-006 9.563885e-001 -1.943392e-001
335340000 -1.454084e-004 1.784089e-005 9.394515e-001 -2.268765e-001 4.203600e-005 -4.046284e-006 9.439151e-001 -2.278072e-001
335625000 -6.304976e-005 -4.202425e-005 9.251176e-001 -2.597114e-001 6.265181e-005 -4.140169e-006 9.296955e-001 -2.606083e-001
335910000 -2.195526e-005 2.469992e-005 9.102463e-001 -2.907383e-001 9.703913e-005 2.912203e-005 9.148339e-001 -2.917731e-001
336195000 -2.940164e-005 -1.873648e-005 8.938608e-001 -3.209791e-001 3.399043e-005 3.147334e-005 8.981214e-001 -3.224636e-001
336480000 -7.189660e-005 1.267357e-005 8.770039e-001 -3.504103e-001 8.152940e-005 2.932937e-005 8.806111e-001 -3.515366e-001
336765000 -1.343715e-004 -1.562893e-005 8.591933e-001 -3.786353e-001 1.699242e-005 6.945464e-005 8.627810e-001 -3.802635e-001
337050000 2.259267e-005 8.336816e-005 8.401677e-001 -4.051869e-001 5.147291e-005 -7.399772e-005 8.442186e-001 -4.069187e-001
337335000 -4.406383e-005 7.958919e-006 8.207349e-001 -4.308458e-001 -1.118524e-004 8.101817e-005 8.240097e-001 -4.328057e-001
337620000 -9.719460e-005 5.417307e-005 8.006274e-001 -4.557765e-001 -4.076023e-005 -1.454503e-005 8.046094e-001 -4.576246e-001
337905000 2.761804e-005 7.709108e-005 7.800354e-001 -4.790930e-001 -4.998773e-006 -3.545718e-005 7.831923e-001 -4.817033e-001
338190000 1.231888e-004 1.210359e-004 7.584699e-001 -5.014672e-001 -7.044987e-005 -2.981030e-006 7.625242e-001 -5.039182e-001
338475000 3.097121e-005 -1.766261e-005 7.363931e-001 -5.230774e-001 8.001970e-006 -4.662710e-005 7.404380e-001 -5.257035e-001
338760000 -2.004669e-005 -6.840735e-005 7.150494e-001 -5.439839e-001 2.371907e-005 6.007357e-005 7.182383e-001 -5.460162e-001
339045000 -9.913606e-005 2.816684e-005 6.926071e-001 -5.633897e-001 -1.710812e-005 -1.841597e-005 6.961217e-001 -5.653196e-001
339330000 -3.407208e-005 -2.861859e-005 6.699528e-001 -5.814340e-001 8.203901e-005 1.900125e-005 6.729271e-001 -5.837277e-001
339615000 2.501202e-005 4.334879e-005 6.474669e-001 -5.979421e-001 3.646953e-005 -7.755295e-005 6.501048e-001 -6.012506e-001
339900000 2.968332e-005 -2.594359e-005 6.242614e-001 -6.147881e-001 2.389324e-005 1.004069e-004 6.269611e-001 -6.171932e-001
340185000 -1.616744e-005 -7.771209e-005 6.006383e-001 -6.300316e-001 3.381484e-005 -5.102731e-005 6.030321e-001 -6.319997e-001
340470000 1.070009e-005 5.263724e-005 5.774149e-001 -6.445454e-001 4.294710e-005 5.905558e-005 5.800797e-001 -6.471625e-001
340755000 4.012883e-005 3.782584e-005 5.541373e-001 -6.577630e-001 1.515869e-005 5.680887e-005 5.568025e-001 -6.606490e-001
341040000 4.218203e-005 -1.284102e-005 5.310528e-001 -6.702588e-001 -1.214957e-005 3.065047e-007 5.330253e-001 -6.732182e-001
341325000 -1.372383e-005 8.879315e-005 5.074177e-001 -6.822287e-001 -7.741691e-005 -9.010199e-005 5.099282e-001 -6.848624e-001
341610000 -8.006397e-005 -1.302821e-005 4.843920e-001 -6.932021e-001 -1.173057e-004 -5.773451e-005 4.861904e-001 -6.958789e-001
341895000 -8.375951e-005 1.914811e-005 4.604883e-001 -7.035221e-001 2.010188e-005 -1.347418e-005 4.630406e-001 -7.066548e-001
342180000 -8.894598e-005 7.293171e-005 4.378090e-001 -7.127676e-001 4.446715e-005 8.254312e-005 4.392936e-001 -7.159535e-001
342465000 -3.548681e-005 1.328335e-004 4.146402e-001 -7.209100e-001 -4.019672e-005 4.256706e-005 4.162107e-001 -7.247069e-001
342750000 -5.043239e-005 8.484781e-005 3.918369e-001 -7.291554e-001 8.265421e-005 1.200421e-006 3.929550e-001 -7.317710e-001
343035000 -1.142254e-004 5.756303e-005 3.682559e-001 -7.368979e-001 5.968745e-006 3.749362e-005 3.699806e-001 -7.396722e-001
343320000 -1.324487e-005 -2.378095e-005 3.459748e-001 -7.431129e-001 6.017165e-005 9.883945e-005 3.471595e-001 -7.461249e-001
343605000 -5.773712e-005 -5.546333e-005 3.227376e-001 -7.490036e-001 3.059717e-006 9.886752e-005 3.240281e-001 -7.522097e-001
343890000 3.820725e-005 3.702777e-005 2.997515e-001 -7.543789e-001 -3.552660e-005 6.337791e-005 3.013653e-001 -7.572887e-001
