!Agilent Technologies,N5230C,SG49000117,A.08.50.07
!Agilent N5230C: A.08.50.07
!Date: Friday, May 17, 2024 07:58:03
!Correction: S11(Full 2 Port(1,2)) 
!S21(Full 2 Port(1,2)) 
!S12(Full 2 Port(1,2)) 
!S22(Full 2 Port(1,2)) 
!S2P File: Measurements: S11, S21, S12, S22:
# Hz S  MA   R 50
300000 1.005758e+000 -5.248271e-001 5.679780e-005 7.110120e+001 7.291640e-004 -1.415233e+002 1.017913e+000 -7.708053e-001
1049985 1.000845e+000 -3.507556e-001 5.535463e-005 1.620448e+002 1.432025e-004 -5.478385e+001 1.000639e+000 -5.787131e-001
1799970 9.999171e-001 -1.665567e-001 6.076171e-005 -5.493803e+001 1.989452e-004 9.750902e+001 9.977875e-001 -4.578130e-001
2549955 9.997498e-001 -1.645662e-001 5.983060e-005 -1.526327e+002 2.921820e-004 -1.407906e+002 9.981905e-001 -3.207994e-001
3299940 1.000414e+000 -1.187770e-001 6.791148e-005 1.147822e+002 5.229870e-005 1.340491e+002 9.970697e-001 -2.958353e-001
4049925 1.000231e+000 -1.531087e-001 5.913970e-005 1.049481e+002 3.859638e-005 -1.221393e+002 9.980287e-001 -3.148928e-001
4799910 1.000255e+000 -1.463394e-001 2.198689e-005 1.136848e+002 2.574899e-004 -1.678889e+002 9.981837e-001 -3.223419e-001
5549895 1.000401e+000 -1.010743e-001 1.200903e-004 -8.784673e+001 1.238897e-004 1.080041e+002 9.980621e-001 -2.741131e-001
6299880 1.000036e+000 -1.176677e-001 1.119564e-004 -1.242079e+002 7.786155e-005 1.600096e+002 9.981757e-001 -3.204190e-001
7049865 9.997098e-001 -1.429446e-001 4.336564e-005 5.609475e+001 9.320856e-005 3.953554e+001 9.975670e-001 -3.900922e-001
7799850 1.000029e+000 -1.441551e-001 7.074307e-005 -5.769720e+001 1.376618e-004 2.379893e+001 9.969749e-001 -4.321830e-001
8549835 9.998370e-001 -1.415390e-001 2.100105e-005 -1.187809e+002 5.950629e-005 -1.315861e+002 9.984121e-001 -5.148423e-001
9299820 1.000589e+000 -1.390606e-001 2.476057e-005 1.289172e+002 1.207142e-004 1.350878e+002 9.977978e-001 -4.666376e-001
10049805 9.999869e-001 -1.467317e-001 5.629631e-005 -1.789918e+002 1.206306e-004 2.916867e+001 9.971067e-001 -5.802148e-001
10799790 9.999328e-001 -1.095447e-001 6.551328e-005 -1.168267e+002 4.863340e-005 1.459592e+002 9.981833e-001 -5.000933e-001
11549775 1.000427e+000 -1.785150e-001 9.224631e-005 -9.416076e+000 1.746945e-004 6.774557e+001 9.984918e-001 -5.381160e-001
12299760 1.000116e+000 -1.533845e-001 1.320983e-005 3.059868e+000 7.932714e-005 6.393533e+000 9.994383e-001 -5.159546e-001
13049745 1.000209e+000 -1.807407e-001 6.475523e-005 1.642900e+002 1.754983e-004 1.601320e+002 9.979038e-001 -6.063147e-001
13799730 1.000182e+000 -1.816234e-001 3.405396e-005 1.468074e+002 2.123586e-004 1.322086e+002 9.974936e-001 -6.143098e-001
14549715 1.000518e+000 -2.212530e-001 4.007427e-005 -8.064220e+001 1.652741e-004 -2.475343e+001 9.986847e-001 -6.490933e-001
15299700 9.997185e-001 -1.772545e-001 1.238683e-004 -7.533703e+001 1.669076e-004 1.196521e+002 9.976410e-001 -6.530160e-001
16049685 1.000005e+000 -1.788960e-001 8.263232e-005 -1.558107e+002 2.946329e-004 6.097162e+001 9.987267e-001 -6.385616e-001
16799670 9.997361e-001 -1.768724e-001 2.982673e-005 7.711531e+001 1.117913e-004 -6.301244e+001 9.995238e-001 -7.651168e-001
17549655 1.000708e+000 -2.354076e-001 8.559000e-005 -1.195090e+002 3.530290e-004 -4.184628e+001 9.990082e-001 -7.744983e-001
18299640 9.997287e-001 -2.350341e-001 8.989062e-005 1.012792e+002 8.409441e-005 -8.254708e+001 9.991692e-001 -8.347084e-001
19049625 9.998403e-001 -2.647531e-001 6.989940e-005 1.345312e+002 5.914550e-005 1.631441e+002 9.967415e-001 -7.321784e-001
19799610 1.000104e+000 -2.090997e-001 6.601978e-005 5.935548e+001 7.393941e-005 -1.515971e+002 9.976041e-001 -8.815710e-001
20549595 9.995126e-001 -2.050574e-001 8.824833e-005 -1.544796e+002 1.653197e-004 4.556808e+001 9.974725e-001 -8.949521e-001
21299580 9.994423e-001 -2.346505e-001 5.180958e-005 6.549722e+001 2.259431e-004 1.605232e+002 9.974207e-001 -8.889744e-001
22049565 9.997650e-001 -2.890846e-001 3.375622e-005 2.475591e+001 1.747651e-004 -5.756780e+001 9.974120e-001 -9.566782e-001
22799550 1.000845e+000 -2.225426e-001 8.187653e-005 -2.222312e+001 1.820608e-004 9.199461e+001 9.988607e-001 -1.028496e+000
23549535 9.998900e-001 -2.783479e-001 1.230735e-005 1.510987e+002 1.574359e-004 -7.601164e+001 9.966200e-001 -9.851419e-001
24299520 1.000156e+000 -2.982639e-001 1.333116e-004 1.110872e+002 3.859179e-005 -5.382382e+001 9.967109e-001 -9.792109e-001
25049505 1.000046e+000 -3.374974e-001 1.050732e-004 1.415968e+002 2.096296e-004 -1.796998e+002 9.977807e-001 -1.074001e+000
25799490 1.000230e+000 -3.107748e-001 9.895088e-005 -1.532097e+002 1.923042e-004 1.117836e+002 9.970452e-001 -1.219326e+000
26549475 1.000719e+000 -2.982019e-001 9.466917e-005 -3.694160e+001 1.718225e-004 -4.498149e+001 9.984509e-001 -1.126641e+000
27299460 1.000201e+000 -3.259408e-001 6.208109e-005 -3.230684e+001 1.351209e-004 8.149186e+001 9.976680e-001 -1.196993e+000
28049445 1.000017e+000 -2.819078e-001 5.085846e-005 -5.175466e+001 1.306240e-004 -5.748488e+001 9.985818e-001 -1.235686e+000
28799430 9.995631e-001 -3.379734e-001 3.425143e-005 -1.314686e+002 1.330585e-004 1.509791e+002 9.958437e-001 -1.245928e+000
29549415 9.997494e-001 -2.987745e-001 4.456397e-005 -5.276470e+001 7.204564e-005 1.941523e+001 9.989704e-001 -1.212515e+000
30299400 1.000609e+000 -3.279922e-001 1.216988e-004 -1.079983e+002 2.619100e-004 1.353113e+002 9.990493e-001 -1.260767e+000
31049385 1.000555e+000 -2.920727e-001 4.712841e-005 -2.947929e+001 1.636190e-004 1.622211e+001 9.960487e-001 -1.223656e+000
31799370 1.000271e+000 -3.692395e-001 1.300958e-004 1.414975e+002 2.289956e-004 -1.033615e+002 9.991947e-001 -1.314226e+000
32549355 1.000944e+000 -3.868687e-001 3.633602e-005 -7.315223e+001 1.745029e-004 -1.841380e+001 9.983315e-001 -1.328491e+000
33299340 1.000209e+000 -3.754364e-001 1.067100e-004 1.461630e+002 1.074875e-004 1.423631e+002 9.975674e-001 -1.389753e+000
34049325 9.995218e-001 -4.030697e-001 1.213847e-004 1.157951e+002 1.141010e-004 -6.537267e+001 9.970101e-001 -1.415757e+000
34799310 9.997222e-001 -3.662454e-001 8.428653e-005 -1.273449e+002 3.430729e-005 1.782804e+002 9.968693e-001 -1.392578e+000
35549295 1.000272e+000 -4.171498e-001 1.273969e-004 -1.620171e+002 1.210903e-004 7.088485e+001 9.981974e-001 -1.422864e+000
36299280 9.998792e-001 -4.073436e-001 9.034785e-005 1.076666e+001 1.215009e-004 8.300114e+001 9.977266e-001 -1.494249e+000
37049265 1.000897e+000 -4.186568e-001 1.473551e-004 -1.283420e+002 7.651542e-005 1.679256e+001 9.978528e-001 -1.458513e+000
37799250 1.000593e+000 -3.645079e-001 4.616352e-005 5.665456e+001 1.301301e-004 1.723732e+002 9.971598e-001 -1.531597e+000
38549235 9.994684e-001 -4.474714e-001 8.573973e-005 -3.776099e+001 9.046883e-005 8.274976e+001 9.969921e-001 -1.578702e+000
39299220 1.000336e+000 -4.257202e-001 5.405168e-005 -1.319272e+002 1.273930e-004 7.779376e+001 9.974983e-001 -1.594816e+000
40049205 1.000967e+000 -3.650433e-001 1.174596e-004 -1.837640e+001 5.031465e-005 1.282422e+002 9.985344e-001 -1.538004e+000
40799190 1.000263e+000 -4.348261e-001 2.334462e-004 -8.760518e+001 4.593629e-005 -4.289875e+001 9.989293e-001 -1.683062e+000
41549175 9.991720e-001 -3.415036e-001 1.529375e-004 -1.013913e+002 1.108268e-004 -7.751455e+001 9.977410e-001 -1.673125e+000
42299160 1.000473e+000 -4.538916e-001 9.161935e-005 -1.657256e+002 2.293068e-004 1.092179e+002 9.980905e-001 -1.559777e+000
43049145 1.000094e+000 -3.924712e-001 2.277924e-004 -1.708481e+002 3.686181e-004 1.177894e+002 9.965559e-001 -1.769863e+000
43799130 1.000515e+000 -3.671049e-001 1.524420e-004 7.428104e+001 2.301043e-004 -7.342179e+001 9.963577e-001 -1.838884e+000
44549115 1.001362e+000 -4.260868e-001 1.495872e-004 8.616521e+001 5.055943e-004 4.179217e+001 9.982149e-001 -1.809945e+000
45299100 1.001486e+000 -4.853290e-001 2.519971e-004 -5.717279e+001 9.914153e-005 4.265732e+000 9.996599e-001 -1.762186e+000
46049085 1.000634e+000 -5.109996e-001 2.782177e-005 1.521169e+001 2.663739e-004 1.055389e+002 9.980716e-001 -1.811477e+000
46799070 1.001231e+000 -4.341774e-001 7.607417e-005 1.448880e+002 2.850976e-004 1.144122e+002 9.971060e-001 -1.761376e+000
47549055 1.000095e+000 -5.138115e-001 1.378199e-004 -4.688853e+001 1.242179e-004 1.392897e+002 9.976556e-001 -1.989343e+000
48299040 1.001542e+000 -4.589866e-001 1.526576e-004 -4.623379e+001 1.472882e-004 1.192107e+002 9.948269e-001 -1.846976e+000
49049025 1.001843e+000 -5.094205e-001 1.009931e-004 2.682402e+001 2.067833e-004 -4.187591e+001 9.984591e-001 -1.833007e+000
49799010 9.995299e-001 -4.817339e-001 6.533305e-005 7.616974e+001 1.372509e-004 1.424057e+002 9.980717e-001 -1.941139e+000
50548995 1.000324e+000 -5.284362e-001 5.456272e-005 -1.175820e+001 4.705423e-004 1.108177e+002 9.978461e-001 -2.116279e+000
51298980 1.000769e+000 -5.159701e-001 5.478524e-005 -4.467235e+000 1.808598e-004 7.609449e+001 9.974757e-001 -1.980354e+000
52048965 1.000461e+000 -4.597704e-001 1.030913e-004 7.099646e+001 2.354340e-004 -1.748757e+002 9.971142e-001 -1.839574e+000
52798950 1.000370e+000 -4.972183e-001 9.143763e-005 7.424107e+001 1.381132e-004 -1.593544e+002 9.970763e-001 -2.138433e+000
53548935 1.002435e+000 -5.488036e-001 6.460032e-005 -9.001382e+001 2.089654e-004 -3.730881e+001 9.994907e-001 -2.071569e+000
54298920 1.000907e+000 -5.398118e-001 6.662004e-005 1.924705e+001 3.541769e-004 -7.170867e+001 9.963750e-001 -2.216527e+000
55048905 1.000659e+000 -4.830189e-001 5.188401e-005 7.810067e+001 4.667453e-004 -8.808417e+001 9.955159e-001 -2.166345e+000
55798890 1.000177e+000 -5.680500e-001 9.488317e-005 1.096646e+002 4.119554e-004 -1.649799e+002 9.981034e-001 -2.349862e+000
56548875 1.000816e+000 -6.102771e-001 8.316210e-005 -1.411110e+001 5.925589e-004 -1.477742e+002 9.957269e-001 -2.187405e+000
57298860 1.001716e+000 -5.545528e-001 1.194283e-004 1.056012e+002 7.484105e-005 9.934748e+001 9.982564e-001 -2.183689e+000
58048845 9.996543e-001 -6.155271e-001 7.123131e-005 -9.369763e+001 1.519149e-004 1.721407e+002 9.976357e-001 -2.130072e+000
58798830 1.000265e+000 -5.055302e-001 4.847999e-005 1.034394e+002 6.066326e-005 -1.413935e+002 9.970730e-001 -2.131651e+000
59548815 1.000692e+000 -6.447382e-001 8.989961e-005 1.083167e+002 3.260869e-004 1.140089e+002 9.997345e-001 -2.232603e+000
60298800 1.002019e+000 -5.854012e-001 9.362037e-005 -1.702971e+002 1.841472e-004 9.192155e+001 9.980029e-001 -2.358596e+000
61048785 1.002317e+000 -5.833822e-001 1.141320e-004 -1.490175e+002 2.292774e-004 2.196528e+001 9.985430e-001 -2.266536e+000
61798770 1.001301e+000 -6.487962e-001 5.143187e-005 1.724956e+002 1.256235e-004 -1.324277e+002 1.002021e+000 -2.649712e+000
62548755 1.002149e+000 -5.527219e-001 4.536964e-005 -6.035959e+001 2.104338e-004 -1.355152e+002 9.984376e-001 -2.450921e+000
63298740 1.001250e+000 -5.873293e-001 9.852782e-005 9.617624e+001 2.310712e-004 -4.174924e+001 9.979990e-001 -2.472262e+000
64048725 1.001105e+000 -5.002655e-001 1.006592e-004 1.272990e+002 3.091471e-004 -5.104876e+001 9.969561e-001 -2.293558e+000
64798710 1.000631e+000 -5.999220e-001 4.640006e-005 -7.992752e+001 4.232355e-004 1.349034e+002 9.980791e-001 -2.443498e+000
65548695 1.001371e+000 -6.785085e-001 6.527661e-005 -1.447439e+002 6.441365e-004 -6.838217e+001 9.995077e-001 -2.460562e+000
66298680 1.002267e+000 -5.990933e-001 1.084488e-004 -8.550121e+001 1.351191e-004 -9.858771e+001 9.978936e-001 -2.606946e+000
67048665 1.002205e+000 -5.447676e-001 8.917590e-005 9.934509e+001 2.544441e-004 7.781763e+001 9.999796e-001 -2.548900e+000
67798650 1.000621e+000 -6.493317e-001 1.082641e-004 -1.528406e+002 1.873763e-004 -1.705136e+002 9.965551e-001 -2.567801e+000
68548635 1.001607e+000 -6.173605e-001 1.416165e-004 9.670811e+001 5.401851e-004 2.882850e+001 9.991714e-001 -2.626205e+000
69298620 1.002590e+000 -6.614189e-001 9.958276e-005 5.141485e+001 2.688047e-004 -2.085749e+001 9.984142e-001 -2.589899e+000
70048605 1.001507e+000 -6.296580e-001 1.453956e-004 -1.730503e+002 1.050511e-004 8.005205e+001 9.985961e-001 -2.642498e+000
70798590 1.001243e+000 -6.238418e-001 5.675474e-005 -1.448311e+002 1.659627e-004 -1.795932e+002 9.977099e-001 -2.835049e+000
71548575 1.001427e+000 -6.144310e-001 5.451143e-005 1.594525e+002 1.429714e-004 -7.344467e+001 9.987014e-001 -2.840353e+000
72298560 1.001494e+000 -6.878033e-001 1.556401e-004 1.179465e+002 4.667862e-004 -3.065127e+001 9.975768e-001 -2.876621e+000
73048545 1.001232e+000 -6.613843e-001 9.591960e-005 -1.690282e+002 3.450199e-004 5.383866e+001 9.991903e-001 -2.805904e+000
73798530 1.000779e+000 -6.252599e-001 6.563820e-005 7.840493e+001 1.431989e-004 3.791372e+001 1.000137e+000 -2.971965e+000
74548515 1.001957e+000 -7.312320e-001 1.761801e-004 1.675345e+002 3.535261e-004 -1.966184e+001 9.995307e-001 -2.904197e+000
75298500 1.001667e+000 -6.928195e-001 2.313182e-004 -4.129978e+001 3.143456e-004 -7.953252e+001 9.991453e-001 -2.868995e+000
76048485 1.001835e+000 -6.814584e-001 1.668508e-004 9.820826e+001 1.122416e-004 -1.656584e+002 9.985554e-001 -2.936487e+000
76798470 1.002701e+000 -6.736925e-001 1.393746e-004 -1.361268e+002 7.617546e-005 -2.891822e+001 9.981655e-001 -2.806640e+000
77548455 1.001728e+000 -7.415755e-001 1.788291e-004 1.241129e+002 4.138074e-005 1.420039e+002 1.000392e+000 -2.995595e+000
78298440 1.001826e+000 -7.270730e-001 7.866804e-005 3.590720e+001 3.114124e-004 -1.405097e+002 9.978894e-001 -2.953449e+000
79048425 1.002592e+000 -7.806180e-001 1.440238e-004 -1.489622e+002 1.077414e-004 -1.693421e+001 9.984441e-001 -3.017719e+000
79798410 1.002746e+000 -6.569315e-001 4.798700e-005 1.437379e+002 2.441261e-004 1.680651e+001 9.986007e-001 -2.907320e+000
80548395 1.001750e+000 -7.038525e-001 1.307678e-004 -9.879820e+001 6.722395e-005 -6.267613e+000 9.965025e-001 -3.090537e+000
81298380 1.001772e+000 -7.226328e-001 5.190641e-005 -2.003759e+001 2.919212e-004 -8.789511e+001 9.994354e-001 -2.949639e+000
82048365 1.002525e+000 -6.550689e-001 1.541041e-004 7.355607e+001 1.554909e-004 1.214452e+001 1.000239e+000 -3.030793e+000
82798350 1.002543e+000 -6.956816e-001 2.819299e-004 -1.562511e+002 1.476109e-004 8.129911e+001 9.990044e-001 -3.115340e+000
83548335 1.001888e+000 -6.868507e-001 1.031910e-004 9.968315e+001 1.830136e-004 -6.546806e+001 9.972202e-001 -3.149649e+000
84298320 1.002066e+000 -7.198111e-001 1.089870e-004 1.707600e+002 2.042617e-004 -1.757924e+002 9.989300e-001 -3.048894e+000
85048305 1.001194e+000 -7.810185e-001 2.224870e-004 -9.400731e+001 4.139134e-004 6.195295e+001 9.977467e-001 -3.213785e+000
85798290 1.000053e+000 -7.340213e-001 2.802796e-004 -1.746584e+002 4.995770e-004 -4.556358e+001 1.000433e+000 -3.156734e+000
86548275 1.001266e+000 -7.508382e-001 1.475325e-004 -5.817565e+001 2.594735e-004 -3.954089e+001 9.968957e-001 -3.139354e+000
87298260 1.002137e+000 -8.041017e-001 1.758078e-004 -8.030332e+001 3.245578e-004 -1.078686e+002 1.000548e+000 -3.147894e+000
88048245 1.001289e+000 -6.973347e-001 1.931809e-004 7.229261e+001 1.677688e-004 -1.197612e+002 9.991363e-001 -3.268916e+000
88798230 1.002208e+000 -7.378958e-001 1.604451e-005 -1.751464e+001 2.606417e-004 -1.198684e+002 1.000665e+000 -3.328163e+000
89548215 1.001651e+000 -7.172000e-001 7.429724e-005 9.018548e+001 2.391688e-004 -1.440427e+002 9.986250e-001 -3.340299e+000
90298200 1.001290e+000 -7.994753e-001 9.574308e-005 1.771679e+002 1.160422e-004 3.727102e+001 9.991394e-001 -3.182085e+000
91048185 1.001623e+000 -8.562243e-001 6.944412e-005 -1.713840e+002 3.137424e-004 -2.833258e+001 9.990476e-001 -3.263714e+000
91798170 1.002385e+000 -8.142019e-001 1.289354e-004 1.717281e+002 1.202632e-004 5.520475e+001 1.001229e+000 -3.361020e+000
92548155 1.003449e+000 -7.862459e-001 2.423184e-005 1.754405e+002 1.900813e-004 1.418638e+002 9.982802e-001 -3.422923e+000
93298140 1.003879e+000 -7.866051e-001 2.346052e-004 -1.488706e+002 3.468204e-004 5.060589e+001 9.998887e-001 -3.357769e+000
94048125 1.002406e+000 -8.289623e-001 8.892453e-005 1.394285e+002 2.265638e-004 -1.655645e+002 1.002248e+000 -3.395304e+000
94798110 1.003057e+000 -7.182860e-001 8.921239e-005 -1.725965e+002 2.772803e-004 -7.734733e+001 1.000032e+000 -3.333747e+000
95548095 1.002185e+000 -7.813624e-001 2.044205e-004 1.754869e+001 3.302866e-004 1.621862e+001 9.984800e-001 -3.449663e+000
96298080 1.002014e+000 -7.515778e-001 8.094760e-005 -3.391894e+001 2.544080e-004 -8.965667e+001 9.991614e-001 -3.441760e+000
97048065 1.002061e+000 -8.186042e-001 1.666055e-004 -1.058317e+002 1.938049e-004 -7.840949e+001 9.992340e-001 -3.379424e+000
97798050 1.002769e+000 -8.055395e-001 1.175379e-004 -1.746243e+002 3.463420e-004 -1.705082e+002 9.992179e-001 -3.675128e+000
98548035 1.002994e+000 -8.719894e-001 4.953902e-005 1.954762e+001 2.467624e-004 5.581346e+001 9.995628e-001 -3.630485e+000
99298020 1.003489e+000 -8.231005e-001 1.570598e-004 1.490417e+002 2.344579e-004 -1.009391e+002 1.000870e+000 -3.714415e+000
100048005 1.002874e+000 -7.856065e-001 1.040995e-004 1.381226e+002 3.598157e-004 -9.820599e+001 1.000278e+000 -3.578716e+000
100797990 1.003191e+000 -7.697844e-001 2.668879e-004 1.310846e+001 1.561327e-004 1.468555e+002 9.980662e-001 -3.494180e+000
101547975 1.001784e+000 -8.161427e-001 3.036326e-004 1.156027e+002 5.603750e-004 1.221114e+002 9.976782e-001 -3.623095e+000
102297960 1.003339e+000 -7.974801e-001 2.520664e-004 -8.531448e+001 1.117578e-004 -7.247639e+001 1.001232e+000 -3.624679e+000
103047945 1.002365e+000 -7.929735e-001 2.033947e-004 6.294906e+000 4.438712e-004 1.095444e+002 9.990670e-001 -3.619796e+000
103797930 1.002572e+000 -8.709876e-001 2.197734e-004 1.548245e+002 3.045900e-004 1.662948e+002 1.003360e+000 -3.776293e+000
104547915 1.003234e+000 -8.009809e-001 1.333899e-004 -1.696328e+002 2.380249e-004 9.444898e+001 1.001570e+000 -3.574584e+000
105297900 1.002897e+000 -8.203242e-001 1.911901e-004 -1.789443e+002 4.160162e-004 1.148395e+002 9.999050e-001 -3.640154e+000
106047885 1.003878e+000 -8.139569e-001 6.427718e-005 2.990206e+001 5.743045e-004 7.094059e+001 1.000944e+000 -3.852660e+000
106797870 1.004093e+000 -8.348938e-001 7.076097e-005 1.030966e+002 3.182269e-004 -1.411769e+002 1.000990e+000 -3.730041e+000
107547855 1.004495e+000 -8.815312e-001 2.578239e-004 -4.954560e+001 1.908045e-004 -7.630646e+001 1.001273e+000 -3.687033e+000
108297840 1.003582e+000 -8.118342e-001 1.340363e-004 1.199747e+001 3.888936e-004 3.026411e+001 1.000344e+000 -3.801404e+000
109047825 1.003146e+000 -8.320286e-001 9.895457e-005 -2.827124e+001 3.296437e-004 -6.106507e+001 1.003385e+000 -3.881276e+000
109797810 1.002823e+000 -8.845134e-001 5.635074e-005 -4.098533e+001 2.056884e-004 -9.747503e+001 9.993559e-001 -3.893644e+000
110547795 1.001800e+000 -8.180305e-001 4.733960e-005 9.564771e+001 4.067655e-004 -5.797507e+001 1.000808e+000 -3.874512e+000
111297780 1.003932e+000 -8.813285e-001 1.758527e-004 -1.780139e+002 4.268943e-004 -6.994580e+001 1.000665e+000 -3.817010e+000
112047765 1.001951e+000 -8.646356e-001 6.962693e-005 1.262844e+002 5.117402e-004 -1.357794e+002 1.000453e+000 -3.821416e+000
112797750 1.002532e+000 -8.793356e-001 4.309901e-005 -9.073842e+001 4.938440e-004 9.610511e+001 1.000857e+000 -3.919471e+000
113547735 1.004101e+000 -8.399203e-001 4.591667e-005 1.398144e+002 1.796558e-004 1.281563e+002 9.988298e-001 -3.869263e+000
114297720 1.002047e+000 -9.089480e-001 1.575237e-004 -7.877284e+001 3.199995e-004 -1.201961e+002 1.001228e+000 -4.087241e+000
115047705 1.003463e+000 -8.574403e-001 1.102047e-004 -1.693335e+002 2.543103e-004 -2.003048e+001 1.003027e+000 -3.995262e+000
115797690 1.003302e+000 -8.292742e-001 1.125309e-004 -1.019418e+001 4.513561e-004 -6.452669e+001 1.000592e+000 -4.099480e+000
116547675 1.003308e+000 -8.613638e-001 5.812291e-005 -1.482422e+002 1.470460e-004 1.735728e+001 1.000108e+000 -4.020974e+000
117297660 1.003338e+000 -8.453529e-001 2.424807e-004 -3.236427e+001 1.866498e-004 7.528806e+001 1.001979e+000 -4.042602e+000
