!Agilent Technologies,N5230C,SG49000117,A.08.50.07
!Agilent N5230C: A.08.50.07
!Date: Friday, May 17, 2024 07:57:24
!Correction: S11(Full 2 Port(1,2)) 
!S21(Full 2 Port(1,2)) 
!S12(Full 2 Port(1,2)) 
!S22(Full 2 Port(1,2)) 
!S2P File: Measurements: S11, S21, S12, S22:
# Hz S  MA   R 50
300000 1.008275e+000 -3.988754e-001 9.205043e-005 4.190043e+001 1.732316e-004 -8.085223e+001 1.015638e+000 -7.180170e-001
1049985 1.000301e+000 -2.951707e-001 5.831184e-005 -1.756178e+001 4.803957e-005 -7.939887e+001 9.981490e-001 -5.630880e-001
1799970 1.000078e+000 -1.867210e-001 1.118279e-004 -2.746302e+001 1.393647e-004 -9.950778e+001 9.987241e-001 -4.292700e-001
2549955 1.000178e+000 -1.405912e-001 1.785389e-004 -1.163181e+002 1.543019e-004 -1.369782e+002 9.981543e-001 -3.279776e-001
3299940 1.000192e+000 -9.842934e-002 5.168737e-005 8.933818e+000 7.539034e-005 1.763897e+001 9.963633e-001 -3.263228e-001
4049925 1.000146e+000 -1.562152e-001 1.046897e-004 -1.235812e+001 6.280144e-005 1.643256e+002 9.978744e-001 -3.130213e-001
4799910 1.000391e+000 -1.511006e-001 1.017129e-004 -1.778187e+002 1.108628e-004 1.201499e+001 9.982816e-001 -3.620758e-001
5549895 1.000183e+000 -1.173969e-001 1.874635e-005 -1.532321e+002 1.746380e-004 -1.485807e+002 9.985586e-001 -2.893449e-001
6299880 9.999278e-001 -1.142564e-001 4.534253e-005 -1.221367e+002 1.059315e-004 -8.888966e+001 9.980884e-001 -4.337414e-001
7049865 1.000021e+000 -1.051163e-001 3.772497e-005 8.222583e+000 1.624432e-004 1.143215e+002 9.982375e-001 -4.500578e-001
7799850 1.000287e+000 -1.342281e-001 4.257869e-005 7.165855e+001 1.399593e-004 -1.058205e+002 9.972822e-001 -4.484565e-001
8549835 9.996785e-001 -1.294569e-001 2.575666e-005 1.024765e+002 1.222958e-004 1.682033e+002 9.987321e-001 -5.162444e-001
9299820 1.000442e+000 -1.285447e-001 4.193224e-005 -6.231447e+001 1.658421e-004 -7.821965e+001 9.983329e-001 -5.045023e-001
10049805 1.000635e+000 -1.492524e-001 3.899133e-005 -3.229419e+001 1.487927e-004 1.783319e+002 9.982504e-001 -4.912316e-001
10799790 9.992240e-001 -1.299613e-001 6.591326e-005 -1.527672e+002 1.825154e-004 1.299820e+002 9.973639e-001 -4.854624e-001
11549775 9.997656e-001 -1.437639e-001 7.538146e-005 1.408697e+002 1.570893e-004 1.236025e+002 9.977778e-001 -5.311633e-001
12299760 9.997267e-001 -1.471903e-001 6.648180e-005 1.140589e+002 1.370421e-004 -9.356169e+000 9.999632e-001 -5.276000e-001
13049745 1.000064e+000 -1.836723e-001 2.464123e-005 8.414671e+001 2.175296e-004 -1.274745e+002 9.979807e-001 -6.496393e-001
13799730 1.000111e+000 -1.797335e-001 5.841315e-005 1.280186e+002 2.453050e-004 1.466694e+002 9.976272e-001 -7.047902e-001
14549715 1.000305e+000 -1.951334e-001 1.455127e-004 -1.240668e+002 1.045981e-004 -4.606876e+001 9.987586e-001 -6.118241e-001
15299700 9.996668e-001 -2.397649e-001 1.436637e-004 1.760128e+002 2.151470e-004 1.485558e+002 9.977565e-001 -7.555772e-001
16049685 1.000516e+000 -1.632421e-001 5.414663e-005 -5.168070e+001 1.865644e-004 -6.231503e+001 9.985802e-001 -6.937423e-001
16799670 9.995655e-001 -1.609818e-001 4.325477e-005 1.138471e+002 1.257619e-004 9.401818e+001 9.987444e-001 -8.540879e-001
17549655 1.000738e+000 -2.311402e-001 1.197771e-004 -1.016743e+002 2.409072e-004 -1.350583e+001 9.992628e-001 -7.416558e-001
18299640 9.997681e-001 -2.491102e-001 2.524037e-005 4.952905e+001 3.697625e-004 1.486488e+002 9.989833e-001 -9.618924e-001
19049625 9.998007e-001 -2.226641e-001 8.308623e-005 8.728828e+001 7.922720e-005 5.662975e+001 9.986756e-001 -8.674996e-001
19799610 1.000422e+000 -2.303385e-001 4.484250e-005 -1.223605e+002 2.022886e-004 9.697328e+001 9.978433e-001 -8.963549e-001
20549595 9.997008e-001 -2.192340e-001 5.032828e-005 -6.674578e+001 2.836093e-004 -8.042462e+001 9.973533e-001 -9.343103e-001
21299580 9.994836e-001 -2.284497e-001 7.102553e-005 2.929386e+001 1.561253e-004 1.506234e+002 9.977874e-001 -9.135545e-001
22049565 9.995706e-001 -2.774452e-001 9.696391e-005 9.511122e+001 2.370377e-004 -5.620473e+001 9.982335e-001 -9.994697e-001
22799550 1.001049e+000 -2.396691e-001 1.146404e-004 -8.650660e+001 4.344817e-004 6.187484e+001 9.990675e-001 -9.598054e-001
23549535 1.000560e+000 -2.794550e-001 1.367735e-004 -1.363306e+002 2.192345e-004 -6.868203e+001 9.990163e-001 -1.107100e+000
24299520 1.000327e+000 -2.858764e-001 7.221155e-005 1.431711e+002 1.582509e-004 7.408348e+001 9.956658e-001 -1.110846e+000
25049505 9.999760e-001 -2.971782e-001 1.288868e-004 -2.111911e+000 2.245893e-004 -3.576745e+001 9.977437e-001 -1.146191e+000
25799490 9.996172e-001 -2.868937e-001 5.753915e-005 6.645440e+001 1.463615e-004 -7.836087e+001 9.965621e-001 -1.208302e+000
26549475 1.000475e+000 -3.259620e-001 9.374614e-005 -6.066229e+001 1.816684e-004 -6.723312e+001 9.980482e-001 -1.148201e+000
27299460 1.000656e+000 -2.862981e-001 6.622955e-005 -1.491363e+002 3.297303e-005 3.742529e+001 9.978216e-001 -1.212387e+000
28049445 9.998690e-001 -2.823934e-001 1.182382e-004 1.663699e+002 2.047524e-004 7.251027e+001 1.000292e+000 -1.195778e+000
28799430 9.997373e-001 -3.339182e-001 7.916347e-005 -2.230798e+001 4.218378e-006 -4.392142e+001 9.968049e-001 -1.348125e+000
29549415 1.000042e+000 -2.569115e-001 7.704383e-005 9.534908e+001 2.790659e-005 -1.534026e+001 9.992947e-001 -1.338231e+000
30299400 1.000318e+000 -3.665718e-001 8.438703e-005 -7.131961e+001 1.564198e-004 -7.266627e+000 9.991935e-001 -1.354115e+000
31049385 1.000100e+000 -3.013579e-001 7.341056e-005 -1.440741e+002 8.970511e-006 3.553493e+000 9.970251e-001 -1.362606e+000
31799370 1.000500e+000 -3.799657e-001 6.404251e-005 1.410799e+002 2.774135e-004 -1.143490e+001 9.975449e-001 -1.458704e+000
32549355 1.000392e+000 -3.917741e-001 1.220515e-004 -3.521625e+000 1.646250e-004 1.263271e+002 9.975019e-001 -1.441343e+000
33299340 1.000248e+000 -3.468613e-001 2.747798e-005 7.895906e+001 1.180981e-004 1.651801e+002 9.978693e-001 -1.431687e+000
34049325 1.000327e+000 -4.090770e-001 1.535827e-004 -7.749952e+001 2.604517e-004 6.314493e+001 9.971991e-001 -1.492721e+000
34799310 1.000382e+000 -4.118062e-001 4.151388e-005 9.573708e+001 2.554428e-005 -1.630846e+002 9.970388e-001 -1.487985e+000
35549295 1.000000e+000 -4.405759e-001 6.865538e-005 1.081705e+002 3.485735e-004 3.086944e+001 9.983696e-001 -1.508033e+000
36299280 9.999899e-001 -4.415060e-001 1.225563e-004 5.152727e+001 8.313470e-005 -1.388137e+002 9.976245e-001 -1.607633e+000
37049265 1.001382e+000 -4.162836e-001 6.922836e-005 9.220142e+001 9.892038e-005 2.894310e+000 9.978136e-001 -1.657329e+000
37799250 9.998077e-001 -3.986506e-001 9.667173e-005 1.210073e+002 2.046122e-004 -1.579004e+002 9.970466e-001 -1.596185e+000
38549235 9.998595e-001 -4.345284e-001 5.036626e-005 -9.352394e+001 8.010116e-005 3.463435e+001 9.964034e-001 -1.701342e+000
39299220 1.000404e+000 -4.073936e-001 6.200311e-005 -6.498563e+001 1.026031e-004 -1.580401e+002 9.966546e-001 -1.666892e+000
40049205 1.000201e+000 -3.746554e-001 1.424418e-004 -1.748003e+002 1.062236e-004 7.213301e+001 9.989728e-001 -1.732143e+000
40799190 1.000327e+000 -4.174415e-001 3.449983e-005 -1.250343e+002 3.435863e-004 -1.701981e+002 9.991053e-001 -1.772529e+000
41549175 9.989192e-001 -3.606269e-001 1.950631e-004 8.089942e+001 6.924300e-005 8.974062e+001 9.985737e-001 -1.883889e+000
42299160 9.993927e-001 -4.371789e-001 4.696665e-005 -9.708745e+001 6.970391e-005 6.091137e+001 9.955578e-001 -1.757224e+000
43049145 1.000784e+000 -4.103795e-001 1.055376e-004 1.172754e+002 3.634701e-004 9.056818e+001 9.973331e-001 -1.844316e+000
43799130 1.000006e+000 -4.146409e-001 1.133098e-004 -5.600121e+001 1.370779e-004 -8.861908e+001 9.982616e-001 -1.907428e+000
44549115 1.000255e+000 -3.925346e-001 1.845705e-004 1.636195e+002 2.907866e-004 1.390130e+002 9.986818e-001 -1.920810e+000
45299100 1.001709e+000 -5.384434e-001 1.919265e-004 -5.393249e+001 2.202416e-004 7.235312e+001 9.990494e-001 -1.854894e+000
46049085 1.002251e+000 -4.705601e-001 4.128436e-005 1.526108e+002 1.352679e-004 -6.157277e+001 9.998824e-001 -1.979957e+000
46799070 1.001240e+000 -4.714376e-001 6.647335e-005 -9.465405e+000 2.255671e-004 -4.182467e+001 9.981527e-001 -2.007255e+000
47549055 1.000298e+000 -5.198981e-001 9.515528e-005 -9.620145e+001 8.607186e-005 1.258714e+002 9.959642e-001 -2.016525e+000
48299040 1.001606e+000 -4.936727e-001 3.673459e-005 -7.982372e+001 1.424779e-004 3.366892e+001 9.977055e-001 -2.026308e+000
49049025 1.001545e+000 -5.199134e-001 5.295000e-005 -1.065417e+002 3.005695e-004 1.663298e+001 9.979542e-001 -2.027069e+000
49799010 9.995679e-001 -4.842902e-001 1.748078e-004 -1.338212e+002 4.774474e-004 4.194685e+001 9.959194e-001 -2.087702e+000
50548995 1.000638e+000 -5.486885e-001 2.131517e-004 -7.188094e+001 2.698487e-004 -3.305148e+001 1.000553e+000 -2.064516e+000
51298980 1.002010e+000 -5.632550e-001 7.307278e-005 -1.558930e+002 4.461867e-004 -1.558836e+001 9.960778e-001 -2.115867e+000
52048965 9.997514e-001 -5.020343e-001 6.465393e-005 -5.663098e+000 2.007661e-004 1.164464e+002 9.983872e-001 -2.131874e+000
52798950 1.001425e+000 -4.769865e-001 1.389839e-004 -1.097536e+002 5.594740e-005 -5.830135e+001 9.982308e-001 -2.227921e+000
53548935 1.001705e+000 -6.170877e-001 1.553290e-004 -1.408765e+002 1.905153e-004 1.464589e+002 9.966708e-001 -2.206935e+000
54298920 1.000055e+000 -5.196590e-001 1.556996e-004 1.679032e+002 3.695627e-004 1.406899e+002 9.974464e-001 -2.247275e+000
55048905 1.001319e+000 -4.855494e-001 8.950791e-005 1.707637e+002 1.932280e-004 1.024768e+001 9.960943e-001 -2.303522e+000
55798890 1.001097e+000 -5.253778e-001 7.947277e-005 1.498698e+002 4.054681e-005 3.224046e+001 9.952757e-001 -2.489126e+000
56548875 1.001121e+000 -5.908605e-001 6.910424e-005 -3.926365e+001 2.643735e-004 -1.515122e+002 9.976403e-001 -2.225232e+000
57298860 1.002261e+000 -6.024159e-001 1.257943e-004 -8.425925e+001 7.372170e-005 -1.241580e+002 9.994537e-001 -2.218547e+000
58048845 1.000531e+000 -5.925419e-001 5.212843e-005 -1.170912e+002 2.896070e-004 1.060164e+002 9.977357e-001 -2.244148e+000
58798830 9.996783e-001 -5.135117e-001 7.677224e-005 1.248855e+002 3.531270e-004 1.714033e+002 9.975260e-001 -2.405616e+000
59548815 1.001395e+000 -6.317852e-001 3.372857e-005 7.851836e+001 6.371546e-004 1.147537e+002 9.971493e-001 -2.504139e+000
60298800 1.001098e+000 -5.766034e-001 1.504934e-004 -8.495641e+000 4.176029e-004 9.992918e+001 9.973607e-001 -2.480134e+000
61048785 1.001510e+000 -5.917135e-001 1.072611e-004 -1.227401e+002 8.172034e-005 -9.969743e+001 9.960174e-001 -2.389526e+000
61798770 1.000106e+000 -6.185441e-001 1.395787e-004 1.124635e+002 1.929669e-004 -2.762768e+001 9.992763e-001 -2.729327e+000
62548755 1.001639e+000 -5.778149e-001 1.368096e-004 4.383049e+001 3.302236e-004 -1.245517e+001 9.996859e-001 -2.612101e+000
63298740 1.001244e+000 -6.421961e-001 1.330886e-004 1.362167e+002 3.739112e-004 -9.249622e+001 9.992947e-001 -2.538780e+000
64048725 1.000830e+000 -5.608529e-001 8.628389e-005 -1.432094e+002 2.270098e-004 -7.837756e+001 9.977349e-001 -2.425735e+000
64798710 1.000402e+000 -6.497813e-001 2.529608e-005 8.099503e+001 9.038398e-005 3.671710e+000 9.992462e-001 -2.812840e+000
65548695 1.001263e+000 -6.841262e-001 4.829019e-005 9.815166e+001 5.248635e-004 2.124251e+001 9.988919e-001 -2.587952e+000
66298680 1.001406e+000 -6.521469e-001 3.370655e-005 -9.425673e+001 1.721724e-004 1.329026e+001 9.993094e-001 -2.738550e+000
67048665 1.001573e+000 -6.041313e-001 9.927899e-005 6.713936e+001 5.187317e-004 1.610086e+002 9.984075e-001 -2.701427e+000
67798650 1.001487e+000 -5.983082e-001 8.838694e-005 -9.078585e+000 1.655916e-004 -7.306210e+001 9.999350e-001 -2.797153e+000
68548635 1.000533e+000 -6.410554e-001 6.325050e-005 -1.091105e+002 3.905501e-004 -8.836386e+001 1.001264e+000 -2.855866e+000
69298620 1.002249e+000 -6.264672e-001 1.830591e-004 1.210202e+002 4.336756e-004 -8.358892e+001 9.987534e-001 -2.819877e+000
70048605 1.001241e+000 -6.052043e-001 5.240388e-005 -1.049414e+002 2.436003e-004 -7.159635e+001 9.997055e-001 -2.824861e+000
70798590 1.001774e+000 -6.017665e-001 1.337474e-004 -1.502228e+002 6.314173e-005 6.900192e+001 9.975160e-001 -2.847800e+000
71548575 1.001747e+000 -5.563903e-001 3.915375e-005 -1.258928e+002 2.981832e-004 1.326079e+002 9.980464e-001 -2.963260e+000
72298560 1.002242e+000 -6.407008e-001 8.096331e-005 -9.620963e+001 2.979659e-004 -1.487474e+002 9.954765e-001 -3.174021e+000
73048545 1.001094e+000 -6.852123e-001 1.991101e-005 6.382468e+001 6.663433e-005 9.855237e+001 9.993618e-001 -2.957411e+000
73798530 1.001129e+000 -5.923358e-001 1.069490e-004 1.498053e+002 1.477789e-004 -1.428196e+002 9.996070e-001 -3.124160e+000
74548515 1.000831e+000 -7.241701e-001 9.465902e-005 -5.849179e+001 3.610275e-004 -1.794241e+002 9.996451e-001 -3.071074e+000
75298500 1.001123e+000 -6.262516e-001 6.282354e-005 -7.781673e+001 8.944381e-006 2.279061e+001 9.976270e-001 -3.060284e+000
76048485 1.002184e+000 -6.672993e-001 1.718226e-004 -3.602370e+000 1.498944e-004 -4.357502e+001 9.991318e-001 -3.112148e+000
76798470 1.001921e+000 -7.205383e-001 1.942406e-004 -6.517587e+001 2.510753e-004 -1.621924e+001 9.975221e-001 -3.086492e+000
77548455 1.000795e+000 -7.478157e-001 4.682266e-005 -1.729805e+002 3.293754e-004 -1.490971e+002 9.994038e-001 -3.061702e+000
78298440 1.002434e+000 -6.972232e-001 1.506981e-004 7.776939e+000 1.422137e-004 -4.820774e+001 9.973710e-001 -3.176245e+000
79048425 1.001840e+000 -6.982628e-001 9.157125e-005 7.811182e+001 1.589065e-004 -8.407938e+001 1.000057e+000 -3.228652e+000
79798410 1.002055e+000 -7.314953e-001 1.436999e-004 1.346893e+002 3.016051e-004 -1.729298e+001 9.967910e-001 -3.152610e+000
80548395 1.001871e+000 -6.570436e-001 4.210482e-005 1.642127e+002 4.517875e-004 -4.628797e+001 9.967868e-001 -3.344593e+000
81298380 1.002187e+000 -7.449157e-001 6.098600e-005 -1.771143e+002 4.288816e-004 -1.412831e+002 9.982305e-001 -3.275884e+000
82048365 1.000972e+000 -6.385549e-001 2.448352e-004 -5.999204e+001 1.018471e-004 1.543880e+002 9.986597e-001 -3.279743e+000
82798350 1.002995e+000 -6.408302e-001 1.141329e-004 4.219057e+001 1.465424e-004 1.340633e+002 9.993598e-001 -3.296726e+000
83548335 1.001665e+000 -7.178299e-001 2.178934e-004 1.771861e+002 2.362089e-004 7.950121e+001 9.984639e-001 -3.399358e+000
84298320 1.002981e+000 -7.532817e-001 1.166169e-004 1.448233e+002 1.983359e-004 1.110704e+002 9.980823e-001 -3.266864e+000
85048305 1.000695e+000 -7.579301e-001 7.896230e-005 -1.489798e+002 6.584503e-004 9.783218e+001 9.987404e-001 -3.419285e+000
85798290 9.998673e-001 -7.558898e-001 1.172071e-004 1.064909e+002 4.577804e-004 7.979810e+001 1.000802e+000 -3.403261e+000
86548275 1.001278e+000 -6.940654e-001 1.453985e-004 1.453665e+002 2.000751e-004 5.289081e+001 9.979700e-001 -3.439355e+000
87298260 1.000970e+000 -7.286278e-001 2.214467e-004 -8.254569e+001 2.595710e-004 -1.311983e+002 1.000236e+000 -3.420143e+000
88048245 1.001512e+000 -7.327374e-001 2.471334e-004 -1.308618e+002 3.359801e-004 2.773450e+001 9.993093e-001 -3.551411e+000
88798230 1.002101e+000 -7.604834e-001 1.520770e-004 -4.343342e+001 2.711474e-004 6.033275e+001 1.001027e+000 -3.545053e+000
89548215 1.003593e+000 -7.579151e-001 2.035715e-004 1.569326e+002 3.813625e-004 -2.538631e+001 9.981413e-001 -3.552477e+000
90298200 1.000893e+000 -7.628269e-001 1.017206e-004 -1.287440e+001 4.043299e-004 -1.234178e+001 1.000056e+000 -3.349126e+000
91048185 1.001742e+000 -8.130302e-001 8.199512e-005 3.449696e+000 8.872961e-005 -1.491831e+002 9.989333e-001 -3.551832e+000
91798170 1.002654e+000 -7.285030e-001 1.075346e-004 1.210954e+002 1.456526e-004 -1.399359e+002 1.000044e+000 -3.608456e+000
92548155 1.002192e+000 -8.018038e-001 9.927060e-005 1.513157e+002 5.544009e-004 -1.394526e+002 9.998770e-001 -3.649004e+000
93298140 1.002225e+000 -7.752886e-001 1.088015e-004 -2.612109e+000 3.386998e-004 -1.785424e+002 9.998494e-001 -3.627490e+000
94048125 1.002606e+000 -8.598419e-001 1.969287e-004 1.457365e+002 2.420576e-004 1.648307e+002 1.001424e+000 -3.714414e+000
94798110 1.003442e+000 -7.395931e-001 1.342005e-004 -1.566601e+002 1.397762e-004 8.889496e+001 9.991356e-001 -3.710856e+000
95548095 1.001835e+000 -7.703787e-001 2.111511e-004 1.430707e+002 2.323302e-004 -1.401848e+002 9.979312e-001 -3.716052e+000
96298080 1.003632e+000 -7.312841e-001 1.968380e-004 -6.756107e+001 1.705242e-004 -1.579146e+002 9.992861e-001 -3.742396e+000
97048065 1.002394e+000 -8.291022e-001 7.611575e-005 1.310489e+002 2.228997e-004 1.520934e+002 9.987833e-001 -3.704553e+000
97798050 1.001652e+000 -8.011866e-001 1.669190e-004 -1.302988e+002 2.880867e-004 6.488407e+001 1.000967e+000 -3.710720e+000
98548035 1.002499e+000 -7.994537e-001 2.107154e-005 1.634777e+002 2.506210e-004 -1.522186e+002 1.000427e+000 -3.832954e+000
99298020 1.002179e+000 -7.861347e-001 2.011327e-004 1.442482e+002 3.731367e-004 1.217072e+002 1.000624e+000 -3.927390e+000
100048005 1.003285e+000 -7.866365e-001 8.904151e-005 -6.372360e+000 2.137497e-004 6.413714e+001 9.985200e-001 -3.900200e+000
100797990 1.003521e+000 -7.964351e-001 9.323977e-005 1.852595e+001 2.737460e-004 -5.111300e+001 1.000187e+000 -3.805476e+000
101547975 1.003392e+000 -8.119838e-001 2.386101e-004 1.202865e+002 6.497811e-005 1.465455e+002 9.997177e-001 -3.746072e+000
102297960 1.003080e+000 -8.032945e-001 1.411291e-004 -1.108656e+002 6.144088e-004 8.045763e+001 1.001095e+000 -3.824059e+000
103047945 1.002656e+000 -7.859605e-001 2.541525e-004 -8.175151e+001 5.699049e-004 5.832487e+001 9.988422e-001 -3.831099e+000
103797930 1.001719e+000 -8.141785e-001 5.004886e-005 1.761590e+002 2.839151e-004 -8.012054e+001 1.002378e+000 -4.076869e+000
104547915 1.001683e+000 -7.569158e-001 5.553845e-005 -1.109457e+002 2.450326e-004 1.698840e+002 1.000181e+000 -3.848212e+000
105297900 1.001743e+000 -8.288404e-001 6.222172e-005 1.246270e+002 4.446737e-004 -1.511017e+002 1.002215e+000 -3.942486e+000
106047885 1.003212e+000 -7.824705e-001 2.324528e-004 9.453389e+001 2.542774e-004 1.744205e+002 1.000386e+000 -4.144844e+000
106797870 1.004377e+000 -7.826269e-001 2.033456e-004 -6.338675e+000 3.600732e-004 6.249966e+001 9.997656e-001 -4.058456e+000
107547855 1.003934e+000 -8.882002e-001 1.001281e-004 1.453819e+002 5.067460e-005 -1.675304e+002 1.000358e+000 -3.959824e+000
108297840 1.003327e+000 -8.211666e-001 1.611235e-004 1.306475e+002 4.532683e-004 -1.475215e+002 1.000568e+000 -4.197480e+000
109047825 1.003273e+000 -8.662192e-001 2.410630e-004 -6.129313e+001 3.607515e-004 -1.795261e+002 9.994844e-001 -4.151977e+000
109797810 1.001817e+000 -9.581468e-001 1.576579e-004 -2.875725e+001 1.245368e-004 -6.299355e+001 1.002074e+000 -4.052148e+000
110547795 1.002008e+000 -7.735078e-001 1.157988e-004 -3.642388e+000 2.658812e-004 3.698807e+001 1.001756e+000 -4.358589e+000
111297780 1.003073e+000 -7.776998e-001 1.831840e-004 -2.454669e+000 3.518276e-004 3.634085e+001 9.977030e-001 -4.140819e+000
112047765 1.002137e+000 -9.014086e-001 1.096469e-004 -2.766834e+001 4.596629e-004 -3.438780e+001 1.000389e+000 -4.215639e+000
112797750 1.002261e+000 -9.464077e-001 1.231251e-004 -6.313774e+001 1.095212e-004 1.638021e+002 9.996873e-001 -4.218025e+000
113547735 1.003344e+000 -8.630143e-001 1.252148e-004 -5.826636e+001 6.273623e-004 -2.632540e+001 9.997814e-001 -4.276793e+000
114297720 1.001845e+000 -8.216847e-001 8.534184e-005 -7.132541e+001 2.647642e-004 -9.380128e+001 1.002415e+000 -4.362200e+000
115047705 1.003021e+000 -8.251101e-001 4.769609e-006 -2.643764e+001 5.222641e-004 -2.922798e+001 9.993435e-001 -4.330981e+000
115797690 1.003506e+000 -8.662312e-001 2.581778e-004 6.560787e+001 3.565497e-004 5.039958e+001 1.000113e+000 -4.477870e+000
116547675 1.003730e+000 -8.370517e-001 1.218089e-004 -7.104893e+001 1.581508e-004 1.308379e+002 1.000632e+000 -4.323354e+000
117297660 1.003611e+000 -8.212536e-001 6.956384e-005 1.298067e+001 5.200545e-004 8.586958e+000 1.001608e+000 -4.356934e+000
