!Agilent Technologies,N5230C,SG49000117,A.08.50.07
!Agilent N5230C: A.08.50.07
!Date: Friday, May 17, 2024 07:56:28
!Correction: S11(Full 2 Port(1,2)) 
!S21(Full 2 Port(1,2)) 
!S12(Full 2 Port(1,2)) 
!S22(Full 2 Port(1,2)) 
!S2P File: Measurements: S11, S21, S12, S22:
# Hz S  MA   R 50
300000 1.007104e+000 -4.785415e-001 6.342795e-005 1.365824e+002 4.926432e-004 -1.341561e+002 1.015303e+000 -8.339545e-001
1049985 1.000842e+000 -3.526346e-001 1.012475e-005 -4.326450e+001 1.443439e-004 -1.644393e+002 9.980429e-001 -5.096955e-001
1799970 9.994819e-001 -2.195116e-001 1.249564e-004 4.102105e+000 9.729819e-005 4.249551e+001 9.972721e-001 -4.032404e-001
2549955 9.994149e-001 -1.779271e-001 1.339060e-004 -8.810973e+001 3.231782e-004 -1.192707e+002 9.971257e-001 -3.234900e-001
3299940 1.000434e+000 -1.218623e-001 1.491590e-005 -2.829837e+000 5.673343e-005 4.101169e+001 9.974854e-001 -3.844204e-001
4049925 9.996753e-001 -1.681958e-001 8.346142e-005 -1.043402e+002 2.250828e-005 5.251223e+001 9.978677e-001 -3.077400e-001
4799910 1.000293e+000 -1.502305e-001 7.064432e-005 -5.714693e+001 1.419595e-004 1.594530e+002 9.984186e-001 -3.413507e-001
5549895 1.000514e+000 -1.235916e-001 8.812152e-005 -1.204981e+002 1.664291e-004 9.813271e+001 9.986591e-001 -3.340971e-001
6299880 9.999060e-001 -1.205443e-001 1.551266e-005 1.130119e+002 4.098887e-005 -2.425804e+000 9.987533e-001 -3.406506e-001
7049865 9.997942e-001 -1.575001e-001 8.407271e-005 8.418984e+001 8.252815e-005 1.464556e+002 9.991478e-001 -4.325269e-001
7799850 9.996010e-001 -1.409490e-001 1.968841e-005 1.294131e+002 8.816281e-005 1.530914e+002 9.969306e-001 -4.008312e-001
8549835 1.000184e+000 -1.366716e-001 5.675711e-005 -1.024293e+002 1.197964e-004 1.302321e+002 9.981930e-001 -5.529243e-001
9299820 9.999220e-001 -1.341091e-001 4.514710e-005 2.625504e+001 1.470567e-005 3.717092e+000 9.965252e-001 -5.002387e-001
10049805 1.000681e+000 -1.348279e-001 2.498877e-005 -1.142993e+002 1.432129e-004 9.498669e+001 9.972955e-001 -6.149585e-001
10799790 9.997877e-001 -1.213042e-001 3.285082e-005 2.079880e+001 1.744520e-004 5.595635e+001 9.971265e-001 -5.520757e-001
11549775 1.000152e+000 -1.642837e-001 5.379917e-005 8.123057e+001 2.697205e-004 2.160107e+001 9.981505e-001 -5.851541e-001
12299760 1.000292e+000 -1.238902e-001 1.490781e-004 7.743098e+001 1.932710e-004 -1.742487e+002 9.997686e-001 -6.561673e-001
13049745 1.000428e+000 -1.866650e-001 7.794784e-005 9.853738e+001 3.983717e-005 7.525980e+001 9.982715e-001 -6.774036e-001
13799730 9.997550e-001 -1.821420e-001 7.376383e-005 6.830235e+001 1.419296e-004 -1.186853e+002 9.958421e-001 -6.801081e-001
14549715 1.000195e+000 -2.329980e-001 2.313493e-005 2.661722e+000 1.766127e-004 1.483573e+002 9.984563e-001 -6.788360e-001
15299700 9.995929e-001 -2.045048e-001 6.769272e-005 3.571966e-001 8.685753e-005 -1.674144e+002 9.981533e-001 -7.834539e-001
16049685 1.000665e+000 -2.044203e-001 1.507931e-004 8.572008e+001 1.424257e-004 3.943257e+001 9.975433e-001 -8.123397e-001
16799670 9.995075e-001 -2.019663e-001 1.432848e-004 -1.053249e+002 3.802168e-004 1.703989e+002 9.989674e-001 -7.913695e-001
17549655 1.000233e+000 -2.756435e-001 1.038225e-005 -1.405114e+002 9.955734e-005 -7.271624e+001 9.993200e-001 -8.089712e-001
18299640 1.000458e+000 -2.250972e-001 5.652219e-005 6.020119e+001 6.476186e-005 -8.760777e+001 9.977612e-001 -9.390254e-001
19049625 1.000079e+000 -2.514329e-001 5.759972e-005 1.613235e+002 2.465163e-004 -5.466407e+001 9.978006e-001 -8.584197e-001
19799610 1.000283e+000 -2.341925e-001 3.560968e-005 -1.454901e+001 8.505818e-005 -1.625981e+002 9.970053e-001 -9.900928e-001
20549595 9.990677e-001 -2.400134e-001 9.600278e-005 5.180654e+001 1.541444e-004 -5.068269e+001 9.974429e-001 -9.970918e-001
21299580 9.990674e-001 -1.934490e-001 6.715373e-005 -1.672614e+001 2.483368e-004 9.963335e+001 9.967386e-001 -9.582905e-001
22049565 9.998964e-001 -2.713034e-001 1.333957e-005 1.527088e+002 5.872593e-005 -8.011019e+001 9.963373e-001 -1.068230e+000
22799550 1.000252e+000 -2.380944e-001 7.397764e-005 7.437148e+001 1.575294e-004 1.370254e+002 9.972994e-001 -1.016056e+000
23549535 1.000474e+000 -2.753588e-001 8.047215e-005 -1.617372e+001 1.588445e-004 4.985226e+001 9.979202e-001 -1.156702e+000
24299520 1.000304e+000 -2.681043e-001 4.769683e-005 -3.538450e+001 1.207806e-004 6.237228e+001 9.963380e-001 -1.139884e+000
25049505 1.000503e+000 -3.222920e-001 9.217626e-005 -1.019493e+002 1.451904e-004 -1.187121e+002 9.977818e-001 -1.262777e+000
25799490 1.000439e+000 -3.317602e-001 1.187367e-004 3.688009e+001 1.275759e-004 1.317541e+002 9.965864e-001 -1.289555e+000
26549475 1.000287e+000 -3.128819e-001 4.456688e-005 -4.301387e+001 7.090897e-005 1.601942e+002 9.987143e-001 -1.276425e+000
27299460 1.000792e+000 -2.825571e-001 7.534729e-005 -1.132142e+002 1.763093e-004 6.361058e+001 9.982479e-001 -1.338331e+000
28049445 9.998240e-001 -2.817237e-001 3.554327e-005 1.916520e+001 1.061904e-004 -8.513496e+001 9.986159e-001 -1.395142e+000
28799430 1.000234e+000 -3.434350e-001 7.058276e-005 1.786296e+002 9.516448e-005 1.371518e+002 9.960545e-001 -1.395253e+000
29549415 9.999955e-001 -2.709332e-001 4.427541e-005 3.415967e+000 7.587019e-005 -1.212233e+002 9.980086e-001 -1.327563e+000
30299400 9.999900e-001 -3.039827e-001 1.984806e-005 -1.710124e+002 8.450224e-005 3.302602e+001 9.987437e-001 -1.445521e+000
31049385 1.000887e+000 -3.126259e-001 7.628736e-005 3.856128e-001 3.499343e-004 1.082237e+002 9.978907e-001 -1.533692e+000
31799370 1.000275e+000 -3.803135e-001 8.313580e-005 -6.078687e+001 1.599757e-004 -1.184086e+001 9.990222e-001 -1.503001e+000
32549355 1.000233e+000 -3.740742e-001 1.004269e-004 -2.583723e+001 1.584439e-004 -1.313143e+002 9.986893e-001 -1.511369e+000
33299340 1.000466e+000 -3.709179e-001 9.351019e-005 3.074310e+001 1.355509e-004 -1.336397e+002 9.970489e-001 -1.566454e+000
34049325 9.998204e-001 -4.277454e-001 1.339951e-004 -1.611067e+002 2.288288e-004 1.790193e+002 9.966767e-001 -1.577263e+000
34799310 9.998663e-001 -3.721184e-001 4.708166e-005 -4.440403e+001 1.911987e-004 2.377071e+001 9.964492e-001 -1.604092e+000
35549295 1.000192e+000 -4.603591e-001 1.068130e-004 1.116506e+002 9.940371e-005 9.958355e+001 9.986425e-001 -1.613581e+000
36299280 1.000321e+000 -4.277733e-001 7.261555e-005 1.475135e+001 6.361559e-005 -8.685041e+001 9.975604e-001 -1.705192e+000
37049265 1.000918e+000 -4.309654e-001 1.748726e-004 1.750443e+002 5.758520e-005 -1.733723e+002 9.972721e-001 -1.691014e+000
37799250 1.000114e+000 -3.868965e-001 8.415037e-005 -1.575445e+001 1.715990e-004 2.094462e+001 9.974972e-001 -1.728662e+000
38549235 9.996189e-001 -4.247257e-001 6.757960e-005 -8.969754e+001 9.368776e-005 1.737392e+002 9.967974e-001 -1.840497e+000
39299220 1.001415e+000 -4.165127e-001 7.667473e-005 1.010690e+002 2.300828e-004 3.034118e+001 9.961522e-001 -1.790056e+000
40049205 1.000637e+000 -4.165116e-001 1.189194e-004 -5.466595e+001 1.360066e-004 6.099833e+001 9.986385e-001 -1.832294e+000
40799190 1.001769e+000 -4.613226e-001 1.110195e-004 6.899641e+001 2.056426e-004 -9.891392e+000 9.980340e-001 -1.891522e+000
41549175 9.991597e-001 -4.001993e-001 8.722369e-005 -1.250584e+002 3.844279e-004 8.750652e+001 9.972818e-001 -1.978316e+000
42299160 1.000146e+000 -4.250928e-001 4.383974e-005 -1.728548e+002 1.053389e-004 7.924197e+001 9.955324e-001 -1.867652e+000
43049145 9.999897e-001 -4.555971e-001 2.569058e-004 7.413434e+001 2.163878e-004 5.136891e+001 9.982467e-001 -1.988410e+000
43799130 1.000199e+000 -4.069957e-001 1.146555e-004 9.126237e+001 2.915437e-004 1.078760e+002 9.974070e-001 -2.027855e+000
44549115 1.001257e+000 -4.142162e-001 1.819794e-004 -1.587115e+002 2.874561e-005 -9.144434e+001 9.978274e-001 -2.015371e+000
45299100 1.001655e+000 -4.779112e-001 2.101920e-004 -5.642094e+001 1.309446e-004 7.862333e+001 9.993112e-001 -2.010581e+000
46049085 1.000042e+000 -4.683911e-001 1.281519e-004 5.010672e+000 3.013758e-004 1.751406e+002 1.000022e+000 -1.982060e+000
46799070 9.994781e-001 -4.552093e-001 1.471024e-004 1.174903e+002 4.340723e-004 7.687187e+001 9.975760e-001 -2.123659e+000
47549055 1.001040e+000 -5.251195e-001 1.807830e-004 1.348862e+002 4.994638e-004 -4.835720e+001 9.967533e-001 -2.182325e+000
48299040 1.001966e+000 -4.853420e-001 1.298791e-004 -1.777471e+002 4.447280e-004 -3.462710e+001 9.971566e-001 -2.155684e+000
49049025 1.001929e+000 -4.970155e-001 1.377758e-004 -9.396856e+000 2.014645e-004 -2.808325e+000 9.988061e-001 -2.142609e+000
49799010 1.000316e+000 -4.659707e-001 9.424766e-005 -1.727331e+002 4.948120e-004 -6.325296e+001 9.979168e-001 -2.248401e+000
50548995 9.991279e-001 -5.394015e-001 1.307257e-004 -9.450845e+001 4.810634e-004 -4.459161e+001 9.984753e-001 -2.256145e+000
51298980 1.002026e+000 -5.092590e-001 9.542188e-005 -5.300440e+001 1.938187e-004 -1.015364e+002 9.958725e-001 -2.258739e+000
52048965 9.993785e-001 -5.280093e-001 7.679332e-005 1.009744e+002 1.179494e-004 1.179440e+002 9.969961e-001 -2.260019e+000
52798950 1.000010e+000 -4.548703e-001 1.318810e-004 -2.904374e+001 2.621093e-004 -1.159724e+002 9.973940e-001 -2.408338e+000
53548935 1.002123e+000 -5.723413e-001 5.218427e-005 1.378559e+001 1.271128e-004 1.148622e+002 9.978932e-001 -2.418860e+000
54298920 1.000626e+000 -5.247372e-001 2.052579e-004 8.823616e+001 6.169804e-004 1.754629e+002 9.959114e-001 -2.536928e+000
55048905 1.000801e+000 -4.635374e-001 1.427038e-004 -5.925640e+001 1.471033e-004 5.922889e+001 9.950833e-001 -2.596773e+000
55798890 1.000358e+000 -5.398195e-001 9.037525e-005 -1.191247e+002 9.644691e-005 3.530635e+001 9.989375e-001 -2.560886e+000
56548875 1.001224e+000 -5.630197e-001 1.034066e-004 1.505616e+002 3.645539e-004 6.057024e+001 9.966843e-001 -2.508926e+000
57298860 1.001744e+000 -6.022239e-001 2.159959e-005 -8.115911e+001 1.811770e-004 1.172393e+002 9.973097e-001 -2.492131e+000
58048845 1.000303e+000 -6.199371e-001 6.922965e-005 1.390633e+002 9.905624e-005 1.660307e+002 9.974735e-001 -2.364109e+000
58798830 9.999244e-001 -5.461525e-001 6.819420e-005 -7.347276e+001 2.451148e-004 -2.465107e+001 9.984836e-001 -2.579104e+000
59548815 1.000992e+000 -6.239013e-001 1.023523e-004 -5.722180e+001 5.161741e-004 4.509314e+001 9.977336e-001 -2.552171e+000
60298800 1.001164e+000 -5.674655e-001 7.478082e-005 -1.376740e+002 2.231946e-004 5.395902e+001 9.995418e-001 -2.689402e+000
61048785 1.001790e+000 -5.611539e-001 1.233668e-004 -9.731986e+001 4.430378e-005 2.948117e+001 9.988934e-001 -2.504411e+000
61798770 1.000783e+000 -6.490669e-001 3.789689e-005 1.793257e+002 1.574166e-004 -1.641082e+002 9.987718e-001 -2.843575e+000
62548755 1.001523e+000 -5.808353e-001 6.854793e-005 -1.240660e+002 1.342468e-004 -1.067896e+002 9.971659e-001 -2.762226e+000
63298740 1.001324e+000 -6.427321e-001 6.573758e-005 -7.184379e+000 3.033338e-004 -9.273045e+001 9.994032e-001 -2.849949e+000
64048725 1.001314e+000 -5.643975e-001 1.160749e-004 -1.072432e+002 1.110298e-004 -9.715266e+001 9.984664e-001 -2.892284e+000
64798710 1.001806e+000 -6.116539e-001 4.364671e-005 2.370811e+001 3.346353e-004 -1.771173e+002 9.990110e-001 -2.953242e+000
65548695 1.001121e+000 -6.597527e-001 1.702108e-004 -1.723494e+002 4.144694e-004 -1.100042e+002 9.993340e-001 -2.684680e+000
66298680 1.001908e+000 -6.360533e-001 1.921133e-005 -1.479556e+002 1.008074e-004 2.004861e+000 9.986244e-001 -3.150700e+000
67048665 1.001635e+000 -6.122307e-001 1.047175e-004 9.041709e+001 4.882533e-004 1.503885e+002 9.969803e-001 -3.028553e+000
67798650 1.001272e+000 -5.808081e-001 5.752176e-005 -1.644896e+002 3.146580e-004 1.265119e+002 9.982845e-001 -3.045357e+000
68548635 1.001296e+000 -6.539565e-001 7.559812e-005 -5.374391e+001 1.000357e-004 -4.641324e+001 1.000170e+000 -2.915973e+000
69298620 1.001535e+000 -6.166040e-001 3.605821e-006 -1.267009e+002 4.117627e-004 -1.370247e+002 9.994467e-001 -3.054085e+000
70048605 1.001107e+000 -6.342527e-001 1.400801e-004 1.239865e+002 2.440923e-004 1.620603e+002 9.996622e-001 -3.112800e+000
70798590 1.001318e+000 -6.278387e-001 6.863866e-005 -8.588126e+001 3.160973e-004 -1.488399e+002 9.973015e-001 -3.147022e+000
71548575 1.001553e+000 -6.467126e-001 6.942355e-005 -1.018479e+002 2.427896e-004 1.452382e+002 9.975349e-001 -3.250938e+000
72298560 1.001846e+000 -6.616226e-001 1.010282e-004 6.207605e+001 4.045783e-005 -1.633932e+002 9.965349e-001 -3.250530e+000
73048545 1.001315e+000 -6.589990e-001 1.491385e-004 -5.538910e+001 4.015080e-004 1.659512e+002 9.994666e-001 -3.112470e+000
73798530 1.001155e+000 -6.054261e-001 1.198466e-004 -1.134721e+002 1.628927e-004 1.894863e+001 9.992124e-001 -3.288608e+000
74548515 1.001973e+000 -7.309468e-001 4.118506e-005 -4.020457e+001 3.290243e-004 2.911754e+001 9.991246e-001 -3.320515e+000
75298500 1.001706e+000 -6.371872e-001 1.142783e-004 1.222975e+002 3.364838e-004 7.217960e+001 9.971273e-001 -3.347998e+000
76048485 1.001769e+000 -6.908061e-001 4.516768e-005 -5.357358e+001 2.557460e-004 -3.424109e+000 9.984451e-001 -3.344820e+000
76798470 1.001829e+000 -6.418182e-001 1.694635e-004 6.207464e+001 4.147283e-004 -4.131792e+001 9.964749e-001 -3.277645e+000
77548455 1.000686e+000 -7.262816e-001 9.229410e-005 -1.115850e+002 3.822143e-004 1.217576e+000 9.991719e-001 -3.337843e+000
78298440 1.002356e+000 -7.228320e-001 1.654227e-004 1.392544e+001 2.835458e-004 -4.615650e+001 9.978404e-001 -3.400710e+000
79048425 1.001605e+000 -7.369570e-001 1.348509e-004 1.626232e+002 2.024828e-004 -2.858895e+001 9.993795e-001 -3.357700e+000
79798410 1.001608e+000 -7.518218e-001 1.336820e-004 -1.608579e+002 3.127025e-004 -5.563015e+001 9.974460e-001 -3.333005e+000
80548395 1.002117e+000 -7.117983e-001 5.044140e-005 8.314773e+001 3.099357e-004 1.539559e+002 9.983745e-001 -3.467246e+000
81298380 1.001752e+000 -7.135905e-001 1.689707e-004 -2.326976e+001 1.147255e-004 -6.407889e+001 9.980744e-001 -3.411375e+000
82048365 1.002171e+000 -7.079195e-001 1.612995e-004 -1.111829e+002 3.378278e-004 -1.113022e+002 9.997997e-001 -3.463731e+000
82798350 1.002780e+000 -6.454236e-001 9.998632e-005 -1.375942e+002 6.677966e-005 -1.034151e+002 1.000256e+000 -3.584345e+000
83548335 1.001704e+000 -6.435952e-001 1.627594e-004 -2.892608e+001 1.800339e-004 -1.321131e+002 9.975820e-001 -3.568807e+000
84298320 1.002697e+000 -7.829870e-001 2.038931e-004 -1.491090e+002 3.892686e-005 -1.218775e+001 9.989494e-001 -3.564310e+000
85048305 1.001134e+000 -6.980947e-001 2.777349e-004 -1.650199e+002 6.132875e-004 1.663559e+002 9.979398e-001 -3.598763e+000
85798290 1.002190e+000 -6.986103e-001 6.776492e-005 -9.487118e-001 3.086708e-004 -1.473840e+002 9.995163e-001 -3.698717e+000
86548275 1.001376e+000 -7.089397e-001 2.112470e-004 3.798897e+001 3.902786e-004 5.770447e+001 9.992053e-001 -3.595274e+000
87298260 1.001493e+000 -7.798856e-001 2.390550e-004 1.703633e+002 4.531176e-005 9.921077e+001 9.985082e-001 -3.623278e+000
88048245 1.000566e+000 -6.918017e-001 1.940663e-004 -1.621518e+002 5.451117e-004 8.032330e+001 9.987515e-001 -3.814513e+000
88798230 1.001197e+000 -7.800963e-001 1.343971e-004 1.310404e+002 2.367025e-004 1.373827e+002 9.983557e-001 -3.778160e+000
89548215 1.002258e+000 -7.816860e-001 1.296071e-004 7.258556e+001 3.679362e-004 1.213070e+001 9.965953e-001 -3.854472e+000
90298200 1.001055e+000 -7.090482e-001 1.024959e-004 1.433307e+002 3.388271e-004 1.369833e+002 1.000556e+000 -3.719624e+000
91048185 1.001476e+000 -7.859727e-001 1.252052e-004 1.237198e+002 2.522617e-004 1.161637e+002 9.982493e-001 -3.786520e+000
91798170 1.001153e+000 -8.684491e-001 1.132393e-004 1.693726e+002 9.086054e-005 -3.411312e+001 9.993091e-001 -3.805568e+000
92548155 1.003270e+000 -7.851082e-001 4.590371e-005 1.700207e+002 3.733042e-004 -1.218597e+002 1.000975e+000 -3.933439e+000
93298140 1.002569e+000 -7.977318e-001 7.841031e-005 9.940914e+001 2.122077e-004 1.487615e+002 1.000479e+000 -3.860696e+000
94048125 1.002920e+000 -8.638076e-001 1.788137e-004 -8.619306e+001 3.434004e-004 -1.627697e+002 9.999689e-001 -3.974995e+000
94798110 1.002268e+000 -7.850285e-001 1.993303e-004 -1.114552e+002 4.071050e-004 -1.454901e+002 9.981525e-001 -4.016270e+000
95548095 1.002074e+000 -7.694259e-001 2.466453e-004 -1.105178e+002 3.703613e-004 1.741796e+002 9.965109e-001 -3.983460e+000
96298080 1.001659e+000 -6.838021e-001 1.811035e-004 -1.061804e+002 5.719594e-004 3.812658e+001 9.979966e-001 -4.028154e+000
97048065 1.002131e+000 -8.262712e-001 1.546133e-004 7.530627e+001 2.695473e-004 2.934409e+001 9.976584e-001 -3.965295e+000
97798050 1.002434e+000 -6.989467e-001 1.513680e-004 -1.341236e+002 1.844657e-004 3.079045e+001 9.989650e-001 -4.242466e+000
98548035 1.001425e+000 -8.052256e-001 9.623905e-005 -3.965042e+001 1.849538e-004 -5.916628e+001 9.990349e-001 -4.010074e+000
99298020 1.003439e+000 -7.932047e-001 1.512564e-004 -1.588577e+002 2.880286e-004 1.359145e+002 9.981463e-001 -4.252279e+000
100048005 1.003036e+000 -8.255937e-001 8.514059e-005 -6.564185e+001 1.675419e-004 -8.316654e+001 9.978164e-001 -4.152821e+000
100797990 1.003304e+000 -7.804877e-001 1.388030e-004 1.205321e+002 3.724315e-004 -3.598271e+001 9.987003e-001 -4.051735e+000
101547975 1.002073e+000 -8.176075e-001 1.789436e-005 1.611127e+000 2.494481e-004 -1.814897e+001 9.973748e-001 -4.262964e+000
102297960 1.003414e+000 -8.451285e-001 7.619927e-005 3.008773e+001 5.082619e-004 -1.234746e+002 9.986069e-001 -4.076573e+000
103047945 1.002310e+000 -8.067098e-001 8.627918e-005 -1.529434e+002 2.070257e-004 -4.228117e+001 9.986514e-001 -4.215598e+000
103797930 1.002312e+000 -8.023289e-001 1.829985e-004 1.020672e+002 2.020467e-004 -5.308564e+001 1.000215e+000 -4.251429e+000
104547915 1.003177e+000 -8.389645e-001 7.110732e-005 -5.520054e+001 2.812611e-004 -7.507085e+001 1.000052e+000 -4.163013e+000
105297900 1.002437e+000 -8.573473e-001 1.429004e-004 1.776602e+002 3.939076e-004 1.033624e+002 1.000261e+000 -4.230400e+000
106047885 1.003574e+000 -7.822552e-001 1.495365e-004 -1.054474e+002 2.230242e-004 3.401315e+001 1.001013e+000 -4.339854e+000
106797870 1.003860e+000 -7.913446e-001 1.145208e-004 1.396987e+002 3.867703e-004 1.709067e+002 1.001946e+000 -4.473461e+000
107547855 1.003005e+000 -8.474020e-001 1.285506e-004 1.724225e+002 2.454240e-004 1.218542e+002 1.000602e+000 -4.198577e+000
108297840 1.003024e+000 -7.852758e-001 6.306024e-005 -3.451318e+001 3.556113e-004 1.196832e+002 9.991227e-001 -4.463838e+000
109047825 1.002566e+000 -8.700045e-001 1.535791e-004 2.747934e+001 5.764810e-004 4.587081e+001 1.002980e+000 -4.531355e+000
109797810 1.002335e+000 -8.758584e-001 7.180983e-005 1.430119e+002 1.511852e-004 1.418279e+002 1.000647e+000 -4.477600e+000
110547795 1.002670e+000 -8.343859e-001 1.737394e-004 1.159882e+002 6.380675e-004 1.314503e+002 1.001747e+000 -4.472940e+000
111297780 1.003154e+000 -8.176384e-001 1.804324e-004 -9.949300e+001 1.144408e-004 -2.708235e+000 1.001298e+000 -4.386226e+000
112047765 1.002570e+000 -8.395960e-001 1.251294e-004 6.220424e+001 7.036664e-004 3.355400e+001 9.989411e-001 -4.549876e+000
112797750 1.003012e+000 -9.135649e-001 1.648111e-004 -4.149707e+001 1.889727e-004 -5.950196e+001 9.978693e-001 -4.481963e+000
113547735 1.003365e+000 -8.368979e-001 1.158852e-004 -1.161385e+002 4.895205e-004 7.707183e+001 9.997144e-001 -4.479431e+000
114297720 1.001707e+000 -8.908177e-001 1.820236e-004 6.263577e+001 2.341986e-004 2.371750e+001 1.000471e+000 -4.712691e+000
115047705 1.003419e+000 -8.503886e-001 9.174001e-005 1.387236e+002 2.226171e-004 -1.321719e+002 1.000600e+000 -4.658761e+000
115797690 1.003461e+000 -8.396857e-001 6.294174e-005 -1.227279e+002 1.807082e-004 -7.082286e+001 9.994641e-001 -4.813183e+000
116547675 1.004025e+000 -9.129423e-001 1.975455e-005 8.626460e+001 2.584542e-004 4.333364e+001 9.988591e-001 -4.708204e+000
117297660 1.003498e+000 -8.268699e-001 1.780990e-004 1.660833e+002 1.581277e-004 1.542248e+002 9.999993e-001 -4.746588e+000
