!Agilent Technologies,N5230C,SG49000117,A.08.50.07
!Agilent N5230C: A.08.50.07
!Date: Friday, May 17, 2024 07:55:38
!Correction: S11(Full 2 Port(1,2)) 
!S21(Full 2 Port(1,2)) 
!S12(Full 2 Port(1,2)) 
!S22(Full 2 Port(1,2)) 
!S2P File: Measurements: S11, S21, S12, S22:
# Hz S  MA   R 50
300000 1.006504e+000 -4.241601e-001 1.024297e-004 -1.735733e+001 1.025295e-004 1.157663e+002 1.011989e+000 -7.933437e-001
1049985 1.000422e+000 -3.089861e-001 1.184104e-005 -1.315413e+002 5.205830e-005 6.507999e+001 9.964626e-001 -5.265956e-001
1799970 9.995505e-001 -1.741139e-001 8.519413e-005 -1.283784e+002 9.546841e-005 -9.172868e+001 9.949626e-001 -3.816175e-001
2549955 9.999331e-001 -1.444194e-001 1.212370e-004 -1.451919e+002 2.384364e-004 -1.622626e+002 9.968085e-001 -2.900003e-001
3299940 1.000311e+000 -1.021234e-001 2.911580e-005 -6.304029e+000 1.193875e-004 -1.365207e+002 9.945380e-001 -3.984767e-001
4049925 1.000330e+000 -1.835542e-001 4.240192e-005 -5.195931e+001 5.657204e-005 1.511661e+002 9.967158e-001 -3.509591e-001
4799910 1.000118e+000 -1.334070e-001 6.545995e-005 9.228985e+001 1.628745e-004 -1.543138e+002 9.957002e-001 -3.759104e-001
5549895 9.998628e-001 -1.512542e-001 3.883844e-005 1.394102e+002 1.394098e-004 -1.626655e+002 9.956649e-001 -3.593068e-001
6299880 9.998766e-001 -9.654558e-002 3.833781e-005 -1.510750e+002 1.525915e-004 6.147493e+001 9.980297e-001 -4.455831e-001
7049865 9.998979e-001 -1.440180e-001 1.001850e-004 5.297858e+001 7.711226e-005 1.763545e+002 9.976503e-001 -4.784781e-001
7799850 9.998343e-001 -1.455670e-001 2.390903e-005 5.069952e+000 8.274906e-005 1.474332e+002 9.957530e-001 -5.283973e-001
8549835 1.000006e+000 -1.522380e-001 1.044126e-005 8.429329e+001 2.128014e-004 -1.618510e+002 9.968450e-001 -6.392017e-001
9299820 9.999982e-001 -1.734079e-001 7.554975e-005 1.009247e+002 1.215236e-004 -8.735282e+001 9.955866e-001 -5.283446e-001
10049805 9.999576e-001 -1.395821e-001 7.167715e-005 -1.449091e+002 7.406020e-005 9.234221e+001 9.958407e-001 -6.382292e-001
10799790 9.991587e-001 -1.312901e-001 1.329478e-005 -6.690501e+001 1.041026e-004 1.237634e+001 9.966956e-001 -5.646671e-001
11549775 1.000105e+000 -1.716014e-001 5.258659e-005 1.616596e+002 9.440447e-005 -1.269657e+002 9.963822e-001 -5.748844e-001
12299760 9.997079e-001 -1.410369e-001 2.015670e-005 1.006004e+001 1.503798e-004 -1.198596e+002 9.967734e-001 -6.339003e-001
13049745 1.000214e+000 -2.234806e-001 2.779268e-005 -1.007458e+002 2.954358e-005 2.623622e+001 9.961786e-001 -7.300272e-001
13799730 1.000231e+000 -2.018025e-001 3.150998e-005 3.133885e+001 3.225440e-004 -1.194511e+002 9.956193e-001 -8.005303e-001
14549715 1.000873e+000 -2.265357e-001 3.613129e-005 1.531385e+002 2.143776e-004 -6.650023e+000 9.974136e-001 -7.799259e-001
15299700 9.999825e-001 -1.543490e-001 4.153125e-005 -1.373183e+002 3.458466e-005 9.362287e+001 9.965410e-001 -8.604650e-001
16049685 1.000305e+000 -1.615127e-001 1.445929e-005 1.033410e+002 2.072179e-004 2.267589e+001 9.967831e-001 -8.680838e-001
16799670 1.000234e+000 -1.948822e-001 1.035917e-004 -1.021719e+002 1.672340e-004 1.303910e+002 9.986205e-001 -8.883350e-001
17549655 1.000401e+000 -2.523933e-001 1.075459e-004 1.493188e+002 2.051710e-004 -3.202794e+001 9.971381e-001 -8.950453e-001
18299640 1.000161e+000 -2.176378e-001 9.708439e-005 1.947260e+001 1.293448e-004 -7.151141e+001 9.968355e-001 -9.808187e-001
19049625 1.000250e+000 -2.404261e-001 5.465596e-005 1.039481e+002 2.124817e-004 -1.554694e+002 9.961088e-001 -9.987431e-001
19799610 1.001042e+000 -2.516124e-001 1.115349e-004 -1.190027e+002 6.061659e-005 7.422171e+001 9.948353e-001 -9.450441e-001
20549595 9.999582e-001 -1.794964e-001 3.109649e-005 -3.935273e+001 1.986613e-004 -9.692540e+001 9.963967e-001 -1.125802e+000
21299580 9.992130e-001 -2.427724e-001 6.063524e-005 -1.431440e+002 2.517585e-004 1.287191e+002 9.951838e-001 -1.077649e+000
22049565 9.999697e-001 -3.172484e-001 8.903971e-005 1.472831e+002 2.213938e-004 -1.647653e+001 9.953851e-001 -1.071884e+000
22799550 1.000381e+000 -2.401347e-001 3.488079e-005 1.209628e+002 1.597872e-004 1.495415e+002 9.969799e-001 -1.197884e+000
23549535 9.999138e-001 -2.661086e-001 3.476044e-005 6.835865e+001 1.846400e-004 -5.084382e+001 9.956609e-001 -1.277512e+000
24299520 1.000073e+000 -3.042740e-001 7.192569e-005 5.064158e+000 2.363843e-004 1.279400e+002 9.944558e-001 -1.311671e+000
25049505 1.000156e+000 -2.857239e-001 1.293510e-004 -1.722711e+002 4.136537e-005 1.826139e+001 9.956915e-001 -1.326725e+000
25799490 1.000015e+000 -3.333267e-001 4.721317e-005 -1.168206e+002 8.456787e-005 -6.368570e+001 9.957666e-001 -1.389081e+000
26549475 1.000788e+000 -2.983857e-001 3.853141e-005 -8.948268e+001 4.097486e-004 -4.012935e+001 9.964127e-001 -1.372207e+000
27299460 9.997956e-001 -2.812340e-001 1.123336e-004 9.867097e+001 1.188742e-004 1.078186e+002 9.964872e-001 -1.431554e+000
28049445 9.995766e-001 -3.298091e-001 9.442522e-005 6.523862e+001 1.607297e-004 -9.273642e+001 9.971049e-001 -1.441413e+000
28799430 9.994826e-001 -3.544232e-001 7.272098e-005 -3.525838e+001 1.107871e-004 -3.795874e+001 9.954714e-001 -1.532468e+000
29549415 1.000319e+000 -2.901511e-001 3.859015e-005 2.140066e+001 1.299211e-004 -4.259051e+001 9.966494e-001 -1.522271e+000
30299400 9.996182e-001 -3.288156e-001 7.172152e-005 -1.431242e+002 1.612571e-004 -1.761193e+002 9.976366e-001 -1.597999e+000
31049385 1.000124e+000 -3.374144e-001 4.664209e-005 -7.305096e+001 8.956793e-005 3.018161e+001 9.961067e-001 -1.604052e+000
31799370 1.000517e+000 -3.732985e-001 9.778603e-005 1.029384e+002 1.855688e-004 -2.552025e+001 9.966533e-001 -1.612993e+000
32549355 1.000749e+000 -3.548255e-001 7.514349e-005 9.050470e+001 4.120864e-005 1.065793e+002 9.957796e-001 -1.650918e+000
33299340 1.000439e+000 -3.398528e-001 6.090341e-005 7.670374e+001 7.836761e-005 2.068925e+001 9.953061e-001 -1.687242e+000
34049325 9.998599e-001 -3.969955e-001 1.052406e-004 1.103910e+002 1.417644e-004 9.299469e+001 9.957597e-001 -1.734486e+000
34799310 9.998103e-001 -4.315060e-001 3.678694e-005 1.352283e+001 1.332995e-004 -1.197040e+001 9.955075e-001 -1.828542e+000
35549295 1.000224e+000 -4.399910e-001 8.055577e-005 -4.853544e+001 1.603427e-004 1.373444e+001 9.971336e-001 -1.723052e+000
36299280 9.997453e-001 -4.198251e-001 6.453108e-005 1.539617e+002 1.024326e-004 -9.510078e+001 9.958345e-001 -1.862337e+000
37049265 1.000604e+000 -4.258017e-001 6.621062e-005 -1.139702e+002 6.269811e-005 1.227876e+002 9.957308e-001 -1.895879e+000
37799250 9.999825e-001 -4.347609e-001 5.550550e-005 -1.365862e+002 3.345349e-005 1.582552e+002 9.960092e-001 -1.836269e+000
38549235 1.000205e+000 -4.092804e-001 6.750077e-005 -6.714886e+001 2.102964e-005 1.111867e+002 9.946544e-001 -1.960895e+000
39299220 1.000655e+000 -4.067284e-001 4.599304e-005 -1.129034e+002 1.311462e-004 -8.831165e+001 9.951508e-001 -1.946604e+000
40049205 9.993716e-001 -3.399759e-001 2.918541e-004 1.351587e+002 6.760990e-005 -3.760880e+001 9.977440e-001 -1.965361e+000
40799190 1.000846e+000 -4.011893e-001 1.493678e-004 1.361355e+002 3.253646e-004 1.641129e+002 9.965269e-001 -2.078811e+000
41549175 9.992146e-001 -4.419375e-001 9.002247e-005 8.988524e+001 1.476438e-004 -4.366486e+001 9.952514e-001 -2.082775e+000
42299160 9.999364e-001 -4.179759e-001 1.023885e-004 1.623928e+002 1.204333e-004 1.569979e+002 9.962671e-001 -2.020458e+000
43049145 1.000746e+000 -4.308902e-001 4.883855e-005 -2.396259e+001 1.634347e-004 -2.027218e+001 9.948459e-001 -2.105107e+000
43799130 1.001302e+000 -4.681386e-001 1.535613e-004 1.640206e+002 4.004435e-004 7.558610e+001 9.960201e-001 -2.232193e+000
44549115 1.001139e+000 -4.602645e-001 7.711050e-005 1.165478e+002 9.740276e-005 -1.642636e+002 9.966910e-001 -2.216423e+000
45299100 1.001773e+000 -5.216311e-001 1.182788e-004 -5.101318e+001 1.928536e-004 -1.217113e+002 9.966165e-001 -2.214288e+000
46049085 1.001312e+000 -4.733347e-001 1.115639e-004 1.147355e+002 2.366009e-004 1.243300e+002 9.970450e-001 -2.195853e+000
46799070 1.000386e+000 -4.409964e-001 3.276055e-005 -1.396875e+002 1.127715e-004 3.206846e+001 9.966738e-001 -2.208594e+000
47549055 1.000675e+000 -4.941518e-001 6.768926e-005 -2.127345e+001 2.022743e-004 -1.383624e+002 9.939081e-001 -2.435555e+000
48299040 1.000361e+000 -4.940735e-001 5.338792e-005 7.089694e+001 4.333736e-004 1.142793e+002 9.945641e-001 -2.279552e+000
49049025 1.002051e+000 -4.822303e-001 2.560737e-004 8.367964e+001 1.939305e-004 1.218824e+002 9.973115e-001 -2.367716e+000
49799010 9.990353e-001 -5.336423e-001 1.988386e-004 -1.354059e+002 2.621830e-004 6.576685e+001 9.961533e-001 -2.266979e+000
50548995 1.000033e+000 -5.411531e-001 8.292024e-005 -6.627789e+001 1.897245e-004 1.149449e+002 9.954532e-001 -2.481589e+000
51298980 1.001477e+000 -5.254166e-001 8.369075e-005 -1.118777e+002 3.862236e-004 3.701019e+001 9.945427e-001 -2.434539e+000
52048965 1.000061e+000 -5.486381e-001 1.183294e-004 -1.062603e+002 2.440138e-004 1.429514e+002 9.957426e-001 -2.548212e+000
52798950 1.000594e+000 -5.028540e-001 7.626351e-005 -1.611031e+002 2.049378e-004 -4.986040e+000 9.983416e-001 -2.600996e+000
53548935 1.002389e+000 -5.874530e-001 9.957917e-005 -1.083842e+002 8.146589e-005 -5.217533e+001 9.970468e-001 -2.672621e+000
54298920 1.000762e+000 -5.261483e-001 7.530421e-005 -1.207723e+001 1.739298e-004 -1.434097e+002 9.936740e-001 -2.691605e+000
55048905 1.000868e+000 -5.442102e-001 4.174197e-005 1.542074e+002 1.623052e-004 1.275730e+002 9.938807e-001 -2.750330e+000
55798890 1.000628e+000 -5.517988e-001 6.791139e-005 1.298959e+001 2.705787e-004 -8.923651e+001 9.945745e-001 -2.780263e+000
56548875 1.001354e+000 -5.551117e-001 1.048172e-004 -1.444678e+002 3.069829e-004 -1.045534e+002 9.932848e-001 -2.678922e+000
57298860 1.001817e+000 -5.521170e-001 9.557955e-005 1.948074e+001 2.964985e-004 -5.815944e+001 9.960377e-001 -2.617231e+000
58048845 9.999390e-001 -6.039945e-001 4.069566e-005 -3.565160e+001 3.996105e-004 -1.577670e+002 9.938667e-001 -2.594182e+000
58798830 9.999853e-001 -5.161108e-001 8.566112e-005 -6.171161e+001 2.394673e-004 1.595923e+002 9.976780e-001 -2.815416e+000
59548815 1.000705e+000 -6.103379e-001 1.054991e-004 1.170461e+002 2.848119e-004 1.450144e+002 9.934545e-001 -2.889327e+000
60298800 1.000917e+000 -5.632234e-001 6.840044e-005 3.027370e+001 4.108969e-004 1.793524e+002 9.951922e-001 -2.903757e+000
61048785 1.001923e+000 -5.822985e-001 1.178025e-004 1.392741e+002 2.544375e-004 -1.735626e+002 9.976721e-001 -2.874622e+000
61798770 1.000222e+000 -5.861644e-001 9.081150e-005 1.207956e+002 5.017172e-005 -3.746053e+001 9.980029e-001 -2.968477e+000
62548755 1.001390e+000 -5.857732e-001 1.408518e-004 -1.348483e+002 1.739468e-004 -8.575843e+000 9.949920e-001 -3.029171e+000
63298740 1.000785e+000 -5.705007e-001 3.416849e-005 -1.321857e+002 3.101418e-004 4.431805e+001 9.972843e-001 -3.172499e+000
64048725 1.001312e+000 -5.644076e-001 8.828430e-005 1.677463e+002 2.447297e-004 4.800632e+001 9.979732e-001 -2.929128e+000
64798710 9.999788e-001 -6.276343e-001 1.347102e-005 -1.120871e+001 4.745992e-004 -2.569100e+001 9.952915e-001 -3.137553e+000
65548695 1.001481e+000 -6.549519e-001 2.334045e-004 -1.416458e+002 8.934916e-005 8.267923e+000 9.978541e-001 -3.022861e+000
66298680 1.001880e+000 -6.503491e-001 9.821293e-005 -1.774790e+002 2.939926e-004 5.528430e+000 9.939258e-001 -3.249552e+000
67048665 1.001309e+000 -6.111003e-001 1.328833e-004 2.539224e+001 3.341576e-004 -9.393222e+001 9.953911e-001 -3.265953e+000
67798650 1.001217e+000 -6.443354e-001 3.911369e-005 1.464910e+002 2.716287e-004 -8.795425e+001 9.949815e-001 -3.170119e+000
68548635 1.000886e+000 -6.196105e-001 9.214599e-005 -1.132707e+002 2.470211e-004 -8.287541e+001 9.996477e-001 -3.194932e+000
69298620 1.002195e+000 -6.067517e-001 7.884117e-005 1.109885e+002 9.887980e-005 1.908111e+001 9.947057e-001 -3.206087e+000
70048605 1.001133e+000 -6.635786e-001 4.385364e-005 2.656125e+001 1.133873e-004 -9.089812e+000 9.976134e-001 -3.368722e+000
70798590 1.001387e+000 -5.868869e-001 6.072083e-005 -1.316912e+001 3.115476e-004 1.390772e+002 9.956835e-001 -3.316052e+000
71548575 1.001571e+000 -5.831512e-001 1.595710e-004 -2.633867e+001 1.671636e-004 1.700223e+002 9.953217e-001 -3.427298e+000
72298560 1.002403e+000 -6.983151e-001 1.102879e-004 -5.651363e+001 3.075683e-004 4.223335e+001 9.949379e-001 -3.531665e+000
73048545 1.000594e+000 -6.607620e-001 2.110317e-005 1.137292e+002 2.701649e-004 -7.641018e+000 9.979803e-001 -3.441782e+000
73798530 1.000958e+000 -6.185676e-001 1.272744e-004 9.137826e+001 1.506887e-004 6.503731e+001 9.972374e-001 -3.581152e+000
74548515 1.001337e+000 -6.841655e-001 3.405531e-005 6.664370e+000 3.765567e-004 4.373383e+001 9.968035e-001 -3.580006e+000
75298500 1.001509e+000 -7.191867e-001 1.422896e-004 -1.609681e+002 3.069395e-004 3.909764e+001 9.955869e-001 -3.566509e+000
76048485 1.001810e+000 -7.064458e-001 2.253374e-004 -1.598509e+002 2.844009e-004 5.370137e+000 9.952306e-001 -3.631383e+000
76798470 1.001588e+000 -6.623511e-001 8.334741e-005 -5.009652e+001 3.179313e-004 -7.018552e+001 9.948062e-001 -3.615056e+000
77548455 1.000533e+000 -6.890839e-001 2.293273e-004 -2.476713e+000 7.584332e-005 -1.881505e+001 9.983810e-001 -3.658150e+000
78298440 1.001931e+000 -6.461626e-001 2.231410e-004 -1.458103e+002 4.215209e-005 6.183256e+001 9.959749e-001 -3.756615e+000
79048425 1.001344e+000 -7.222533e-001 1.299180e-004 -1.428645e+002 9.112588e-005 -1.788008e+002 9.986762e-001 -3.652694e+000
79798410 1.003339e+000 -6.712919e-001 2.481449e-004 -2.039052e+001 3.471274e-004 1.088761e+002 9.964284e-001 -3.699881e+000
80548395 1.002103e+000 -7.300155e-001 8.680098e-005 2.043388e+001 1.006713e-004 5.024834e+001 9.953095e-001 -3.801987e+000
81298380 1.001775e+000 -7.241374e-001 1.710844e-004 1.429907e+002 2.154061e-004 -8.889547e+001 9.969172e-001 -3.764736e+000
82048365 1.001516e+000 -6.837809e-001 1.537217e-004 1.679366e+002 3.410436e-004 1.556765e+002 9.977211e-001 -3.791312e+000
82798350 1.002668e+000 -7.075676e-001 1.534275e-004 1.588244e+002 2.125319e-004 1.330871e+002 9.983085e-001 -3.916430e+000
83548335 1.000986e+000 -7.739661e-001 1.454729e-004 6.682910e+001 1.210618e-004 -1.573919e+002 9.947757e-001 -3.893279e+000
84298320 1.002197e+000 -7.342205e-001 1.713028e-004 4.734482e+001 8.611903e-005 -1.417552e+002 9.976080e-001 -3.906175e+000
85048305 1.001431e+000 -7.523041e-001 1.373777e-004 1.524688e+002 2.627239e-004 1.054805e+002 9.975427e-001 -4.002404e+000
85798290 1.001253e+000 -7.723224e-001 2.019746e-004 2.884599e+001 4.318029e-004 1.287823e+002 9.982340e-001 -4.023826e+000
86548275 1.002512e+000 -7.436922e-001 8.761806e-005 -1.271154e+001 2.729735e-004 1.112797e+002 9.951589e-001 -3.937087e+000
87298260 1.001047e+000 -7.503639e-001 9.212418e-005 7.470380e+001 2.228141e-004 6.837012e+001 9.991937e-001 -4.062712e+000
88048245 1.001555e+000 -6.821128e-001 2.004629e-005 -3.273846e+001 2.220633e-004 9.146998e+001 9.973558e-001 -4.128188e+000
88798230 1.001892e+000 -7.745564e-001 9.690910e-005 -5.301849e+001 5.837184e-005 -6.074749e+000 9.983480e-001 -4.135270e+000
89548215 1.002921e+000 -7.021753e-001 2.066185e-004 -2.669962e+001 4.176402e-004 -1.785331e+002 9.955139e-001 -4.117982e+000
90298200 1.000539e+000 -8.019801e-001 3.056040e-004 -1.673926e+002 6.361602e-005 1.283956e+002 9.981039e-001 -4.087039e+000
91048185 1.001370e+000 -7.738261e-001 1.916964e-004 -3.489337e+001 1.251838e-004 -9.429189e+001 9.972399e-001 -4.167838e+000
91798170 1.001423e+000 -7.695470e-001 1.466502e-004 6.321537e+001 4.781211e-004 -7.485361e+001 9.960629e-001 -4.238902e+000
92548155 1.002143e+000 -7.419618e-001 1.453867e-004 -3.402464e+000 7.073941e-005 -1.651559e+002 9.977666e-001 -4.313445e+000
93298140 1.002583e+000 -7.706646e-001 1.121841e-004 1.163895e+002 2.910461e-004 1.273010e+002 9.986654e-001 -4.189227e+000
94048125 1.002371e+000 -8.313852e-001 1.776058e-004 6.647507e+001 1.993939e-004 -1.144260e+002 9.981988e-001 -4.352126e+000
94798110 1.001642e+000 -7.786789e-001 6.040715e-005 -5.242325e+001 2.718472e-004 -6.512232e+001 9.969046e-001 -4.280913e+000
95548095 1.001997e+000 -7.956253e-001 8.299451e-005 2.866603e+001 2.524724e-004 6.000915e+001 9.957967e-001 -4.251913e+000
96298080 1.001369e+000 -8.429816e-001 9.524365e-005 -9.900854e+001 4.636760e-004 4.296455e+001 9.968751e-001 -4.379289e+000
97048065 1.001510e+000 -8.316243e-001 1.722452e-004 1.659772e+002 2.751376e-004 5.052541e+001 9.967138e-001 -4.254899e+000
97798050 1.001466e+000 -6.703136e-001 4.365322e-005 9.564797e+001 3.039467e-004 2.044860e+001 9.979656e-001 -4.425370e+000
98548035 1.002383e+000 -7.779605e-001 1.271633e-004 -1.378402e+001 2.506650e-004 -1.301550e+002 9.969500e-001 -4.537776e+000
99298020 1.002549e+000 -8.189316e-001 1.059460e-004 7.265836e+001 3.100049e-004 -1.559060e+002 9.986401e-001 -4.548967e+000
100048005 1.003234e+000 -8.269137e-001 9.497308e-005 3.924572e+001 3.094678e-004 -2.747861e+001 9.978709e-001 -4.412789e+000
100797990 1.003764e+000 -7.939966e-001 6.788228e-005 8.074065e+001 2.068906e-004 -3.393124e+001 9.961967e-001 -4.356954e+000
101547975 1.003178e+000 -7.605528e-001 5.824122e-005 -4.678641e+001 1.116900e-004 2.678842e+001 9.965532e-001 -4.364007e+000
102297960 1.003853e+000 -7.536063e-001 1.019757e-004 1.742398e+002 2.844246e-004 -6.279325e+001 9.984453e-001 -4.491943e+000
103047945 1.003864e+000 -7.721753e-001 1.183525e-004 1.269999e+001 1.431712e-004 -3.950290e+001 9.946072e-001 -4.565706e+000
103797930 1.001759e+000 -8.529433e-001 1.525561e-004 -2.538987e+001 4.662551e-004 -9.644162e+001 9.979200e-001 -4.741292e+000
104547915 1.002307e+000 -7.687916e-001 1.594887e-004 4.881800e+001 4.370276e-004 -1.032721e+002 9.988771e-001 -4.719889e+000
105297900 1.002342e+000 -8.254370e-001 9.816310e-005 1.049377e+002 2.478068e-004 -1.529758e+002 9.987713e-001 -4.574674e+000
106047885 1.003919e+000 -7.790940e-001 2.030328e-004 -6.414087e+001 1.959351e-004 -1.441067e+001 9.977533e-001 -4.909488e+000
106797870 1.002827e+000 -7.695585e-001 1.096127e-004 1.262587e+002 2.882623e-004 -1.114398e+002 9.996846e-001 -4.649820e+000
107547855 1.003075e+000 -8.578691e-001 8.609409e-005 1.037249e+001 2.559801e-004 -1.403476e+002 9.985146e-001 -4.697161e+000
108297840 1.002589e+000 -8.283899e-001 7.315362e-005 -1.288961e+002 1.063829e-004 -1.198892e+002 9.970388e-001 -4.855113e+000
109047825 1.002586e+000 -8.530452e-001 1.205827e-004 -1.174891e+002 4.412049e-004 -1.755778e+002 9.990148e-001 -4.936290e+000
109797810 1.002159e+000 -8.246223e-001 1.562658e-004 8.075916e+001 1.006247e-004 1.204170e+002 1.000275e+000 -4.788880e+000
110547795 1.002552e+000 -8.181247e-001 2.317537e-004 -1.315390e+002 3.934952e-004 1.463293e+002 9.988091e-001 -5.012870e+000
111297780 1.002838e+000 -8.098078e-001 2.488835e-005 -1.041058e+002 4.631096e-004 -5.140540e+001 9.982303e-001 -4.774641e+000
112047765 1.001353e+000 -8.645443e-001 5.411762e-005 -1.300691e+002 9.770614e-005 4.453172e+001 9.969591e-001 -4.897056e+000
112797750 1.003487e+000 -8.619758e-001 1.284747e-004 -1.752147e+002 2.954940e-004 1.212165e+001 9.980367e-001 -4.897311e+000
113547735 1.002907e+000 -8.941998e-001 2.854429e-005 -6.254173e+001 1.307609e-005 3.803380e+001 9.961545e-001 -5.027960e+000
114297720 1.002491e+000 -8.725415e-001 2.783938e-005 1.408777e+002 2.473401e-004 -8.623127e+001 1.000267e+000 -5.169277e+000
115047705 1.002941e+000 -8.183394e-001 1.131822e-004 9.895119e+001 1.811428e-004 1.046994e+002 9.988468e-001 -5.165528e+000
115797690 1.003755e+000 -8.323577e-001 6.522977e-005 1.559017e+002 1.425682e-004 -8.186140e+001 9.980985e-001 -5.206599e+000
116547675 1.003105e+000 -9.103962e-001 1.990177e-004 -7.384829e+001 1.489591e-004 -9.212365e+001 9.980678e-001 -4.977572e+000
117297660 1.003641e+000 -8.341322e-001 5.001414e-005 4.463277e+000 5.111615e-004 -4.961096e+001 9.976599e-001 -5.121891e+000
