!Agilent Technologies,N5230C,SG49000117,A.08.50.07
!Agilent N5230C: A.08.50.07
!Date: Friday, May 17, 2024 08:01:45
!Correction: S11(Full 2 Port(1,2)) 
!S21(Full 2 Port(1,2)) 
!S12(Full 2 Port(1,2)) 
!S22(Full 2 Port(1,2)) 
!S2P File: Measurements: S11, S21, S12, S22:
# Hz S  MA   R 50
300000 1.006574e+000 -4.894684e-001 2.743143e-005 5.797104e+001 4.037719e-004 4.014397e+001 1.013095e+000 -7.302654e-001
1049985 1.000926e+000 -3.622655e-001 8.412167e-005 1.032126e+002 1.107036e-004 -1.363155e+002 9.995138e-001 -4.965298e-001
1799970 9.999797e-001 -1.298245e-001 1.570058e-004 7.187469e+001 1.770118e-004 -2.807454e+001 9.983798e-001 -3.710407e-001
2549955 1.000036e+000 -1.545894e-001 8.780208e-005 -1.315857e+002 1.319804e-004 -1.643070e+002 9.984893e-001 -3.127900e-001
3299940 1.000491e+000 -1.301004e-001 5.206284e-005 1.792653e+002 1.412009e-004 -1.085343e+002 9.960060e-001 -2.640747e-001
4049925 1.000159e+000 -1.552494e-001 2.780409e-005 1.241224e+002 3.034844e-005 -1.141741e+002 9.976242e-001 -2.713226e-001
4799910 9.999357e-001 -1.325615e-001 1.119582e-004 1.317539e+002 2.224149e-004 1.125361e+002 9.991292e-001 -2.756849e-001
5549895 9.999937e-001 -1.066197e-001 5.984950e-005 -4.642506e+001 8.577409e-005 -1.604957e+002 9.983336e-001 -2.441938e-001
6299880 1.000113e+000 -1.116458e-001 4.949499e-005 5.215404e+001 2.369937e-004 -1.778694e+002 9.984637e-001 -2.832810e-001
7049865 9.996101e-001 -1.443996e-001 1.032745e-004 4.654406e+001 2.068340e-005 -1.121393e+001 9.989011e-001 -3.462675e-001
7799850 1.000404e+000 -1.314682e-001 7.841893e-005 1.084287e+002 1.054538e-004 -5.889680e+001 9.974596e-001 -3.197397e-001
8549835 9.999402e-001 -1.437913e-001 8.067153e-005 -1.042710e+001 9.292371e-005 -1.082236e+002 9.988715e-001 -4.425694e-001
9299820 1.000054e+000 -1.533959e-001 7.929358e-005 -7.995329e+001 5.049068e-005 -8.162142e+001 9.981025e-001 -3.981896e-001
10049805 9.995834e-001 -1.921348e-001 2.426797e-005 -8.605595e+000 9.995164e-005 -1.138207e+002 9.975821e-001 -4.026323e-001
10799790 9.997583e-001 -1.488440e-001 1.167454e-005 -1.407728e+002 8.295466e-005 -1.183512e+000 9.979909e-001 -3.959117e-001
11549775 1.000373e+000 -1.554852e-001 9.614399e-005 -4.136113e+001 1.323996e-004 -1.277904e+002 9.970121e-001 -4.260598e-001
12299760 1.000006e+000 -1.627829e-001 8.438333e-005 -4.446635e+001 9.659138e-005 -1.911459e+001 9.994923e-001 -3.939924e-001
13049745 1.000418e+000 -1.966624e-001 8.364656e-005 1.293982e+002 2.613109e-004 1.662637e+002 9.985135e-001 -5.171553e-001
13799730 9.998122e-001 -1.767827e-001 5.556232e-005 -1.672647e+002 1.827536e-004 1.317507e+002 9.971738e-001 -5.180354e-001
14549715 1.000380e+000 -2.218896e-001 6.322277e-005 -1.721128e+002 1.995024e-004 -5.136390e+000 9.992132e-001 -5.035907e-001
15299700 9.994997e-001 -2.074515e-001 7.003808e-005 -2.676466e+001 1.249893e-004 1.053707e+002 9.973153e-001 -5.116798e-001
16049685 1.000499e+000 -1.877088e-001 7.015058e-005 7.244507e+001 1.018618e-004 7.715184e+001 9.975977e-001 -5.339128e-001
16799670 1.000275e+000 -1.756230e-001 4.841551e-005 -5.119406e+001 1.575629e-004 -1.777767e+002 1.000141e+000 -5.426014e-001
17549655 1.000041e+000 -2.677496e-001 3.819107e-005 3.555072e+001 1.178804e-004 4.590818e+001 9.981990e-001 -6.183622e-001
18299640 9.994370e-001 -2.196933e-001 1.008221e-004 3.755931e+001 2.114363e-004 -5.995227e+001 9.980344e-001 -6.238909e-001
19049625 9.999220e-001 -2.363506e-001 8.831493e-005 -1.544719e+002 1.351785e-004 4.805462e+001 9.979013e-001 -6.019220e-001
19799610 1.000195e+000 -2.137671e-001 9.087534e-005 -8.863192e+001 1.709983e-004 -1.725312e+002 9.989595e-001 -6.987802e-001
20549595 9.995247e-001 -2.337952e-001 4.069141e-005 8.136370e+001 3.330736e-004 -6.559555e-001 9.975382e-001 -6.846178e-001
21299580 9.994506e-001 -2.170313e-001 4.789727e-005 -3.374851e-001 1.774303e-004 -1.721697e+002 9.966738e-001 -6.562077e-001
22049565 1.000025e+000 -2.789377e-001 4.484921e-005 -7.248759e+001 2.150482e-004 -4.115144e+001 9.975126e-001 -7.926492e-001
22799550 9.999760e-001 -1.931373e-001 1.079054e-004 4.440474e+000 1.413868e-004 -7.617699e+001 9.998571e-001 -7.977310e-001
23549535 1.000576e+000 -2.739307e-001 1.085073e-004 1.888415e+001 5.717647e-005 -1.186325e+002 9.969916e-001 -8.419589e-001
24299520 9.994337e-001 -2.790911e-001 4.546342e-005 -1.505942e+002 2.705847e-004 -3.593302e+001 9.970338e-001 -7.836176e-001
25049505 1.000610e+000 -3.396305e-001 2.812505e-005 -5.741653e+000 1.582655e-004 -4.388334e+000 9.979772e-001 -8.284469e-001
25799490 1.000339e+000 -2.882068e-001 6.414325e-005 3.450331e+001 1.163195e-004 -1.277536e+002 9.980040e-001 -1.001438e+000
26549475 1.000745e+000 -3.308582e-001 1.184970e-004 1.711544e+002 7.950539e-005 4.876622e+001 9.988054e-001 -9.364044e-001
27299460 1.000275e+000 -2.715091e-001 9.931867e-005 -1.068018e+001 1.972624e-004 -2.852013e+001 9.984185e-001 -9.039483e-001
28049445 1.000370e+000 -2.795056e-001 5.789687e-005 4.689973e+001 1.841934e-004 1.116400e+002 9.994705e-001 -9.075597e-001
28799430 9.995895e-001 -3.801206e-001 3.501422e-005 -1.208789e+002 8.032837e-005 -1.167902e+001 9.968168e-001 -9.884735e-001
29549415 1.000111e+000 -3.069541e-001 3.611805e-005 8.548968e+001 2.066514e-004 3.760870e+001 9.997247e-001 -8.993072e-001
30299400 1.000180e+000 -2.921068e-001 9.290373e-005 8.104932e+001 1.996537e-004 1.209298e+002 9.998824e-001 -1.061048e+000
31049385 1.000273e+000 -3.175434e-001 8.414244e-005 -5.675807e+001 5.949245e-005 -9.137600e+001 9.981536e-001 -1.058583e+000
31799370 1.000771e+000 -4.054916e-001 5.629468e-005 -1.557518e+002 2.154409e-004 -1.740217e+002 9.981218e-001 -1.004996e+000
32549355 1.000791e+000 -3.873485e-001 4.153360e-005 -1.161625e+002 2.275536e-004 -8.393526e+001 9.983378e-001 -1.066860e+000
33299340 1.000678e+000 -3.351769e-001 2.917647e-005 -1.120639e+002 1.004529e-004 -7.832873e+001 9.987385e-001 -1.129370e+000
34049325 9.996794e-001 -3.639222e-001 7.722364e-005 1.785442e+002 1.019385e-004 4.877312e+001 9.967335e-001 -1.084960e+000
34799310 9.997779e-001 -3.959848e-001 5.744891e-005 1.664126e+002 1.364439e-004 7.288855e+001 9.975817e-001 -1.049752e+000
35549295 1.000014e+000 -4.232275e-001 6.523741e-005 -7.765449e+001 4.600826e-005 -6.645839e+001 9.982333e-001 -1.027022e+000
36299280 9.999403e-001 -3.890203e-001 5.572048e-005 -2.547983e+000 2.488780e-004 1.615797e+002 9.987947e-001 -1.191784e+000
37049265 1.000651e+000 -3.957906e-001 5.962579e-005 -4.470985e+001 5.615929e-005 6.866427e+001 9.981509e-001 -1.098745e+000
37799250 9.996791e-001 -4.033253e-001 4.094352e-005 1.120504e+002 1.291592e-004 1.090823e+002 9.985750e-001 -1.234215e+000
38549235 9.999089e-001 -3.997621e-001 8.467114e-005 6.101793e+001 2.009732e-004 -6.531558e+001 9.968838e-001 -1.229240e+000
39299220 1.000941e+000 -4.230355e-001 4.954039e-005 -1.665543e+001 1.093837e-004 1.767021e+002 9.975150e-001 -1.201361e+000
40049205 9.996156e-001 -3.520475e-001 6.630377e-005 -5.027100e+001 8.971915e-005 -1.621579e+002 9.987837e-001 -1.238313e+000
40799190 1.000839e+000 -4.434178e-001 2.559451e-004 1.402175e+002 1.388601e-004 -9.254130e+001 9.992174e-001 -1.351067e+000
41549175 9.987401e-001 -4.219812e-001 2.175346e-004 3.390800e+001 1.428376e-005 4.514465e+001 9.972823e-001 -1.274005e+000
42299160 1.000371e+000 -4.628161e-001 8.493903e-005 -1.291738e+002 4.303211e-004 5.034943e+001 9.994103e-001 -1.376795e+000
43049145 1.000273e+000 -4.125254e-001 1.092560e-004 -3.933696e+001 2.770393e-004 6.280566e+001 9.973820e-001 -1.291283e+000
43799130 1.000294e+000 -4.395551e-001 5.090649e-005 1.555444e+002 1.667887e-004 8.061189e+001 9.974522e-001 -1.375594e+000
44549115 1.000874e+000 -4.550887e-001 1.375785e-004 -1.706011e+002 1.719842e-004 -4.293203e+001 9.979725e-001 -1.452091e+000
45299100 1.000870e+000 -5.011018e-001 1.003896e-004 5.726282e+001 1.948864e-004 8.744983e+001 9.989573e-001 -1.282250e+000
46049085 1.000562e+000 -5.070181e-001 8.760214e-005 3.379893e+000 4.929244e-005 -6.273042e+001 9.996967e-001 -1.397365e+000
46799070 1.000850e+000 -4.570908e-001 5.347377e-005 -1.074291e+002 2.744166e-004 -6.186712e+000 9.984402e-001 -1.434636e+000
47549055 1.002150e+000 -4.524735e-001 1.965981e-004 -5.376432e+001 1.523148e-004 -7.299477e+001 9.958531e-001 -1.463138e+000
48299040 1.002402e+000 -4.608763e-001 1.143806e-004 1.407299e+002 2.057877e-004 -1.644232e+002 9.974112e-001 -1.443400e+000
49049025 1.001769e+000 -5.032786e-001 8.426538e-005 6.315336e+001 1.123687e-004 -9.663847e+001 9.980943e-001 -1.417211e+000
49799010 1.000119e+000 -5.106102e-001 1.936334e-004 2.980298e+001 1.376168e-004 -1.233855e+002 9.980880e-001 -1.481218e+000
50548995 1.000062e+000 -5.357873e-001 7.733680e-005 3.465003e+001 1.703909e-004 1.263684e+002 1.000331e+000 -1.504477e+000
51298980 1.000967e+000 -5.285971e-001 5.393429e-005 9.737959e+001 2.339114e-004 1.398913e+002 9.970808e-001 -1.496964e+000
52048965 9.995422e-001 -5.173184e-001 1.150875e-004 8.455859e+000 1.299833e-004 -2.203334e+001 9.986839e-001 -1.481281e+000
52798950 1.000660e+000 -5.190705e-001 1.286955e-005 3.824334e+001 4.284904e-004 -1.737062e+002 9.984869e-001 -1.645337e+000
53548935 1.002012e+000 -5.565413e-001 7.438901e-005 -1.217576e+002 3.875073e-004 1.400631e+002 9.993778e-001 -1.593968e+000
54298920 9.999499e-001 -5.292619e-001 3.622368e-005 2.844107e+001 2.647581e-004 5.598515e+001 9.953853e-001 -1.600792e+000
55048905 1.000206e+000 -5.131675e-001 1.082026e-005 -2.109669e+001 3.108653e-004 5.384409e+001 9.956776e-001 -1.773986e+000
55798890 1.000467e+000 -5.750492e-001 7.198269e-005 7.535809e+000 3.678507e-004 4.220334e+001 9.977030e-001 -1.869285e+000
56548875 1.000898e+000 -5.670918e-001 7.977566e-005 1.498762e+002 3.531798e-004 9.188181e+001 9.966699e-001 -1.759500e+000
57298860 1.001079e+000 -5.699648e-001 2.093863e-005 -5.846471e+001 3.544696e-004 4.677230e+001 9.986125e-001 -1.653307e+000
58048845 1.000285e+000 -6.070538e-001 1.485137e-004 5.592240e+001 2.766803e-004 -2.953231e+001 9.982402e-001 -1.671948e+000
58798830 1.000318e+000 -5.127709e-001 2.472705e-005 1.485045e+002 1.422318e-004 -9.842937e+001 9.981539e-001 -1.725065e+000
59548815 1.001058e+000 -6.152684e-001 1.355195e-004 7.877697e+001 9.388780e-005 1.227225e+002 9.993881e-001 -1.861094e+000
60298800 1.001412e+000 -5.506092e-001 6.524202e-005 7.121121e+001 8.486791e-005 -1.164728e+002 9.990708e-001 -1.804218e+000
61048785 1.002905e+000 -5.803122e-001 1.117790e-004 6.767464e+001 2.412033e-004 -4.956289e+001 1.001864e+000 -1.797246e+000
61798770 1.001420e+000 -6.302958e-001 1.418181e-004 3.908072e+001 1.370549e-004 7.999059e+001 1.003172e+000 -1.900412e+000
62548755 1.001472e+000 -5.687925e-001 1.831538e-004 -8.944590e+001 1.609347e-004 1.712715e+002 9.998187e-001 -1.979432e+000
63298740 1.001177e+000 -6.053513e-001 1.094117e-004 -1.756602e+002 3.252689e-004 -5.270351e+001 1.001804e+000 -1.851763e+000
64048725 1.001119e+000 -5.437191e-001 1.474255e-004 -7.939099e+001 3.344136e-004 -4.998990e+001 9.982389e-001 -1.805178e+000
64798710 1.001125e+000 -5.978765e-001 1.546524e-004 -2.239705e+001 8.309894e-005 5.433430e+001 9.980541e-001 -2.042382e+000
65548695 1.001870e+000 -6.457832e-001 6.761122e-005 3.597849e+001 3.136547e-004 1.220154e+002 9.984787e-001 -1.811891e+000
66298680 1.000913e+000 -6.195254e-001 1.781610e-004 6.957543e+001 1.927796e-004 3.977082e+001 9.991193e-001 -1.949907e+000
67048665 1.001373e+000 -5.632698e-001 1.271392e-004 1.427242e+002 5.048077e-004 3.520333e+001 1.000204e+000 -1.987763e+000
67798650 1.001574e+000 -5.453907e-001 1.647631e-004 1.322412e+002 1.039864e-004 -1.450975e+002 9.966522e-001 -1.918453e+000
68548635 1.001075e+000 -6.088654e-001 2.210561e-004 -8.559538e+001 7.070196e-004 5.383160e+001 9.979600e-001 -1.944637e+000
69298620 1.001749e+000 -6.468850e-001 9.849411e-005 -1.279388e+002 2.603582e-006 9.403307e+001 1.001419e+000 -1.949832e+000
70048605 1.002140e+000 -6.179016e-001 1.774355e-005 1.658113e+001 6.658959e-004 6.699801e+001 9.995919e-001 -2.042562e+000
70798590 1.001075e+000 -6.293893e-001 8.148974e-005 -4.835571e+001 2.851363e-004 2.628268e+001 9.988357e-001 -2.065390e+000
71548575 1.001633e+000 -6.492661e-001 1.068087e-004 -1.309489e+002 2.900515e-004 -1.513312e+002 9.977657e-001 -2.188126e+000
72298560 1.001286e+000 -6.490403e-001 1.496388e-004 1.584527e+002 3.427856e-004 -8.381741e+001 9.991453e-001 -2.142958e+000
73048545 1.002447e+000 -7.009001e-001 2.243905e-004 -1.158946e+002 2.771851e-004 -1.413434e+002 9.987878e-001 -2.116033e+000
73798530 1.002257e+000 -6.453620e-001 4.085357e-005 -1.090787e+002 3.463146e-004 1.606884e+002 1.001825e+000 -2.233956e+000
74548515 1.000921e+000 -7.237566e-001 1.272582e-004 1.406285e+002 1.733821e-004 1.461234e+002 9.998345e-001 -2.250339e+000
75298500 1.001593e+000 -7.054272e-001 2.033677e-004 -1.182243e+002 4.355481e-004 -1.497250e+002 9.980761e-001 -2.255974e+000
76048485 1.001100e+000 -6.188146e-001 2.300184e-004 -1.360013e+002 2.435702e-004 1.558774e+002 9.988764e-001 -2.341962e+000
76798470 1.001592e+000 -6.356996e-001 1.488044e-004 -6.165210e+001 3.086446e-004 -1.654558e+002 9.980764e-001 -2.257811e+000
77548455 1.000557e+000 -7.152218e-001 9.443565e-006 -5.185505e+001 3.520181e-004 1.678059e+002 9.997914e-001 -2.316389e+000
78298440 1.002195e+000 -7.015361e-001 3.653158e-005 -1.711522e+002 1.484745e-004 1.555881e+002 9.984795e-001 -2.395113e+000
79048425 1.002253e+000 -7.103829e-001 7.730375e-005 7.314860e+001 6.870771e-005 -1.207653e+002 1.000001e+000 -2.333716e+000
79798410 1.002564e+000 -6.935340e-001 9.899138e-005 -1.136370e+002 2.791575e-004 2.043367e+001 9.977787e-001 -2.267229e+000
80548395 1.002456e+000 -6.996671e-001 1.530935e-004 9.071253e+001 3.785570e-004 1.762039e+002 9.969975e-001 -2.454613e+000
81298380 1.000961e+000 -7.386094e-001 3.210704e-005 1.353020e+002 2.823832e-004 -8.446684e+001 9.986529e-001 -2.360752e+000
82048365 1.000890e+000 -6.389416e-001 8.885151e-005 5.058371e+001 1.451977e-004 -5.054020e+001 1.000056e+000 -2.364145e+000
82798350 1.002504e+000 -6.613196e-001 7.998689e-005 -2.182048e+001 2.616978e-004 -7.298502e+001 1.000365e+000 -2.366362e+000
83548335 1.001783e+000 -7.398702e-001 1.324801e-004 4.347475e+001 2.103217e-004 1.763362e+002 9.972436e-001 -2.402694e+000
84298320 1.002703e+000 -7.527015e-001 1.150229e-004 1.608096e+002 3.183254e-004 3.554853e+001 9.987182e-001 -2.430367e+000
85048305 1.000788e+000 -8.109412e-001 9.363938e-005 -7.943923e-001 9.983773e-005 -3.377527e+001 1.001116e+000 -2.469530e+000
85798290 1.001006e+000 -7.667053e-001 9.126897e-005 4.568176e+001 1.840719e-004 -1.000646e+001 1.000171e+000 -2.419295e+000
86548275 1.001688e+000 -7.369464e-001 7.621463e-005 7.659792e+000 1.916251e-004 -1.662857e+002 9.993106e-001 -2.462505e+000
87298260 1.000716e+000 -7.630306e-001 1.589917e-004 -8.171072e+001 2.548693e-004 1.079416e+002 1.000795e+000 -2.527029e+000
88048245 1.001116e+000 -6.869014e-001 1.858577e-004 1.796113e+002 1.204990e-004 5.147614e+001 1.000694e+000 -2.505427e+000
88798230 1.002006e+000 -8.019052e-001 2.831816e-004 -6.855858e+001 9.880035e-005 -1.485405e+001 1.000647e+000 -2.480117e+000
89548215 1.002227e+000 -7.676696e-001 1.638053e-004 4.797185e+001 1.408238e-004 -4.467402e+001 9.977161e-001 -2.504776e+000
90298200 1.001230e+000 -7.613386e-001 4.310041e-005 3.962614e+001 2.254977e-004 -1.323957e+002 1.000282e+000 -2.443635e+000
91048185 1.002025e+000 -8.186970e-001 1.464872e-004 -5.997210e+000 4.553066e-004 7.722233e+001 9.994093e-001 -2.431289e+000
91798170 1.002687e+000 -6.933884e-001 6.254559e-005 -6.319300e+001 2.125768e-004 -1.210085e+002 9.996777e-001 -2.579651e+000
92548155 1.002720e+000 -7.527910e-001 1.645248e-005 -1.416523e+002 1.912638e-004 1.762218e+002 1.002211e+000 -2.603492e+000
93298140 1.002541e+000 -8.326902e-001 8.899334e-005 -9.611884e+001 6.438413e-004 -2.142312e+001 1.002324e+000 -2.593734e+000
94048125 1.002366e+000 -7.814198e-001 8.827745e-005 -7.041327e-001 2.537891e-004 -8.636681e+001 1.002108e+000 -2.642712e+000
94798110 1.003086e+000 -8.117828e-001 9.247917e-005 -1.647427e+002 2.035397e-004 -1.791784e+002 1.001085e+000 -2.622233e+000
95548095 1.001891e+000 -7.343723e-001 6.465667e-005 -1.631721e+002 3.626175e-004 -1.484296e+002 9.992044e-001 -2.596880e+000
96298080 1.003755e+000 -6.719471e-001 1.649826e-004 -9.502605e+001 9.336231e-005 -1.729356e+002 1.001251e+000 -2.698135e+000
97048065 1.000098e+000 -7.603891e-001 1.029033e-004 -1.024744e+002 3.239848e-004 2.517033e+001 9.988868e-001 -2.641125e+000
97798050 1.001700e+000 -7.220684e-001 4.990365e-005 -6.775185e+001 3.819777e-004 4.400024e+001 1.000816e+000 -2.746423e+000
98548035 1.002932e+000 -8.412910e-001 7.068063e-006 1.418497e+002 6.058027e-005 -3.968584e+001 1.001321e+000 -2.619507e+000
99298020 1.002510e+000 -7.899424e-001 9.606526e-005 -1.686634e+002 3.952787e-004 -1.577606e+002 9.997392e-001 -2.748801e+000
100048005 1.002987e+000 -8.057786e-001 1.050777e-004 6.855057e+001 3.959465e-004 1.081491e+002 1.000029e+000 -2.772573e+000
100797990 1.002445e+000 -7.900058e-001 1.529316e-004 1.426976e+002 2.817394e-004 1.750233e+002 1.002746e+000 -2.657020e+000
101547975 1.002848e+000 -8.196035e-001 1.526297e-004 1.308311e+002 8.904839e-005 -1.034041e+002 9.994640e-001 -2.728388e+000
102297960 1.003631e+000 -7.649730e-001 1.649344e-004 9.054288e+001 1.199473e-004 1.275810e+002 1.000708e+000 -2.792662e+000
103047945 1.002671e+000 -8.102140e-001 1.063000e-005 -1.064957e+002 1.330586e-004 3.860030e+001 9.996945e-001 -2.661825e+000
103797930 1.003279e+000 -7.907571e-001 1.374046e-004 1.059689e+001 3.290494e-004 1.246029e+001 1.002069e+000 -2.917823e+000
104547915 1.002840e+000 -7.974812e-001 1.449221e-004 1.103294e+002 2.896688e-004 -9.115904e+001 1.001157e+000 -2.740096e+000
105297900 1.003678e+000 -7.952426e-001 1.268985e-004 -1.582397e+002 4.535861e-004 -1.130769e+002 1.002909e+000 -2.664947e+000
106047885 1.003279e+000 -7.867408e-001 1.887373e-004 -2.561238e+000 3.884515e-004 3.039848e+001 1.000252e+000 -2.962533e+000
106797870 1.003828e+000 -7.723483e-001 4.859728e-005 -1.795073e+002 2.869797e-004 -1.124722e+002 1.002623e+000 -2.961380e+000
107547855 1.002628e+000 -8.548026e-001 2.019764e-004 1.313475e+002 4.865436e-004 -8.603302e+001 1.001041e+000 -2.791192e+000
108297840 1.003038e+000 -8.061575e-001 1.269122e-004 -2.339499e+001 1.900770e-004 -3.014098e+001 9.999376e-001 -2.927301e+000
109047825 1.003097e+000 -8.617656e-001 6.719345e-005 -1.194692e+002 2.223318e-004 8.918497e+001 1.002844e+000 -3.008580e+000
109797810 1.002907e+000 -8.700121e-001 8.317953e-005 -6.038312e+001 1.882251e-004 9.005824e+001 1.000982e+000 -2.883687e+000
110547795 1.002274e+000 -8.431966e-001 1.386502e-004 -1.319853e+002 3.762602e-004 1.105742e+002 1.002256e+000 -2.939379e+000
111297780 1.003527e+000 -8.496130e-001 1.396098e-004 -1.490325e+002 3.085712e-004 5.810281e+001 1.000454e+000 -2.915119e+000
112047765 1.002359e+000 -8.350458e-001 2.013114e-004 2.905758e+001 2.264578e-004 9.153323e+001 1.000505e+000 -2.923532e+000
112797750 1.003295e+000 -9.025784e-001 1.376320e-004 -1.229805e+002 2.985329e-004 5.834879e+001 1.000736e+000 -3.017748e+000
113547735 1.003391e+000 -8.254042e-001 7.786210e-005 -1.306164e+002 3.069170e-004 -1.141021e+002 1.000244e+000 -2.871388e+000
114297720 1.002264e+000 -8.008902e-001 6.331068e-005 -1.128927e+002 4.006462e-004 1.578382e+001 1.002918e+000 -2.995328e+000
115047705 1.002588e+000 -8.875667e-001 9.332182e-005 1.620181e+002 5.591962e-004 -1.369596e+002 1.000973e+000 -3.136276e+000
115797690 1.002803e+000 -8.576450e-001 3.984124e-005 5.177979e+001 2.273329e-004 1.255716e+001 1.001725e+000 -3.075457e+000
116547675 1.004285e+000 -8.731409e-001 1.986388e-004 1.512118e+002 1.933475e-004 -6.871712e+001 1.000082e+000 -2.976686e+000
117297660 1.003712e+000 -8.434105e-001 4.839533e-005 6.186669e+001 3.338955e-004 -9.699422e+001 1.001766e+000 -3.082381e+000
