!Agilent Technologies,N5230C,SG49000117,A.08.50.07
!Agilent N5230C: A.08.50.07
!Date: Friday, May 17, 2024 08:01:08
!Correction: S11(Full 2 Port(1,2)) 
!S21(Full 2 Port(1,2)) 
!S12(Full 2 Port(1,2)) 
!S22(Full 2 Port(1,2)) 
!S2P File: Measurements: S11, S21, S12, S22:
# Hz S  MA   R 50
300000 1.006766e+000 -4.221046e-001 1.808360e-004 1.036466e+002 2.170222e-004 3.386791e+001 1.011297e+000 -7.363467e-001
1049985 1.001136e+000 -3.216521e-001 7.377819e-005 -1.291537e+002 1.161282e-004 -6.807736e+001 9.979553e-001 -4.278165e-001
1799970 9.996839e-001 -1.553894e-001 5.526222e-005 1.162825e+002 1.605658e-004 -1.395767e+002 9.972667e-001 -3.557862e-001
2549955 9.998186e-001 -1.408728e-001 1.201701e-004 -1.321652e+002 3.599468e-004 -1.376306e+002 9.995722e-001 -3.151896e-001
3299940 1.000557e+000 -1.224098e-001 1.204913e-005 1.725576e+002 1.094077e-004 -7.791790e+001 9.963628e-001 -2.720070e-001
4049925 9.998139e-001 -1.510003e-001 5.623128e-005 -3.060869e+001 1.204029e-004 -5.559530e+001 9.977911e-001 -2.771465e-001
4799910 1.000169e+000 -1.571314e-001 5.593478e-005 7.938160e+000 1.368209e-005 1.761541e+002 9.981891e-001 -2.595721e-001
5549895 9.999826e-001 -1.091653e-001 7.121806e-005 1.244387e+002 1.161154e-004 -4.523647e+001 9.980381e-001 -2.209769e-001
6299880 1.000377e+000 -1.182678e-001 3.040614e-005 -2.991697e+001 1.836330e-004 7.846078e+001 9.989297e-001 -3.147339e-001
7049865 9.999465e-001 -1.298376e-001 2.963162e-005 2.056033e+001 9.066491e-005 1.307852e+002 9.996304e-001 -2.752760e-001
7799850 1.000188e+000 -1.362128e-001 5.472610e-005 1.941632e+001 1.191438e-004 -1.338008e+002 9.968728e-001 -3.574685e-001
8549835 9.997846e-001 -1.185347e-001 4.050697e-005 1.577750e+002 2.903271e-004 -6.386086e+001 9.982636e-001 -3.124974e-001
9299820 9.999227e-001 -1.569726e-001 2.945946e-005 -1.609116e+002 5.706492e-005 6.535417e+001 9.976240e-001 -3.920012e-001
10049805 9.999658e-001 -1.363327e-001 9.341446e-006 1.204931e+002 9.067812e-005 -3.602574e+001 9.976522e-001 -4.653797e-001
10799790 9.998878e-001 -1.395766e-001 4.243304e-005 3.614527e+001 7.281391e-005 -5.596558e+001 9.982421e-001 -4.510488e-001
11549775 1.000354e+000 -1.548279e-001 2.362937e-005 8.778706e+001 1.487295e-004 7.815304e+001 9.973228e-001 -3.927406e-001
12299760 1.000252e+000 -1.685276e-001 1.100135e-004 -6.685844e+001 1.187818e-004 1.358817e+002 9.996191e-001 -4.313098e-001
13049745 9.997242e-001 -2.050400e-001 4.428243e-005 -1.522208e+002 8.270029e-005 1.001318e+002 9.969969e-001 -4.753104e-001
13799730 9.995927e-001 -1.984808e-001 3.883207e-005 1.434099e+002 1.143434e-004 -9.240102e+001 9.969822e-001 -5.141982e-001
14549715 9.999761e-001 -2.180346e-001 7.611988e-005 -2.957901e+001 3.006074e-004 -1.105724e+002 9.977701e-001 -5.897073e-001
15299700 9.993616e-001 -2.131097e-001 5.986054e-005 -4.308739e+001 6.655300e-005 1.398991e+002 9.974453e-001 -6.121057e-001
16049685 1.000123e+000 -1.928785e-001 7.054050e-005 3.416468e+001 3.120284e-004 -1.438987e+002 9.988314e-001 -4.761102e-001
16799670 1.000016e+000 -1.918691e-001 7.362511e-005 8.437104e+001 3.211503e-004 -1.047121e+002 9.990321e-001 -7.594870e-001
17549655 1.000548e+000 -2.810125e-001 7.785655e-005 8.833665e+001 1.042656e-004 -1.443757e+002 9.991707e-001 -5.779465e-001
18299640 9.994989e-001 -1.974967e-001 3.822419e-005 -1.631992e+002 1.369316e-004 1.017732e+002 9.982447e-001 -7.717216e-001
19049625 9.998040e-001 -2.311579e-001 8.236362e-005 -1.028813e+002 1.747541e-004 -1.608482e+002 9.979896e-001 -6.548352e-001
19799610 1.001082e+000 -2.467628e-001 1.266961e-004 -8.257633e+001 7.017351e-005 6.908655e+001 9.983302e-001 -6.893092e-001
20549595 9.994395e-001 -2.365817e-001 1.057054e-004 5.899120e+001 2.148177e-004 1.403732e+002 9.983588e-001 -7.503383e-001
21299580 9.990543e-001 -2.254861e-001 8.152775e-005 -1.866395e+001 3.426301e-004 -1.014194e+002 9.967957e-001 -7.267197e-001
22049565 9.995835e-001 -2.895117e-001 6.495609e-005 1.701555e+002 1.754859e-004 -1.752751e+002 9.970041e-001 -7.046120e-001
22799550 1.000092e+000 -2.105990e-001 5.798968e-005 -6.311688e+001 3.269366e-004 1.599846e+001 9.990513e-001 -8.009776e-001
23549535 1.000225e+000 -3.179059e-001 8.041346e-005 8.434107e+001 1.060188e-004 -1.256092e+002 9.976979e-001 -7.952957e-001
24299520 1.000198e+000 -2.793334e-001 5.034170e-005 1.495378e+001 4.416409e-004 -5.719496e+001 9.968572e-001 -8.682049e-001
25049505 1.000294e+000 -2.870391e-001 2.599469e-005 -9.838577e+000 6.617772e-005 1.651932e+001 9.969996e-001 -8.050740e-001
25799490 1.000425e+000 -3.242679e-001 4.831295e-005 -1.582571e+002 2.628842e-004 3.295076e+001 9.974908e-001 -9.117200e-001
26549475 1.000708e+000 -2.843650e-001 6.154116e-005 -3.145554e+001 2.267687e-004 8.413554e+001 9.973487e-001 -9.104683e-001
27299460 9.994211e-001 -2.815000e-001 7.900633e-005 -1.166562e+002 5.054952e-005 -1.631460e+001 9.981681e-001 -1.005576e+000
28049445 9.997688e-001 -2.906776e-001 1.199074e-004 1.250617e+002 3.200334e-004 1.464116e+002 9.998206e-001 -9.766701e-001
28799430 9.995078e-001 -3.686847e-001 5.830154e-005 8.747604e+001 1.450219e-004 1.993255e+001 9.975114e-001 -1.016493e+000
29549415 9.999614e-001 -2.846967e-001 1.004678e-004 2.151931e+001 1.195654e-004 -5.963765e+001 9.998456e-001 -9.139459e-001
30299400 1.000381e+000 -3.258606e-001 1.140628e-004 -1.372410e+002 2.150163e-004 2.476703e+001 9.995506e-001 -1.073428e+000
31049385 1.000289e+000 -3.116328e-001 6.539497e-005 -2.271672e+001 1.219775e-004 1.508374e+002 9.977319e-001 -1.070119e+000
31799370 1.000628e+000 -4.091619e-001 7.515356e-005 -1.146951e+002 1.126492e-005 -8.251976e+001 9.979906e-001 -1.030709e+000
32549355 1.000193e+000 -3.537982e-001 1.014529e-004 -1.759568e+002 1.760656e-004 1.413874e+002 9.987216e-001 -1.046532e+000
33299340 1.000002e+000 -3.442613e-001 3.773108e-005 -9.206057e+001 1.909074e-004 2.286349e+001 9.977230e-001 -1.113433e+000
34049325 1.000175e+000 -4.137461e-001 1.692525e-004 1.426205e+002 7.480119e-005 1.378523e+002 9.973230e-001 -1.145833e+000
34799310 1.000141e+000 -3.583261e-001 3.533153e-005 -4.868272e+001 1.649797e-004 1.262003e+002 9.955832e-001 -1.151557e+000
35549295 1.000228e+000 -4.637379e-001 1.264325e-004 1.658532e+002 2.333809e-004 9.981057e+001 9.987798e-001 -1.138542e+000
36299280 1.000047e+000 -3.731284e-001 6.184739e-005 7.071198e+001 7.075900e-005 -1.969158e+001 9.980097e-001 -1.221325e+000
37049265 1.000972e+000 -4.238394e-001 4.916141e-005 -1.153019e+002 4.632766e-005 -8.790067e+001 9.978997e-001 -1.261265e+000
37799250 1.000247e+000 -4.006764e-001 5.843286e-005 1.255648e+002 8.408962e-005 -9.932771e+001 9.983017e-001 -1.223253e+000
38549235 9.998546e-001 -4.282718e-001 2.694935e-005 1.604420e+002 1.583821e-004 -1.247279e+002 9.968570e-001 -1.354261e+000
39299220 1.000778e+000 -3.991571e-001 1.295264e-004 -2.647803e+001 8.004539e-005 9.173363e+001 9.973355e-001 -1.259171e+000
40049205 1.000406e+000 -4.180638e-001 9.132158e-005 1.573189e+002 2.382965e-004 1.737097e+001 9.983820e-001 -1.304345e+000
40799190 1.001160e+000 -4.039619e-001 1.499560e-004 9.361771e+001 1.343019e-004 -1.578447e+002 9.978532e-001 -1.386640e+000
41549175 1.000238e+000 -4.360908e-001 2.288666e-004 1.319731e+002 3.556008e-004 -1.564793e+002 9.971679e-001 -1.431023e+000
42299160 9.997120e-001 -4.416393e-001 2.848778e-004 1.793781e+002 2.067282e-004 1.644887e+002 9.981606e-001 -1.314310e+000
43049145 1.001753e+000 -4.206313e-001 1.067524e-004 1.886332e+001 1.750610e-004 -1.715012e+002 9.977395e-001 -1.440229e+000
43799130 9.996408e-001 -4.821918e-001 1.545278e-004 1.733074e+002 3.264688e-004 6.088353e+001 9.980062e-001 -1.439843e+000
44549115 1.001016e+000 -4.120458e-001 1.294422e-004 -7.629768e+001 1.392912e-004 1.142938e+002 9.983307e-001 -1.478680e+000
45299100 1.001035e+000 -5.416725e-001 1.559296e-004 -6.528452e+001 1.812774e-004 7.065348e+001 9.979661e-001 -1.469529e+000
46049085 1.000809e+000 -4.840257e-001 2.054458e-004 1.538010e+002 3.814845e-004 -4.659438e+001 9.993198e-001 -1.534002e+000
46799070 1.000488e+000 -4.372143e-001 7.344417e-005 -1.057345e+002 3.946587e-004 1.215905e+002 9.977123e-001 -1.556746e+000
47549055 1.000664e+000 -5.147909e-001 1.528834e-004 5.889103e+001 1.969362e-004 1.151225e+002 9.970602e-001 -1.595005e+000
48299040 1.001696e+000 -4.925697e-001 5.749304e-005 -9.752455e+001 4.965603e-004 1.126901e+002 9.966736e-001 -1.614362e+000
49049025 1.001210e+000 -4.721684e-001 5.788993e-005 2.764832e+001 3.628428e-004 1.056563e+002 9.992931e-001 -1.551965e+000
49799010 1.000079e+000 -5.375136e-001 2.381765e-004 -1.585051e+002 1.679198e-004 -8.286609e+001 9.983989e-001 -1.565886e+000
50548995 1.000573e+000 -5.442699e-001 1.147453e-004 -1.075541e+002 9.044290e-005 1.477375e+002 9.995362e-001 -1.607970e+000
51298980 1.001187e+000 -5.202968e-001 1.037373e-004 4.884379e+001 2.707875e-004 8.373952e+001 9.962827e-001 -1.580566e+000
52048965 1.000209e+000 -5.264673e-001 5.876162e-005 -1.251710e+002 1.620224e-004 -3.160144e+001 9.973007e-001 -1.545085e+000
52798950 1.000216e+000 -4.492846e-001 1.625762e-004 -1.701676e+002 1.779804e-004 2.186567e+001 9.978819e-001 -1.736741e+000
53548935 1.002191e+000 -5.600269e-001 1.856753e-004 6.180954e+001 5.109435e-005 1.528790e+002 9.963349e-001 -1.701606e+000
54298920 1.000335e+000 -5.347538e-001 2.560898e-005 -4.356007e+001 2.760543e-004 -4.832587e+001 9.971750e-001 -1.756883e+000
55048905 1.000370e+000 -5.207164e-001 6.011543e-005 1.198297e+002 1.958274e-005 6.377276e+001 9.948134e-001 -1.820685e+000
55798890 1.000840e+000 -5.406653e-001 1.725055e-004 -7.428819e+001 1.408613e-004 8.804973e+001 9.991640e-001 -1.913398e+000
56548875 1.001178e+000 -5.663111e-001 6.594416e-005 1.586979e+001 2.012871e-004 1.566411e+002 9.977536e-001 -1.841506e+000
57298860 1.001418e+000 -5.740338e-001 9.846302e-005 1.888791e+001 3.175545e-004 -1.017951e+002 1.000014e+000 -1.765597e+000
58048845 1.000883e+000 -5.685777e-001 6.023815e-005 -1.403641e+002 4.573509e-004 1.387797e+002 9.972867e-001 -1.785617e+000
58798830 1.000823e+000 -5.449980e-001 5.836871e-005 4.873531e+001 6.054680e-005 -5.937244e+001 9.996818e-001 -1.810192e+000
59548815 1.001327e+000 -6.453372e-001 6.926362e-005 -2.498776e+001 3.110934e-004 5.787449e+001 9.982001e-001 -1.850965e+000
60298800 1.000450e+000 -5.854899e-001 7.853146e-005 -1.402640e+002 3.369209e-004 -2.275023e+001 9.973422e-001 -1.922020e+000
61048785 1.001362e+000 -5.950518e-001 3.428253e-005 -3.795916e+001 3.353042e-004 -2.705239e-001 9.989007e-001 -1.852395e+000
61798770 1.001721e+000 -6.362060e-001 4.046039e-005 1.146273e+002 4.151456e-004 6.941325e+001 1.000376e+000 -2.006636e+000
62548755 1.000247e+000 -5.761796e-001 1.285305e-004 -1.084210e+002 3.024092e-004 5.040403e+001 9.983967e-001 -1.856027e+000
63298740 1.001925e+000 -6.079138e-001 4.335046e-005 1.743597e+002 1.448766e-004 -1.386587e+002 9.984611e-001 -2.135981e+000
64048725 1.001132e+000 -5.055485e-001 7.456407e-005 -9.792874e+001 5.785683e-005 -8.470803e+001 9.970005e-001 -1.906890e+000
64798710 1.000212e+000 -6.221935e-001 1.849994e-004 6.949203e+001 3.343160e-004 1.158768e+002 9.975982e-001 -2.132320e+000
65548695 1.001058e+000 -6.029959e-001 1.487816e-004 1.393105e+002 5.161690e-004 -1.025017e+002 1.000574e+000 -1.982666e+000
66298680 1.001749e+000 -6.219657e-001 1.200855e-004 -1.193295e+002 1.070927e-004 -5.110870e+001 9.980178e-001 -2.150000e+000
67048665 1.001816e+000 -5.687045e-001 1.461195e-004 1.560396e+002 5.610031e-004 -3.883703e+001 9.972243e-001 -2.157058e+000
67798650 1.001121e+000 -6.325839e-001 1.530846e-004 7.369228e+001 3.076470e-004 1.633842e+002 9.978190e-001 -2.155223e+000
68548635 1.000822e+000 -6.633862e-001 9.854541e-005 7.210221e+001 1.334251e-004 1.120979e+002 1.000668e+000 -2.078762e+000
69298620 1.001778e+000 -6.280735e-001 1.368626e-004 -1.530051e+002 2.430212e-004 -1.243617e+002 9.998339e-001 -2.029435e+000
70048605 1.001435e+000 -6.215219e-001 9.422613e-005 -7.061933e+001 2.060781e-004 1.053677e+002 9.976157e-001 -2.253713e+000
70798590 1.001760e+000 -5.855699e-001 1.144942e-004 9.670430e+001 2.636717e-005 4.418800e+001 9.977133e-001 -2.286207e+000
71548575 1.001877e+000 -6.320903e-001 1.404120e-004 1.712500e+002 1.045912e-004 1.196735e+002 9.972893e-001 -2.218390e+000
72298560 1.001304e+000 -6.607376e-001 6.934718e-005 -3.538600e+001 2.576250e-004 1.778852e+002 9.976190e-001 -2.352840e+000
73048545 1.000671e+000 -6.687850e-001 5.884511e-005 -1.458902e+002 9.721133e-005 1.427115e+002 9.990477e-001 -2.253917e+000
73798530 1.000784e+000 -5.847760e-001 1.109931e-004 -5.438964e+000 2.475237e-004 1.406501e+002 1.000137e+000 -2.298471e+000
74548515 1.001722e+000 -6.859273e-001 1.609846e-004 -3.643805e+001 2.641605e-004 2.348628e+001 9.990793e-001 -2.394099e+000
75298500 1.001821e+000 -6.882000e-001 4.817508e-005 -1.498212e+002 3.685319e-004 -9.745084e+001 9.972221e-001 -2.301881e+000
76048485 1.002481e+000 -7.012855e-001 1.005830e-004 -5.629967e+001 1.857847e-004 -3.580330e+001 9.996591e-001 -2.435005e+000
76798470 1.002304e+000 -6.428383e-001 9.600470e-005 -4.931498e+001 4.644261e-004 -1.498447e+002 9.967993e-001 -2.320804e+000
77548455 1.001549e+000 -7.172856e-001 1.581607e-004 1.352016e+001 4.178736e-004 -1.622825e+002 1.000035e+000 -2.361813e+000
78298440 1.001904e+000 -6.732227e-001 1.312578e-004 1.189964e+002 8.228384e-005 -2.198786e+001 9.982615e-001 -2.400647e+000
79048425 1.002235e+000 -7.676863e-001 1.714854e-004 1.311513e+002 2.637498e-004 2.634132e+001 1.000980e+000 -2.426137e+000
79798410 1.002874e+000 -6.842129e-001 5.764421e-005 5.316564e+001 3.153148e-004 1.154368e+002 9.979868e-001 -2.395958e+000
80548395 1.001297e+000 -6.446868e-001 1.183357e-004 9.382185e+001 1.267321e-004 1.272256e+001 9.974948e-001 -2.571083e+000
81298380 1.001942e+000 -7.791546e-001 1.574614e-004 4.596836e+001 1.215557e-004 1.339755e+002 9.973729e-001 -2.350262e+000
82048365 1.001997e+000 -6.727605e-001 2.401222e-004 -9.732936e+001 1.860905e-004 4.081816e+001 9.997554e-001 -2.386057e+000
82798350 1.002681e+000 -6.310557e-001 7.190273e-005 -1.167202e+001 2.496334e-004 5.131618e+001 9.983651e-001 -2.496769e+000
83548335 1.002420e+000 -7.193250e-001 7.427435e-005 -1.678359e+002 4.509455e-004 6.041207e+001 9.993784e-001 -2.504546e+000
84298320 1.002045e+000 -7.770129e-001 8.843477e-005 -2.116923e+001 4.606419e-005 8.537968e+001 9.995539e-001 -2.421897e+000
85048305 1.001275e+000 -6.915109e-001 1.687568e-004 -2.429373e+001 1.703143e-004 5.859082e+001 9.978688e-001 -2.598173e+000
85798290 1.000944e+000 -8.084980e-001 2.818485e-005 3.061580e+000 1.779617e-004 -6.610545e+001 9.994717e-001 -2.579190e+000
86548275 1.002341e+000 -7.468052e-001 1.312633e-004 -1.461463e+002 3.663017e-004 -6.248862e+001 9.987966e-001 -2.593961e+000
87298260 1.001084e+000 -7.850219e-001 1.058295e-004 8.100269e+001 1.649269e-004 -1.319011e+001 1.000007e+000 -2.635683e+000
88048245 9.998829e-001 -7.606202e-001 2.047183e-004 1.029422e+002 3.346180e-004 -8.776567e+001 9.999031e-001 -2.653228e+000
88798230 1.002934e+000 -7.863647e-001 8.306983e-005 1.530722e+002 8.981940e-005 -4.998663e+001 9.990427e-001 -2.625481e+000
89548215 1.002758e+000 -7.581097e-001 8.525963e-005 -1.627360e+002 1.149808e-004 -9.161517e+001 9.984508e-001 -2.659858e+000
90298200 1.000727e+000 -7.759057e-001 1.097972e-004 -1.483340e+002 2.239714e-004 -7.579784e+001 1.001452e+000 -2.482239e+000
91048185 1.001429e+000 -8.781627e-001 3.962771e-005 -8.234261e+001 1.373318e-004 1.394281e+002 9.987439e-001 -2.509024e+000
91798170 1.001513e+000 -7.346264e-001 9.439707e-005 4.976182e+001 1.996916e-004 1.782304e+002 9.989895e-001 -2.637938e+000
92548155 1.003253e+000 -7.701898e-001 9.181318e-005 -1.598106e+002 4.151319e-004 -1.403745e+002 1.000363e+000 -2.841359e+000
93298140 1.003810e+000 -7.836136e-001 3.387765e-004 1.154892e+002 4.225186e-004 1.414156e+002 9.996369e-001 -2.716043e+000
94048125 1.002799e+000 -8.094965e-001 2.396189e-004 5.469478e+001 5.956739e-004 1.709666e+002 1.000449e+000 -2.812012e+000
94798110 1.002465e+000 -7.032374e-001 8.262252e-005 -4.789836e+001 3.171600e-004 1.380849e+002 9.987636e-001 -2.766613e+000
95548095 1.002501e+000 -7.942621e-001 9.918685e-005 -1.426508e+002 9.688982e-005 1.627685e+002 9.971479e-001 -2.822864e+000
96298080 1.002950e+000 -7.303317e-001 2.123400e-004 2.848525e+001 2.026808e-004 -3.718166e+001 9.995915e-001 -2.826991e+000
97048065 1.002079e+000 -7.948069e-001 4.705365e-005 5.983128e+001 1.073544e-004 1.405858e+002 9.994093e-001 -2.742366e+000
97798050 1.001056e+000 -7.342277e-001 2.070868e-004 1.728435e+002 4.573319e-004 -1.972323e+001 1.000940e+000 -2.897004e+000
98548035 1.003158e+000 -8.041494e-001 8.819810e-005 2.709688e+001 2.278015e-004 -6.962056e+001 9.988263e-001 -2.944777e+000
99298020 1.002445e+000 -8.240185e-001 6.563499e-005 -4.853913e+001 3.412256e-004 -4.033773e+001 1.000888e+000 -3.072547e+000
100048005 1.003063e+000 -8.321075e-001 9.216911e-005 2.671937e+001 2.666313e-004 -1.115182e+002 9.975506e-001 -2.935487e+000
100797990 1.002723e+000 -8.163169e-001 3.312396e-005 -8.989274e+001 4.606901e-004 -1.235564e+002 1.000763e+000 -2.858157e+000
101547975 1.001470e+000 -7.952451e-001 1.505915e-004 3.793756e+001 9.132789e-005 -1.718052e+002 9.996416e-001 -2.963225e+000
102297960 1.004176e+000 -8.101139e-001 1.107461e-004 -1.516777e+002 2.992847e-004 -3.444341e+001 1.001174e+000 -2.868422e+000
103047945 1.002320e+000 -7.808644e-001 8.708434e-005 -1.060671e+001 3.541782e-004 1.581720e+002 9.997346e-001 -2.952415e+000
103797930 1.001959e+000 -8.353891e-001 2.143782e-004 -1.081709e+002 2.729941e-004 7.538528e+001 1.000170e+000 -2.990720e+000
104547915 1.002337e+000 -7.450497e-001 1.640582e-004 1.101141e+002 2.267799e-004 2.473441e+001 1.001900e+000 -2.888268e+000
105297900 1.002266e+000 -8.319067e-001 1.473469e-004 -4.403120e+001 2.421549e-004 5.489962e+001 1.001604e+000 -2.763748e+000
106047885 1.003569e+000 -8.450927e-001 2.016333e-005 3.148249e+001 1.940910e-004 8.600139e+000 9.992474e-001 -3.093788e+000
106797870 1.003103e+000 -8.259590e-001 7.236889e-005 1.203504e+002 5.781399e-004 5.955749e+001 9.999994e-001 -3.052603e+000
107547855 1.003218e+000 -8.683640e-001 2.222057e-004 -1.402073e+002 1.591939e-004 1.301740e+002 9.985361e-001 -2.861995e+000
108297840 1.003769e+000 -8.583106e-001 1.776531e-004 -9.365131e+001 2.235079e-004 -5.804551e+001 1.000762e+000 -3.063760e+000
109047825 1.003272e+000 -8.607057e-001 1.253976e-004 -9.519286e+001 3.656376e-004 -3.246829e+001 1.001593e+000 -3.109098e+000
109797810 1.003031e+000 -8.977637e-001 1.484007e-004 1.178876e+002 2.941048e-004 -8.810777e+001 1.000148e+000 -2.902503e+000
110547795 1.002452e+000 -8.152494e-001 3.807853e-005 -2.950499e+001 1.419212e-004 1.754414e+001 1.000389e+000 -3.106696e+000
111297780 1.003379e+000 -8.375704e-001 9.683680e-005 -1.414310e+002 8.940506e-005 5.670848e+001 9.989082e-001 -3.012219e+000
112047765 1.002291e+000 -8.458983e-001 6.981572e-005 1.776024e+002 5.706796e-004 1.547076e+002 1.000614e+000 -3.040798e+000
112797750 1.002303e+000 -8.796048e-001 2.151951e-004 7.548740e+001 2.487258e-004 1.175255e+002 9.996687e-001 -3.032966e+000
113547735 1.003125e+000 -8.527115e-001 1.700874e-004 1.584048e+002 1.517932e-004 1.448396e+001 9.994933e-001 -3.094600e+000
114297720 1.002213e+000 -8.655061e-001 1.243905e-004 -1.415984e+002 3.052496e-004 6.641894e+001 1.001741e+000 -3.175718e+000
115047705 1.003014e+000 -8.380572e-001 9.322212e-005 -1.398403e+001 1.557375e-004 1.786668e+002 1.000537e+000 -3.250681e+000
115797690 1.003884e+000 -8.216842e-001 9.050578e-005 6.958897e+001 2.852464e-005 -9.772646e+001 1.001546e+000 -3.343570e+000
116547675 1.003159e+000 -8.709425e-001 1.294365e-004 2.057082e+001 2.820987e-004 -1.703527e+002 9.997261e-001 -3.172902e+000
117297660 1.003075e+000 -8.439697e-001 2.783451e-004 -1.088871e+002 4.168889e-004 9.318175e+001 1.000033e+000 -3.293550e+000
