!Agilent Technologies,N5230C,SG49000117,A.08.50.07
!Agilent N5230C: A.08.50.07
!Date: Friday, May 17, 2024 07:59:50
!Correction: S11(Full 2 Port(1,2)) 
!S21(Full 2 Port(1,2)) 
!S12(Full 2 Port(1,2)) 
!S22(Full 2 Port(1,2)) 
!S2P File: Measurements: S11, S21, S12, S22:
# Hz S  MA   R 50
300000 1.006420e+000 -5.659786e-001 2.962378e-004 4.347186e+001 3.461294e-004 -1.738049e+002 1.012916e+000 -8.654177e-001
1049985 1.000612e+000 -2.948558e-001 9.249105e-005 -1.107525e+002 1.883159e-004 -1.785233e+002 9.982141e-001 -5.535023e-001
1799970 9.995313e-001 -1.948210e-001 3.399859e-005 7.839605e+001 5.942856e-005 1.393501e+002 9.975470e-001 -3.439946e-001
2549955 9.990640e-001 -1.417304e-001 1.266624e-004 -1.358503e+002 3.408334e-004 -1.561132e+002 9.980996e-001 -2.884769e-001
3299940 1.000713e+000 -1.179942e-001 7.770662e-005 9.342357e+001 8.732891e-005 -1.491073e+002 9.960112e-001 -2.823139e-001
4049925 9.999794e-001 -1.666166e-001 1.937630e-005 -1.146160e+002 1.065112e-004 -5.426548e+001 9.980310e-001 -2.740991e-001
4799910 1.000218e+000 -1.292324e-001 5.091321e-005 1.267730e+002 2.726095e-004 1.649629e+002 9.976584e-001 -2.827847e-001
5549895 9.998019e-001 -1.335492e-001 4.607720e-005 -1.135600e+002 5.539014e-005 1.401483e+002 9.978408e-001 -2.637630e-001
6299880 1.000114e+000 -1.278633e-001 7.626884e-005 1.420285e+000 1.285547e-004 -1.701344e+002 9.977176e-001 -3.084896e-001
7049865 9.992949e-001 -1.291610e-001 9.090106e-005 9.966803e+001 1.499443e-004 1.409080e+002 9.982044e-001 -3.656994e-001
7799850 1.000136e+000 -1.400676e-001 4.318874e-005 5.378215e+001 1.851480e-004 9.130214e+001 9.972794e-001 -3.443796e-001
8549835 9.999231e-001 -1.662386e-001 8.735893e-005 8.352515e+001 8.662324e-005 6.543240e+001 9.983199e-001 -4.591615e-001
9299820 9.999864e-001 -8.810855e-002 8.362871e-005 6.922301e+001 6.751202e-005 -5.873038e+001 9.969262e-001 -4.423836e-001
10049805 1.000035e+000 -1.830173e-001 9.570189e-005 1.732687e+002 7.103113e-005 1.692857e+002 9.975680e-001 -4.201508e-001
10799790 9.997723e-001 -1.224141e-001 3.811798e-006 -1.493113e+002 1.789688e-004 1.654793e+002 9.976811e-001 -4.064166e-001
11549775 1.000432e+000 -1.500454e-001 6.370144e-005 -7.312127e+001 5.948796e-005 -1.294014e+002 9.975303e-001 -4.488424e-001
12299760 1.000208e+000 -1.307035e-001 1.688825e-005 -1.667111e+002 7.860254e-005 8.245245e+001 1.001019e+000 -4.846210e-001
13049745 1.000167e+000 -1.913055e-001 2.607852e-005 1.567287e+002 6.848520e-005 1.397171e+002 9.980802e-001 -5.536214e-001
13799730 1.000022e+000 -2.017222e-001 6.031209e-005 1.144510e+002 1.337594e-004 -4.208703e+001 9.964772e-001 -5.061195e-001
14549715 1.000302e+000 -2.118163e-001 3.420169e-005 -1.012550e+002 1.613132e-004 8.100033e+001 9.981916e-001 -6.238584e-001
15299700 9.997985e-001 -1.934447e-001 4.051446e-005 1.665459e+002 1.927601e-004 -8.675284e+001 9.963976e-001 -5.788428e-001
16049685 9.998775e-001 -2.165965e-001 1.096149e-004 -1.585405e+002 1.468725e-004 1.218208e+002 9.973770e-001 -5.608517e-001
16799670 9.998564e-001 -2.048825e-001 2.200591e-005 6.634551e+001 1.447852e-004 -1.341491e+002 9.996315e-001 -6.042477e-001
17549655 9.997396e-001 -2.505817e-001 6.983922e-005 3.824889e+001 1.911521e-004 -1.137466e+002 9.994581e-001 -5.847289e-001
18299640 9.999523e-001 -2.230550e-001 5.552855e-005 8.093262e+001 1.883562e-004 2.600178e+001 9.971750e-001 -7.186034e-001
19049625 1.000328e+000 -2.003732e-001 1.383314e-004 -6.343046e+000 7.378660e-005 -4.909462e+001 9.977996e-001 -6.512856e-001
19799610 1.000456e+000 -2.323054e-001 6.611724e-005 1.075986e+001 2.623824e-005 -9.891244e+000 9.963813e-001 -7.404124e-001
20549595 9.998099e-001 -1.858540e-001 6.371438e-005 -9.576994e+001 1.770241e-004 -7.370702e+001 9.969919e-001 -7.735522e-001
21299580 9.992965e-001 -2.338536e-001 7.748709e-005 1.622398e+002 2.697255e-004 1.317430e+002 9.961929e-001 -7.355337e-001
22049565 9.995317e-001 -2.671433e-001 4.307751e-005 -9.649490e+001 1.410294e-004 1.397056e+001 9.979337e-001 -7.211663e-001
22799550 1.000578e+000 -2.630587e-001 4.094010e-005 -2.157627e+001 4.243786e-005 1.635186e+002 9.988941e-001 -7.840344e-001
23549535 1.000491e+000 -2.754885e-001 7.748275e-006 5.945555e+001 2.304933e-004 1.530687e+002 9.975258e-001 -8.046813e-001
24299520 1.000268e+000 -2.689784e-001 1.710356e-004 9.100929e+001 1.654128e-004 7.543741e+001 9.960680e-001 -9.014874e-001
25049505 1.000711e+000 -2.882710e-001 1.217689e-004 -1.597900e+002 3.016501e-004 -1.287685e+002 9.968210e-001 -9.804059e-001
25799490 1.000007e+000 -3.119190e-001 4.348067e-005 3.733920e+001 1.931439e-004 7.520164e+001 9.978945e-001 -9.946958e-001
26549475 1.001097e+000 -3.027363e-001 7.711297e-005 1.332554e+002 1.960581e-005 4.842336e+001 9.982662e-001 -9.505640e-001
27299460 1.000694e+000 -3.208078e-001 9.004548e-005 1.454849e+002 3.604332e-004 8.861158e+001 9.979496e-001 -1.005190e+000
28049445 1.000294e+000 -2.807938e-001 1.145419e-004 -6.865741e+001 1.401873e-004 1.122688e+002 9.993324e-001 -1.060561e+000
28799430 1.000040e+000 -3.624837e-001 4.915437e-005 9.634593e+000 2.487427e-005 1.076726e+002 9.970654e-001 -1.086143e+000
29549415 9.994655e-001 -2.784989e-001 6.698972e-005 -3.278326e+001 2.934704e-004 -1.474227e+002 9.979696e-001 -9.652315e-001
30299400 9.998691e-001 -3.529290e-001 8.013314e-005 -4.940223e+001 1.191539e-004 1.414671e+002 9.987423e-001 -1.079374e+000
31049385 1.000007e+000 -2.918622e-001 1.741953e-004 -1.299655e+002 1.165863e-004 -7.789230e+001 9.969333e-001 -1.098523e+000
31799370 1.000818e+000 -4.088265e-001 6.241469e-005 5.531057e+001 2.504579e-004 -9.354683e+001 9.974985e-001 -1.061481e+000
32549355 1.001078e+000 -3.398838e-001 1.451006e-004 3.504853e+001 1.281611e-004 1.097931e+002 9.972895e-001 -1.133975e+000
33299340 1.000206e+000 -3.305651e-001 4.044914e-005 -1.653196e+002 7.414295e-005 1.482057e+002 9.980331e-001 -1.158952e+000
34049325 1.000227e+000 -3.991053e-001 2.056684e-005 8.012263e+001 2.438487e-004 1.481598e+002 9.969358e-001 -1.201095e+000
34799310 9.997501e-001 -3.801777e-001 9.009698e-005 -1.589340e+002 1.127420e-004 -1.351818e+002 9.962618e-001 -1.267719e+000
35549295 9.999669e-001 -4.054171e-001 7.322148e-005 -1.018164e+002 3.839677e-005 2.508139e+000 9.980682e-001 -1.220500e+000
36299280 1.000339e+000 -3.738632e-001 1.314610e-004 5.974686e+001 3.969521e-005 8.072630e+001 9.976855e-001 -1.307548e+000
37049265 1.000722e+000 -4.260877e-001 7.769772e-005 -1.520960e+002 2.078936e-004 7.232292e+001 9.968989e-001 -1.329258e+000
37799250 1.000392e+000 -3.788972e-001 4.380593e-005 -3.065394e+001 1.196671e-004 -1.352749e+002 9.973732e-001 -1.340811e+000
38549235 9.996450e-001 -4.155734e-001 2.917273e-005 -1.049646e+001 2.448775e-004 6.281898e+001 9.963720e-001 -1.400418e+000
39299220 1.000390e+000 -3.929376e-001 8.574171e-005 1.043941e+002 1.166837e-004 -1.769722e+001 9.961196e-001 -1.338182e+000
40049205 1.000208e+000 -3.908654e-001 8.669101e-005 -4.010576e-001 1.026168e-004 -1.098205e+002 9.972430e-001 -1.354761e+000
40799190 1.000794e+000 -4.583444e-001 1.713440e-004 -1.354896e+002 3.052622e-004 -3.036377e+001 9.981979e-001 -1.445763e+000
41549175 9.990209e-001 -3.940004e-001 1.067904e-004 -6.806051e+001 1.572679e-004 -1.671691e+002 9.973394e-001 -1.431019e+000
42299160 1.000059e+000 -4.131700e-001 5.231780e-005 -2.160586e+001 1.990369e-004 -1.553378e+002 9.978792e-001 -1.422097e+000
43049145 1.000917e+000 -4.485607e-001 9.537578e-005 -4.382963e+000 3.912695e-004 9.950475e+001 9.965216e-001 -1.516137e+000
43799130 1.000215e+000 -4.400940e-001 1.184720e-004 1.521479e+002 7.465735e-005 4.580836e+001 9.956533e-001 -1.504464e+000
44549115 1.000549e+000 -4.235466e-001 6.528262e-005 -1.474004e+002 2.248835e-004 9.549501e+001 9.967762e-001 -1.658838e+000
45299100 1.001245e+000 -4.931194e-001 5.968789e-005 1.570387e+002 1.071071e-004 8.330651e+001 9.975007e-001 -1.642527e+000
46049085 1.001935e+000 -4.116944e-001 1.332739e-004 -1.631101e+002 1.298471e-004 7.736889e+001 9.978604e-001 -1.507835e+000
46799070 1.000651e+000 -4.996662e-001 5.869298e-005 1.561760e+002 1.949677e-004 4.460254e+001 9.977877e-001 -1.636518e+000
47549055 1.000015e+000 -4.615967e-001 2.166657e-004 -7.576004e+001 3.206468e-004 -7.519983e+001 9.967503e-001 -1.662003e+000
48299040 1.000993e+000 -5.172520e-001 2.196185e-004 4.116861e+000 8.057881e-005 -1.006864e+001 9.979544e-001 -1.652769e+000
49049025 1.001276e+000 -5.151460e-001 6.882752e-005 -1.245452e+002 1.968367e-004 -1.076153e+002 9.983296e-001 -1.628035e+000
49799010 1.000279e+000 -5.444007e-001 2.069078e-004 6.521964e+001 2.800216e-004 -9.040825e+000 9.975355e-001 -1.703544e+000
50548995 9.989156e-001 -5.550193e-001 7.080211e-005 -8.807471e+001 6.848053e-004 -2.494739e+001 9.978077e-001 -1.751904e+000
51298980 1.001792e+000 -5.385714e-001 1.019170e-004 -9.459250e+001 3.101983e-004 -3.803444e+001 9.962418e-001 -1.723572e+000
52048965 9.998730e-001 -5.211886e-001 5.037554e-005 6.203963e+001 1.351071e-004 -8.495182e+001 9.963709e-001 -1.691954e+000
52798950 9.998642e-001 -5.014657e-001 9.391498e-005 -2.045650e+001 7.251514e-004 8.664835e+001 9.985124e-001 -1.722916e+000
53548935 1.001037e+000 -6.116683e-001 6.673100e-005 -8.521889e+001 2.696046e-004 1.434756e+002 9.981336e-001 -1.724462e+000
54298920 1.000421e+000 -5.771832e-001 1.583928e-004 -6.792474e+001 4.430978e-004 1.448734e+001 9.960072e-001 -1.880638e+000
55048905 1.000855e+000 -5.151747e-001 7.143064e-005 -1.624585e+002 3.020926e-004 9.079922e+001 9.938732e-001 -1.868561e+000
55798890 1.000620e+000 -5.138150e-001 6.216129e-005 4.163509e+001 4.659916e-004 9.742670e+001 9.984227e-001 -1.971417e+000
56548875 1.000675e+000 -5.761346e-001 1.090499e-004 -5.021395e+001 5.271056e-005 -4.328516e+001 9.968757e-001 -1.931951e+000
57298860 1.001426e+000 -5.737660e-001 1.287283e-004 1.461264e+002 2.240724e-004 -8.952451e+000 9.974350e-001 -1.752706e+000
58048845 1.000451e+000 -6.218651e-001 4.820337e-005 -1.553137e+002 2.353863e-004 -2.657427e+000 9.960946e-001 -1.959193e+000
58798830 9.995868e-001 -4.900067e-001 5.984610e-005 1.199738e+002 2.800184e-004 -8.827242e+001 9.978645e-001 -1.897418e+000
59548815 1.001703e+000 -6.277832e-001 5.267607e-005 1.505911e+002 3.454542e-004 -9.110957e+001 9.967035e-001 -1.990849e+000
60298800 1.001062e+000 -6.283354e-001 1.134702e-004 1.690443e+002 3.298770e-004 6.120913e+001 9.976539e-001 -2.075559e+000
61048785 1.001805e+000 -5.487686e-001 1.780088e-004 -1.013503e+002 3.384665e-004 1.315992e+001 9.980540e-001 -1.929589e+000
61798770 1.000856e+000 -5.873192e-001 1.417073e-004 -1.296893e+002 1.395911e-004 -4.837770e+001 9.984281e-001 -2.147819e+000
62548755 1.000822e+000 -6.075388e-001 1.959434e-004 -5.385123e+001 2.225655e-004 1.788003e+001 9.961597e-001 -1.984219e+000
63298740 1.001692e+000 -5.945706e-001 5.029579e-005 6.744932e+001 1.564321e-004 2.618235e+000 9.977166e-001 -2.036785e+000
64048725 9.999583e-001 -5.805243e-001 2.362860e-005 1.634105e+002 3.134654e-004 -1.592311e+002 9.981059e-001 -1.917086e+000
64798710 1.001352e+000 -6.198426e-001 2.986320e-005 8.846669e+001 3.724692e-004 3.903559e+001 9.997529e-001 -2.199853e+000
65548695 1.000514e+000 -6.611415e-001 3.282316e-005 9.536111e+001 1.345905e-004 8.856551e+001 9.980153e-001 -2.070624e+000
66298680 1.001951e+000 -6.259519e-001 3.175856e-005 -1.655807e+002 1.950847e-004 -1.608511e+002 9.985045e-001 -2.188641e+000
67048665 1.001746e+000 -5.687804e-001 5.284794e-005 6.820708e+001 5.022249e-004 1.330375e+002 9.998594e-001 -2.207743e+000
67798650 1.001442e+000 -6.065586e-001 1.481595e-004 6.970623e+001 5.475683e-004 1.416548e+002 9.961188e-001 -2.257878e+000
68548635 1.000493e+000 -6.575770e-001 9.239520e-005 -5.105022e+001 1.504127e-004 -1.612893e+002 9.994715e-001 -2.230345e+000
69298620 1.001511e+000 -6.624686e-001 2.330556e-004 6.288600e+001 1.459885e-004 2.943927e+001 9.961123e-001 -2.185234e+000
70048605 1.001202e+000 -6.669702e-001 7.560094e-005 1.213065e+002 2.212587e-004 -1.060367e+002 1.000226e+000 -2.349943e+000
70798590 1.001547e+000 -6.213225e-001 1.624118e-004 -1.110728e+002 2.979054e-004 1.301638e+002 9.970561e-001 -2.381748e+000
71548575 1.001790e+000 -6.492215e-001 1.020482e-004 8.475786e+001 1.945509e-004 1.281906e+002 9.977826e-001 -2.400973e+000
72298560 1.001735e+000 -6.924734e-001 1.842321e-004 7.987178e+001 2.326732e-004 -4.240464e+001 9.953508e-001 -2.617138e+000
73048545 1.001428e+000 -6.678108e-001 9.848765e-005 1.627116e+001 4.291474e-004 4.072720e+001 9.990449e-001 -2.320044e+000
73798530 1.001183e+000 -5.948266e-001 5.457161e-005 -4.124337e-001 2.085368e-004 4.755882e+001 9.979316e-001 -2.521598e+000
74548515 1.001930e+000 -6.835365e-001 4.171011e-005 -4.806580e+001 2.881968e-004 9.108326e+001 9.993042e-001 -2.418669e+000
75298500 1.002097e+000 -6.825551e-001 1.445657e-004 1.364085e+002 1.901806e-004 -1.639410e+002 9.976947e-001 -2.403787e+000
76048485 1.001455e+000 -6.520916e-001 5.177650e-005 2.130566e+001 3.546845e-004 -6.632045e+001 9.984478e-001 -2.490306e+000
76798470 1.001687e+000 -6.320300e-001 1.819151e-004 1.597934e+002 2.541262e-004 -2.833593e+001 9.967332e-001 -2.431951e+000
77548455 1.001250e+000 -6.781839e-001 1.335553e-004 8.591587e+001 1.434808e-004 5.898257e+001 9.992787e-001 -2.451950e+000
78298440 1.002289e+000 -6.963332e-001 1.412155e-004 -8.954203e+000 1.975570e-004 -3.764063e+001 9.986172e-001 -2.541058e+000
79048425 1.001971e+000 -7.196352e-001 4.189855e-005 -3.086311e+001 2.825863e-004 8.780204e+001 9.997928e-001 -2.468035e+000
79798410 1.002392e+000 -7.073863e-001 5.173666e-005 -5.368904e-001 1.116138e-004 8.264244e+001 9.971852e-001 -2.446747e+000
80548395 1.002516e+000 -6.923794e-001 1.579535e-004 1.662172e+002 1.878839e-004 -1.717776e+002 9.973911e-001 -2.631902e+000
81298380 1.001908e+000 -7.568666e-001 3.264278e-005 -2.489183e+001 1.848535e-004 5.014623e+001 9.990213e-001 -2.531154e+000
82048365 1.001759e+000 -7.368029e-001 7.048322e-005 -1.242940e+002 2.480634e-004 1.437109e+002 1.000526e+000 -2.609212e+000
82798350 1.001222e+000 -6.473932e-001 5.253791e-005 -7.722996e+001 1.711079e-004 3.006206e+001 9.978666e-001 -2.681299e+000
83548335 1.001364e+000 -7.208129e-001 6.173830e-005 -1.029793e+002 2.112465e-004 4.009094e+001 9.993072e-001 -2.697891e+000
84298320 1.002573e+000 -7.629732e-001 1.551960e-004 -5.728641e+001 1.906710e-004 -1.577821e+001 9.991458e-001 -2.665982e+000
85048305 1.002044e+000 -7.484506e-001 5.778644e-005 -8.918870e+001 4.333567e-004 6.738741e+001 9.976112e-001 -2.705763e+000
85798290 1.000247e+000 -7.153179e-001 1.639813e-004 -1.209333e+002 2.307573e-004 -9.184183e+001 9.986814e-001 -2.645832e+000
86548275 1.001686e+000 -7.656293e-001 6.957632e-005 1.535966e+002 1.181568e-004 -1.155844e+002 9.983410e-001 -2.695086e+000
87298260 1.001697e+000 -7.637246e-001 2.787218e-004 1.977764e+001 1.798576e-004 1.951192e+001 1.000709e+000 -2.759295e+000
88048245 1.000763e+000 -6.356419e-001 1.135227e-004 -1.036369e+002 5.647561e-004 -1.422976e+002 9.989690e-001 -2.819057e+000
88798230 1.002874e+000 -7.799162e-001 1.952917e-004 3.449559e+001 2.266411e-004 -9.879413e+001 1.000709e+000 -2.866687e+000
89548215 1.001747e+000 -7.154254e-001 3.865391e-005 -2.044164e+000 2.169374e-004 8.391492e+001 9.967447e-001 -2.757622e+000
90298200 1.001119e+000 -7.157147e-001 8.593572e-005 7.560233e+001 1.900477e-004 8.440605e+000 9.995402e-001 -2.626465e+000
91048185 1.003041e+000 -8.176900e-001 1.122741e-004 5.427899e+001 3.764083e-004 3.175536e+001 9.987586e-001 -2.761879e+000
91798170 1.001246e+000 -7.840353e-001 1.411469e-004 -4.511954e+001 1.684539e-004 -4.803619e+001 9.991923e-001 -2.889130e+000
92548155 1.003262e+000 -8.570113e-001 5.881510e-005 1.316223e+002 3.891494e-004 8.909782e+001 1.000136e+000 -2.887853e+000
93298140 1.003538e+000 -7.434427e-001 3.481450e-005 -1.242449e+001 2.754509e-005 -4.522952e+001 9.985785e-001 -2.921455e+000
94048125 1.002433e+000 -8.436646e-001 2.291759e-004 -5.592403e+001 1.647820e-004 6.635529e+001 1.002374e+000 -2.888683e+000
94798110 1.003194e+000 -7.500296e-001 2.369136e-004 1.765963e+002 4.039249e-004 -7.507979e+001 9.988251e-001 -2.949385e+000
95548095 1.002704e+000 -8.397238e-001 2.736191e-004 1.783458e+002 8.444473e-005 1.376201e+002 9.971762e-001 -3.005479e+000
96298080 1.002022e+000 -8.407040e-001 3.093911e-004 -1.083867e+002 6.225525e-005 1.296923e+002 9.994521e-001 -2.937137e+000
97048065 1.001806e+000 -8.466175e-001 7.848375e-005 -1.306682e+002 3.703725e-004 -8.669894e+001 9.999495e-001 -2.949945e+000
97798050 1.002356e+000 -7.562656e-001 1.402235e-004 3.177449e+001 2.592662e-004 1.710870e+002 1.000336e+000 -3.204877e+000
98548035 1.002382e+000 -7.931580e-001 1.399213e-004 -1.780497e+002 3.018325e-004 -1.135010e+002 9.984267e-001 -2.994062e+000
99298020 1.002460e+000 -7.735275e-001 7.811581e-005 -1.678188e+002 3.496892e-004 -9.410691e+001 1.000180e+000 -2.988187e+000
100048005 1.003249e+000 -7.853491e-001 2.003780e-004 4.038969e+001 1.038442e-004 -5.705223e+001 9.988635e-001 -3.086083e+000
100797990 1.002855e+000 -8.246484e-001 1.193835e-004 1.658865e+002 2.036599e-004 1.183705e+002 9.983435e-001 -2.908814e+000
101547975 1.001496e+000 -8.369336e-001 2.019231e-004 2.150628e+001 3.546428e-004 7.947005e+001 9.974052e-001 -3.100340e+000
102297960 1.004121e+000 -7.636422e-001 1.041661e-004 -2.324836e+001 4.905210e-005 -1.473677e+002 1.001709e+000 -2.938822e+000
103047945 1.002372e+000 -7.857505e-001 1.502070e-004 -1.259105e+002 4.120643e-004 -1.722455e+002 9.987313e-001 -3.169111e+000
103797930 1.002306e+000 -8.391671e-001 1.550234e-004 1.028991e+002 1.415192e-004 3.424548e+001 1.001007e+000 -3.088386e+000
104547915 1.001399e+000 -7.780880e-001 1.767852e-004 1.237459e+002 2.043812e-004 1.005873e+002 1.001258e+000 -3.208739e+000
105297900 1.002208e+000 -8.435025e-001 1.618409e-004 3.820216e+001 5.671498e-004 5.233579e+001 1.002713e+000 -3.026055e+000
106047885 1.003500e+000 -8.364760e-001 1.611237e-004 -1.417136e+002 2.988176e-004 3.745230e+001 1.001441e+000 -3.158239e+000
106797870 1.003980e+000 -8.611997e-001 1.345000e-004 -5.050857e+001 2.606311e-004 -1.482338e+002 9.986674e-001 -3.258983e+000
107547855 1.003829e+000 -8.625533e-001 1.819242e-004 -1.302270e+002 3.320542e-004 -1.228324e+002 1.000558e+000 -3.135179e+000
108297840 1.002194e+000 -8.456718e-001 7.545255e-005 -4.819963e+001 4.090783e-004 9.132723e+001 1.000257e+000 -3.251947e+000
109047825 1.002335e+000 -8.458783e-001 1.317140e-004 -9.200620e+000 3.998554e-004 -1.089804e+002 9.999752e-001 -3.387708e+000
109797810 1.003585e+000 -8.951694e-001 3.690932e-005 3.855789e+001 4.449211e-004 1.685876e+002 1.001584e+000 -3.267840e+000
110547795 1.001809e+000 -7.916818e-001 1.130640e-004 6.806707e+001 3.104239e-004 -1.385927e+001 1.001325e+000 -3.199107e+000
111297780 1.003604e+000 -8.302681e-001 1.278666e-004 1.213884e+002 4.939066e-005 1.073775e+002 1.001347e+000 -3.199004e+000
112047765 1.001706e+000 -8.013063e-001 1.658330e-004 -4.138316e+001 9.188804e-005 1.044354e+002 9.980130e-001 -3.218950e+000
112797750 1.003021e+000 -8.518630e-001 7.219596e-005 -1.707168e+002 1.412807e-004 1.046261e+002 9.997883e-001 -3.327701e+000
113547735 1.002719e+000 -8.311296e-001 5.826843e-005 -8.007173e+001 8.222280e-005 -1.006405e+002 9.994538e-001 -3.259300e+000
114297720 1.001570e+000 -8.565552e-001 2.143558e-004 -8.100493e+001 1.220718e-004 -1.429794e+002 1.000559e+000 -3.423045e+000
115047705 1.003207e+000 -8.721154e-001 7.183217e-005 -1.416532e+002 2.644387e-004 3.367141e+001 9.998650e-001 -3.329420e+000
115797690 1.003820e+000 -8.798582e-001 1.215925e-004 6.836237e+001 2.083186e-004 8.048630e+001 1.000837e+000 -3.495264e+000
116547675 1.003206e+000 -8.651008e-001 1.122704e-004 -1.175653e+001 2.525649e-004 9.665084e+001 9.997270e-001 -3.323703e+000
117297660 1.003093e+000 -8.235480e-001 4.537292e-005 1.680511e+002 2.036450e-004 1.595790e+002 9.998286e-001 -3.453505e+000
