!Agilent Technologies,N5230C,SG49000117,A.08.50.07
!Agilent N5230C: A.08.50.07
!Date: Friday, May 17, 2024 07:59:05
!Correction: S11(Full 2 Port(1,2)) 
!S21(Full 2 Port(1,2)) 
!S12(Full 2 Port(1,2)) 
!S22(Full 2 Port(1,2)) 
!S2P File: Measurements: S11, S21, S12, S22:
# Hz S  MA   R 50
300000 1.006563e+000 -5.027704e-001 4.935836e-005 1.237233e+002 3.642444e-004 4.973006e+001 1.013330e+000 -1.017194e+000
1049985 1.001704e+000 -3.131459e-001 8.144390e-005 3.087081e+001 8.029457e-005 1.769595e+001 1.000240e+000 -4.837684e-001
1799970 9.997807e-001 -2.037798e-001 5.971329e-005 -9.699522e+001 1.121861e-004 -1.925509e+001 9.982617e-001 -4.252888e-001
2549955 9.997420e-001 -1.660565e-001 8.391119e-005 -9.742843e+001 1.508038e-004 -1.469757e+002 9.978435e-001 -3.055040e-001
3299940 1.000794e+000 -1.374673e-001 2.937324e-005 1.765450e+002 6.438666e-005 1.357862e+002 9.966279e-001 -3.471152e-001
4049925 9.999233e-001 -1.783596e-001 7.581284e-005 6.684720e+000 1.983538e-004 2.939067e+001 9.982308e-001 -2.718845e-001
4799910 1.000759e+000 -1.313947e-001 5.213021e-005 6.192605e+001 5.965953e-005 3.805297e+001 9.975038e-001 -3.059867e-001
5549895 1.000113e+000 -1.477323e-001 8.127718e-005 -6.871581e+000 1.929268e-004 5.713245e+001 9.978932e-001 -2.873676e-001
6299880 9.994442e-001 -1.166095e-001 1.228225e-004 1.300943e+002 9.696144e-005 7.015657e+001 9.984091e-001 -2.986581e-001
7049865 1.000133e+000 -1.152498e-001 3.820625e-005 -1.516787e+002 1.260732e-004 1.968279e+001 9.978974e-001 -3.531341e-001
7799850 9.996560e-001 -1.488455e-001 4.633908e-005 8.273172e+001 8.894049e-005 1.071135e+002 9.981284e-001 -3.945563e-001
8549835 9.999335e-001 -1.408833e-001 5.368947e-005 1.434729e+001 1.138122e-004 1.168928e+002 9.986606e-001 -4.484200e-001
9299820 1.000273e+000 -1.591462e-001 5.315827e-005 3.190814e+000 9.628042e-005 3.543265e+001 9.978914e-001 -4.496436e-001
10049805 1.000236e+000 -1.347345e-001 7.514094e-005 -1.339061e+002 1.619080e-004 2.859986e+001 9.969275e-001 -4.625740e-001
10799790 9.996147e-001 -8.736334e-002 7.780722e-005 -1.788371e+002 1.499689e-005 9.467827e+001 9.977174e-001 -4.579412e-001
11549775 1.000469e+000 -1.392622e-001 1.477143e-005 5.241487e+000 1.663945e-004 -8.575304e+001 9.984054e-001 -5.053139e-001
12299760 1.000152e+000 -1.201607e-001 3.279630e-005 9.123945e+001 1.241216e-004 -1.514151e+002 9.997175e-001 -5.595747e-001
13049745 1.000458e+000 -2.099055e-001 7.458003e-005 -4.479746e+000 2.113923e-004 1.529911e+002 9.964190e-001 -5.464908e-001
13799730 9.999059e-001 -2.001898e-001 1.717874e-004 1.762589e+002 2.278171e-004 -2.338907e+001 9.964334e-001 -5.839563e-001
14549715 1.000864e+000 -2.212109e-001 1.182386e-004 -1.350906e+002 2.689199e-004 2.650895e+000 9.979771e-001 -6.151839e-001
15299700 1.000018e+000 -1.922747e-001 2.596599e-005 -3.174379e+001 7.822186e-005 6.265655e+001 9.983268e-001 -6.759430e-001
16049685 1.000500e+000 -1.799311e-001 7.208734e-005 9.770644e+001 2.690290e-004 -8.178223e-001 9.986655e-001 -7.222589e-001
16799670 9.997759e-001 -1.840782e-001 5.320624e-005 1.058334e+002 1.718248e-004 8.581470e+001 9.997560e-001 -7.467327e-001
17549655 9.995257e-001 -2.694134e-001 2.681598e-005 1.030043e+002 2.610034e-004 -8.488705e+001 9.989498e-001 -7.161145e-001
18299640 9.993821e-001 -2.126622e-001 4.746159e-005 -1.577775e+001 9.183942e-005 1.549908e+002 9.973993e-001 -7.908604e-001
19049625 1.000053e+000 -2.490895e-001 1.284636e-005 1.221149e+002 1.795660e-004 1.640272e+002 9.984179e-001 -6.936159e-001
19799610 1.000697e+000 -2.349109e-001 1.139589e-004 -1.632071e+002 2.734206e-004 1.916635e+001 9.963751e-001 -7.775608e-001
20549595 9.999748e-001 -2.195041e-001 1.323882e-004 1.115051e+002 2.218075e-004 -1.651372e+002 9.971482e-001 -8.817672e-001
21299580 9.993227e-001 -2.245829e-001 1.099596e-005 -6.888953e+001 1.003704e-004 -3.428465e+001 9.982004e-001 -8.191092e-001
22049565 9.997863e-001 -2.754600e-001 1.138331e-004 -1.124720e+002 1.272497e-004 1.003118e+002 9.981200e-001 -8.316914e-001
22799550 1.000519e+000 -2.551166e-001 1.289058e-004 6.184437e+001 1.470495e-004 -8.501379e+001 9.980680e-001 -8.935283e-001
23549535 1.000733e+000 -3.058415e-001 8.782189e-005 7.689715e+001 1.624893e-004 3.040886e+001 9.967057e-001 -9.232195e-001
24299520 9.999105e-001 -3.185361e-001 2.205740e-005 7.356792e+001 2.326518e-004 -1.319613e+001 9.978030e-001 -9.198270e-001
25049505 1.000433e+000 -3.277829e-001 3.075528e-005 -5.142524e+001 2.130685e-004 1.471150e+002 9.987631e-001 -1.018966e+000
25799490 9.995180e-001 -3.026430e-001 5.278842e-005 1.341744e+002 1.699153e-004 -1.260800e+002 9.969357e-001 -1.083941e+000
26549475 1.000736e+000 -2.641984e-001 4.990551e-005 -8.857545e+001 2.248756e-004 7.001034e+001 9.984516e-001 -1.030301e+000
27299460 9.998918e-001 -2.676294e-001 7.378986e-005 -8.331058e+000 1.887428e-004 -1.349162e+002 9.973555e-001 -1.102704e+000
28049445 9.992803e-001 -3.137807e-001 6.277698e-005 -3.209674e+001 2.373007e-004 2.188648e+001 9.989595e-001 -1.128168e+000
28799430 9.992470e-001 -3.540328e-001 6.571926e-005 -1.399797e+002 2.181460e-004 -1.618473e+002 9.972909e-001 -1.271995e+000
29549415 9.999554e-001 -3.127162e-001 1.079245e-004 -1.478128e+002 1.279932e-004 9.286729e+000 9.986608e-001 -1.127142e+000
30299400 1.000429e+000 -2.815964e-001 1.142252e-004 1.367707e+002 1.232194e-004 1.061593e+002 9.987798e-001 -1.225432e+000
31049385 1.000862e+000 -3.122366e-001 8.996149e-005 1.881606e+001 1.461385e-004 -1.353220e+002 9.971620e-001 -1.209317e+000
31799370 1.000307e+000 -3.750431e-001 4.188684e-005 1.083893e+002 1.385711e-004 7.945414e+001 9.982204e-001 -1.179280e+000
32549355 1.000859e+000 -3.763922e-001 1.324281e-004 3.962614e+001 2.325315e-004 1.770339e+002 9.981147e-001 -1.230894e+000
33299340 1.000791e+000 -3.381327e-001 9.919975e-005 -9.927450e+001 1.458208e-004 7.828761e+001 9.972917e-001 -1.255946e+000
34049325 9.996778e-001 -3.901813e-001 9.084877e-005 9.785335e+001 2.354787e-004 1.731078e+002 9.969405e-001 -1.319463e+000
34799310 1.000057e+000 -4.215282e-001 5.507304e-005 -1.184893e+002 6.893740e-005 7.533390e+001 9.972734e-001 -1.348191e+000
35549295 1.000396e+000 -4.259005e-001 1.548780e-004 -4.017384e+001 1.807135e-004 -1.206393e+002 9.987678e-001 -1.332425e+000
36299280 9.993812e-001 -3.815224e-001 1.173441e-004 5.614634e+001 1.662225e-004 1.195694e+002 9.981422e-001 -1.455674e+000
37049265 1.000670e+000 -3.695752e-001 4.703812e-005 9.665292e+001 1.304112e-004 -1.253168e+002 9.969403e-001 -1.452911e+000
37799250 1.000115e+000 -3.798387e-001 3.101857e-005 1.466363e+002 1.632128e-004 1.176354e+002 9.969081e-001 -1.410953e+000
38549235 1.000156e+000 -3.961065e-001 1.040412e-004 -4.491497e+001 6.484229e-005 -1.492395e+002 9.974356e-001 -1.523390e+000
39299220 1.000152e+000 -4.336057e-001 5.544951e-005 1.762843e+002 5.732748e-005 -1.597986e+001 9.964866e-001 -1.514987e+000
40049205 9.996544e-001 -3.817783e-001 1.104580e-004 -2.365115e+001 1.678654e-004 1.301646e+002 9.989185e-001 -1.412601e+000
40799190 9.999152e-001 -4.331417e-001 1.913874e-004 -9.288905e+001 2.515652e-004 -1.602201e+002 9.991175e-001 -1.522997e+000
41549175 9.991903e-001 -3.982801e-001 1.889751e-004 -4.709813e+001 1.120669e-004 1.203697e+002 9.979943e-001 -1.698702e+000
42299160 1.000300e+000 -4.334188e-001 7.546492e-005 1.681096e+002 2.452612e-004 3.810893e+001 9.962463e-001 -1.513155e+000
43049145 9.990474e-001 -4.233135e-001 4.995615e-005 -1.494775e+001 2.597608e-004 1.501350e+002 9.983092e-001 -1.622436e+000
43799130 9.999942e-001 -4.393136e-001 5.218525e-005 -1.104715e+002 4.310443e-004 1.418947e+002 9.967037e-001 -1.677157e+000
44549115 1.000346e+000 -4.237476e-001 3.611976e-005 1.284709e+002 2.234836e-004 9.779607e+001 9.982506e-001 -1.676244e+000
45299100 1.000796e+000 -5.169305e-001 5.004576e-005 1.694681e+002 1.942320e-004 -1.650053e+002 9.989546e-001 -1.688259e+000
46049085 1.001273e+000 -4.390250e-001 1.676373e-004 -1.603602e+002 2.708744e-004 1.385610e+002 9.983677e-001 -1.732264e+000
46799070 1.001038e+000 -4.635091e-001 1.540545e-004 6.505934e+001 1.082058e-004 -6.102008e+001 9.968945e-001 -1.719398e+000
47549055 1.000822e+000 -4.860567e-001 2.450489e-004 1.033166e+002 1.761108e-004 1.362409e+002 9.970371e-001 -1.862863e+000
48299040 1.001244e+000 -4.508268e-001 9.471505e-005 4.514702e+001 1.681944e-004 5.715253e+000 9.973832e-001 -1.710964e+000
49049025 1.001315e+000 -4.892198e-001 2.803944e-005 -1.476432e+002 1.072574e-004 -1.755636e+001 9.981102e-001 -1.727514e+000
49799010 9.998389e-001 -5.233953e-001 1.578311e-004 1.126245e+001 2.473074e-004 -1.791939e+001 9.966169e-001 -1.853924e+000
50548995 9.994586e-001 -5.620762e-001 1.586628e-005 -7.785266e+001 3.182581e-004 3.763086e+001 9.974068e-001 -1.808336e+000
51298980 1.001394e+000 -5.254082e-001 8.107381e-005 7.967455e+001 1.057362e-004 1.481647e+002 9.958341e-001 -1.862148e+000
52048965 9.994735e-001 -5.628892e-001 1.778927e-004 1.743587e+001 1.210343e-004 2.282587e+001 9.965135e-001 -1.768172e+000
52798950 1.000719e+000 -5.165694e-001 1.223608e-004 -1.086613e+001 5.233124e-004 -9.337318e+001 9.982401e-001 -1.896030e+000
53548935 1.001892e+000 -6.152173e-001 1.458863e-004 -1.081439e+002 1.523726e-004 -9.622978e+001 9.969226e-001 -1.927134e+000
54298920 1.000674e+000 -5.627612e-001 1.349777e-004 1.389644e+002 1.868265e-004 -1.028802e+002 9.959146e-001 -1.896256e+000
55048905 1.000529e+000 -5.062265e-001 1.402588e-004 -1.616080e+002 3.307173e-004 -1.352956e+002 9.955071e-001 -1.973515e+000
55798890 1.000944e+000 -4.931744e-001 2.519132e-005 1.507569e+002 3.350480e-004 -1.231372e+002 9.952807e-001 -2.237242e+000
56548875 1.000662e+000 -5.671359e-001 1.214651e-004 -9.709054e+001 4.392937e-004 -7.604868e+001 9.989449e-001 -2.114941e+000
57298860 1.001648e+000 -6.254299e-001 6.782105e-005 -7.329858e+001 6.427052e-005 -7.307185e+001 9.995739e-001 -2.095628e+000
58048845 1.000366e+000 -6.335388e-001 6.277132e-005 7.563503e+001 1.322131e-004 1.719453e+002 9.968849e-001 -2.016233e+000
58798830 1.000635e+000 -5.050227e-001 7.938944e-005 7.213705e+001 1.242750e-004 1.333499e+002 9.967476e-001 -1.954331e+000
59548815 1.000752e+000 -6.315230e-001 8.051861e-005 2.251913e+001 4.717554e-005 7.661091e+001 9.995658e-001 -2.193808e+000
60298800 1.002037e+000 -5.973770e-001 8.697455e-005 -6.600925e+001 3.744555e-004 1.002291e+002 9.993812e-001 -2.237621e+000
61048785 1.001994e+000 -5.633863e-001 4.472786e-005 -2.008446e+001 4.051324e-004 -5.861278e+001 9.979382e-001 -2.087208e+000
61798770 1.000787e+000 -6.259817e-001 1.618409e-004 -1.335717e+002 3.633625e-004 -1.469692e+002 9.982008e-001 -2.163235e+000
62548755 1.001696e+000 -5.653729e-001 7.515227e-005 -9.822455e+001 2.869728e-004 -3.674876e+001 9.969099e-001 -2.360141e+000
63298740 1.001862e+000 -6.147047e-001 8.883508e-005 -1.294865e+001 4.074931e-004 -1.738341e+001 9.984389e-001 -2.173114e+000
64048725 1.001889e+000 -5.643703e-001 1.688356e-004 1.552913e+002 1.811833e-004 1.108372e+002 9.965127e-001 -2.119369e+000
64798710 9.999707e-001 -5.885472e-001 5.503011e-005 1.550735e+002 3.091710e-004 -2.717241e+001 9.969932e-001 -2.478852e+000
65548695 1.000997e+000 -6.494743e-001 1.576697e-005 -7.021658e+001 4.411351e-004 1.031945e+002 9.981502e-001 -2.278304e+000
66298680 1.002410e+000 -6.503880e-001 1.245575e-004 1.308578e+002 3.213170e-004 1.435122e+002 9.961332e-001 -2.409729e+000
67048665 1.001841e+000 -5.622553e-001 1.164264e-005 1.373120e+002 1.982729e-004 1.168569e+002 9.980382e-001 -2.516156e+000
67798650 1.000600e+000 -5.945705e-001 1.183582e-004 3.434591e+001 1.439758e-004 2.894395e+001 9.991469e-001 -2.360511e+000
68548635 1.000749e+000 -6.387033e-001 7.121998e-005 1.534081e+001 3.402398e-004 3.254349e+001 1.000090e+000 -2.340349e+000
69298620 1.001958e+000 -6.397826e-001 1.138326e-004 -4.342351e+001 2.412479e-005 1.187667e+002 9.993747e-001 -2.395953e+000
70048605 1.001794e+000 -6.483722e-001 1.253228e-004 1.302911e+002 3.968479e-004 -6.970715e+001 9.978927e-001 -2.471573e+000
70798590 1.002338e+000 -6.166945e-001 1.245143e-004 3.045001e+001 4.148903e-005 1.477399e+002 9.953964e-001 -2.569251e+000
71548575 1.000928e+000 -6.587424e-001 9.792444e-005 -6.417762e+001 2.444996e-004 -4.160286e+001 9.981997e-001 -2.618235e+000
72298560 1.001652e+000 -6.188622e-001 8.803048e-005 -8.072486e+001 4.498269e-004 -1.151375e+002 9.979427e-001 -2.716039e+000
73048545 1.002465e+000 -6.730188e-001 8.245740e-005 1.066328e+001 1.004261e-004 -1.296866e+002 9.995500e-001 -2.645224e+000
73798530 1.001117e+000 -5.762492e-001 9.998217e-005 7.831367e+001 2.686986e-004 1.102704e+002 9.990337e-001 -2.678240e+000
74548515 1.002572e+000 -7.599379e-001 5.337398e-005 -1.454427e+002 3.365160e-004 -1.594546e+002 9.980764e-001 -2.718205e+000
75298500 1.002564e+000 -6.663958e-001 9.470285e-005 -1.872055e+001 3.395656e-004 -1.630054e+002 9.983739e-001 -2.606959e+000
76048485 1.002281e+000 -6.168409e-001 1.156531e-004 5.964585e+001 4.251126e-004 3.714563e+001 9.985137e-001 -2.731924e+000
76798470 1.001065e+000 -6.160257e-001 6.078852e-005 -1.150862e+002 1.276906e-004 7.844128e+001 9.977384e-001 -2.782136e+000
77548455 1.001405e+000 -7.247436e-001 1.193225e-004 -1.657026e+001 6.279119e-004 5.764424e+001 1.000577e+000 -2.727540e+000
78298440 1.001892e+000 -6.477861e-001 1.757140e-005 -1.619976e+002 3.308686e-004 -2.283441e+001 9.984460e-001 -2.749044e+000
79048425 1.001686e+000 -7.414839e-001 1.652924e-004 -8.764591e+001 7.107440e-005 -8.378210e+001 9.998812e-001 -2.822245e+000
79798410 1.002651e+000 -6.930739e-001 1.895770e-004 3.473050e+000 2.155499e-004 2.231659e+001 9.975183e-001 -2.779147e+000
80548395 1.002494e+000 -7.308102e-001 5.764286e-005 -1.072503e+002 1.309153e-004 -7.249688e+001 9.979023e-001 -2.876478e+000
81298380 1.001336e+000 -7.824968e-001 1.261228e-004 1.395128e+002 5.636319e-004 4.991436e+001 9.992847e-001 -2.772871e+000
82048365 1.001506e+000 -6.232727e-001 8.867728e-005 1.526042e+002 2.024201e-004 1.525976e+002 1.000369e+000 -2.889370e+000
82798350 1.002536e+000 -7.073450e-001 1.172939e-004 1.238247e+002 1.287625e-004 -1.721081e+002 9.987462e-001 -2.942462e+000
83548335 1.001628e+000 -7.431331e-001 1.892356e-004 -1.747954e+002 2.518366e-004 -8.151865e+001 9.973504e-001 -2.856791e+000
84298320 1.002032e+000 -7.211238e-001 1.201427e-004 8.068409e+000 2.223021e-004 8.617662e+001 9.996175e-001 -2.847630e+000
85048305 1.001048e+000 -7.399949e-001 1.009545e-004 1.335272e+002 1.137635e-004 1.447866e+002 9.989378e-001 -2.998388e+000
85798290 1.000444e+000 -7.904656e-001 4.167093e-005 -1.156524e+002 3.611813e-004 1.672641e+002 1.000266e+000 -2.938450e+000
86548275 1.002758e+000 -7.386624e-001 1.232233e-004 -1.669050e+001 1.063607e-004 -5.455091e+001 9.981096e-001 -2.842150e+000
87298260 1.001393e+000 -7.556198e-001 1.266321e-004 -5.139267e+001 1.323228e-004 9.806516e+001 9.990864e-001 -2.955585e+000
88048245 1.002608e+000 -7.036033e-001 6.698378e-005 1.646187e+002 1.056286e-004 1.022318e+002 1.000021e+000 -3.075050e+000
88798230 1.002369e+000 -7.464455e-001 5.404916e-005 7.924774e+001 3.562123e-004 1.061635e+002 9.999761e-001 -3.057389e+000
89548215 1.002702e+000 -6.945353e-001 1.212839e-004 1.334603e+002 3.174566e-004 1.183221e+002 9.984373e-001 -3.113536e+000
90298200 1.001705e+000 -7.733639e-001 7.901363e-005 -2.883849e+001 1.257521e-004 7.578709e+001 9.995862e-001 -2.982407e+000
91048185 1.003296e+000 -8.182611e-001 5.223297e-005 -5.457528e+001 3.670304e-004 1.224819e+002 9.991089e-001 -3.090389e+000
91798170 1.001230e+000 -7.923894e-001 3.991992e-005 -1.766705e+002 1.640707e-004 5.349051e+001 9.987617e-001 -3.090687e+000
92548155 1.002089e+000 -7.837510e-001 9.762382e-005 9.664070e+001 5.481708e-005 -8.223383e+001 9.994211e-001 -3.161596e+000
93298140 1.002342e+000 -8.250591e-001 1.643778e-004 1.121127e+002 1.110535e-004 -1.446540e+002 9.980157e-001 -3.119693e+000
94048125 1.002355e+000 -8.165628e-001 1.972742e-004 -3.307002e+001 4.138126e-004 -1.581273e+002 1.001656e+000 -3.087004e+000
94798110 1.003232e+000 -7.809810e-001 6.854074e-005 8.778152e+001 2.626943e-004 1.453164e+002 9.995314e-001 -3.136401e+000
95548095 1.002025e+000 -8.064445e-001 1.808195e-004 -3.660067e+000 2.036625e-004 -1.451791e+002 9.996057e-001 -3.148724e+000
96298080 1.003320e+000 -6.935365e-001 4.928830e-005 -1.719785e+002 2.420937e-004 2.682136e+001 1.000282e+000 -3.211788e+000
97048065 1.001823e+000 -8.148154e-001 1.895712e-004 -5.251380e+001 4.807190e-004 1.774896e+002 9.998126e-001 -3.256998e+000
97798050 1.000974e+000 -8.064183e-001 1.004165e-004 8.030921e+001 2.904719e-004 -8.001008e+001 1.000610e+000 -3.329332e+000
98548035 1.002679e+000 -8.427101e-001 9.725628e-005 -8.990823e+001 8.165475e-005 -4.577239e+001 9.996820e-001 -3.293055e+000
99298020 1.003089e+000 -7.701278e-001 9.320542e-005 -1.785896e+002 3.322280e-004 3.239814e+001 1.001365e+000 -3.380576e+000
100048005 1.002667e+000 -8.134829e-001 1.554238e-004 2.293134e+001 2.842340e-004 -8.879005e+001 9.970618e-001 -3.434128e+000
100797990 1.002563e+000 -7.903895e-001 1.752688e-004 2.705324e+001 2.015830e-004 -2.363807e+001 1.000681e+000 -3.312474e+000
101547975 1.002356e+000 -7.709412e-001 2.494268e-004 -9.421867e+001 5.320963e-004 -7.841299e+001 9.993618e-001 -3.369514e+000
102297960 1.003676e+000 -7.096633e-001 1.245470e-005 -5.867023e+001 5.337149e-004 -1.609394e+002 1.000517e+000 -3.521050e+000
103047945 1.002696e+000 -8.293378e-001 1.541380e-004 -8.600915e+001 3.246216e-004 -1.659368e+002 9.996507e-001 -3.343596e+000
103797930 1.003337e+000 -7.634826e-001 1.758671e-004 -8.605537e+001 2.702144e-004 -1.204947e+002 1.002419e+000 -3.503513e+000
104547915 1.002866e+000 -7.407710e-001 3.056526e-005 8.486061e+000 1.512836e-004 6.583549e+001 9.997547e-001 -3.502158e+000
105297900 1.001275e+000 -7.816775e-001 1.033201e-004 -3.291054e+001 1.383099e-004 -1.193000e+001 9.998854e-001 -3.271537e+000
106047885 1.003325e+000 -8.056681e-001 9.422118e-005 1.718475e+002 3.978605e-004 1.309366e+002 9.984382e-001 -3.439519e+000
106797870 1.002845e+000 -8.273451e-001 1.373927e-004 1.712590e+002 5.576005e-004 -3.359806e+001 1.000067e+000 -3.556132e+000
107547855 1.003196e+000 -9.016519e-001 1.596388e-004 -1.765071e+002 2.294816e-004 5.482572e+001 1.000898e+000 -3.358082e+000
108297840 1.002209e+000 -8.078833e-001 1.717859e-004 9.926054e-001 7.529795e-005 -8.668530e+001 1.000234e+000 -3.508982e+000
109047825 1.003086e+000 -8.862092e-001 9.409784e-005 1.796873e+002 2.881798e-004 -1.128700e+002 1.000452e+000 -3.725551e+000
109797810 1.002196e+000 -8.130234e-001 2.010658e-004 4.029721e+001 2.354410e-004 1.571683e+001 9.998490e-001 -3.540633e+000
110547795 1.003155e+000 -8.231776e-001 7.580314e-005 1.467176e+002 2.323841e-004 1.540351e+001 1.000661e+000 -3.680257e+000
111297780 1.002323e+000 -8.730586e-001 1.917527e-004 -1.358666e+002 3.438341e-004 1.519203e+002 9.999126e-001 -3.468139e+000
112047765 1.002543e+000 -8.964341e-001 1.278695e-004 1.389992e+002 1.424281e-004 -5.478570e+001 9.988598e-001 -3.606344e+000
112797750 1.003239e+000 -9.100608e-001 6.802199e-005 -6.689971e+001 4.493521e-004 1.234506e+002 9.993126e-001 -3.610829e+000
113547735 1.002992e+000 -8.715394e-001 5.251144e-005 -7.062208e+001 2.313549e-005 -5.140007e+001 9.989498e-001 -3.595740e+000
114297720 1.001891e+000 -9.081047e-001 5.558015e-005 -5.227793e+001 3.788055e-004 1.358056e+002 1.001717e+000 -3.669105e+000
115047705 1.003148e+000 -8.634352e-001 2.783722e-004 1.559719e+002 2.373993e-004 1.772909e+002 9.997907e-001 -3.706952e+000
115797690 1.003500e+000 -8.842282e-001 6.673474e-005 7.727644e+001 6.751154e-005 4.530510e+000 1.000608e+000 -3.855867e+000
116547675 1.003080e+000 -8.753687e-001 6.671449e-005 2.037086e+001 2.555736e-004 -1.202346e+002 1.000802e+000 -3.777716e+000
117297660 1.002849e+000 -8.464834e-001 7.800203e-005 3.549777e+001 2.465193e-004 -1.601936e+002 1.001166e+000 -3.713413e+000
