!Agilent Technologies,N5230C,SG49000117,A.08.50.07
!Agilent N5230C: A.08.50.07
!Date: Sunday, March 17, 2024 03:32:40
!Correction: S11(Off) 
!S21(Off) 
!S12(Off) 
!S22(Full 1 Port(2)) 
!S2P File: Measurements: S11, S21, S12, S22:
# Hz S  RI   R 50
300000000 1.228868e-005 1.005867e-005 -6.553667e-001 -6.025717e-001 1.181732e-005 2.072375e-006 9.775955e-001 -2.990101e-001
300285000 1.533841e-007 2.610363e-006 -6.689714e-001 -5.789758e-001 -5.001678e-006 3.402703e-006 9.780248e-001 -2.991961e-001
300570000 -5.967356e-006 -7.162808e-006 -6.818312e-001 -5.553201e-001 -1.257492e-006 4.665221e-006 9.784915e-001 -2.998572e-001
300855000 -7.987244e-006 -8.577785e-006 -6.937478e-001 -5.315409e-001 -5.907754e-006 4.797674e-007 9.788569e-001 -2.995138e-001
301140000 5.072629e-006 -7.997168e-006 -7.049021e-001 -5.075999e-001 2.254818e-006 -1.203236e-005 9.781460e-001 -3.002803e-001
301425000 4.004658e-006 8.184297e-007 -7.151638e-001 -4.838749e-001 6.435927e-006 5.855384e-007 9.789146e-001 -3.005971e-001
301710000 6.129516e-006 -1.115753e-005 -7.247524e-001 -4.601422e-001 -9.471821e-006 -1.682464e-005 9.789143e-001 -3.023826e-001
301995000 -1.242013e-005 2.467978e-006 -7.335424e-001 -4.364547e-001 3.964460e-006 -5.297813e-006 9.781108e-001 -3.008924e-001
302280000 -5.235214e-006 -6.260947e-006 -7.416385e-001 -4.130082e-001 1.362305e-006 5.241182e-006 9.787133e-001 -3.014023e-001
302565000 -9.205592e-006 -8.157467e-006 -7.489992e-001 -3.894874e-001 -6.744336e-006 1.078316e-005 9.789707e-001 -3.021884e-001
302850000 1.093920e-005 -2.025599e-006 -7.557610e-001 -3.661546e-001 -1.260673e-005 -1.014968e-005 9.781061e-001 -3.008862e-001
303135000 1.445377e-007 -1.209955e-006 -7.616811e-001 -3.429477e-001 1.288416e-005 -3.172286e-006 9.774702e-001 -3.020054e-001
303420000 1.057275e-005 -1.015548e-005 -7.672107e-001 -3.199269e-001 6.752845e-006 -5.952831e-006 9.770448e-001 -3.037625e-001
303705000 1.016354e-005 -1.881073e-006 -7.719756e-001 -2.969175e-001 2.152498e-006 -2.201993e-005 9.790238e-001 -3.035999e-001
303990000 -1.244773e-005 2.622304e-006 -7.762939e-001 -2.742007e-001 5.831130e-006 2.513898e-006 9.771811e-001 -3.025355e-001
304275000 3.131754e-006 -2.572261e-006 -7.798985e-001 -2.515624e-001 5.947855e-006 -3.286912e-006 9.776763e-001 -3.036733e-001
304560000 5.675207e-006 -2.088775e-006 -7.830462e-001 -2.290274e-001 1.420285e-006 -1.178602e-005 9.777761e-001 -3.034618e-001
304845000 1.137723e-005 -9.848328e-007 -7.855867e-001 -2.067138e-001 -1.489085e-005 -6.076792e-007 9.769442e-001 -3.037285e-001
305130000 1.702900e-006 -1.061618e-005 -7.877548e-001 -1.846242e-001 3.671241e-006 -4.880152e-006 9.763788e-001 -3.034990e-001
305415000 -4.516300e-006 2.431701e-005 -7.893272e-001 -1.625876e-001 9.732854e-006 -2.338078e-005 9.771443e-001 -3.045008e-001
305700000 8.566494e-006 -8.844906e-006 -7.904269e-001 -1.407471e-001 -5.356580e-006 -5.091189e-006 9.774405e-001 -3.040928e-001
305985000 8.670738e-006 2.296582e-006 -7.910617e-001 -1.189783e-001 -2.035460e-005 -3.262250e-006 9.776789e-001 -3.054438e-001
306270000 2.257066e-006 1.770128e-006 -7.911838e-001 -9.756199e-002 9.719555e-006 -5.809830e-006 9.788399e-001 -3.045428e-001
306555000 8.341230e-006 1.123770e-005 -7.909426e-001 -7.610933e-002 6.789814e-006 -4.929376e-006 9.777067e-001 -3.067989e-001
306840000 -3.045455e-006 -3.800884e-006 -7.901656e-001 -5.493962e-002 -1.180669e-006 -6.882576e-006 9.768547e-001 -3.045501e-001
307125000 2.181079e-006 5.912440e-007 -7.891459e-001 -3.388226e-002 -7.323428e-006 8.158889e-006 9.767088e-001 -3.062395e-001
307410000 1.026725e-005 1.424436e-005 -7.876466e-001 -1.295886e-002 8.222406e-006 1.818005e-006 9.773617e-001 -3.063942e-001
307695000 2.329516e-006 2.113895e-006 -7.857198e-001 7.751935e-003 -5.072463e-006 -1.346877e-005 9.774448e-001 -3.072919e-001
307980000 -1.315817e-005 -4.850355e-006 -7.834323e-001 2.834865e-002 8.225044e-006 -3.457043e-006 9.761074e-001 -3.070648e-001
308265000 -6.672120e-008 -2.268709e-008 -7.807593e-001 4.881305e-002 1.445756e-007 3.910447e-006 9.759820e-001 -3.072851e-001
308550000 -2.807533e-006 -6.615928e-006 -7.776495e-001 6.923568e-002 7.193404e-006 2.162735e-006 9.758329e-001 -3.067215e-001
308835000 -5.806915e-006 -4.879485e-006 -7.742544e-001 8.927381e-002 -2.019807e-006 -6.479302e-006 9.754977e-001 -3.080181e-001
309120000 1.741992e-006 -4.461180e-007 -7.704153e-001 1.093598e-001 4.040169e-006 3.573502e-007 9.768659e-001 -3.093640e-001
309405000 3.894866e-007 2.256865e-006 -7.662517e-001 1.292878e-001 -4.868141e-006 2.244801e-006 9.784785e-001 -3.088496e-001
309690000 -2.008581e-006 -1.319464e-005 -7.618115e-001 1.490882e-001 -4.932500e-006 -6.722173e-006 9.773667e-001 -3.090247e-001
309975000 -2.584354e-006 -2.469745e-006 -7.569186e-001 1.687651e-001 -1.321750e-007 -1.902354e-005 9.760347e-001 -3.088073e-001
310260000 8.420711e-006 -4.036683e-006 -7.516476e-001 1.883061e-001 1.164523e-005 8.865194e-006 9.778913e-001 -3.093500e-001
310545000 1.690004e-005 -1.176474e-005 -7.460441e-001 2.077658e-001 6.003582e-006 -8.812101e-006 9.760790e-001 -3.102044e-001
310830000 2.900372e-006 -1.134711e-005 -7.401881e-001 2.270831e-001 -5.767059e-006 -1.166030e-005 9.777372e-001 -3.106251e-001
311115000 1.261979e-005 -8.527170e-006 -7.338851e-001 2.463290e-001 4.940141e-006 5.089428e-006 9.758185e-001 -3.102486e-001
311400000 3.746335e-006 2.444809e-006 -7.272798e-001 2.654146e-001 -5.721776e-006 1.011297e-005 9.758165e-001 -3.107732e-001
311685000 5.959735e-006 -3.453386e-006 -7.202556e-001 2.845218e-001 -4.595412e-006 7.324173e-006 9.765985e-001 -3.105984e-001
311970000 -2.620378e-006 -2.673499e-006 -7.129113e-001 3.033816e-001 -3.498200e-006 -5.241949e-006 9.750930e-001 -3.106256e-001
312255000 -1.202947e-005 4.646471e-006 -7.051997e-001 3.221350e-001 -3.346986e-006 -1.778020e-006 9.755898e-001 -3.111188e-001
312540000 -9.180117e-006 2.342909e-007 -6.970243e-001 3.409050e-001 -1.243608e-005 4.626647e-006 9.753848e-001 -3.113526e-001
312825000 6.307505e-006 -2.459662e-006 -6.886560e-001 3.595373e-001 -6.479526e-007 -1.972040e-006 9.753928e-001 -3.120961e-001
313110000 -3.755094e-007 1.547890e-006 -6.797177e-001 3.781204e-001 -5.092360e-006 2.789984e-006 9.750373e-001 -3.132101e-001
313395000 -9.377237e-006 -1.224746e-005 -6.705010e-001 3.965567e-001 3.220979e-006 -4.888038e-006 9.757550e-001 -3.119519e-001
313680000 4.233255e-006 -1.715931e-005 -6.608412e-001 4.149610e-001 -9.600699e-006 2.534015e-006 9.763870e-001 -3.123404e-001
313965000 5.119150e-006 8.627489e-006 -6.507640e-001 4.331824e-001 -7.963672e-006 -5.006344e-007 9.757041e-001 -3.128387e-001
314250000 -7.933029e-006 -9.709945e-006 -6.403435e-001 4.513322e-001 -6.334491e-006 4.025655e-006 9.741222e-001 -3.130532e-001
314535000 -5.490991e-006 -1.322554e-005 -6.294199e-001 4.694418e-001 -1.647221e-005 -3.979964e-006 9.745446e-001 -3.131804e-001
314820000 9.367676e-008 1.123312e-005 -6.180725e-001 4.874013e-001 -8.571786e-006 9.771091e-006 9.747087e-001 -3.145195e-001
315105000 -4.348113e-006 -8.360385e-006 -6.062929e-001 5.052084e-001 7.192966e-006 -2.007272e-005 9.722934e-001 -3.141054e-001
315390000 1.281113e-006 -1.017575e-005 -5.941058e-001 5.230876e-001 5.378741e-006 -2.249977e-005 9.751311e-001 -3.147216e-001
315675000 -2.018758e-006 -5.344428e-006 -5.813228e-001 5.407288e-001 -1.166520e-005 -5.610818e-006 9.737096e-001 -3.137593e-001
315960000 -4.736218e-006 -1.212178e-005 -5.682290e-001 5.583171e-001 -2.134854e-005 -2.321104e-005 9.737933e-001 -3.146119e-001
316245000 -3.487039e-006 -4.068123e-006 -5.545644e-001 5.756889e-001 -1.176620e-005 -4.461036e-006 9.734378e-001 -3.142425e-001
316530000 -1.864912e-005 -9.482990e-007 -5.403644e-001 5.928963e-001 4.924436e-007 -1.150857e-005 9.743797e-001 -3.156921e-001
316815000 -8.315454e-006 -4.522930e-006 -5.257170e-001 6.100570e-001 -7.812778e-006 -1.077905e-005 9.748943e-001 -3.151132e-001
317100000 2.477012e-006 -1.577519e-005 -5.104393e-001 6.270332e-001 8.298495e-006 3.109612e-006 9.734426e-001 -3.149442e-001
317385000 3.934890e-006 -1.039637e-005 -4.945822e-001 6.439209e-001 1.997342e-006 2.185890e-006 9.752227e-001 -3.149462e-001
317670000 9.036940e-006 -6.767119e-006 -4.782393e-001 6.604789e-001 -1.437768e-005 -6.011460e-006 9.746091e-001 -3.165982e-001
317955000 7.412323e-007 3.461452e-006 -4.613485e-001 6.769464e-001 6.210189e-006 -3.197822e-006 9.750787e-001 -3.166356e-001
318240000 -8.836972e-006 1.466911e-005 -4.438425e-001 6.931041e-001 -8.701200e-006 1.003974e-005 9.740981e-001 -3.167891e-001
318525000 -4.736808e-006 1.536398e-006 -4.256841e-001 7.090251e-001 4.141110e-006 6.188486e-006 9.740996e-001 -3.165522e-001
318810000 3.291781e-006 -7.730990e-006 -4.069366e-001 7.247641e-001 -6.997850e-006 -3.221262e-006 9.734375e-001 -3.173073e-001
319095000 1.184211e-005 8.772859e-006 -3.875007e-001 7.401390e-001 -8.168838e-006 3.837287e-006 9.732020e-001 -3.166877e-001
319380000 3.077147e-006 1.251820e-005 -3.673869e-001 7.552119e-001 -1.145475e-006 -5.912174e-006 9.738765e-001 -3.188264e-001
319665000 1.587528e-006 -1.031845e-005 -3.466750e-001 7.700157e-001 -8.471005e-006 -1.573414e-005 9.743098e-001 -3.177882e-001
319950000 -7.253132e-006 1.015860e-005 -3.252454e-001 7.844111e-001 9.810714e-006 -2.617094e-006 9.732762e-001 -3.196056e-001
320235000 -1.018245e-005 4.848354e-006 -3.031164e-001 7.983689e-001 -1.034148e-006 -1.035809e-005 9.737538e-001 -3.199970e-001
320520000 -1.333384e-005 -1.207868e-005 -2.803244e-001 8.119476e-001 -2.387034e-005 -5.866133e-006 9.734844e-001 -3.197111e-001
320805000 3.980769e-007 -3.574469e-006 -2.567970e-001 8.250065e-001 -1.020170e-005 -1.122499e-005 9.724879e-001 -3.189946e-001
321090000 -1.075793e-005 -8.879018e-006 -2.325570e-001 8.375593e-001 5.551988e-006 -2.429302e-006 9.722698e-001 -3.192482e-001
321375000 -9.258779e-006 -2.356808e-005 -2.074381e-001 8.496343e-001 6.330628e-006 8.700957e-006 9.730290e-001 -3.196283e-001
321660000 -1.012305e-005 -1.670350e-005 -1.817431e-001 8.610391e-001 3.930470e-006 -3.314658e-006 9.734467e-001 -3.204033e-001
321945000 2.239875e-006 5.763926e-006 -1.552359e-001 8.717319e-001 -1.599168e-006 9.208058e-006 9.724602e-001 -3.214441e-001
322230000 2.308317e-006 -7.882696e-006 -1.280346e-001 8.819452e-001 -3.606361e-007 -5.112227e-007 9.720975e-001 -3.214613e-001
322515000 7.014165e-006 -5.476536e-006 -1.000513e-001 8.912237e-001 7.291319e-006 -2.579696e-006 9.714181e-001 -3.214392e-001
322800000 -1.008185e-007 -1.977991e-005 -7.134192e-002 8.997524e-001 6.631207e-006 1.029932e-005 9.737538e-001 -3.215258e-001
323085000 -1.332427e-005 1.141088e-005 -4.191635e-002 9.073920e-001 -3.668821e-006 1.367348e-005 9.726203e-001 -3.216689e-001
323370000 -1.255424e-006 5.988113e-006 -1.184184e-002 9.141515e-001 3.141321e-007 -2.889639e-006 9.729290e-001 -3.225030e-001
323655000 7.972431e-007 -1.246780e-005 1.900062e-002 9.199572e-001 5.121473e-006 -3.303592e-006 9.720729e-001 -3.231420e-001
323940000 -3.038734e-006 8.226071e-007 5.051241e-002 9.247748e-001 -4.908238e-006 6.139557e-006 9.717863e-001 -3.235452e-001
324225000 -7.961074e-006 7.300243e-006 8.248927e-002 9.283929e-001 -7.891537e-006 -3.758845e-006 9.703259e-001 -3.228084e-001
324510000 6.570602e-007 1.136740e-005 1.152798e-001 9.307994e-001 -1.525976e-005 4.695584e-006 9.727608e-001 -3.247762e-001
324795000 -1.177407e-005 -3.519449e-006 1.485457e-001 9.320572e-001 -7.629668e-006 -8.894648e-006 9.722213e-001 -3.239166e-001
325080000 -4.953210e-006 1.442592e-005 1.822705e-001 9.320266e-001 -1.953141e-005 -2.729952e-006 9.717280e-001 -3.239677e-001
325365000 -5.655316e-007 -2.833808e-006 2.166598e-001 9.306267e-001 8.051745e-006 1.581485e-007 9.724302e-001 -3.242905e-001
325650000 -9.782272e-006 6.120546e-006 2.511655e-001 9.278463e-001 2.467847e-006 1.766244e-006 9.720858e-001 -3.239856e-001
325935000 2.266542e-006 5.401287e-006 2.861810e-001 9.235620e-001 -4.709873e-006 -4.094435e-006 9.715323e-001 -3.251660e-001
326220000 -4.578502e-006 -1.359240e-005 3.215029e-001 9.178140e-001 9.868296e-006 5.264133e-007 9.719737e-001 -3.256216e-001
326505000 -1.654827e-005 -9.927927e-007 3.568090e-001 9.104006e-001 1.279588e-005 6.400624e-006 9.712191e-001 -3.259898e-001
326790000 -1.493547e-005 -4.682929e-006 3.923669e-001 9.013598e-001 -1.222970e-005 8.045458e-006 9.702498e-001 -3.249073e-001
327075000 -6.114046e-007 -1.287860e-006 4.277901e-001 8.906870e-001 9.916190e-006 1.528144e-006 9.707120e-001 -3.267325e-001
327360000 -5.347687e-006 -1.066912e-005 4.633103e-001 8.783208e-001 -2.446087e-006 1.682684e-008 9.721055e-001 -3.268285e-001
327645000 3.406638e-006 2.512073e-006 4.983847e-001 8.642718e-001 1.670202e-006 9.736959e-006 9.713653e-001 -3.266409e-001
327930000 4.205973e-006 -1.041550e-005 5.332812e-001 8.484299e-001 5.461639e-006 9.156621e-006 9.709098e-001 -3.261801e-001
328215000 -1.658211e-005 6.839026e-006 5.677083e-001 8.308956e-001 -6.287493e-006 1.247017e-008 9.708532e-001 -3.272837e-001
328500000 -5.321067e-006 -1.193100e-005 6.016684e-001 8.115755e-001 1.689201e-006 -1.035363e-005 9.701653e-001 -3.278058e-001
328785000 1.264224e-007 -2.040811e-005 6.349112e-001 7.905446e-001 4.491571e-006 -4.893487e-007 9.703215e-001 -3.271977e-001
329070000 -1.028201e-005 5.217102e-006 6.673640e-001 7.677208e-001 5.719616e-006 -7.889775e-006 9.704837e-001 -3.276012e-001
329355000 -4.161082e-006 3.643748e-006 6.990085e-001 7.431723e-001 -3.175401e-006 7.241261e-006 9.702706e-001 -3.287799e-001
329640000 -4.167079e-006 -1.130595e-005 7.294568e-001 7.171335e-001 1.767919e-006 -2.439977e-006 9.704542e-001 -3.289075e-001
329925000 1.048629e-006 2.310528e-006 7.587649e-001 6.894370e-001 -4.003086e-008 4.849069e-006 9.700614e-001 -3.287472e-001
330210000 4.956714e-006 6.727956e-006 7.870258e-001 6.601792e-001 -9.302732e-006 -2.884486e-006 9.692022e-001 -3.292749e-001
330495000 -1.363613e-005 7.722231e-007 8.137899e-001 6.295431e-001 1.052200e-006 7.359966e-006 9.695074e-001 -3.292260e-001
330780000 6.690183e-006 -1.550594e-006 8.391362e-001 5.974911e-001 1.721665e-006 -6.405854e-006 9.702698e-001 -3.307558e-001
331065000 1.321564e-005 2.751581e-006 8.628158e-001 5.641888e-001 -2.141364e-005 1.370234e-006 9.687324e-001 -3.289256e-001
331350000 -5.535136e-007 1.131865e-006 8.848819e-001 5.296606e-001 -8.778869e-006 6.546909e-006 9.691685e-001 -3.299918e-001
331635000 -1.165635e-005 1.293338e-006 9.053726e-001 4.940985e-001 -2.362751e-005 1.441953e-005 9.701328e-001 -3.306209e-001
331920000 -7.036981e-006 -7.217271e-006 9.238546e-001 4.576701e-001 -1.554783e-006 9.073846e-007 9.697154e-001 -3.306329e-001
332205000 -1.421754e-005 9.612771e-006 9.406008e-001 4.203166e-001 -2.298297e-005 8.193535e-006 9.689165e-001 -3.317258e-001
332490000 -4.894412e-006 3.936792e-006 9.555559e-001 3.823590e-001 4.251874e-006 -1.314524e-006 9.698864e-001 -3.311256e-001
332775000 2.815813e-006 7.528922e-007 9.685399e-001 3.438334e-001 -8.267130e-006 -2.711826e-007 9.690619e-001 -3.320249e-001
333060000 3.300458e-007 1.297904e-005 9.795150e-001 3.048657e-001 -5.577901e-006 -8.214035e-006 9.693508e-001 -3.321270e-001
333345000 4.182308e-006 -1.103384e-006 9.885660e-001 2.656829e-001 -2.718936e-006 -6.844573e-006 9.701751e-001 -3.317766e-001
333630000 -1.026534e-005 -6.091494e-007 9.956228e-001 2.262218e-001 -1.486240e-005 -4.075067e-006 9.689937e-001 -3.337268e-001
333915000 1.008267e-005 1.380799e-005 1.000899e+000 1.867651e-001 -1.403043e-005 -7.725958e-006 9.687031e-001 -3.328778e-001
334200000 -9.018647e-006 -1.528176e-005 1.004226e+000 1.474231e-001 2.315574e-006 3.933274e-007 9.694833e-001 -3.341307e-001
334485000 6.481746e-006 1.064192e-005 1.005683e+000 1.082162e-001 -1.104649e-005 -1.884721e-005 9.688801e-001 -3.330848e-001
334770000 -6.252387e-006 2.775324e-006 1.005291e+000 6.946553e-002 -1.341567e-005 1.383247e-005 9.690047e-001 -3.339982e-001
335055000 1.602703e-005 2.236970e-007 1.003105e+000 3.109560e-002 -3.314652e-006 5.802217e-006 9.694818e-001 -3.341143e-001
335340000 -1.975856e-006 1.325518e-005 9.992092e-001 -6.869794e-003 -6.605836e-007 1.076156e-006 9.690352e-001 -3.353832e-001
335625000 -1.695731e-006 -4.912869e-006 9.936728e-001 -4.396812e-002 -1.086526e-006 -1.610909e-005 9.687563e-001 -3.351958e-001
335910000 1.495181e-006 9.924460e-006 9.865208e-001 -8.052927e-002 4.840233e-006 4.442317e-006 9.685400e-001 -3.347120e-001
336195000 -5.543222e-006 4.779132e-006 9.779499e-001 -1.162686e-001 -2.225143e-006 -2.189949e-006 9.674322e-001 -3.349970e-001
336480000 9.667355e-006 2.622500e-006 9.678503e-001 -1.512248e-001 1.429702e-006 1.726535e-005 9.688867e-001 -3.353160e-001
336765000 -2.164031e-005 1.235254e-005 9.565870e-001 -1.851959e-001 3.848418e-006 8.707027e-006 9.683020e-001 -3.360532e-001
337050000 -1.967764e-005 7.741746e-006 9.439487e-001 -2.182319e-001 -7.595294e-006 1.318189e-006 9.689218e-001 -3.362437e-001
337335000 -1.013370e-005 -5.220934e-007 9.302588e-001 -2.503613e-001 -4.133384e-006 -7.939003e-007 9.677041e-001 -3.377121e-001
337620000 -1.568598e-005 -9.738758e-007 9.154577e-001 -2.814807e-001 -2.573996e-005 1.838034e-005 9.677288e-001 -3.376216e-001
337905000 -4.169854e-007 -6.087997e-006 8.996505e-001 -3.114794e-001 -1.115772e-005 9.378015e-006 9.668453e-001 -3.360197e-001
338190000 5.873543e-006 -4.920453e-006 8.828673e-001 -3.403297e-001 -2.004534e-006 -9.572648e-006 9.673511e-001 -3.377500e-001
338475000 -9.578307e-006 1.733081e-005 8.653058e-001 -3.682866e-001 1.024843e-005 8.833712e-006 9.683769e-001 -3.368859e-001
338760000 -7.845774e-006 6.206973e-006 8.470334e-001 -3.949543e-001 5.315173e-006 9.117897e-007 9.677548e-001 -3.375353e-001
339045000 -1.276732e-005 2.070821e-006 8.279813e-001 -4.207686e-001 6.495637e-006 1.568363e-005 9.675909e-001 -3.378099e-001
339330000 -5.398515e-006 7.699558e-006 8.083206e-001 -4.453768e-001 2.916740e-006 1.671393e-008 9.686051e-001 -3.371302e-001
339615000 -2.076072e-005 5.145205e-006 7.881316e-001 -4.689220e-001 -1.713816e-006 9.574151e-006 9.675664e-001 -3.388322e-001
339900000 -1.084452e-005 1.515081e-006 7.674308e-001 -4.913588e-001 -1.454520e-005 1.304880e-005 9.668449e-001 -3.396479e-001
340185000 -1.558233e-006 -2.904592e-006 7.464143e-001 -5.128344e-001 1.507580e-006 2.709571e-006 9.671959e-001 -3.395503e-001
340470000 1.074041e-005 -9.837903e-006 7.249128e-001 -5.332850e-001 -1.649657e-005 3.269115e-006 9.672899e-001 -3.385581e-001
340755000 2.305350e-006 8.051317e-007 7.031087e-001 -5.525526e-001 -1.598037e-005 7.100380e-006 9.669390e-001 -3.404752e-001
341040000 1.558364e-005 -1.331485e-005 6.811134e-001 -5.709308e-001 -5.348209e-006 7.357328e-006 9.663938e-001 -3.406550e-001
341325000 8.083459e-006 1.531529e-006 6.587934e-001 -5.884240e-001 -3.923789e-006 7.939089e-006 9.678737e-001 -3.392047e-001
341610000 5.470744e-007 9.237992e-006 6.362894e-001 -6.048405e-001 4.455881e-006 -1.701875e-006 9.683015e-001 -3.401178e-001
341895000 9.577851e-006 1.989009e-006 6.136808e-001 -6.203114e-001 -2.330235e-005 -2.216053e-006 9.661752e-001 -3.414503e-001
342180000 1.691026e-005 -2.590196e-006 5.909389e-001 -6.350173e-001 -1.722677e-006 2.109222e-006 9.671002e-001 -3.417849e-001
342465000 -1.033434e-007 8.916280e-006 5.681984e-001 -6.487195e-001 1.105597e-005 5.646576e-006 9.667192e-001 -3.420237e-001
342750000 -3.927224e-006 -3.417835e-006 5.453620e-001 -6.617357e-001 4.049648e-006 4.909875e-006 9.681739e-001 -3.415190e-001
343035000 3.137150e-006 -6.714466e-007 5.224825e-001 -6.738675e-001 4.211052e-006 1.544887e-005 9.661552e-001 -3.430032e-001
343320000 9.640135e-006 1.243434e-006 4.996123e-001 -6.853219e-001 -8.795928e-006 -3.021466e-006 9.656891e-001 -3.422547e-001
343605000 -8.806916e-006 -3.905530e-006 4.768412e-001 -6.958516e-001 1.221953e-005 -6.020984e-006 9.658735e-001 -3.424579e-001
343890000 -4.839858e-006 -8.503263e-007 4.539925e-001 -7.056497e-001 -8.109510e-006 -2.361135e-006 9.663514e-001 -3.433175e-001
