!Agilent Technologies,N5230C,SG49000117,A.08.50.07
!Agilent N5230C: A.08.50.07
!Date: Sunday, March 17, 2024 03:19:45
!Correction: S11(Off) 
!S21(Off) 
!S12(Off) 
!S22(Off) 
!S2P File: Measurements: S11, S21, S12, S22:
# Hz S  RI   R 50
300000000 1.129893e-005 -1.367872e-005 -7.216564e-001 -4.668779e-001 1.433763e-005 1.184625e-006 -7.242380e-001 -4.687209e-001
300285000 -4.159840e-006 -7.522017e-006 -7.306750e-001 -4.430333e-001 1.068156e-005 1.010874e-005 -7.332897e-001 -4.447990e-001
300570000 -1.047077e-005 3.701660e-006 -7.389182e-001 -4.191957e-001 1.212444e-006 -2.720655e-006 -7.417006e-001 -4.207389e-001
300855000 9.251566e-007 -4.358745e-006 -7.466053e-001 -3.953028e-001 -6.463171e-006 -6.904437e-006 -7.493988e-001 -3.968686e-001
301140000 -3.089878e-006 9.233530e-006 -7.535532e-001 -3.715792e-001 -1.821055e-006 4.667845e-006 -7.563541e-001 -3.729086e-001
301425000 5.649080e-006 6.551772e-007 -7.597445e-001 -3.480278e-001 -1.533665e-005 9.672574e-007 -7.625319e-001 -3.492086e-001
301710000 -1.261131e-005 -1.597758e-006 -7.653456e-001 -3.245279e-001 1.068310e-005 -3.648744e-006 -7.681941e-001 -3.257249e-001
301995000 -6.028343e-006 1.317820e-005 -7.702081e-001 -3.011032e-001 5.953144e-006 -3.444293e-006 -7.730297e-001 -3.022506e-001
302280000 -5.772932e-006 6.204165e-006 -7.744814e-001 -2.779497e-001 -1.070887e-005 -6.359353e-006 -7.773752e-001 -2.789987e-001
302565000 -9.406890e-006 -1.062534e-005 -7.782314e-001 -2.549394e-001 -3.589867e-006 -3.738582e-006 -7.811586e-001 -2.558727e-001
302850000 -3.639419e-006 -5.905272e-006 -7.813273e-001 -2.320789e-001 -2.237745e-006 -1.320924e-005 -7.842966e-001 -2.329167e-001
303135000 6.979639e-006 -6.194860e-006 -7.838314e-001 -2.093823e-001 5.302163e-006 1.873962e-006 -7.868395e-001 -2.101080e-001
303420000 -1.253594e-005 -1.561071e-005 -7.859731e-001 -1.869033e-001 1.521754e-005 -1.055461e-005 -7.888942e-001 -1.875672e-001
303705000 -3.439540e-006 -2.000734e-005 -7.874520e-001 -1.646077e-001 -1.345387e-005 -1.378395e-006 -7.905138e-001 -1.652103e-001
303990000 7.777432e-006 1.647195e-005 -7.884971e-001 -1.424590e-001 8.478616e-006 7.059798e-006 -7.914869e-001 -1.429762e-001
304275000 5.452721e-006 -2.642883e-006 -7.889922e-001 -1.204932e-001 1.252296e-005 -8.562610e-006 -7.920628e-001 -1.209592e-001
304560000 -3.271126e-006 1.677196e-006 -7.891038e-001 -9.865223e-002 3.696110e-006 1.463071e-005 -7.920565e-001 -9.911007e-002
304845000 1.176251e-005 -3.662507e-007 -7.887045e-001 -7.707839e-002 3.507766e-006 -6.722352e-006 -7.917186e-001 -7.746318e-002
305130000 -1.284921e-005 5.456480e-006 -7.878616e-001 -5.566078e-002 -5.549437e-006 1.433016e-006 -7.908641e-001 -5.593465e-002
305415000 8.310167e-008 -4.182094e-006 -7.866133e-001 -3.444849e-002 -1.249845e-005 8.545200e-006 -7.896215e-001 -3.448564e-002
305700000 1.106234e-005 -5.306842e-006 -7.849391e-001 -1.346253e-002 -1.922219e-005 -3.567781e-006 -7.878588e-001 -1.338527e-002
305985000 -5.401867e-006 -4.653572e-006 -7.827356e-001 7.527550e-003 9.579132e-006 -5.185376e-006 -7.856972e-001 7.571896e-003
306270000 -8.750696e-006 -2.268951e-005 -7.801651e-001 2.832591e-002 -1.307314e-005 5.186623e-006 -7.832367e-001 2.845930e-002
306555000 -4.825168e-006 -7.290774e-006 -7.772778e-001 4.896409e-002 -4.497503e-006 1.700782e-006 -7.803221e-001 4.909476e-002
306840000 1.532324e-005 9.831758e-006 -7.739420e-001 6.934591e-002 3.024642e-006 1.815539e-005 -7.769170e-001 6.960831e-002
307125000 1.539550e-007 -6.609899e-007 -7.701861e-001 8.961569e-002 -1.782257e-005 -2.643584e-006 -7.732012e-001 9.000818e-002
307410000 -1.892040e-005 6.364787e-006 -7.661764e-001 1.097135e-001 -5.189643e-006 1.742282e-007 -7.691114e-001 1.101842e-001
307695000 -3.690584e-006 -9.539393e-006 -7.617173e-001 1.297033e-001 -5.946581e-006 -7.480522e-006 -7.646182e-001 1.302225e-001
307980000 4.263327e-006 -3.128263e-006 -7.569051e-001 1.495554e-001 -7.915644e-006 -1.158048e-006 -7.598293e-001 1.501604e-001
308265000 8.775660e-006 -1.632316e-005 -7.517753e-001 1.692034e-001 -1.063603e-005 2.696119e-006 -7.547352e-001 1.699278e-001
308550000 -6.485277e-006 6.207322e-006 -7.461998e-001 1.887324e-001 3.975634e-006 -1.278083e-006 -7.490748e-001 1.894886e-001
308835000 -2.992444e-006 8.672467e-006 -7.403737e-001 2.081586e-001 -1.187871e-005 6.628393e-007 -7.431725e-001 2.090012e-001
309120000 -1.649253e-006 -1.145159e-005 -7.340841e-001 2.274363e-001 6.008797e-007 -5.858467e-006 -7.369145e-001 2.283930e-001
309405000 3.233306e-006 -1.270672e-005 -7.275719e-001 2.465872e-001 4.805545e-006 6.433048e-006 -7.303327e-001 2.475339e-001
309690000 -5.606500e-006 2.633039e-006 -7.205176e-001 2.655744e-001 -1.314680e-005 -3.335214e-006 -7.234121e-001 2.666515e-001
309975000 5.370810e-006 5.221566e-006 -7.132379e-001 2.844901e-001 -2.956421e-006 1.356432e-005 -7.160259e-001 2.856148e-001
310260000 -1.850635e-006 -2.679879e-005 -7.056384e-001 3.032036e-001 -1.264552e-005 1.111681e-005 -7.083858e-001 3.043806e-001
310545000 8.320794e-006 2.091264e-006 -6.975527e-001 3.218737e-001 2.569456e-006 4.782030e-006 -7.003118e-001 3.231184e-001
310830000 -6.143877e-006 2.826012e-009 -6.891226e-001 3.404121e-001 2.136823e-006 -1.906140e-005 -6.918571e-001 3.417000e-001
311115000 1.065939e-005 -7.276911e-006 -6.804053e-001 3.587891e-001 -2.073925e-005 8.863794e-006 -6.830779e-001 3.602777e-001
311400000 -4.372215e-006 -3.357331e-006 -6.712707e-001 3.771829e-001 -4.012277e-006 -6.201975e-006 -6.739808e-001 3.786290e-001
311685000 -1.462698e-006 -1.786541e-005 -6.618064e-001 3.953369e-001 -1.467155e-005 4.115974e-006 -6.643404e-001 3.968948e-001
311970000 2.482765e-006 -9.085627e-006 -6.518588e-001 4.134404e-001 -1.609432e-006 -1.051743e-005 -6.544242e-001 4.150234e-001
312255000 1.692992e-006 1.665784e-005 -6.415643e-001 4.314036e-001 -1.827803e-006 -8.917134e-006 -6.440698e-001 4.330382e-001
312540000 -5.555494e-006 1.097700e-005 -6.308523e-001 4.492213e-001 1.288280e-005 -1.591321e-005 -6.333276e-001 4.510298e-001
312825000 1.287981e-007 -5.638997e-006 -6.197252e-001 4.669030e-001 2.125215e-006 -8.509695e-006 -6.221669e-001 4.687403e-001
313110000 -3.883386e-006 2.709596e-006 -6.082705e-001 4.846069e-001 5.382009e-006 -4.520145e-006 -6.105564e-001 4.865786e-001
313395000 -2.219565e-006 7.081257e-006 -5.962273e-001 5.019805e-001 1.087056e-005 -4.763319e-006 -5.985686e-001 5.040684e-001
313680000 -1.244499e-005 4.192495e-006 -5.837998e-001 5.194003e-001 1.180184e-006 -2.293713e-006 -5.861804e-001 5.214754e-001
313965000 -4.338408e-006 -3.491075e-007 -5.709038e-001 5.367038e-001 -1.106104e-006 -1.956199e-005 -5.732361e-001 5.388181e-001
314250000 3.516961e-006 -1.698328e-005 -5.575899e-001 5.536702e-001 -1.086524e-005 5.193046e-006 -5.599166e-001 5.559765e-001
314535000 1.684922e-005 -4.423369e-006 -5.438438e-001 5.707172e-001 -1.152792e-005 1.173584e-005 -5.460235e-001 5.729641e-001
314820000 7.774401e-006 -3.690850e-006 -5.296291e-001 5.874220e-001 -1.368811e-005 -8.789379e-006 -5.317850e-001 5.898799e-001
315105000 4.021884e-009 5.559571e-006 -5.148700e-001 6.041399e-001 -1.366748e-005 3.214617e-006 -5.169374e-001 6.065561e-001
315390000 3.059342e-006 -4.190523e-006 -4.995281e-001 6.205491e-001 -1.797800e-006 -2.446119e-005 -5.015922e-001 6.230483e-001
315675000 -3.928857e-007 8.030306e-007 -4.837352e-001 6.368735e-001 -1.109126e-005 -2.007368e-005 -4.856994e-001 6.394249e-001
315960000 1.177090e-005 5.662682e-006 -4.673945e-001 6.529375e-001 9.380232e-006 -2.227131e-005 -4.693013e-001 6.555631e-001
316245000 -6.484052e-006 1.984603e-005 -4.504967e-001 6.687729e-001 -1.418228e-005 -1.229757e-005 -4.523230e-001 6.714391e-001
316530000 6.606543e-006 -1.137918e-006 -4.330198e-001 6.844298e-001 2.607868e-005 -1.077179e-005 -4.347709e-001 6.872014e-001
316815000 7.732964e-007 5.496880e-006 -4.149621e-001 6.997542e-001 -5.752119e-006 -1.457073e-006 -4.167004e-001 7.026501e-001
317100000 -1.435081e-005 3.079654e-006 -3.963858e-001 7.149249e-001 3.146673e-006 4.496012e-006 -3.980525e-001 7.177588e-001
317385000 -4.549215e-006 -1.412484e-005 -3.770506e-001 7.297297e-001 -1.051293e-005 -8.385747e-006 -3.785909e-001 7.326664e-001
317670000 4.120113e-006 -2.286216e-005 -3.572032e-001 7.442176e-001 2.042818e-006 4.904304e-007 -3.587309e-001 7.472838e-001
317955000 -7.501111e-006 -2.126235e-005 -3.366686e-001 7.583914e-001 4.145746e-006 1.264440e-005 -3.380702e-001 7.615195e-001
318240000 1.446471e-006 -7.307033e-006 -3.155731e-001 7.721877e-001 -3.179506e-006 1.229251e-005 -3.169047e-001 7.754021e-001
318525000 2.389165e-006 -1.626887e-005 -2.937660e-001 7.856417e-001 5.499659e-006 6.747396e-006 -2.950355e-001 7.888120e-001
318810000 8.207250e-006 -7.841710e-006 -2.712849e-001 7.986207e-001 3.601720e-007 -1.310037e-005 -2.725184e-001 8.018687e-001
319095000 1.411699e-005 -2.035113e-005 -2.482091e-001 8.111283e-001 -1.380934e-005 1.047005e-005 -2.491529e-001 8.143821e-001
319380000 6.911138e-006 -1.741651e-005 -2.243415e-001 8.231754e-001 7.758177e-006 2.978621e-006 -2.252647e-001 8.264903e-001
319665000 -5.232375e-006 -1.158973e-005 -1.998268e-001 8.345772e-001 -3.278849e-006 -8.274244e-006 -2.005786e-001 8.379903e-001
319950000 1.335422e-005 8.479054e-006 -1.746135e-001 8.455460e-001 -2.278760e-005 -1.855400e-005 -1.753470e-001 8.490649e-001
320235000 1.754145e-006 5.259353e-006 -1.486408e-001 8.557267e-001 -3.050507e-006 -3.956938e-006 -1.492550e-001 8.592723e-001
320520000 -1.413788e-006 4.424531e-006 -1.221142e-001 8.653539e-001 2.973091e-007 4.902572e-006 -1.225005e-001 8.689806e-001
320805000 -1.239828e-006 -7.445470e-006 -9.466778e-002 8.742275e-001 1.222075e-005 -8.755852e-007 -9.510484e-002 8.778742e-001
321090000 2.935290e-006 5.043429e-007 -6.672297e-002 8.823385e-001 5.996392e-006 1.539935e-006 -6.696545e-002 8.860103e-001
321375000 -2.006168e-005 7.892823e-006 -3.798822e-002 8.896673e-001 -3.218058e-006 -6.254958e-006 -3.812192e-002 8.933643e-001
321660000 -1.083026e-005 8.863819e-006 -8.697540e-003 8.961180e-001 -1.169293e-006 1.754494e-005 -8.702760e-003 8.998317e-001
321945000 6.091690e-006 8.057865e-006 2.141842e-002 9.015408e-001 3.612772e-006 1.030690e-005 2.147291e-002 9.052616e-001
322230000 -1.666314e-005 8.120019e-006 5.211440e-002 9.060240e-001 -1.742101e-005 -3.735229e-006 5.230912e-002 9.098082e-001
322515000 7.176774e-006 1.018938e-005 8.334778e-002 9.094737e-001 1.128008e-005 -3.958382e-006 8.363739e-002 9.132928e-001
322800000 2.853909e-006 -1.089485e-005 1.151288e-001 9.118572e-001 -1.806613e-006 -3.408366e-006 1.157158e-001 9.155433e-001
323085000 -1.025653e-005 4.853715e-006 1.475927e-001 9.129038e-001 -8.906691e-006 2.645531e-005 1.481372e-001 9.167617e-001
323370000 -4.482285e-006 -6.551429e-006 1.804722e-001 9.129429e-001 -9.324111e-006 -1.571909e-006 1.812313e-001 9.166583e-001
323655000 1.430309e-006 -5.754876e-006 2.137857e-001 9.115325e-001 -2.475343e-005 7.663480e-006 2.146981e-001 9.154093e-001
323940000 -5.416148e-006 5.418406e-006 2.475676e-001 9.088215e-001 -1.260161e-005 1.020573e-006 2.486005e-001 9.125608e-001
324225000 7.812746e-006 -1.093596e-005 2.815149e-001 9.047369e-001 -9.294276e-006 2.584294e-006 2.827274e-001 9.085137e-001
324510000 1.140668e-005 -1.817165e-005 3.158730e-001 8.991303e-001 1.619300e-005 5.159285e-006 3.172892e-001 9.029630e-001
324795000 1.801360e-005 1.006047e-005 3.504913e-001 8.920706e-001 -6.121770e-006 3.913764e-007 3.518941e-001 8.958342e-001
325080000 8.580570e-006 1.325412e-007 3.851118e-001 8.834504e-001 -2.304305e-005 -1.295594e-005 3.866460e-001 8.871620e-001
325365000 -1.575385e-005 1.302466e-006 4.199069e-001 8.732060e-001 7.131716e-006 -2.802376e-006 4.215817e-001 8.768412e-001
325650000 1.290981e-006 1.229771e-005 4.543867e-001 8.613485e-001 -1.346744e-005 4.119321e-007 4.562538e-001 8.649377e-001
325935000 1.668177e-005 9.884369e-006 4.888995e-001 8.477626e-001 -7.064695e-006 -4.199528e-006 4.908382e-001 8.514164e-001
326220000 -1.203858e-005 5.592477e-006 5.230104e-001 8.325631e-001 -1.076278e-005 5.765215e-006 5.251202e-001 8.361089e-001
326505000 1.164059e-006 8.307622e-006 5.567394e-001 8.156650e-001 -1.781582e-005 -2.098195e-005 5.591490e-001 8.191526e-001
326790000 -4.249361e-006 7.934065e-006 5.900833e-001 7.971059e-001 -1.265106e-006 -8.745461e-006 5.925175e-001 8.004596e-001
327075000 6.559040e-006 -2.822585e-007 6.228355e-001 7.765977e-001 -3.104869e-006 -1.372348e-006 6.254433e-001 7.800113e-001
327360000 -1.501147e-005 -3.076068e-006 6.548531e-001 7.546443e-001 -1.452672e-005 -6.252599e-006 6.575652e-001 7.579446e-001
327645000 -1.912253e-005 -8.236654e-006 6.859236e-001 7.309944e-001 1.150750e-005 2.283928e-006 6.888575e-001 7.341197e-001
327930000 -9.234584e-006 -6.774480e-006 7.161905e-001 7.055791e-001 4.446275e-006 3.719589e-007 7.192179e-001 7.086830e-001
328215000 4.507056e-006 -7.528437e-006 7.453635e-001 6.787454e-001 -5.514126e-006 6.808182e-006 7.485740e-001 6.816803e-001
328500000 7.669702e-006 -3.072248e-006 7.733688e-001 6.503510e-001 4.298414e-006 -1.886935e-005 7.766831e-001 6.530680e-001
328785000 -1.228075e-005 8.797168e-006 8.000051e-001 6.204917e-001 -4.824898e-006 -8.997528e-007 8.034340e-001 6.230376e-001
329070000 -7.132287e-006 1.925155e-006 8.252745e-001 5.892055e-001 -6.940607e-006 -1.536252e-005 8.288152e-001 5.917140e-001
329355000 -3.278551e-006 -1.236087e-007 8.491052e-001 5.565773e-001 2.680793e-006 5.735391e-006 8.527835e-001 5.589029e-001
329640000 1.759291e-006 -9.725791e-006 8.713244e-001 5.228328e-001 -2.281068e-006 -5.613541e-006 8.749700e-001 5.249457e-001
329925000 1.438842e-006 -1.533740e-005 8.918601e-001 4.879666e-001 -2.568781e-006 -1.481879e-005 8.957748e-001 4.899871e-001
330210000 2.131392e-006 6.898244e-006 9.106264e-001 4.521394e-001 2.355541e-006 -4.622192e-006 9.145851e-001 4.540399e-001
330495000 8.398426e-006 -7.368158e-006 9.276962e-001 4.154032e-001 -1.894815e-006 4.474373e-006 9.317265e-001 4.171981e-001
330780000 -1.597464e-005 7.671080e-006 9.429352e-001 3.778977e-001 -7.712679e-006 8.691083e-006 9.469677e-001 3.794189e-001
331065000 -1.506471e-005 -2.283241e-005 9.561935e-001 3.398062e-001 8.149001e-007 3.546269e-006 9.603587e-001 3.412768e-001
331350000 3.035579e-006 -1.219066e-005 9.675649e-001 3.012265e-001 -2.207955e-006 1.494516e-006 9.716158e-001 3.025557e-001
331635000 1.681195e-006 -4.301197e-006 9.770212e-001 2.623087e-001 1.814033e-006 2.918654e-006 9.812424e-001 2.634838e-001
331920000 -1.135759e-005 -2.097837e-006 9.844581e-001 2.232672e-001 1.458008e-005 1.004038e-005 9.887078e-001 2.241075e-001
332205000 7.603791e-006 -1.863831e-005 9.901088e-001 1.839657e-001 1.104477e-005 5.260711e-006 9.943558e-001 1.846724e-001
332490000 -1.330744e-005 -9.939459e-006 9.936833e-001 1.447499e-001 1.079532e-005 5.725216e-006 9.980354e-001 1.454125e-001
332775000 -6.837231e-006 7.158357e-006 9.955581e-001 1.056645e-001 -3.287741e-007 1.120510e-005 9.998534e-001 1.061096e-001
333060000 -1.649708e-006 1.011300e-005 9.954668e-001 6.694092e-002 -9.094703e-008 5.423197e-006 9.997830e-001 6.715566e-002
333345000 -6.214596e-006 3.461724e-006 9.935989e-001 2.840901e-002 3.764404e-006 6.437571e-007 9.978679e-001 2.854403e-002
333630000 6.341178e-007 -4.553850e-006 9.900220e-001 -9.455434e-003 1.012808e-005 -1.319573e-006 9.942858e-001 -9.521153e-003
333915000 6.121614e-006 -4.054561e-006 9.847352e-001 -4.698881e-002 4.886982e-006 -8.525404e-007 9.890423e-001 -4.715918e-002
334200000 -3.389879e-006 -7.915979e-006 9.778761e-001 -8.366419e-002 -8.835758e-006 -2.631480e-006 9.821081e-001 -8.402787e-002
334485000 6.994460e-006 5.304468e-006 9.694574e-001 -1.195915e-001 -1.168753e-005 -8.527332e-006 9.737046e-001 -1.201202e-001
334770000 -4.345904e-006 8.467841e-006 9.595112e-001 -1.547161e-001 1.032055e-005 -7.075090e-006 9.637847e-001 -1.553905e-001
335055000 -1.346507e-005 -9.655689e-006 9.482915e-001 -1.889049e-001 -1.566263e-006 -1.517520e-006 9.524193e-001 -1.897811e-001
335340000 -7.796302e-007 -4.143428e-007 9.356980e-001 -2.221858e-001 2.381055e-006 1.745898e-005 9.397795e-001 -2.231126e-001
335625000 -1.721931e-005 -1.095589e-005 9.218888e-001 -2.544951e-001 -6.593988e-006 6.167290e-006 9.259028e-001 -2.555962e-001
335910000 -4.631769e-006 -2.168111e-006 9.070435e-001 -2.857208e-001 9.977638e-006 1.325358e-005 9.109867e-001 -2.870261e-001
336195000 -2.088868e-005 1.308711e-006 8.909704e-001 -3.158920e-001 3.847338e-006 2.666519e-006 8.948373e-001 -3.172979e-001
336480000 -1.890702e-005 -5.439663e-006 8.741544e-001 -3.450113e-001 2.408433e-006 -4.916602e-006 8.779458e-001 -3.465505e-001
336765000 -1.386921e-006 -8.407040e-006 8.563860e-001 -3.730517e-001 -6.037870e-006 9.181569e-006 8.600543e-001 -3.745762e-001
337050000 -1.472618e-005 -3.740929e-006 8.378584e-001 -3.999071e-001 1.494438e-005 -4.383739e-006 8.414128e-001 -4.017022e-001
337335000 -4.324548e-007 -1.500311e-005 8.185246e-001 -4.258489e-001 -5.394430e-006 6.318678e-006 8.221054e-001 -4.276499e-001
337620000 -6.061623e-006 4.890761e-006 7.985770e-001 -4.505111e-001 -3.465158e-006 -9.696255e-008 8.020260e-001 -4.524086e-001
337905000 1.200750e-006 -1.021794e-005 7.780685e-001 -4.740183e-001 -1.556790e-006 4.599898e-006 7.814026e-001 -4.761025e-001
338190000 4.469994e-006 3.692868e-006 7.570817e-001 -4.966476e-001 5.042442e-006 1.740207e-005 7.603223e-001 -4.987043e-001
338475000 8.386767e-007 -2.988497e-006 7.355456e-001 -5.180262e-001 -7.082164e-006 7.230184e-006 7.387269e-001 -5.202038e-001
338760000 3.903383e-006 -1.000370e-005 7.137920e-001 -5.383446e-001 -1.347981e-005 -5.263144e-006 7.168022e-001 -5.406688e-001
339045000 -1.802744e-007 -8.136666e-006 6.915295e-001 -5.576426e-001 -1.356430e-005 8.732797e-006 6.944549e-001 -5.600730e-001
339330000 -4.612658e-006 5.610639e-006 6.691300e-001 -5.758444e-001 3.957991e-006 -7.001865e-006 6.720383e-001 -5.783597e-001
339615000 1.542038e-005 1.283654e-005 6.463990e-001 -5.932012e-001 3.293994e-006 1.151394e-005 6.491509e-001 -5.956640e-001
339900000 6.920182e-006 1.135833e-006 6.235548e-001 -6.094964e-001 -8.331506e-006 2.511840e-006 6.263001e-001 -6.120275e-001
340185000 3.648950e-006 -5.705118e-006 6.005497e-001 -6.247302e-001 5.442529e-007 -9.274859e-006 6.031304e-001 -6.274309e-001
340470000 -3.620531e-006 2.630592e-006 5.774407e-001 -6.392606e-001 4.014065e-006 6.308178e-007 5.798230e-001 -6.419724e-001
340755000 6.959409e-006 -7.500738e-006 5.542397e-001 -6.527205e-001 7.368299e-007 7.211060e-006 5.566141e-001 -6.554968e-001
341040000 9.543180e-006 1.153527e-005 5.310308e-001 -6.653920e-001 6.910976e-006 1.299222e-007 5.332928e-001 -6.682038e-001
341325000 2.069689e-005 7.289774e-006 5.077986e-001 -6.772175e-001 -9.022837e-006 -5.672463e-006 5.099061e-001 -6.801014e-001
341610000 9.493123e-006 -1.420778e-005 4.845664e-001 -6.881540e-001 -1.141631e-005 -4.079297e-007 4.866046e-001 -6.911308e-001
341895000 -9.305257e-006 6.500654e-006 4.613445e-001 -6.984395e-001 -1.016433e-005 -1.564208e-005 4.633301e-001 -7.013139e-001
342180000 2.399154e-007 1.176897e-005 4.382139e-001 -7.078672e-001 -3.554737e-006 -6.165772e-006 4.399746e-001 -7.109042e-001
342465000 -7.765463e-006 2.353222e-005 4.151517e-001 -7.165821e-001 -9.269468e-006 -6.347035e-006 4.169397e-001 -7.195855e-001
342750000 -5.312074e-007 1.247018e-005 3.921165e-001 -7.245752e-001 1.812502e-006 -5.746795e-006 3.938001e-001 -7.275956e-001
343035000 -5.053713e-006 1.941695e-006 3.692396e-001 -7.319138e-001 -1.417851e-006 -8.093320e-006 3.708730e-001 -7.349467e-001
343320000 -1.147653e-005 4.905057e-006 3.465044e-001 -7.385848e-001 1.383241e-005 -1.616146e-006 3.479847e-001 -7.417338e-001
343605000 -1.164005e-005 1.326944e-005 3.238511e-001 -7.446164e-001 1.576674e-005 4.038311e-007 3.251832e-001 -7.477437e-001
343890000 -3.781684e-006 -5.571077e-006 3.013451e-001 -7.501192e-001 1.128597e-005 -2.732597e-006 3.025931e-001 -7.532408e-001
