!Agilent Technologies,N5230C,SG49000117,A.08.50.07
!Agilent N5230C: A.08.50.07
!Date: Saturday, March 16, 2024 23:55:55
!Correction: S11(Off) 
!S21(Off) 
!S12(Off) 
!S22(Full 1 Port(2)) 
!S2P File: Measurements: S11, S21, S12, S22:
# Hz S  RI   R 50
300000000 3.229668e-006 -1.333936e-005 -6.104091e-001 -6.579984e-001 -7.102531e-006 1.164964e-005 1.004753e+000 -1.322423e-001
300285000 1.869174e-006 -1.917369e-005 -6.260890e-001 -6.350941e-001 -4.425347e-006 2.357909e-006 1.005019e+000 -1.322859e-001
300570000 7.020776e-006 9.711941e-006 -6.410344e-001 -6.118461e-001 -3.956506e-006 2.128714e-006 1.005628e+000 -1.327147e-001
300855000 1.068442e-005 -7.967794e-007 -6.550555e-001 -5.886252e-001 2.234712e-006 2.271828e-006 1.006064e+000 -1.319454e-001
301140000 8.681615e-006 -4.210193e-008 -6.683161e-001 -5.652857e-001 -8.339632e-006 -5.137329e-006 1.005531e+000 -1.331366e-001
301425000 -6.188281e-007 -7.323174e-006 -6.806260e-001 -5.418549e-001 -1.353304e-006 -1.521702e-005 1.006469e+000 -1.326578e-001
301710000 1.795707e-005 3.495428e-006 -6.921456e-001 -5.184386e-001 2.230544e-007 1.434740e-005 1.006712e+000 -1.342824e-001
301995000 2.314844e-006 -1.130979e-005 -7.028818e-001 -4.950028e-001 2.192418e-006 -1.333990e-005 1.005478e+000 -1.326762e-001
302280000 -6.203687e-007 -1.275100e-007 -7.127716e-001 -4.716138e-001 2.199183e-005 -1.575090e-006 1.006482e+000 -1.331629e-001
302565000 3.115118e-006 1.673127e-006 -7.220331e-001 -4.482358e-001 -1.496865e-006 2.687343e-006 1.006997e+000 -1.337021e-001
302850000 -6.065490e-006 2.537849e-006 -7.304978e-001 -4.251156e-001 5.098834e-006 -4.897237e-006 1.005513e+000 -1.323420e-001
303135000 6.482972e-006 2.166268e-006 -7.383281e-001 -4.019644e-001 -1.759210e-006 1.330379e-006 1.005553e+000 -1.335803e-001
303420000 4.492385e-006 2.109698e-006 -7.453802e-001 -3.788373e-001 -4.862672e-006 -8.895473e-006 1.005573e+000 -1.351000e-001
303705000 -9.953130e-007 -9.707547e-006 -7.518848e-001 -3.559584e-001 -3.241231e-006 6.081285e-006 1.007558e+000 -1.343674e-001
303990000 -4.057622e-006 -4.463355e-006 -7.577450e-001 -3.331781e-001 6.648065e-006 -1.136850e-005 1.005356e+000 -1.336464e-001
304275000 -3.182040e-006 -1.240628e-005 -7.629907e-001 -3.105218e-001 -1.105676e-006 -1.241060e-005 1.006128e+000 -1.342163e-001
304560000 1.341421e-005 -1.375391e-005 -7.676470e-001 -2.879616e-001 5.629410e-006 8.489025e-006 1.006211e+000 -1.341392e-001
304845000 8.103388e-006 -1.366685e-006 -7.717466e-001 -2.655519e-001 2.403318e-005 -7.366690e-006 1.005497e+000 -1.341467e-001
305130000 3.723827e-006 -5.937332e-006 -7.752795e-001 -2.432728e-001 8.425364e-006 -3.334808e-006 1.004928e+000 -1.339323e-001
305415000 1.347174e-005 -1.398318e-005 -7.782461e-001 -2.211495e-001 -8.194934e-006 -1.174231e-005 1.005898e+000 -1.346273e-001
305700000 9.661761e-007 8.408917e-006 -7.808475e-001 -1.991650e-001 8.947243e-006 -1.205443e-005 1.006348e+000 -1.342171e-001
305985000 1.207349e-005 6.038878e-006 -7.828212e-001 -1.773610e-001 -2.928458e-006 9.752801e-006 1.006776e+000 -1.352580e-001
306270000 4.542127e-006 1.378396e-005 -7.843310e-001 -1.555950e-001 -5.988588e-007 6.743145e-006 1.007553e+000 -1.337670e-001
306555000 -1.192608e-005 -3.243992e-006 -7.853247e-001 -1.341018e-001 2.357922e-007 1.412397e-007 1.007207e+000 -1.362384e-001
306840000 -1.290722e-006 -7.771106e-006 -7.859626e-001 -1.127338e-001 -1.263801e-005 -3.532380e-006 1.005813e+000 -1.338437e-001
307125000 -1.275741e-005 -3.852827e-006 -7.861018e-001 -9.147223e-002 -5.455948e-006 -4.173612e-006 1.006122e+000 -1.354685e-001
307410000 8.833500e-007 -1.499736e-005 -7.858248e-001 -7.039098e-002 -3.130281e-006 -1.154405e-005 1.006641e+000 -1.352308e-001
307695000 3.222824e-006 -8.765031e-006 -7.852073e-001 -4.939690e-002 5.122025e-006 -7.140166e-006 1.007015e+000 -1.361188e-001
307980000 4.214858e-006 -1.918113e-005 -7.841161e-001 -2.860578e-002 1.292390e-005 4.968352e-006 1.005551e+000 -1.358631e-001
308265000 1.199566e-005 -8.054406e-007 -7.826826e-001 -8.032885e-003 1.013020e-005 -1.173429e-006 1.005733e+000 -1.362246e-001
308550000 9.113210e-006 6.428346e-006 -7.807834e-001 1.251025e-002 1.833245e-005 -2.972736e-006 1.005420e+000 -1.353857e-001
308835000 1.250912e-006 3.759632e-007 -7.785190e-001 3.289105e-002 8.101384e-007 -1.643043e-005 1.005460e+000 -1.365646e-001
309120000 9.519152e-006 1.026748e-005 -7.758916e-001 5.316793e-002 8.188864e-006 -8.148330e-006 1.007018e+000 -1.371719e-001
309405000 1.872190e-005 3.263663e-007 -7.729041e-001 7.326102e-002 -1.812708e-006 -2.470215e-006 1.008449e+000 -1.363752e-001
309690000 -1.140967e-005 9.793917e-006 -7.694921e-001 9.321314e-002 7.524591e-006 -1.581817e-005 1.007315e+000 -1.365001e-001
309975000 -1.129416e-005 -3.954850e-006 -7.658054e-001 1.130756e-001 -5.480460e-006 -2.511833e-006 1.006049e+000 -1.366199e-001
310260000 -1.556480e-006 5.687263e-007 -7.617407e-001 1.328496e-001 7.268871e-006 -3.054305e-006 1.007893e+000 -1.365548e-001
310545000 1.012958e-005 -1.342045e-005 -7.572893e-001 1.525153e-001 -7.602384e-006 -1.193731e-005 1.006975e+000 -1.377082e-001
310830000 -1.354699e-005 -1.265064e-005 -7.525444e-001 1.720226e-001 -3.654287e-006 -8.107634e-006 1.008228e+000 -1.374325e-001
311115000 5.563545e-006 1.332871e-005 -7.473759e-001 1.914281e-001 2.736969e-006 -4.006828e-006 1.006342e+000 -1.373220e-001
311400000 1.041761e-005 -9.043932e-006 -7.419405e-001 2.107588e-001 8.035737e-007 -3.517436e-006 1.006504e+000 -1.376511e-001
311685000 -5.439270e-006 -8.728662e-006 -7.361009e-001 2.299222e-001 -1.813398e-005 8.788564e-007 1.007188e+000 -1.370682e-001
311970000 7.114412e-006 1.086794e-005 -7.298385e-001 2.490937e-001 3.959058e-006 -1.405010e-005 1.005441e+000 -1.375505e-001
312255000 -1.877320e-006 1.438368e-005 -7.233075e-001 2.681478e-001 1.034329e-005 1.344475e-005 1.006608e+000 -1.376486e-001
312540000 4.032502e-006 1.026916e-005 -7.164288e-001 2.871272e-001 -1.535715e-006 1.289828e-006 1.006332e+000 -1.377100e-001
312825000 -1.531738e-005 4.739237e-006 -7.091109e-001 3.059335e-001 -7.552615e-006 -4.339375e-006 1.006417e+000 -1.382403e-001
313110000 -1.547093e-005 -7.787003e-006 -7.013649e-001 3.247286e-001 8.991768e-006 -8.769110e-006 1.006492e+000 -1.393469e-001
313395000 2.232014e-005 1.120653e-005 -6.934085e-001 3.433312e-001 7.119585e-006 3.797513e-006 1.006628e+000 -1.376554e-001
313680000 -3.784773e-006 -2.654178e-006 -6.849949e-001 3.620128e-001 -1.676487e-007 -1.767647e-005 1.007496e+000 -1.377561e-001
313965000 -7.313743e-007 -6.275879e-006 -6.761725e-001 3.804940e-001 -6.294721e-006 1.594831e-005 1.007031e+000 -1.383721e-001
314250000 -3.813636e-006 -2.336194e-006 -6.670372e-001 3.989720e-001 -9.953613e-006 2.560394e-006 1.005911e+000 -1.387444e-001
314535000 1.192751e-005 -9.934451e-006 -6.574278e-001 4.172820e-001 2.814153e-007 -1.696138e-005 1.006180e+000 -1.385199e-001
314820000 3.721907e-006 8.840208e-006 -6.474119e-001 4.355452e-001 -3.552070e-007 -5.217567e-006 1.006521e+000 -1.397415e-001
315105000 3.956207e-006 2.731975e-006 -6.369669e-001 4.537907e-001 2.812324e-006 -9.394604e-006 1.004105e+000 -1.396938e-001
315390000 2.654682e-006 6.028868e-006 -6.261177e-001 4.718885e-001 6.515227e-006 -1.072063e-006 1.007055e+000 -1.395342e-001
315675000 7.483086e-006 -3.116129e-006 -6.147801e-001 4.898814e-001 -2.693672e-006 -1.813594e-006 1.005481e+000 -1.388079e-001
315960000 1.401781e-005 7.910080e-006 -6.030008e-001 5.077637e-001 -1.024041e-005 -1.646317e-005 1.005738e+000 -1.394697e-001
316245000 3.740390e-006 4.813020e-006 -5.908307e-001 5.255529e-001 -2.101820e-006 -8.933313e-006 1.005189e+000 -1.391183e-001
316530000 1.442472e-005 6.226361e-006 -5.780972e-001 5.432028e-001 -7.324277e-006 2.224501e-006 1.006293e+000 -1.400084e-001
316815000 -4.003091e-006 1.596744e-006 -5.649096e-001 5.607147e-001 3.667607e-006 -7.422807e-006 1.006709e+000 -1.389410e-001
317100000 -6.607994e-006 -4.716778e-006 -5.512422e-001 5.782214e-001 -9.583622e-006 -1.205455e-005 1.005228e+000 -1.389514e-001
317385000 5.300360e-006 -8.173771e-006 -5.369595e-001 5.955423e-001 1.557838e-005 4.013142e-006 1.007172e+000 -1.383272e-001
317670000 1.197373e-005 3.860121e-006 -5.222790e-001 6.127740e-001 9.520199e-007 -7.233476e-006 1.007250e+000 -1.400162e-001
317955000 -3.145847e-006 -1.353283e-005 -5.069789e-001 6.297886e-001 1.374772e-005 -8.392014e-007 1.007617e+000 -1.396929e-001
318240000 4.274177e-006 6.466803e-006 -4.910402e-001 6.465628e-001 -9.340370e-006 9.880358e-006 1.006274e+000 -1.402625e-001
318525000 2.964071e-006 9.577193e-006 -4.746852e-001 6.632985e-001 -6.894428e-006 -7.687721e-006 1.006487e+000 -1.395942e-001
318810000 2.292430e-006 -4.201111e-006 -4.575603e-001 6.797035e-001 -7.141982e-006 -1.672754e-006 1.005957e+000 -1.401487e-001
319095000 8.374101e-006 -8.022617e-006 -4.399351e-001 6.959343e-001 -1.112258e-006 1.873510e-007 1.005589e+000 -1.397105e-001
319380000 4.806725e-006 -3.490904e-006 -4.216726e-001 7.119388e-001 -4.006872e-006 -6.194272e-007 1.006864e+000 -1.414462e-001
319665000 2.231771e-006 7.191620e-006 -4.027640e-001 7.276707e-001 -5.553294e-006 -7.008642e-006 1.006894e+000 -1.400177e-001
319950000 6.760878e-006 6.845317e-006 -3.832180e-001 7.431014e-001 -9.038607e-006 -6.260118e-006 1.006326e+000 -1.420806e-001
320235000 1.018778e-006 7.856761e-006 -3.630210e-001 7.581818e-001 -5.772274e-006 -4.294127e-006 1.006861e+000 -1.422074e-001
320520000 -8.768444e-006 1.041617e-006 -3.420169e-001 7.729418e-001 1.080334e-005 -7.325258e-006 1.006351e+000 -1.417730e-001
320805000 -8.558261e-006 -6.189120e-006 -3.204289e-001 7.872819e-001 -3.495763e-007 3.331947e-006 1.005526e+000 -1.410680e-001
321090000 -1.197233e-005 -3.948915e-006 -2.981490e-001 8.013279e-001 -8.901338e-006 5.381288e-006 1.005276e+000 -1.412942e-001
321375000 4.460692e-006 1.074079e-006 -2.750455e-001 8.148286e-001 -5.440681e-006 7.013771e-007 1.005880e+000 -1.413711e-001
321660000 1.236188e-005 -3.395210e-006 -2.513805e-001 8.278276e-001 1.676331e-005 -4.719704e-007 1.006543e+000 -1.417466e-001
321945000 -1.103376e-007 5.417434e-006 -2.268223e-001 8.403279e-001 -1.935900e-006 -6.146543e-006 1.005828e+000 -1.427820e-001
322230000 1.470724e-005 -1.188921e-005 -2.015992e-001 8.521871e-001 -4.482641e-006 -3.444464e-006 1.005466e+000 -1.428368e-001
322515000 2.452779e-006 1.973070e-006 -1.756120e-001 8.635719e-001 -1.149114e-007 -1.205338e-005 1.005081e+000 -1.429822e-001
322800000 4.793897e-007 -3.174108e-007 -1.488540e-001 8.742313e-001 7.535557e-006 8.090637e-006 1.006918e+000 -1.420938e-001
323085000 7.350691e-006 4.629946e-007 -1.213344e-001 8.840963e-001 1.122085e-005 1.047089e-005 1.006054e+000 -1.424559e-001
323370000 -4.170757e-006 -8.425559e-006 -9.316166e-002 8.931493e-001 -4.365114e-006 6.524084e-006 1.006362e+000 -1.431109e-001
323655000 -1.129435e-005 -1.117193e-005 -6.411886e-002 9.014695e-001 3.637763e-006 9.200761e-007 1.005751e+000 -1.437304e-001
323940000 -5.398203e-006 -2.725873e-006 -3.447571e-002 9.089639e-001 -5.504238e-006 1.648665e-006 1.005599e+000 -1.439379e-001
324225000 -5.725982e-006 2.017609e-006 -4.136339e-003 9.154641e-001 3.027654e-006 5.124400e-006 1.003978e+000 -1.433396e-001
324510000 -2.984356e-006 -7.893201e-007 2.701669e-002 9.208132e-001 -3.828693e-006 1.235625e-006 1.006839e+000 -1.446759e-001
324795000 -2.072091e-005 -1.322213e-005 5.868763e-002 9.252148e-001 -3.941453e-006 -1.369533e-006 1.005770e+000 -1.435758e-001
325080000 1.179062e-005 -1.309691e-005 9.100398e-002 9.286280e-001 -1.321016e-005 -3.376598e-006 1.005562e+000 -1.435693e-001
325365000 -8.894166e-006 7.132121e-006 1.239822e-001 9.306353e-001 -5.946541e-006 -1.316288e-005 1.006263e+000 -1.435197e-001
325650000 7.260219e-006 -6.733563e-006 1.574113e-001 9.314305e-001 -2.059227e-006 -6.050108e-006 1.005877e+000 -1.433683e-001
325935000 -4.755225e-006 1.396650e-006 1.913282e-001 9.308347e-001 -1.278703e-005 -3.041771e-006 1.005719e+000 -1.444982e-001
326220000 -1.377431e-005 4.128349e-007 2.256836e-001 9.290491e-001 -4.408669e-006 -6.861384e-006 1.006049e+000 -1.446773e-001
326505000 -1.152531e-005 6.995268e-006 2.604218e-001 9.257077e-001 -1.035253e-005 9.352645e-006 1.005490e+000 -1.450422e-001
326790000 -3.998398e-006 -5.989575e-006 2.954716e-001 9.209546e-001 -8.202571e-006 3.803656e-006 1.004056e+000 -1.439330e-001
327075000 5.845749e-006 -7.880139e-006 3.306848e-001 9.144396e-001 -3.754400e-006 8.206911e-006 1.005253e+000 -1.453549e-001
327360000 -1.158550e-006 7.703153e-006 3.660711e-001 9.064955e-001 -9.379391e-006 7.024295e-006 1.006470e+000 -1.449843e-001
327645000 -1.155049e-005 6.454506e-006 4.015133e-001 8.968565e-001 -1.427525e-005 -1.654373e-007 1.005754e+000 -1.446116e-001
327930000 -1.186776e-005 -1.612958e-006 4.368559e-001 8.856236e-001 -1.036835e-005 4.555496e-006 1.005050e+000 -1.445637e-001
328215000 -8.430787e-006 3.717645e-006 4.721084e-001 8.726541e-001 -9.140173e-006 4.279829e-006 1.005291e+000 -1.452323e-001
328500000 -1.599084e-005 -6.076978e-007 5.070646e-001 8.579345e-001 -8.390851e-006 4.080889e-006 1.004718e+000 -1.457527e-001
328785000 9.048524e-006 -8.827164e-006 5.416950e-001 8.415265e-001 8.366157e-006 3.789219e-006 1.004565e+000 -1.449768e-001
329070000 -2.723135e-007 1.095665e-005 5.756809e-001 8.233208e-001 -3.669316e-006 8.712451e-006 1.005058e+000 -1.453485e-001
329355000 1.552606e-006 1.076893e-006 6.093283e-001 8.033901e-001 5.222711e-006 5.825234e-008 1.004973e+000 -1.461264e-001
329640000 1.843192e-005 7.668040e-006 6.420915e-001 7.818419e-001 1.176736e-005 -1.053114e-005 1.005218e+000 -1.461057e-001
329925000 3.090152e-006 -1.201911e-005 6.739812e-001 7.584932e-001 -9.703899e-006 6.698211e-006 1.004556e+000 -1.457938e-001
330210000 -1.315624e-006 1.112866e-005 7.049821e-001 7.335507e-001 -2.795511e-006 -5.498820e-006 1.004067e+000 -1.463661e-001
330495000 6.949825e-006 -1.031791e-005 7.349076e-001 7.069983e-001 -1.019013e-005 -1.437103e-005 1.004298e+000 -1.461490e-001
330780000 -1.056253e-005 3.920464e-006 7.636340e-001 6.787947e-001 -6.068110e-006 -1.046389e-005 1.005408e+000 -1.469602e-001
331065000 -2.635308e-006 -3.168115e-007 7.910267e-001 6.492308e-001 6.039379e-006 -3.400699e-006 1.003497e+000 -1.455495e-001
331350000 -2.933796e-006 -1.071463e-005 8.172027e-001 6.182923e-001 1.090865e-006 -3.579607e-006 1.004158e+000 -1.462772e-001
331635000 -1.957380e-006 1.158916e-006 8.417301e-001 5.859714e-001 8.322104e-006 -1.266374e-005 1.005302e+000 -1.465634e-001
331920000 -1.507140e-005 6.727593e-006 8.647706e-001 5.524899e-001 -6.420962e-006 5.091804e-006 1.004952e+000 -1.464229e-001
332205000 -1.531266e-006 -7.946876e-008 8.860349e-001 5.179174e-001 6.353165e-006 1.059742e-005 1.004209e+000 -1.474246e-001
332490000 -1.771298e-006 1.268205e-005 9.055537e-001 4.823371e-001 1.593308e-006 5.756674e-006 1.005022e+000 -1.467932e-001
332775000 9.370551e-006 -3.620082e-007 9.233854e-001 4.458814e-001 -3.697176e-006 -2.541984e-006 1.004648e+000 -1.475723e-001
333060000 6.594557e-007 1.953184e-006 9.393380e-001 4.087577e-001 5.054895e-006 -5.025214e-006 1.004745e+000 -1.473126e-001
333345000 -1.164073e-005 2.985698e-006 9.534401e-001 3.708928e-001 -9.003310e-006 -1.154267e-005 1.005670e+000 -1.466031e-001
333630000 6.264399e-006 1.162665e-006 9.654697e-001 3.326037e-001 4.816566e-006 -8.795553e-007 1.005028e+000 -1.485615e-001
333915000 -3.922760e-006 7.556442e-006 9.757780e-001 2.939404e-001 3.835134e-007 -7.481276e-006 1.004330e+000 -1.476934e-001
334200000 -8.081265e-006 5.833957e-006 9.841506e-001 2.551000e-001 -7.147316e-006 1.418831e-006 1.005293e+000 -1.486180e-001
334485000 -8.583878e-006 1.109256e-005 9.906276e-001 2.160154e-001 7.180636e-006 3.917259e-008 1.004484e+000 -1.474929e-001
334770000 -2.007489e-006 8.189286e-006 9.951437e-001 1.771244e-001 5.009957e-006 1.431781e-005 1.004982e+000 -1.483054e-001
335055000 1.957878e-007 2.412991e-006 9.979158e-001 1.383444e-001 -5.082069e-006 6.834439e-006 1.005420e+000 -1.479113e-001
335340000 -1.187968e-006 7.595530e-006 9.986744e-001 9.979407e-002 3.897757e-006 9.948775e-006 1.005273e+000 -1.493110e-001
335625000 -2.220748e-006 1.237045e-005 9.977912e-001 6.161967e-002 -6.137707e-006 1.444493e-005 1.005115e+000 -1.488664e-001
335910000 -9.361117e-006 -3.437408e-006 9.951442e-001 2.391825e-002 8.527957e-006 -1.695823e-006 1.004963e+000 -1.483758e-001
336195000 -7.837712e-006 1.156639e-005 9.908711e-001 -1.321210e-002 -1.029614e-005 -3.091539e-006 1.003893e+000 -1.487469e-001
336480000 -2.920491e-006 -1.048232e-005 9.850323e-001 -4.978365e-002 -1.056115e-005 2.066666e-005 1.005051e+000 -1.483443e-001
336765000 -1.007259e-005 -1.958550e-005 9.776850e-001 -8.560312e-002 -2.217129e-006 1.663331e-006 1.004975e+000 -1.488837e-001
337050000 -1.684133e-006 -5.564134e-008 9.688861e-001 -1.205850e-001 -1.398007e-005 -9.983474e-007 1.005467e+000 -1.489789e-001
337335000 1.234306e-005 6.801320e-006 9.587937e-001 -1.548485e-001 2.914009e-007 1.994609e-006 1.004920e+000 -1.506543e-001
337620000 1.567915e-006 5.429648e-006 9.473915e-001 -1.881317e-001 -9.432778e-006 2.475403e-007 1.005069e+000 -1.504626e-001
337905000 7.243378e-006 4.035880e-006 9.348165e-001 -2.206213e-001 1.723797e-005 -7.402277e-006 1.003801e+000 -1.488095e-001
338190000 -1.395106e-005 1.398855e-006 9.210766e-001 -2.518978e-001 -1.048468e-005 2.768058e-006 1.004525e+000 -1.503251e-001
338475000 1.446350e-005 8.874224e-006 9.063634e-001 -2.823870e-001 1.882696e-006 -9.110399e-007 1.005352e+000 -1.489528e-001
338760000 9.775243e-006 -8.283068e-007 8.907270e-001 -3.118295e-001 1.095791e-007 -4.557994e-007 1.005071e+000 -1.496456e-001
339045000 9.417456e-007 7.041026e-006 8.741306e-001 -3.400989e-001 9.436324e-006 5.833462e-006 1.004956e+000 -1.496594e-001
339330000 -1.904834e-006 2.314092e-005 8.567482e-001 -3.674140e-001 8.929974e-006 1.174191e-006 1.005591e+000 -1.487492e-001
339615000 -8.038377e-008 2.617965e-006 8.386503e-001 -3.936112e-001 7.440612e-007 1.373675e-005 1.005504e+000 -1.504498e-001
339900000 -8.920546e-006 2.312245e-006 8.199537e-001 -4.188067e-001 -1.018746e-005 -9.662306e-006 1.004716e+000 -1.510216e-001
340185000 -4.148446e-006 1.654365e-005 8.006476e-001 -4.429307e-001 -7.657452e-006 6.545243e-006 1.005136e+000 -1.508822e-001
340470000 1.830056e-008 -1.879597e-006 7.807212e-001 -4.660493e-001 -6.895729e-006 1.603960e-006 1.005150e+000 -1.497433e-001
340755000 -6.490834e-006 -9.607927e-006 7.604277e-001 -4.881108e-001 3.711689e-006 -4.557710e-006 1.005192e+000 -1.514966e-001
341040000 -4.828957e-006 -6.361593e-006 7.397335e-001 -5.091246e-001 1.036127e-005 -1.188322e-005 1.004859e+000 -1.515219e-001
341325000 3.490046e-006 3.921301e-006 7.186583e-001 -5.291841e-001 3.297886e-006 -8.028847e-006 1.005658e+000 -1.494487e-001
341610000 1.980526e-005 -1.075938e-006 6.971997e-001 -5.482328e-001 -4.911839e-006 6.473261e-006 1.006348e+000 -1.502342e-001
341895000 4.592823e-006 1.003700e-005 6.755955e-001 -5.663271e-001 4.752475e-006 2.143182e-006 1.004658e+000 -1.517961e-001
342180000 -1.388095e-005 1.021805e-005 6.537886e-001 -5.835135e-001 4.830483e-006 -5.194573e-006 1.005876e+000 -1.518385e-001
342465000 -1.052732e-006 7.683310e-007 6.317126e-001 -5.998058e-001 -2.008299e-006 1.966076e-005 1.005291e+000 -1.519972e-001
342750000 -8.986854e-006 -1.144999e-006 6.095055e-001 -6.151238e-001 1.303708e-006 1.247845e-005 1.007035e+000 -1.508448e-001
343035000 -6.749015e-006 -5.069442e-006 5.872495e-001 -6.296030e-001 1.084431e-005 1.745963e-005 1.005145e+000 -1.528157e-001
343320000 7.724841e-006 2.841714e-006 5.649071e-001 -6.432911e-001 -1.207114e-005 8.246313e-006 1.004859e+000 -1.520113e-001
343605000 -1.388329e-005 4.127517e-007 5.424360e-001 -6.561439e-001 5.625498e-006 -5.937438e-006 1.004771e+000 -1.519341e-001
343890000 8.927259e-006 -2.084502e-005 5.199937e-001 -6.682129e-001 -8.556932e-006 9.049279e-006 1.005788e+000 -1.525860e-001
