!Agilent Technologies,N5230C,SG49000117,A.08.50.07
!Agilent N5230C: A.08.50.07
!Date: Sunday, March 17, 2024 00:25:50
!Correction: S11(Off) 
!S21(Off) 
!S12(Off) 
!S22(Full 1 Port(2)) 
!S2P File: Measurements: S11, S21, S12, S22:
# Hz S  RI   R 50
300000000 -1.145180e-005 -1.224647e-005 -6.201835e-001 -6.432876e-001 7.549204e-006 -4.556276e-006 9.957846e-001 -1.724787e-001
300285000 1.854315e-005 -8.073727e-007 -6.354020e-001 -6.203122e-001 3.099453e-006 -1.642149e-005 9.962407e-001 -1.728226e-001
300570000 1.269426e-005 4.658760e-006 -6.498157e-001 -5.971847e-001 2.033791e-006 1.328040e-007 9.967452e-001 -1.732613e-001
300855000 3.630940e-006 1.670573e-005 -6.634079e-001 -5.738444e-001 -4.461473e-006 -1.056492e-005 9.970025e-001 -1.726279e-001
301140000 -1.165459e-006 -7.757306e-006 -6.760521e-001 -5.503606e-001 7.004698e-006 1.624527e-005 9.965830e-001 -1.735847e-001
301425000 -9.981350e-006 -2.327474e-006 -6.878645e-001 -5.268798e-001 1.024559e-005 -1.758798e-005 9.975692e-001 -1.732894e-001
301710000 1.005335e-005 1.147235e-005 -6.988915e-001 -5.034491e-001 8.523548e-006 -5.463251e-006 9.978672e-001 -1.749202e-001
301995000 -2.480120e-006 -1.875542e-006 -7.091935e-001 -4.800113e-001 8.281212e-006 -7.755543e-006 9.965396e-001 -1.731298e-001
302280000 1.394256e-006 -2.392721e-006 -7.186112e-001 -4.566321e-001 1.290038e-006 7.892540e-006 9.975310e-001 -1.741717e-001
302565000 -3.351887e-006 -1.151820e-005 -7.273883e-001 -4.333010e-001 1.477434e-005 -2.440338e-006 9.980904e-001 -1.746693e-001
302850000 -5.667578e-006 -1.294781e-005 -7.354304e-001 -4.101813e-001 3.104220e-006 4.362106e-006 9.969124e-001 -1.733302e-001
303135000 -5.212319e-006 7.582932e-006 -7.428228e-001 -3.869846e-001 -4.250285e-006 2.068748e-006 9.968079e-001 -1.745058e-001
303420000 4.465323e-007 -9.304054e-006 -7.494709e-001 -3.639742e-001 4.765813e-006 9.322155e-006 9.966394e-001 -1.758879e-001
303705000 -1.329362e-005 3.411667e-006 -7.555496e-001 -3.410424e-001 -2.372867e-006 2.730970e-006 9.984350e-001 -1.754479e-001
303990000 7.107225e-006 -8.239163e-006 -7.610127e-001 -3.183125e-001 -1.486776e-005 -6.813904e-006 9.964036e-001 -1.748039e-001
304275000 1.129223e-005 4.516755e-006 -7.659403e-001 -2.956175e-001 -4.748677e-006 -1.009369e-005 9.970664e-001 -1.753022e-001
304560000 9.280374e-006 1.213608e-006 -7.701563e-001 -2.731053e-001 -1.003777e-006 -1.090378e-005 9.972578e-001 -1.751578e-001
304845000 3.213498e-006 -8.527780e-006 -7.738761e-001 -2.508482e-001 1.503166e-005 -5.727022e-006 9.967803e-001 -1.752673e-001
305130000 2.122871e-005 -4.601479e-006 -7.770792e-001 -2.286875e-001 -2.074327e-006 -4.810394e-006 9.960305e-001 -1.752927e-001
305415000 1.296929e-005 -4.539139e-006 -7.798411e-001 -2.065658e-001 1.436439e-005 -6.816053e-006 9.972155e-001 -1.758944e-001
305700000 2.781785e-006 1.091484e-005 -7.819613e-001 -1.846888e-001 -1.547542e-008 5.676945e-006 9.975346e-001 -1.756435e-001
305985000 7.284846e-006 1.076686e-006 -7.835738e-001 -1.629441e-001 1.399582e-005 -8.958986e-006 9.977548e-001 -1.766422e-001
306270000 -5.254279e-006 1.158608e-005 -7.847843e-001 -1.413168e-001 -1.111993e-005 -1.038751e-005 9.985276e-001 -1.752143e-001
306555000 1.027039e-005 6.956967e-006 -7.855192e-001 -1.197878e-001 1.603969e-006 5.521016e-006 9.980958e-001 -1.775666e-001
306840000 1.182629e-005 7.385510e-007 -7.858548e-001 -9.853696e-002 4.529597e-006 -2.467242e-006 9.969333e-001 -1.754348e-001
307125000 -9.313274e-007 -3.209687e-007 -7.856535e-001 -7.734221e-002 -3.366675e-006 4.183908e-006 9.972521e-001 -1.768165e-001
307410000 -5.005045e-006 4.818997e-006 -7.851194e-001 -5.631933e-002 -5.364478e-006 7.852143e-006 9.978008e-001 -1.769822e-001
307695000 -9.344205e-007 -1.531335e-006 -7.841404e-001 -3.546512e-002 5.103994e-006 -1.920886e-005 9.980555e-001 -1.778064e-001
307980000 -2.249609e-006 -1.657759e-005 -7.827830e-001 -1.471448e-002 -8.161159e-006 -1.054772e-005 9.964765e-001 -1.774609e-001
308265000 1.073926e-005 -4.502527e-006 -7.810602e-001 5.798548e-003 -3.827211e-006 5.639841e-006 9.966387e-001 -1.777832e-001
308550000 9.095368e-006 -3.856391e-006 -7.788259e-001 2.634947e-002 1.364905e-006 -2.818746e-006 9.962966e-001 -1.771501e-001
308835000 -1.909125e-005 5.965968e-006 -7.763380e-001 4.661563e-002 1.402123e-005 -2.563090e-006 9.965401e-001 -1.781763e-001
309120000 4.323066e-008 -1.391329e-005 -7.734643e-001 6.671434e-002 -6.612107e-006 -4.825783e-006 9.976895e-001 -1.792038e-001
309405000 3.569315e-006 -1.920236e-006 -7.701730e-001 8.679220e-002 -2.639030e-006 -9.160998e-006 9.995543e-001 -1.782721e-001
309690000 1.280630e-006 9.104443e-006 -7.665684e-001 1.067489e-001 -9.122849e-007 -7.398707e-006 9.980008e-001 -1.784514e-001
309975000 6.661876e-006 7.328132e-006 -7.625607e-001 1.264912e-001 6.507653e-008 1.638923e-006 9.973433e-001 -1.786261e-001
310260000 2.156373e-005 2.111969e-006 -7.581283e-001 1.461513e-001 -5.085651e-006 -2.074873e-006 9.988590e-001 -1.784318e-001
310545000 2.605692e-006 -5.103114e-006 -7.534751e-001 1.657271e-001 -1.810376e-007 -5.398365e-006 9.976720e-001 -1.794464e-001
310830000 5.126549e-006 4.154673e-007 -7.484081e-001 1.851595e-001 -3.123069e-006 -1.831884e-005 9.991304e-001 -1.795845e-001
311115000 3.403294e-006 -1.610848e-005 -7.430702e-001 2.045594e-001 -7.865508e-006 -1.861834e-005 9.973390e-001 -1.793685e-001
311400000 7.609450e-006 -1.204138e-005 -7.371896e-001 2.237658e-001 -8.198945e-006 -8.738259e-006 9.974015e-001 -1.797882e-001
311685000 -1.781855e-005 -1.036635e-005 -7.311563e-001 2.429290e-001 1.598975e-005 7.126022e-006 9.980663e-001 -1.794356e-001
311970000 2.123162e-006 6.714985e-007 -7.246429e-001 2.619279e-001 1.166014e-005 -3.022767e-006 9.963598e-001 -1.795559e-001
312255000 -2.865574e-006 1.141523e-005 -7.177778e-001 2.809241e-001 -4.809719e-006 2.845126e-007 9.969991e-001 -1.798087e-001
312540000 -2.329270e-005 1.666067e-006 -7.106023e-001 2.998195e-001 -2.936354e-006 -3.319944e-007 9.969858e-001 -1.799553e-001
312825000 -8.766818e-006 1.167541e-006 -7.030569e-001 3.185236e-001 7.562225e-006 -4.228343e-006 9.972130e-001 -1.803814e-001
313110000 5.531489e-006 -4.978167e-006 -6.951264e-001 3.372679e-001 -4.450799e-006 -1.258152e-005 9.970762e-001 -1.816270e-001
313395000 -1.546158e-005 -5.232790e-006 -6.867641e-001 3.558130e-001 -6.647896e-006 2.697922e-006 9.975355e-001 -1.802928e-001
313680000 -8.596455e-007 1.343711e-005 -6.781247e-001 3.743849e-001 1.369355e-005 -1.794589e-006 9.981449e-001 -1.803608e-001
313965000 -6.278020e-006 -6.967122e-007 -6.689510e-001 3.927891e-001 -1.660755e-005 -7.161805e-007 9.976634e-001 -1.807997e-001
314250000 -3.849582e-006 1.255188e-006 -6.595394e-001 4.111380e-001 -9.841111e-006 -1.040249e-006 9.964805e-001 -1.810142e-001
314535000 -1.415652e-005 -1.293743e-005 -6.495269e-001 4.294665e-001 3.736733e-006 -1.111700e-005 9.967371e-001 -1.811346e-001
314820000 -2.934799e-006 1.335556e-006 -6.392866e-001 4.475764e-001 5.082054e-006 -3.666269e-006 9.969125e-001 -1.822831e-001
315105000 2.997585e-006 -1.400882e-005 -6.285253e-001 4.656341e-001 1.427549e-005 -8.077602e-006 9.945516e-001 -1.820128e-001
315390000 1.350489e-006 -8.518185e-006 -6.173441e-001 4.836593e-001 -6.589819e-006 -9.567477e-006 9.974315e-001 -1.823298e-001
315675000 -1.912326e-006 -1.234070e-005 -6.057361e-001 5.015298e-001 -2.546664e-006 -1.230283e-006 9.960009e-001 -1.815810e-001
315960000 -8.549003e-006 -5.029880e-006 -5.936464e-001 5.192979e-001 1.830391e-006 -1.395973e-005 9.958597e-001 -1.822025e-001
316245000 -1.043344e-005 8.653664e-006 -5.810436e-001 5.369921e-001 -1.009961e-005 1.295372e-006 9.954909e-001 -1.818181e-001
316530000 1.206820e-006 -3.351534e-006 -5.679924e-001 5.545704e-001 -1.550284e-006 4.091113e-006 9.967962e-001 -1.829650e-001
316815000 1.440341e-005 -2.569637e-006 -5.544514e-001 5.719205e-001 1.847409e-006 4.971687e-006 9.972116e-001 -1.817462e-001
317100000 8.982541e-006 2.941558e-006 -5.403272e-001 5.893069e-001 4.336255e-006 1.153297e-005 9.957403e-001 -1.816900e-001
317385000 -1.226694e-005 -4.535047e-006 -5.258395e-001 6.064762e-001 -2.687814e-006 -1.314926e-006 9.974800e-001 -1.815046e-001
317670000 -1.516884e-005 -1.573975e-006 -5.106943e-001 6.233954e-001 -1.388726e-005 -1.445139e-006 9.973497e-001 -1.833435e-001
317955000 -6.082222e-008 -1.507317e-005 -4.950276e-001 6.403292e-001 -2.160526e-006 -6.313970e-006 9.978309e-001 -1.830268e-001
318240000 -1.852601e-005 -2.617032e-006 -4.787194e-001 6.569607e-001 5.653667e-007 -2.336607e-006 9.966275e-001 -1.833959e-001
318525000 -3.906964e-006 5.720231e-006 -4.619722e-001 6.734107e-001 4.170150e-006 3.250504e-006 9.967293e-001 -1.827829e-001
318810000 -2.281589e-006 -7.405802e-006 -4.444800e-001 6.895795e-001 9.230239e-007 -1.405678e-005 9.960877e-001 -1.834749e-001
319095000 -4.643589e-007 -1.728054e-005 -4.263736e-001 7.055833e-001 -1.706338e-005 -2.287263e-006 9.956805e-001 -1.827696e-001
319380000 3.789673e-007 -7.717941e-007 -4.077089e-001 7.213321e-001 -2.151583e-006 -1.561787e-005 9.967222e-001 -1.846760e-001
319665000 2.293837e-006 -1.050065e-005 -3.883660e-001 7.368164e-001 -3.443958e-006 -2.765791e-006 9.971104e-001 -1.834288e-001
319950000 5.881383e-006 6.616390e-006 -3.683590e-001 7.519664e-001 8.511379e-006 -1.351357e-005 9.963344e-001 -1.855985e-001
320235000 -3.181259e-006 3.289078e-006 -3.477277e-001 7.667454e-001 -9.234570e-006 -1.270336e-005 9.968522e-001 -1.853539e-001
320520000 1.318585e-006 3.207107e-006 -3.263459e-001 7.811894e-001 -2.686977e-006 -1.121715e-005 9.962749e-001 -1.852738e-001
320805000 -2.477743e-006 -1.452939e-005 -3.043233e-001 7.952053e-001 -4.409826e-006 -6.418835e-006 9.954826e-001 -1.844766e-001
321090000 -1.376686e-005 7.453799e-006 -2.815110e-001 8.087442e-001 8.148264e-006 -5.396049e-006 9.952378e-001 -1.846203e-001
321375000 -5.885310e-006 6.524348e-006 -2.579932e-001 8.218831e-001 2.643318e-007 1.163235e-007 9.959582e-001 -1.849126e-001
321660000 -2.042414e-005 -2.139679e-006 -2.338274e-001 8.344875e-001 2.625480e-006 -2.113740e-008 9.965003e-001 -1.852695e-001
321945000 -6.838497e-006 3.256478e-006 -2.088877e-001 8.465387e-001 2.571021e-006 -5.166711e-006 9.955050e-001 -1.863593e-001
322230000 -9.886702e-006 1.060141e-005 -1.831900e-001 8.578927e-001 -5.497476e-006 8.206712e-006 9.953516e-001 -1.863242e-001
322515000 -1.440891e-005 5.941276e-007 -1.567179e-001 8.687524e-001 -3.150855e-006 -4.692129e-006 9.948506e-001 -1.865809e-001
322800000 5.685557e-006 -1.321046e-005 -1.295629e-001 8.788927e-001 6.688823e-007 7.801787e-006 9.967920e-001 -1.860393e-001
323085000 -9.962143e-006 5.159890e-006 -1.017010e-001 8.881472e-001 -1.012624e-005 -8.080629e-006 9.957850e-001 -1.862388e-001
323370000 -1.556693e-005 -6.463029e-006 -7.297727e-002 8.967389e-001 -8.599519e-006 -1.443967e-005 9.959741e-001 -1.869936e-001
323655000 -1.058478e-005 -1.919744e-005 -4.373006e-002 9.043748e-001 -4.011224e-006 8.204676e-006 9.952235e-001 -1.874256e-001
323940000 1.404081e-006 -1.226145e-006 -1.358175e-002 9.110620e-001 -2.942403e-006 -6.121915e-006 9.951982e-001 -1.878169e-001
324225000 3.990465e-006 7.159078e-006 1.715181e-002 9.168397e-001 -6.151881e-006 3.570365e-006 9.935112e-001 -1.871736e-001
324510000 6.289036e-008 -1.176310e-005 4.852445e-002 9.215471e-001 7.796880e-006 6.032379e-006 9.962490e-001 -1.885140e-001
324795000 -4.266452e-006 4.517723e-007 8.057113e-002 9.251397e-001 8.070062e-007 -2.425990e-006 9.953386e-001 -1.876757e-001
325080000 -1.456776e-006 -1.158064e-005 1.131593e-001 9.275773e-001 2.792409e-006 9.617750e-007 9.950440e-001 -1.876169e-001
325365000 -3.223380e-006 9.371945e-006 1.463884e-001 9.287625e-001 -4.822541e-006 -4.072446e-006 9.955136e-001 -1.877855e-001
325650000 7.618929e-006 6.082184e-006 1.800062e-001 9.287004e-001 -3.428562e-006 -1.190600e-006 9.951977e-001 -1.874547e-001
325935000 4.225622e-007 -4.229417e-006 2.141886e-001 9.272786e-001 -1.421272e-005 -3.244330e-006 9.950149e-001 -1.885552e-001
326220000 -1.291038e-005 -1.208397e-005 2.486485e-001 9.243713e-001 -5.360995e-006 -7.272329e-006 9.953806e-001 -1.887458e-001
326505000 9.861456e-006 -2.187945e-006 2.834932e-001 9.201041e-001 -9.256055e-006 -6.396288e-006 9.946805e-001 -1.890928e-001
326790000 -1.415536e-005 -5.986840e-006 3.185979e-001 9.142550e-001 -6.018762e-006 -1.854268e-005 9.933097e-001 -1.880665e-001
327075000 -2.751982e-006 4.099551e-006 3.538029e-001 9.068234e-001 1.265018e-005 -3.844635e-006 9.944003e-001 -1.895372e-001
327360000 -5.184121e-006 1.246729e-005 3.890769e-001 8.977847e-001 3.100183e-006 -9.534673e-006 9.955070e-001 -1.892229e-001
327645000 -2.057118e-006 -1.099658e-005 4.243470e-001 8.871023e-001 1.019484e-005 -5.953027e-006 9.948193e-001 -1.890351e-001
327930000 -8.245587e-006 1.835802e-005 4.595752e-001 8.746877e-001 1.830446e-005 -1.439904e-005 9.942734e-001 -1.888887e-001
328215000 -1.331639e-006 1.385529e-005 4.945745e-001 8.605751e-001 -4.283186e-006 -7.553318e-006 9.943706e-001 -1.896965e-001
328500000 5.001890e-006 -8.036989e-006 5.291283e-001 8.448117e-001 -1.067244e-005 -8.628661e-006 9.937125e-001 -1.901639e-001
328785000 5.213898e-006 4.797445e-006 5.633222e-001 8.272889e-001 -3.764169e-006 1.676674e-005 9.937077e-001 -1.892629e-001
329070000 5.621715e-006 2.746946e-006 5.969415e-001 8.080430e-001 -7.833508e-006 -3.384383e-006 9.938958e-001 -1.895656e-001
329355000 5.896548e-006 -8.497118e-006 6.299916e-001 7.869527e-001 -7.511320e-006 1.152242e-005 9.939499e-001 -1.904885e-001
329640000 4.482031e-006 1.853994e-006 6.619773e-001 7.644628e-001 -6.193294e-006 3.605818e-006 9.941487e-001 -1.905915e-001
329925000 -3.819796e-006 9.988678e-006 6.934246e-001 7.399696e-001 6.880841e-007 4.519148e-006 9.936208e-001 -1.904181e-001
330210000 1.599707e-005 1.260036e-005 7.235582e-001 7.141235e-001 4.088940e-006 1.498313e-006 9.930057e-001 -1.910218e-001
330495000 8.945931e-006 1.618243e-006 7.526746e-001 6.865300e-001 -1.171216e-005 -1.550013e-006 9.932536e-001 -1.907917e-001
330780000 -1.209263e-005 6.960441e-006 7.805077e-001 6.575530e-001 6.643988e-006 5.075636e-006 9.942148e-001 -1.917609e-001
331065000 -8.675221e-006 2.079030e-006 8.068919e-001 6.270577e-001 5.762299e-006 2.946583e-006 9.923816e-001 -1.902103e-001
331350000 -9.254078e-006 3.033900e-008 8.320475e-001 5.953228e-001 3.570590e-006 -2.087322e-005 9.929194e-001 -1.910160e-001
331635000 -6.938310e-006 -1.633798e-005 8.554643e-001 5.622818e-001 4.203193e-006 3.785967e-006 9.942652e-001 -1.913970e-001
331920000 -3.736500e-006 -1.185995e-005 8.773654e-001 5.281854e-001 4.800671e-006 -1.521391e-005 9.937677e-001 -1.912997e-001
332205000 -6.345892e-006 6.805842e-006 8.974391e-001 4.930246e-001 -6.013262e-006 1.620353e-006 9.930940e-001 -1.922330e-001
332490000 7.680509e-007 7.718177e-006 9.158411e-001 4.569222e-001 2.689422e-006 2.116905e-005 9.938170e-001 -1.916569e-001
332775000 5.870281e-007 6.806151e-006 9.324535e-001 4.200779e-001 5.747755e-006 6.646654e-006 9.934293e-001 -1.924549e-001
333060000 -1.032896e-005 2.479133e-007 9.471524e-001 3.825412e-001 1.830515e-007 -5.521322e-006 9.934381e-001 -1.923867e-001
333345000 -4.037505e-006 -6.669780e-006 9.599618e-001 3.444146e-001 -1.094475e-005 -8.246585e-006 9.945883e-001 -1.916901e-001
333630000 7.437865e-006 4.041413e-006 9.709278e-001 3.059341e-001 2.952492e-006 -4.577490e-006 9.935936e-001 -1.934939e-001
333915000 5.836736e-006 1.652110e-005 9.800214e-001 2.671663e-001 -1.203096e-005 5.250218e-006 9.931389e-001 -1.928610e-001
334200000 -1.209120e-005 1.104207e-005 9.869738e-001 2.283014e-001 -1.168289e-005 1.057815e-005 9.939550e-001 -1.937858e-001
334485000 2.954813e-007 -4.512888e-006 9.921886e-001 1.893420e-001 -1.264548e-005 1.612986e-006 9.931737e-001 -1.926602e-001
334770000 1.164631e-005 -7.182492e-007 9.956430e-001 1.504820e-001 -5.979994e-007 9.410795e-006 9.936869e-001 -1.935377e-001
335055000 7.967653e-006 1.023416e-006 9.971359e-001 1.118378e-001 1.273408e-005 1.268621e-005 9.942806e-001 -1.931273e-001
335340000 -1.310755e-005 -8.254280e-006 9.968667e-001 7.355720e-002 -1.559077e-006 7.030614e-006 9.940304e-001 -1.945681e-001
335625000 3.339904e-006 -3.070815e-006 9.947551e-001 3.568250e-002 -2.352457e-006 -2.929927e-006 9.939119e-001 -1.942844e-001
335910000 3.762004e-006 7.727414e-006 9.909989e-001 -1.641852e-003 8.385648e-006 -6.437533e-006 9.936821e-001 -1.937375e-001
336195000 -4.904601e-006 -1.614431e-007 9.857462e-001 -3.832703e-002 1.808658e-006 -7.978279e-007 9.926873e-001 -1.941953e-001
336480000 -1.266600e-005 -3.274397e-006 9.788917e-001 -7.444557e-002 -8.413173e-006 -8.919116e-007 9.938161e-001 -1.937855e-001
336765000 6.818585e-006 1.831214e-006 9.705870e-001 -1.097840e-001 -7.685266e-007 -3.398796e-007 9.936231e-001 -1.946674e-001
337050000 -7.811680e-006 9.725756e-006 9.608574e-001 -1.441883e-001 -5.691025e-006 -5.177367e-007 9.942931e-001 -1.946667e-001
337335000 2.682985e-006 1.114704e-005 9.499468e-001 -1.779113e-001 7.356057e-006 8.641084e-006 9.934546e-001 -1.962966e-001
337620000 1.125172e-005 1.672874e-006 9.377733e-001 -2.105353e-001 9.764891e-006 1.197717e-005 9.936594e-001 -1.961502e-001
337905000 -4.719656e-006 -9.756188e-006 9.244063e-001 -2.423862e-001 5.376871e-007 2.171823e-005 9.924737e-001 -1.943743e-001
338190000 -2.880842e-007 -6.790461e-006 9.099789e-001 -2.730814e-001 -1.026671e-005 2.826320e-006 9.932868e-001 -1.960583e-001
338475000 -1.946290e-006 7.583756e-006 8.946109e-001 -3.028314e-001 1.871824e-006 -8.194230e-006 9.941075e-001 -1.948762e-001
338760000 6.805150e-006 7.157085e-006 8.783626e-001 -3.314889e-001 -6.903696e-008 -7.305493e-006 9.938092e-001 -1.954675e-001
339045000 -1.159722e-005 4.695957e-006 8.611667e-001 -3.590568e-001 9.474956e-006 6.237867e-006 9.938789e-001 -1.956997e-001
339330000 2.871355e-006 -8.856311e-006 8.433226e-001 -3.857673e-001 8.799935e-006 5.534603e-006 9.945309e-001 -1.946349e-001
339615000 -1.974528e-006 9.239320e-006 8.248287e-001 -4.113097e-001 5.391049e-006 1.085052e-005 9.941171e-001 -1.965566e-001
339900000 1.575952e-005 9.141763e-006 8.055754e-001 -4.357472e-001 1.234262e-005 1.911481e-006 9.935331e-001 -1.969645e-001
340185000 2.816648e-006 7.577459e-006 7.859114e-001 -4.591897e-001 3.151612e-006 7.057918e-007 9.937664e-001 -1.967686e-001
340470000 -1.032948e-005 2.847246e-006 7.656976e-001 -4.815615e-001 8.919917e-006 9.123924e-006 9.939045e-001 -1.957347e-001
340755000 -6.790193e-007 1.552357e-006 7.451643e-001 -5.029500e-001 -6.631927e-006 3.078509e-006 9.938290e-001 -1.976328e-001
341040000 -1.190214e-005 9.210048e-006 7.241408e-001 -5.232684e-001 6.064257e-006 7.481765e-006 9.935023e-001 -1.977232e-001
341325000 -1.317788e-006 1.960581e-006 7.028036e-001 -5.427650e-001 6.724968e-006 2.926616e-006 9.945046e-001 -1.957857e-001
341610000 -5.668319e-006 -1.904865e-006 6.811545e-001 -5.611010e-001 -6.364763e-006 -5.209949e-006 9.952400e-001 -1.965610e-001
341895000 -8.600802e-006 4.635785e-006 6.593628e-001 -5.785784e-001 1.321070e-005 -4.683131e-006 9.934565e-001 -1.981587e-001
342180000 2.429354e-006 -3.064925e-006 6.373018e-001 -5.950615e-001 7.358037e-006 9.441686e-006 9.947023e-001 -1.983263e-001
342465000 1.337067e-005 5.712793e-006 6.151561e-001 -6.107067e-001 1.288028e-005 -8.958749e-007 9.940634e-001 -1.982573e-001
342750000 -1.077537e-005 -5.971142e-006 5.928687e-001 -6.254193e-001 -3.059678e-006 5.639751e-006 9.957991e-001 -1.974287e-001
343035000 -8.785172e-006 2.083616e-006 5.705235e-001 -6.393462e-001 4.175724e-006 3.078260e-006 9.939928e-001 -1.991197e-001
343320000 1.903217e-006 3.998087e-006 5.480676e-001 -6.524037e-001 1.274359e-005 7.249415e-006 9.934050e-001 -1.984263e-001
343605000 2.576021e-006 2.661267e-006 5.255342e-001 -6.647139e-001 -9.677785e-006 1.439912e-005 9.937705e-001 -1.985694e-001
343890000 3.153251e-006 1.621825e-006 5.030599e-001 -6.762533e-001 5.872851e-006 2.674603e-006 9.945822e-001 -1.991075e-001
