!Agilent Technologies,N5230C,SG49000117,A.08.50.07
!Agilent N5230C: A.08.50.07
!Date: Sunday, March 17, 2024 00:50:01
!Correction: S11(Off) 
!S21(Off) 
!S12(Off) 
!S22(Full 1 Port(2)) 
!S2P File: Measurements: S11, S21, S12, S22:
# Hz S  RI   R 50
300000000 2.813249e-006 -1.295671e-005 -6.282946e-001 -6.275364e-001 -8.798596e-006 -3.522034e-006 9.809847e-001 -2.118630e-001
300285000 7.303203e-006 2.256030e-006 -6.429882e-001 -6.044226e-001 9.610601e-006 -1.046464e-005 9.814644e-001 -2.120562e-001
300570000 -1.697142e-006 5.923021e-007 -6.568262e-001 -5.811406e-001 5.096729e-006 -9.937012e-006 9.817242e-001 -2.124970e-001
300855000 8.593979e-006 1.486317e-006 -6.697784e-001 -5.578294e-001 3.315337e-006 -1.082221e-005 9.823290e-001 -2.119749e-001
301140000 2.375034e-006 6.622780e-006 -6.819615e-001 -5.342751e-001 2.297254e-006 -3.107151e-006 9.816378e-001 -2.129859e-001
301425000 -1.323381e-006 -5.760779e-006 -6.932565e-001 -5.108753e-001 4.868944e-006 4.517176e-006 9.826638e-001 -2.127363e-001
301710000 -9.108186e-006 9.813746e-007 -7.038145e-001 -4.874186e-001 9.450510e-006 -5.196526e-006 9.828174e-001 -2.146371e-001
301995000 -2.452299e-006 -1.471885e-005 -7.135584e-001 -4.640905e-001 -5.385045e-007 -1.591953e-006 9.816827e-001 -2.129362e-001
302280000 6.051456e-006 -8.764419e-006 -7.226205e-001 -4.406952e-001 8.671652e-006 -1.164892e-005 9.824698e-001 -2.138159e-001
302565000 -4.436804e-006 -3.874743e-006 -7.308489e-001 -4.174621e-001 1.311812e-005 -1.493689e-005 9.832196e-001 -2.143272e-001
302850000 1.561121e-005 -1.270523e-005 -7.385096e-001 -3.943811e-001 4.625870e-007 -1.814765e-006 9.818313e-001 -2.129817e-001
303135000 -2.963640e-006 4.511640e-007 -7.453979e-001 -3.712520e-001 1.545095e-005 -3.643682e-006 9.816637e-001 -2.140733e-001
303420000 1.370226e-006 -4.985272e-006 -7.517071e-001 -3.482642e-001 6.997237e-007 9.503890e-006 9.815188e-001 -2.157435e-001
303705000 -2.617512e-007 1.291811e-005 -7.574332e-001 -3.255970e-001 -1.018864e-006 1.752268e-005 9.832606e-001 -2.152845e-001
303990000 -9.732451e-006 6.472339e-006 -7.624107e-001 -3.029030e-001 -4.085746e-006 2.705536e-006 9.813411e-001 -2.144601e-001
304275000 -6.493978e-006 -8.325761e-006 -7.669929e-001 -2.802984e-001 -5.385063e-006 -1.040570e-007 9.819617e-001 -2.153498e-001
304560000 2.028846e-005 -6.284567e-006 -7.709039e-001 -2.579694e-001 2.028507e-005 8.646962e-006 9.818607e-001 -2.151582e-001
304845000 3.983761e-006 -3.692232e-006 -7.742410e-001 -2.357356e-001 -2.768562e-006 1.085476e-005 9.813550e-001 -2.151403e-001
305130000 -1.132626e-005 7.758172e-006 -7.770366e-001 -2.135940e-001 -1.582172e-005 -9.077805e-006 9.808182e-001 -2.150005e-001
305415000 7.027836e-006 1.801323e-005 -7.793838e-001 -1.916296e-001 -2.297027e-005 2.098183e-006 9.817507e-001 -2.160253e-001
305700000 -1.373489e-005 1.269012e-005 -7.811940e-001 -1.698122e-001 -1.225278e-005 -3.679059e-007 9.820800e-001 -2.155768e-001
305985000 -4.903217e-006 -1.166742e-006 -7.825380e-001 -1.481975e-001 -4.513482e-006 -1.117768e-005 9.824405e-001 -2.167777e-001
306270000 -5.177033e-006 5.206505e-006 -7.834076e-001 -1.266582e-001 2.477152e-006 -1.077568e-005 9.833496e-001 -2.155782e-001
306555000 -9.860590e-007 -1.219139e-005 -7.838519e-001 -1.052867e-001 7.092094e-006 1.763353e-006 9.824237e-001 -2.178670e-001
306840000 -8.506470e-007 -4.343540e-006 -7.837881e-001 -8.412226e-002 7.045820e-006 -3.894974e-006 9.814174e-001 -2.158493e-001
307125000 1.769685e-005 -4.705531e-006 -7.833194e-001 -6.304498e-002 -1.542962e-005 6.373549e-007 9.813980e-001 -2.171828e-001
307410000 1.264684e-006 -6.555933e-006 -7.824395e-001 -4.216467e-002 8.659170e-006 -6.397525e-006 9.821334e-001 -2.172887e-001
307695000 9.211583e-007 -1.748934e-005 -7.812412e-001 -2.139838e-002 -1.343416e-005 5.209209e-006 9.822662e-001 -2.181548e-001
307980000 1.546358e-005 2.946818e-006 -7.795743e-001 -7.747331e-004 -9.996614e-006 2.443498e-006 9.807826e-001 -2.177283e-001
308265000 -5.749693e-006 -6.288478e-006 -7.775247e-001 1.970888e-002 -2.579165e-006 -1.380027e-006 9.809501e-001 -2.183355e-001
308550000 6.537764e-006 1.342173e-006 -7.750988e-001 4.001476e-002 -1.008265e-005 -1.186751e-006 9.807224e-001 -2.175511e-001
308835000 1.159539e-006 -7.040811e-006 -7.723452e-001 6.017889e-002 1.737067e-006 -3.886895e-006 9.807091e-001 -2.186256e-001
309120000 -8.615970e-006 -4.938183e-006 -7.690892e-001 8.025143e-002 -2.166057e-006 8.946439e-006 9.819653e-001 -2.196614e-001
309405000 -3.040873e-006 -1.755244e-005 -7.656267e-001 1.001887e-001 3.497374e-006 3.522261e-006 9.836552e-001 -2.190579e-001
309690000 -1.109097e-005 -1.898773e-005 -7.616516e-001 1.199685e-001 9.988551e-006 -2.394564e-006 9.824876e-001 -2.191133e-001
309975000 -3.575364e-006 -1.183682e-005 -7.573991e-001 1.396422e-001 -3.520701e-006 1.495216e-005 9.813483e-001 -2.190835e-001
310260000 3.921039e-006 -5.698233e-006 -7.528127e-001 1.591631e-001 5.177780e-006 -1.833280e-005 9.830374e-001 -2.193544e-001
310545000 -6.628527e-006 -1.107233e-005 -7.478104e-001 1.786510e-001 1.532031e-005 -1.629126e-005 9.819660e-001 -2.202292e-001
310830000 6.099652e-006 -1.721483e-005 -7.425049e-001 1.979781e-001 5.727625e-006 6.255117e-006 9.829488e-001 -2.202904e-001
311115000 1.385033e-005 -1.848229e-005 -7.368047e-001 2.172428e-001 -3.509832e-006 -1.715913e-005 9.813393e-001 -2.200615e-001
311400000 3.504231e-006 -1.483053e-005 -7.307624e-001 2.364103e-001 1.087350e-005 -7.053526e-006 9.814251e-001 -2.204060e-001
311685000 1.787023e-005 -2.703710e-006 -7.244283e-001 2.553711e-001 -3.542954e-007 6.947776e-006 9.820526e-001 -2.200895e-001
311970000 6.613603e-006 -4.580877e-006 -7.176528e-001 2.743326e-001 1.419506e-005 -1.438049e-006 9.804565e-001 -2.205544e-001
312255000 1.094474e-006 -4.912334e-006 -7.105107e-001 2.931680e-001 6.427429e-006 1.096574e-005 9.810296e-001 -2.207562e-001
312540000 2.002922e-006 -3.898380e-006 -7.031019e-001 3.119671e-001 7.326995e-006 -2.579415e-006 9.810959e-001 -2.209790e-001
312825000 3.918928e-006 -7.083836e-006 -6.952493e-001 3.305820e-001 4.077374e-006 9.183495e-006 9.811425e-001 -2.215487e-001
313110000 9.860313e-006 1.236639e-006 -6.869297e-001 3.491203e-001 4.715202e-006 2.445309e-006 9.809682e-001 -2.227094e-001
313395000 1.339526e-005 -3.736975e-006 -6.784390e-001 3.676468e-001 -2.038796e-006 3.804632e-006 9.813458e-001 -2.210899e-001
313680000 3.767858e-006 7.287365e-006 -6.693793e-001 3.860258e-001 7.042863e-007 1.899676e-006 9.819400e-001 -2.212882e-001
313965000 6.373750e-007 2.196097e-005 -6.599999e-001 4.043257e-001 -2.162374e-006 -6.092297e-007 9.816610e-001 -2.220284e-001
314250000 5.935623e-006 -7.958829e-006 -6.502274e-001 4.225573e-001 -7.779524e-007 -1.000978e-005 9.802825e-001 -2.223484e-001
314535000 -5.663926e-006 -1.882623e-006 -6.400468e-001 4.406582e-001 -8.365025e-006 -7.160221e-006 9.808001e-001 -2.221922e-001
314820000 -1.479521e-005 2.274734e-006 -6.294120e-001 4.587003e-001 1.920782e-005 -6.375386e-006 9.806235e-001 -2.233274e-001
315105000 -1.613549e-005 5.386645e-006 -6.183490e-001 4.766531e-001 1.629810e-006 7.418333e-006 9.784917e-001 -2.232941e-001
315390000 4.621354e-006 -5.292780e-006 -6.068801e-001 4.945192e-001 1.370654e-005 -1.546261e-005 9.812980e-001 -2.236349e-001
315675000 -1.525731e-005 -1.390517e-005 -5.948862e-001 5.122038e-001 5.670874e-006 1.079980e-005 9.799978e-001 -2.226919e-001
315960000 -8.005324e-006 -9.557517e-006 -5.824946e-001 5.297748e-001 7.830116e-006 -7.927685e-006 9.799043e-001 -2.234025e-001
316245000 -4.571059e-006 1.598390e-005 -5.695819e-001 5.472919e-001 -2.502026e-006 1.032611e-005 9.794610e-001 -2.231685e-001
316530000 -2.025168e-006 -4.348192e-006 -5.562363e-001 5.647194e-001 -5.762495e-006 8.361068e-006 9.806158e-001 -2.243011e-001
316815000 -9.202871e-006 4.383973e-006 -5.423231e-001 5.819348e-001 1.446088e-005 9.080495e-007 9.808760e-001 -2.232283e-001
317100000 2.219604e-006 -3.513046e-006 -5.278957e-001 5.990956e-001 1.041956e-005 -7.512194e-006 9.795099e-001 -2.231675e-001
317385000 -1.175907e-005 -8.810795e-006 -5.129634e-001 6.160146e-001 -1.023317e-005 2.640586e-006 9.814702e-001 -2.229778e-001
317670000 -6.164167e-006 2.340284e-006 -4.975327e-001 6.327748e-001 5.014350e-007 -3.120817e-006 9.810365e-001 -2.246258e-001
317955000 -8.009739e-006 -2.194578e-006 -4.814581e-001 6.493798e-001 -1.083356e-005 1.601613e-006 9.814789e-001 -2.243445e-001
318240000 -5.569036e-006 3.263406e-006 -4.649109e-001 6.658110e-001 -1.867994e-005 -7.270651e-006 9.804456e-001 -2.249192e-001
318525000 5.692385e-006 -2.328711e-006 -4.476932e-001 6.820428e-001 -1.071985e-005 -1.612374e-005 9.804813e-001 -2.246269e-001
318810000 4.284082e-006 -1.459260e-005 -4.298428e-001 6.979556e-001 -7.277468e-006 -6.030095e-006 9.797592e-001 -2.251509e-001
319095000 -9.604448e-006 -1.516355e-005 -4.114320e-001 7.136428e-001 -1.140151e-005 -1.660643e-005 9.794613e-001 -2.243993e-001
319380000 -6.399424e-007 -1.982590e-005 -3.922657e-001 7.291176e-001 9.318330e-006 -2.014611e-005 9.805453e-001 -2.264114e-001
319665000 -7.342349e-006 -5.949355e-006 -3.726065e-001 7.442577e-001 2.054908e-006 -1.557803e-005 9.808280e-001 -2.251324e-001
319950000 -8.495538e-006 -5.512825e-006 -3.522143e-001 7.590918e-001 1.256159e-005 -2.287874e-005 9.798196e-001 -2.269957e-001
320235000 -1.650548e-005 -1.146735e-005 -3.311610e-001 7.734796e-001 1.748164e-005 -9.011507e-006 9.805005e-001 -2.270853e-001
320520000 -3.740803e-006 4.007743e-006 -3.093746e-001 7.875336e-001 2.295394e-006 -4.717778e-006 9.800039e-001 -2.271016e-001
320805000 -2.777137e-006 -5.521009e-006 -2.869574e-001 8.011293e-001 7.777541e-006 4.472985e-006 9.793084e-001 -2.263419e-001
321090000 2.479245e-006 -8.423193e-006 -2.638589e-001 8.142777e-001 -6.746960e-007 1.559267e-005 9.789856e-001 -2.265205e-001
321375000 2.148385e-006 5.464165e-006 -2.399400e-001 8.269934e-001 -6.440809e-006 1.259115e-005 9.796782e-001 -2.266963e-001
321660000 -3.302471e-006 -2.547528e-006 -2.153116e-001 8.390622e-001 -5.967371e-006 -1.760512e-006 9.801659e-001 -2.271439e-001
321945000 -4.318847e-006 -1.296379e-006 -1.899567e-001 8.507126e-001 -1.733459e-005 1.606273e-006 9.792973e-001 -2.281780e-001
322230000 -4.516727e-006 -1.420876e-005 -1.639241e-001 8.615238e-001 -2.669496e-005 -3.233619e-006 9.789236e-001 -2.282274e-001
322515000 8.638381e-006 -9.413999e-006 -1.370711e-001 8.717092e-001 -1.943293e-005 1.308102e-005 9.784015e-001 -2.284985e-001
322800000 2.035508e-006 -2.346815e-006 -1.095710e-001 8.811483e-001 -1.508220e-005 -1.381508e-005 9.804649e-001 -2.281558e-001
323085000 -6.847955e-006 5.081352e-006 -8.129725e-002 8.899678e-001 -6.557612e-006 -8.016112e-006 9.793258e-001 -2.280888e-001
323370000 -7.635335e-006 -1.535116e-005 -5.229801e-002 8.977918e-001 -4.609289e-006 -9.739835e-006 9.798300e-001 -2.290111e-001
323655000 -1.420595e-006 -7.115394e-006 -2.267103e-002 9.048110e-001 -9.376329e-006 -1.285203e-005 9.789146e-001 -2.294253e-001
323940000 5.609956e-006 6.464071e-008 7.710853e-003 9.108185e-001 3.271353e-006 1.728021e-006 9.787726e-001 -2.299288e-001
324225000 3.409315e-006 -1.222150e-005 3.866043e-002 9.157725e-001 -8.084169e-006 -1.061085e-005 9.772917e-001 -2.290078e-001
324510000 -1.440026e-005 -9.468381e-006 7.035518e-002 9.196918e-001 1.600302e-006 5.558384e-006 9.796703e-001 -2.309336e-001
324795000 -1.478411e-005 7.184783e-006 1.025899e-001 9.224754e-001 2.963809e-006 -4.526077e-006 9.791296e-001 -2.298906e-001
325080000 -1.135283e-008 1.661204e-005 1.353979e-001 9.240583e-001 2.026899e-005 -5.561551e-006 9.787034e-001 -2.298631e-001
325365000 4.831897e-006 -2.182822e-006 1.687326e-001 9.243888e-001 -3.280432e-008 -1.966328e-006 9.793497e-001 -2.300043e-001
325650000 -1.773722e-006 -4.619342e-006 2.024779e-001 9.233953e-001 -9.619891e-006 -5.748483e-006 9.789377e-001 -2.298198e-001
325935000 -1.432398e-005 -2.694312e-006 2.366951e-001 9.210091e-001 -9.187900e-006 -6.604955e-006 9.786270e-001 -2.309517e-001
326220000 1.118369e-005 -2.781600e-006 2.712104e-001 9.172421e-001 -2.450649e-005 5.950719e-008 9.790212e-001 -2.312868e-001
326505000 -6.907776e-008 7.879053e-006 3.060347e-001 9.119090e-001 -2.211457e-005 -7.363747e-007 9.784467e-001 -2.314873e-001
326790000 -9.673902e-006 -7.593110e-006 3.410289e-001 9.050270e-001 -3.354962e-006 1.904111e-006 9.772684e-001 -2.303108e-001
327075000 -7.509614e-006 -2.164691e-006 3.760762e-001 8.965976e-001 -8.616270e-006 3.805152e-006 9.781920e-001 -2.318829e-001
327360000 4.833842e-008 6.782470e-006 4.111542e-001 8.864887e-001 -7.362362e-006 -1.825786e-005 9.793363e-001 -2.316268e-001
327645000 -9.576014e-007 -2.095091e-006 4.462127e-001 8.748369e-001 3.485577e-007 -9.168887e-006 9.784395e-001 -2.315383e-001
327930000 7.710591e-006 -1.844277e-005 4.811427e-001 8.613225e-001 -7.955464e-006 -3.610754e-006 9.780564e-001 -2.311924e-001
328215000 9.216954e-006 -1.510094e-005 5.156343e-001 8.462528e-001 4.066573e-008 9.077523e-006 9.781496e-001 -2.323009e-001
328500000 8.117396e-006 -1.097741e-006 5.498483e-001 8.293004e-001 -9.495107e-006 -5.524284e-006 9.775139e-001 -2.327077e-001
328785000 -1.101279e-005 1.722783e-006 5.835018e-001 8.108162e-001 -1.722815e-005 -3.442315e-006 9.776273e-001 -2.318393e-001
329070000 -2.761411e-006 1.645477e-005 6.165008e-001 7.904717e-001 -7.005106e-006 2.079373e-006 9.777921e-001 -2.322883e-001
329355000 -4.889970e-006 9.349907e-006 6.488557e-001 7.684574e-001 -1.756692e-005 -1.416535e-006 9.776343e-001 -2.332101e-001
329640000 -1.384194e-006 -6.522226e-007 6.802399e-001 7.447836e-001 -1.055104e-005 -1.167872e-005 9.778746e-001 -2.333217e-001
329925000 -1.226077e-005 1.007682e-005 7.107357e-001 7.195383e-001 -6.906849e-007 1.827763e-006 9.774781e-001 -2.331084e-001
330210000 -6.754578e-006 1.138622e-005 7.400239e-001 6.927487e-001 -7.002933e-006 8.999106e-007 9.766341e-001 -2.336077e-001
330495000 -4.604376e-006 -3.215332e-006 7.681248e-001 6.643732e-001 -8.033826e-006 4.272092e-006 9.771659e-001 -2.335449e-001
330780000 -2.559124e-006 -2.319028e-006 7.950380e-001 6.345990e-001 -6.714063e-006 1.019623e-005 9.777990e-001 -2.345956e-001
331065000 -5.690610e-006 -6.848508e-006 8.204515e-001 6.033890e-001 -5.279599e-006 4.341521e-006 9.761515e-001 -2.329744e-001
331350000 -3.620639e-006 -1.423923e-005 8.444862e-001 5.709846e-001 4.957871e-006 1.039620e-005 9.767578e-001 -2.340230e-001
331635000 -2.810559e-006 -1.808235e-005 8.667492e-001 5.373384e-001 -3.926487e-006 1.101123e-005 9.778656e-001 -2.343068e-001
331920000 3.174822e-006 5.722573e-006 8.874066e-001 5.026672e-001 -7.481579e-006 1.663790e-005 9.774169e-001 -2.341536e-001
332205000 1.085831e-005 1.302841e-005 9.064099e-001 4.670404e-001 8.859929e-006 7.326411e-006 9.765680e-001 -2.353144e-001
332490000 9.876868e-007 1.198424e-005 9.234955e-001 4.305983e-001 -2.150545e-006 6.837377e-006 9.776792e-001 -2.347112e-001
332775000 -8.017251e-006 2.081790e-005 9.387533e-001 3.933277e-001 -1.903769e-005 6.185862e-006 9.770718e-001 -2.354935e-001
333060000 -4.327747e-006 1.360143e-005 9.522849e-001 3.556545e-001 -1.558208e-006 -7.158518e-006 9.772567e-001 -2.354499e-001
333345000 1.234084e-005 4.962723e-006 9.638134e-001 3.173999e-001 -9.560547e-006 1.069359e-005 9.780919e-001 -2.349223e-001
333630000 1.533942e-007 -9.315661e-006 9.735253e-001 2.789789e-001 -8.595179e-006 1.384037e-006 9.772913e-001 -2.366991e-001
333915000 -8.653707e-006 1.097147e-005 9.812701e-001 2.402444e-001 1.772270e-005 5.506089e-007 9.765926e-001 -2.360285e-001
334200000 2.039598e-006 1.017886e-005 9.870914e-001 2.014477e-001 -2.039502e-005 9.074921e-006 9.775757e-001 -2.370819e-001
334485000 -8.749047e-007 2.763707e-006 9.911568e-001 1.625265e-001 -1.485383e-006 1.473095e-005 9.770335e-001 -2.359762e-001
334770000 -1.197062e-007 -1.356569e-005 9.933634e-001 1.239365e-001 -5.191086e-006 1.198283e-005 9.772375e-001 -2.368371e-001
335055000 1.508516e-006 1.187479e-005 9.936578e-001 8.558462e-002 -3.446374e-006 7.790606e-006 9.778162e-001 -2.365272e-001
335340000 3.194212e-006 1.367157e-005 9.922355e-001 4.775742e-002 -1.117820e-005 2.619538e-006 9.773227e-001 -2.381679e-001
335625000 1.187629e-005 -1.450912e-006 9.891148e-001 1.027916e-002 -1.106797e-006 1.660449e-005 9.773335e-001 -2.377612e-001
335910000 -2.069882e-006 2.310105e-006 9.843691e-001 -2.655754e-002 -1.168670e-005 7.912305e-006 9.769413e-001 -2.374306e-001
336195000 2.415142e-006 8.535530e-006 9.781014e-001 -6.272186e-002 -6.351053e-006 -2.235274e-007 9.759677e-001 -2.376309e-001
336480000 -9.832325e-006 1.056887e-005 9.703048e-001 -9.831452e-002 -6.299484e-006 4.763145e-006 9.774019e-001 -2.374333e-001
336765000 -3.234717e-006 2.258787e-006 9.610476e-001 -1.328939e-001 -4.572225e-006 -1.904789e-005 9.769664e-001 -2.382673e-001
337050000 -7.264991e-006 1.205988e-005 9.505822e-001 -1.668018e-001 3.560680e-006 -9.965622e-006 9.775184e-001 -2.383087e-001
337335000 -6.540021e-006 6.342523e-006 9.388068e-001 -1.997194e-001 -1.087629e-006 -4.467643e-007 9.765537e-001 -2.399668e-001
337620000 -1.055352e-005 1.790243e-006 9.258411e-001 -2.318384e-001 -8.792557e-006 -3.085510e-006 9.767612e-001 -2.397636e-001
337905000 -6.459793e-006 -3.987034e-006 9.118329e-001 -2.628076e-001 -2.141873e-006 -5.019901e-006 9.758124e-001 -2.381476e-001
338190000 -4.382588e-006 4.132501e-006 8.967623e-001 -2.927822e-001 -6.519854e-006 -1.033445e-005 9.764314e-001 -2.396365e-001
338475000 9.667222e-007 9.757762e-006 8.808134e-001 -3.217348e-001 1.445570e-005 -1.054261e-005 9.773082e-001 -2.386476e-001
338760000 -4.067273e-006 1.328163e-005 8.639436e-001 -3.497364e-001 1.392080e-006 -1.702478e-005 9.769856e-001 -2.394187e-001
339045000 -1.725013e-005 1.825462e-006 8.463836e-001 -3.766462e-001 1.943701e-006 -1.176827e-005 9.767776e-001 -2.397518e-001
339330000 -9.997400e-006 5.596324e-006 8.280702e-001 -4.025440e-001 2.396085e-005 2.234048e-005 9.777843e-001 -2.386651e-001
339615000 -3.931395e-006 -5.590077e-006 8.091661e-001 -4.272981e-001 1.467912e-005 -2.062394e-006 9.770496e-001 -2.406872e-001
339900000 -1.107710e-006 -2.475939e-006 7.896205e-001 -4.510727e-001 1.551344e-005 8.220401e-006 9.763594e-001 -2.410823e-001
340185000 -1.528757e-006 -1.354030e-005 7.696434e-001 -4.737062e-001 -1.001911e-005 7.571061e-006 9.767842e-001 -2.411607e-001
340470000 -2.527134e-006 -1.296672e-005 7.490711e-001 -4.954393e-001 1.084684e-005 -7.083215e-006 9.767756e-001 -2.398580e-001
340755000 6.077516e-006 -6.809552e-007 7.282590e-001 -5.161173e-001 4.969075e-006 1.760136e-005 9.767426e-001 -2.417102e-001
341040000 -1.396765e-005 -4.881598e-006 7.070261e-001 -5.357357e-001 -1.148411e-005 1.357488e-006 9.762078e-001 -2.418650e-001
341325000 4.445064e-006 -4.057936e-006 6.855923e-001 -5.543628e-001 -1.732094e-005 -5.457733e-008 9.773382e-001 -2.400566e-001
341610000 1.267294e-005 -1.423494e-006 6.637270e-001 -5.721329e-001 8.042359e-006 -7.015678e-006 9.779658e-001 -2.409940e-001
341895000 9.937743e-006 -8.873175e-007 6.417589e-001 -5.888891e-001 1.284307e-005 6.368949e-006 9.761018e-001 -2.424090e-001
342180000 -2.954829e-006 -1.975589e-006 6.197131e-001 -6.047927e-001 2.319489e-005 -7.392818e-006 9.772943e-001 -2.426420e-001
342465000 -1.876463e-006 -1.527523e-007 5.974805e-001 -6.197737e-001 1.018963e-005 1.898900e-005 9.768645e-001 -2.427821e-001
342750000 5.388887e-006 -4.139928e-006 5.750812e-001 -6.338102e-001 4.551776e-006 1.294880e-005 9.783702e-001 -2.420034e-001
343035000 -9.786838e-007 7.397631e-006 5.527080e-001 -6.471525e-001 -7.225537e-006 2.684422e-006 9.763941e-001 -2.437584e-001
343320000 4.234320e-006 -1.211354e-005 5.301930e-001 -6.596743e-001 3.547308e-006 1.056197e-005 9.760256e-001 -2.431220e-001
343605000 9.727777e-006 1.162407e-005 5.077543e-001 -6.713981e-001 -3.478587e-008 6.650294e-006 9.761651e-001 -2.430889e-001
343890000 4.847552e-007 1.153576e-005 4.852342e-001 -6.823278e-001 3.334662e-006 -9.840114e-006 9.769124e-001 -2.437513e-001
