!Agilent Technologies,N5230C,SG49000117,A.08.50.07
!Agilent N5230C: A.08.50.07
!Date: Sunday, March 17, 2024 00:52:32
!Correction: S11(Off) 
!S21(Off) 
!S12(Off) 
!S22(Full 1 Port(2)) 
!S2P File: Measurements: S11, S21, S12, S22:
# Hz S  RI   R 50
300000000 9.077157e-006 -6.715610e-006 -6.380667e-001 -6.140466e-001 6.343410e-006 -8.240129e-006 9.721786e-001 -2.502485e-001
300285000 1.455361e-005 -9.305857e-007 -6.522697e-001 -5.908623e-001 6.110490e-006 1.026450e-005 9.728104e-001 -2.502179e-001
300570000 -6.565367e-006 9.248463e-007 -6.657144e-001 -5.674049e-001 -1.601093e-005 8.312111e-006 9.730907e-001 -2.510207e-001
300855000 7.655544e-006 7.187727e-006 -6.780993e-001 -5.440144e-001 -6.192879e-006 -1.641341e-006 9.735088e-001 -2.506220e-001
301140000 2.162255e-006 -1.467632e-005 -6.897867e-001 -5.204365e-001 8.753567e-006 -1.925762e-006 9.727790e-001 -2.514834e-001
301425000 1.052955e-005 -4.056443e-006 -7.006645e-001 -4.970178e-001 -7.546043e-006 -7.790645e-006 9.741474e-001 -2.514092e-001
301710000 -6.730047e-006 1.775876e-005 -7.107591e-001 -4.734742e-001 -1.267671e-005 -8.606550e-006 9.738160e-001 -2.532705e-001
301995000 8.904346e-006 -3.498719e-006 -7.199915e-001 -4.500821e-001 1.639216e-008 -6.807947e-006 9.729242e-001 -2.515906e-001
302280000 -4.437486e-006 1.296860e-005 -7.286579e-001 -4.267427e-001 1.343660e-005 -6.300720e-006 9.736263e-001 -2.523295e-001
302565000 -5.973332e-006 9.101659e-006 -7.365553e-001 -4.034471e-001 2.303375e-005 -7.016314e-006 9.741174e-001 -2.530463e-001
302850000 -5.493147e-006 2.853321e-006 -7.436978e-001 -3.803693e-001 -5.747704e-007 -1.002478e-007 9.730225e-001 -2.517421e-001
303135000 6.125053e-006 -4.874993e-006 -7.502929e-001 -3.573100e-001 -2.085164e-006 -3.001514e-008 9.729035e-001 -2.528527e-001
303420000 1.374590e-005 -1.708240e-006 -7.561572e-001 -3.343914e-001 6.165450e-006 2.723111e-006 9.724741e-001 -2.544256e-001
303705000 -2.129709e-006 -7.323895e-007 -7.613713e-001 -3.115543e-001 1.735819e-005 4.748219e-006 9.745417e-001 -2.540627e-001
303990000 -3.175028e-006 -8.941055e-006 -7.660577e-001 -2.889003e-001 8.286625e-006 8.664167e-007 9.725343e-001 -2.531776e-001
304275000 5.358091e-006 9.343793e-006 -7.702251e-001 -2.664395e-001 -4.980686e-006 -2.680272e-007 9.731482e-001 -2.541417e-001
304560000 9.185498e-006 -2.594361e-006 -7.738385e-001 -2.440543e-001 1.049443e-005 1.525436e-006 9.732280e-001 -2.539643e-001
304845000 8.562314e-006 5.612095e-006 -7.768608e-001 -2.218102e-001 1.543076e-006 -6.153596e-006 9.724478e-001 -2.542050e-001
305130000 1.695661e-005 1.475849e-006 -7.793745e-001 -1.997535e-001 -1.299984e-005 1.558475e-006 9.721320e-001 -2.542298e-001
305415000 -2.290926e-006 -4.388329e-006 -7.813643e-001 -1.779722e-001 -1.993947e-006 -1.926907e-007 9.727916e-001 -2.548979e-001
305700000 1.721407e-005 -2.545042e-006 -7.828486e-001 -1.561382e-001 7.343076e-006 -1.812726e-005 9.731033e-001 -2.547090e-001
305985000 1.535067e-005 -1.387313e-005 -7.837806e-001 -1.345182e-001 -8.215521e-007 -9.465224e-006 9.732710e-001 -2.557617e-001
306270000 8.865254e-006 1.017101e-005 -7.844890e-001 -1.130217e-001 1.103610e-005 6.661222e-006 9.742620e-001 -2.546364e-001
306555000 -3.900237e-007 -5.909063e-006 -7.845705e-001 -9.171388e-002 -3.640429e-006 -1.098508e-005 9.735950e-001 -2.572474e-001
306840000 8.545835e-006 4.657152e-007 -7.841889e-001 -7.063609e-002 -2.467116e-006 -1.858171e-006 9.724985e-001 -2.549728e-001
307125000 1.553417e-005 -1.535654e-005 -7.835206e-001 -4.959566e-002 -5.209673e-006 -9.594555e-007 9.725499e-001 -2.563874e-001
307410000 2.205170e-006 -1.105979e-005 -7.823264e-001 -2.874415e-002 6.768104e-006 -4.069641e-006 9.731802e-001 -2.566577e-001
307695000 1.769163e-006 -7.827483e-006 -7.807822e-001 -8.055318e-003 -4.040020e-006 -1.847948e-005 9.731396e-001 -2.575468e-001
307980000 5.003069e-006 7.963887e-006 -7.788829e-001 1.251880e-002 3.253797e-006 2.912018e-006 9.718833e-001 -2.570013e-001
308265000 7.380174e-006 5.196646e-006 -7.765836e-001 3.289544e-002 -8.489993e-006 -1.282152e-006 9.719126e-001 -2.572792e-001
308550000 -1.416202e-006 5.974962e-006 -7.738576e-001 5.316221e-002 9.828364e-006 -2.558178e-006 9.717443e-001 -2.566975e-001
308835000 -1.228664e-006 1.071936e-005 -7.707353e-001 7.326952e-002 1.810890e-006 -8.985229e-006 9.718035e-001 -2.580343e-001
309120000 -6.141322e-006 -1.182781e-005 -7.673233e-001 9.337154e-002 7.567774e-006 -2.683579e-007 9.729045e-001 -2.591708e-001
309405000 1.361916e-006 1.697020e-006 -7.634669e-001 1.131389e-001 4.008243e-006 -1.200551e-005 9.744982e-001 -2.585914e-001
309690000 1.268285e-005 1.270964e-005 -7.593306e-001 1.329189e-001 8.775554e-008 1.018154e-005 9.733173e-001 -2.584107e-001
309975000 -5.037285e-007 -9.312986e-006 -7.547498e-001 1.525897e-001 3.161387e-006 -3.904142e-006 9.721751e-001 -2.587983e-001
310260000 2.083584e-006 -4.321363e-006 -7.498810e-001 1.720423e-001 -4.260623e-006 3.523802e-007 9.737186e-001 -2.589144e-001
310545000 -1.095698e-005 -5.851874e-007 -7.446532e-001 1.913962e-001 5.354806e-007 -1.438253e-005 9.725696e-001 -2.596133e-001
310830000 5.051952e-006 -1.381155e-005 -7.390492e-001 2.106879e-001 -6.295751e-006 -2.830127e-006 9.738432e-001 -2.601160e-001
311115000 1.707995e-005 7.949589e-007 -7.331416e-001 2.298718e-001 -2.752158e-007 -3.663377e-006 9.719819e-001 -2.598409e-001
311400000 4.839605e-006 -8.666751e-006 -7.268183e-001 2.490072e-001 7.007342e-006 -2.591104e-006 9.723359e-001 -2.603448e-001
311685000 1.065314e-006 -6.128147e-007 -7.201577e-001 2.679014e-001 -1.072389e-006 -5.084900e-006 9.726902e-001 -2.598905e-001
311970000 3.444483e-007 -1.190429e-005 -7.131147e-001 2.867742e-001 -9.795018e-006 -4.866507e-006 9.713486e-001 -2.601639e-001
312255000 1.212515e-005 -9.013553e-006 -7.057337e-001 3.056154e-001 2.550992e-005 1.381415e-006 9.718542e-001 -2.603362e-001
312540000 1.288546e-005 -7.027081e-006 -6.979616e-001 3.243454e-001 -1.374379e-005 -2.213301e-007 9.716658e-001 -2.608177e-001
312825000 9.757441e-006 -1.268637e-006 -6.899176e-001 3.429014e-001 1.694488e-005 -1.546170e-006 9.719281e-001 -2.612270e-001
313110000 -4.697852e-006 -4.117905e-006 -6.813544e-001 3.614312e-001 1.281638e-006 6.291420e-007 9.716318e-001 -2.624706e-001
313395000 -8.263321e-006 4.970781e-006 -6.725067e-001 3.798510e-001 4.924118e-006 -1.632238e-005 9.718994e-001 -2.610630e-001
313680000 -4.484662e-006 1.224595e-005 -6.632107e-001 3.980999e-001 2.613458e-005 -2.626731e-007 9.726614e-001 -2.615137e-001
313965000 3.929975e-006 -1.163226e-005 -6.535172e-001 4.164532e-001 2.155895e-005 5.938645e-006 9.721850e-001 -2.621654e-001
314250000 -1.474854e-005 -4.397844e-006 -6.434745e-001 4.345315e-001 -1.100527e-005 1.028858e-005 9.708866e-001 -2.622476e-001
314535000 -3.734949e-006 -6.697599e-006 -6.330017e-001 4.525551e-001 -1.383500e-005 9.746364e-006 9.714421e-001 -2.621626e-001
314820000 7.994197e-006 -9.407274e-007 -6.220109e-001 4.705420e-001 -9.398244e-006 6.678755e-006 9.714454e-001 -2.635417e-001
315105000 -1.724594e-006 -2.452408e-006 -6.107025e-001 4.883938e-001 2.210460e-006 -2.407808e-006 9.687200e-001 -2.631499e-001
315390000 6.661790e-006 1.342616e-005 -5.988609e-001 5.061198e-001 3.134055e-006 6.638714e-007 9.715754e-001 -2.637363e-001
315675000 -4.148267e-006 -1.015179e-005 -5.865431e-001 5.237415e-001 -1.236791e-005 -6.973997e-006 9.702963e-001 -2.627592e-001
315960000 1.425156e-005 -1.010513e-007 -5.737809e-001 5.413451e-001 -6.741423e-006 6.268449e-007 9.704511e-001 -2.636259e-001
316245000 2.410322e-005 3.212473e-006 -5.606065e-001 5.586286e-001 -9.956369e-006 -1.024102e-005 9.698324e-001 -2.632324e-001
316530000 1.804735e-006 6.775137e-006 -5.468776e-001 5.759357e-001 2.346595e-008 -8.892645e-006 9.709592e-001 -2.644980e-001
316815000 -3.905444e-006 9.397825e-006 -5.326644e-001 5.930737e-001 1.098458e-005 -7.627360e-006 9.713288e-001 -2.635742e-001
317100000 -1.075859e-005 1.950723e-006 -5.178819e-001 6.100792e-001 -2.925594e-006 -8.551586e-006 9.699447e-001 -2.636998e-001
317385000 -1.503828e-006 -5.783420e-006 -5.025457e-001 6.269207e-001 1.647543e-005 -1.047589e-005 9.718992e-001 -2.636372e-001
317670000 8.471604e-007 -4.335945e-007 -4.867081e-001 6.435488e-001 1.169234e-005 -7.995689e-006 9.712083e-001 -2.650208e-001
317955000 -2.073530e-006 -1.523074e-005 -4.703103e-001 6.599916e-001 8.679408e-006 -5.383847e-007 9.718041e-001 -2.652570e-001
318240000 -3.071755e-006 -7.388572e-006 -4.532855e-001 6.761807e-001 -2.196126e-006 -5.774654e-006 9.707067e-001 -2.654127e-001
318525000 6.649251e-006 -1.373368e-005 -4.356648e-001 6.921740e-001 -6.350973e-006 1.623350e-005 9.706573e-001 -2.650250e-001
318810000 5.874531e-006 8.313285e-006 -4.174700e-001 7.079852e-001 1.405999e-005 -1.048944e-005 9.700418e-001 -2.659476e-001
319095000 -7.719247e-006 -4.645296e-006 -3.985843e-001 7.234823e-001 -1.929842e-006 1.102250e-005 9.695989e-001 -2.650062e-001
319380000 -1.908765e-005 -1.522237e-005 -3.790732e-001 7.386857e-001 7.553549e-006 2.090395e-006 9.706934e-001 -2.669257e-001
319665000 1.041773e-006 6.942203e-006 -3.590081e-001 7.534721e-001 2.744381e-006 -6.693328e-006 9.709681e-001 -2.659685e-001
319950000 6.620910e-006 -9.519629e-006 -3.381646e-001 7.680509e-001 3.390027e-006 4.012409e-006 9.698657e-001 -2.678531e-001
320235000 2.096804e-005 9.011747e-006 -3.166474e-001 7.821686e-001 -1.389739e-006 -1.948034e-005 9.704959e-001 -2.678860e-001
320520000 -1.155675e-005 1.197664e-006 -2.945030e-001 7.959206e-001 -2.032557e-005 2.113106e-006 9.699028e-001 -2.678363e-001
320805000 -2.016079e-005 4.417968e-006 -2.716685e-001 8.091881e-001 -5.821120e-006 -1.022954e-005 9.692143e-001 -2.671022e-001
321090000 -1.235050e-006 1.483666e-006 -2.480540e-001 8.220220e-001 4.499400e-007 -7.696896e-006 9.690635e-001 -2.673300e-001
321375000 -4.511314e-006 -1.117387e-005 -2.236438e-001 8.342936e-001 -1.321456e-006 -4.953723e-006 9.696385e-001 -2.676757e-001
321660000 -6.625173e-006 4.982484e-006 -1.985102e-001 8.460302e-001 -1.155425e-005 1.371768e-005 9.701058e-001 -2.682005e-001
321945000 4.660797e-006 -2.151556e-006 -1.728249e-001 8.571139e-001 -6.821360e-006 1.534402e-005 9.691679e-001 -2.691669e-001
322230000 -3.558306e-006 4.064616e-006 -1.463038e-001 8.675305e-001 -3.794558e-006 1.945416e-006 9.685214e-001 -2.693436e-001
322515000 -7.112764e-006 -6.344249e-006 -1.190539e-001 8.773038e-001 -6.820882e-006 -1.030634e-005 9.681813e-001 -2.693557e-001
322800000 -8.104179e-006 -7.714380e-006 -9.107745e-002 8.861985e-001 -4.571758e-006 4.166005e-006 9.701217e-001 -2.691754e-001
323085000 -6.422003e-006 -3.165259e-006 -6.241190e-002 8.943746e-001 1.190883e-006 -2.215809e-006 9.691837e-001 -2.693661e-001
323370000 -2.532971e-006 -7.665755e-007 -3.300228e-002 9.016870e-001 -1.153494e-005 -1.015000e-005 9.693757e-001 -2.700675e-001
323655000 -1.456739e-005 2.378244e-006 -2.927323e-003 9.079988e-001 -1.077626e-005 5.222300e-007 9.686444e-001 -2.705101e-001
323940000 -3.633231e-006 1.745159e-006 2.775237e-002 9.133233e-001 -1.140097e-005 -1.206538e-005 9.682354e-001 -2.710933e-001
324225000 6.492284e-007 -1.478209e-005 5.917579e-002 9.175953e-001 2.741451e-006 -1.506515e-005 9.668716e-001 -2.702569e-001
324510000 8.121080e-007 -8.885801e-006 9.118264e-002 9.209116e-001 -7.203970e-006 7.825406e-006 9.693295e-001 -2.720704e-001
324795000 -1.868370e-005 -6.338130e-007 1.237158e-001 9.228050e-001 4.810052e-006 -1.683442e-005 9.685152e-001 -2.712332e-001
325080000 -4.835613e-006 2.155541e-007 1.567211e-001 9.236386e-001 6.306225e-006 -6.091673e-006 9.681987e-001 -2.710199e-001
325365000 -4.399833e-006 -9.767266e-006 1.904318e-001 9.230967e-001 1.932119e-006 1.767990e-005 9.687173e-001 -2.714746e-001
325650000 -2.695199e-005 -5.137925e-006 2.244031e-001 9.212116e-001 1.421014e-005 1.474977e-006 9.682493e-001 -2.710082e-001
325935000 9.890134e-007 1.609970e-006 2.588133e-001 9.178917e-001 7.700912e-006 1.085887e-006 9.679151e-001 -2.723505e-001
326220000 7.330786e-006 -1.080252e-005 2.934374e-001 9.131831e-001 -1.152681e-005 -9.138531e-006 9.683362e-001 -2.725976e-001
326505000 -7.277610e-008 -6.209676e-006 3.283655e-001 9.068762e-001 8.906281e-006 -1.383747e-006 9.678052e-001 -2.729496e-001
326790000 2.401699e-006 -1.443310e-005 3.633941e-001 8.990360e-001 9.637021e-006 -1.242119e-005 9.666206e-001 -2.717160e-001
327075000 1.187476e-005 -3.422380e-006 3.984802e-001 8.894418e-001 8.669831e-006 3.352339e-006 9.672318e-001 -2.734500e-001
327360000 5.990369e-006 -7.180946e-007 4.335073e-001 8.785152e-001 6.635492e-006 1.712075e-005 9.684833e-001 -2.733794e-001
327645000 4.895579e-006 -1.171895e-005 4.684265e-001 8.657131e-001 1.632197e-006 1.389058e-005 9.676765e-001 -2.731172e-001
327930000 2.913185e-006 -7.615694e-006 5.030025e-001 8.511281e-001 -7.320847e-007 -4.169549e-006 9.670847e-001 -2.730154e-001
328215000 1.618006e-005 -1.177151e-006 5.373865e-001 8.349394e-001 -2.136167e-005 -3.156056e-006 9.673072e-001 -2.738180e-001
328500000 3.075985e-007 -7.322418e-006 5.712312e-001 8.169703e-001 -1.175628e-006 -1.766419e-005 9.664484e-001 -2.744198e-001
328785000 -6.512793e-006 -5.682688e-006 6.044675e-001 7.974586e-001 1.413881e-005 1.305216e-005 9.666790e-001 -2.736133e-001
329070000 2.521728e-006 -4.574726e-006 6.370336e-001 7.759991e-001 -2.276028e-006 8.138353e-006 9.668852e-001 -2.740622e-001
329355000 1.275999e-006 -8.379017e-006 6.688602e-001 7.530978e-001 2.925095e-007 6.230437e-006 9.667401e-001 -2.749750e-001
329640000 -1.912801e-006 -1.115459e-006 6.996604e-001 7.283847e-001 -1.049500e-006 -7.022627e-006 9.669005e-001 -2.751492e-001
329925000 -8.516539e-006 -3.546383e-006 7.293803e-001 7.021270e-001 -1.602068e-005 1.331405e-005 9.662949e-001 -2.747689e-001
330210000 -6.921167e-007 -5.262545e-006 7.580529e-001 6.743808e-001 1.298873e-005 9.867418e-007 9.656673e-001 -2.753368e-001
330495000 -2.230146e-006 -5.962227e-006 7.853370e-001 6.450592e-001 -1.306480e-005 8.756218e-006 9.660118e-001 -2.753908e-001
330780000 8.239012e-006 3.365284e-006 8.113812e-001 6.143475e-001 1.269870e-005 -1.383921e-005 9.666879e-001 -2.765521e-001
331065000 7.809550e-007 8.641631e-006 8.357968e-001 5.824360e-001 7.178286e-006 9.299183e-006 9.651173e-001 -2.749776e-001
331350000 -3.447573e-006 -2.594094e-006 8.587928e-001 5.492203e-001 -5.096716e-006 -3.685045e-006 9.655475e-001 -2.760532e-001
331635000 -1.625190e-005 -6.325431e-007 8.801779e-001 5.149713e-001 2.828560e-006 -1.054150e-005 9.666520e-001 -2.762533e-001
331920000 -3.637413e-007 -2.428603e-006 8.997902e-001 4.796147e-001 7.318529e-006 2.003869e-006 9.662073e-001 -2.764028e-001
332205000 -6.738115e-006 5.451700e-006 9.175295e-001 4.434351e-001 1.610989e-005 1.245253e-006 9.655141e-001 -2.773327e-001
332490000 -9.533190e-006 -3.912367e-006 9.335560e-001 4.065585e-001 6.701911e-006 5.440847e-007 9.663720e-001 -2.768547e-001
332775000 -1.470478e-005 -7.658456e-006 9.477917e-001 3.689641e-001 -1.875906e-006 4.232243e-006 9.656565e-001 -2.775578e-001
333060000 -6.123937e-006 -6.201484e-006 9.600661e-001 3.309456e-001 1.224499e-007 -4.182557e-006 9.660236e-001 -2.776722e-001
333345000 -9.735615e-006 -9.123741e-006 9.704081e-001 2.924350e-001 1.996404e-006 -2.103514e-006 9.669389e-001 -2.772798e-001
333630000 -5.035067e-006 8.767224e-006 9.788789e-001 2.537206e-001 3.570900e-006 -3.379478e-006 9.657695e-001 -2.789881e-001
333915000 -9.145226e-006 1.017874e-005 9.855290e-001 2.148620e-001 8.581259e-006 3.701771e-006 9.653949e-001 -2.783339e-001
334200000 -1.149655e-005 -6.059639e-006 9.902065e-001 1.760389e-001 6.788901e-006 1.321088e-006 9.661200e-001 -2.793728e-001
334485000 -7.298300e-006 5.612084e-006 9.930776e-001 1.373323e-001 1.603776e-005 1.087469e-005 9.654996e-001 -2.783167e-001
334770000 -1.148644e-005 -4.445995e-006 9.940352e-001 9.881652e-002 -7.621272e-006 1.965458e-005 9.658705e-001 -2.791743e-001
335055000 -2.052717e-006 -1.175771e-005 9.933076e-001 6.062156e-002 -4.089716e-006 1.159332e-005 9.664469e-001 -2.789971e-001
335340000 7.203794e-006 5.880484e-006 9.908442e-001 2.292608e-002 9.165258e-006 -9.735398e-006 9.659355e-001 -2.804404e-001
335625000 -4.814195e-006 1.578223e-005 9.866101e-001 -1.420706e-002 -7.599835e-006 9.542317e-006 9.658935e-001 -2.801645e-001
335910000 8.696027e-007 1.424825e-006 9.808494e-001 -5.066144e-002 -9.311436e-006 -2.522128e-006 9.657127e-001 -2.798558e-001
336195000 1.554221e-006 -1.859338e-007 9.736201e-001 -8.650821e-002 -9.274590e-006 -2.191580e-007 9.645505e-001 -2.800451e-001
336480000 -2.144581e-006 -4.519567e-006 9.648818e-001 -1.215544e-001 -7.360779e-006 -2.444595e-006 9.659192e-001 -2.799163e-001
336765000 -8.249913e-006 -1.393330e-005 9.548677e-001 -1.557566e-001 -3.239014e-007 1.140479e-007 9.655697e-001 -2.808625e-001
337050000 -5.465099e-006 1.751564e-006 9.434984e-001 -1.890624e-001 6.988564e-007 3.998673e-006 9.660937e-001 -2.809132e-001
337335000 6.418547e-006 1.847809e-006 9.308447e-001 -2.215334e-001 -4.928206e-006 4.900558e-006 9.650031e-001 -2.824976e-001
337620000 2.839205e-006 3.146148e-006 9.171937e-001 -2.529946e-001 2.382642e-006 8.380458e-006 9.650825e-001 -2.824250e-001
337905000 8.451295e-006 1.510585e-005 9.024559e-001 -2.834034e-001 9.973550e-006 5.014550e-006 9.643838e-001 -2.807472e-001
338190000 1.631939e-005 -6.332116e-006 8.867238e-001 -3.128076e-001 2.377397e-006 -6.289863e-006 9.648633e-001 -2.825136e-001
338475000 -5.779485e-006 -5.324118e-006 8.701447e-001 -3.412026e-001 4.690457e-006 1.342440e-006 9.659641e-001 -2.813390e-001
338760000 -4.593399e-006 1.365081e-005 8.528153e-001 -3.685586e-001 1.131814e-005 -2.277118e-006 9.652852e-001 -2.822415e-001
339045000 6.787021e-006 -5.411885e-006 8.347617e-001 -3.947769e-001 -2.308982e-006 9.136786e-006 9.654698e-001 -2.825568e-001
339330000 -9.113929e-008 -1.266576e-008 8.158564e-001 -4.199485e-001 -9.231501e-006 1.921303e-005 9.664546e-001 -2.816645e-001
339615000 -9.523583e-006 -2.584242e-006 7.965065e-001 -4.441607e-001 5.270834e-007 1.092604e-006 9.656075e-001 -2.833292e-001
339900000 -8.260263e-006 -2.077049e-006 7.765122e-001 -4.672974e-001 1.093972e-005 1.021400e-006 9.649465e-001 -2.840137e-001
340185000 3.105321e-006 1.098327e-005 7.561783e-001 -4.892896e-001 1.821440e-006 -1.111375e-005 9.652726e-001 -2.839424e-001
340470000 4.620251e-006 -4.866583e-006 7.353892e-001 -5.102853e-001 -4.355066e-006 1.774140e-006 9.652864e-001 -2.830573e-001
340755000 1.348496e-005 1.840048e-006 7.141638e-001 -5.303289e-001 6.802166e-006 5.602697e-006 9.651756e-001 -2.848956e-001
341040000 2.264643e-005 -4.539206e-006 6.927121e-001 -5.492998e-001 -7.205096e-006 1.602545e-005 9.646688e-001 -2.850193e-001
341325000 -1.133255e-007 9.160527e-007 6.709327e-001 -5.674553e-001 -1.786937e-006 -7.903921e-006 9.658917e-001 -2.832667e-001
341610000 2.117098e-006 1.230241e-005 6.489785e-001 -5.845133e-001 -6.494711e-006 1.230808e-005 9.662634e-001 -2.843803e-001
341895000 -3.857740e-006 1.194885e-005 6.268681e-001 -6.007092e-001 1.175462e-005 7.374007e-006 9.645015e-001 -2.855411e-001
342180000 2.225731e-006 1.614647e-005 6.046588e-001 -6.159733e-001 -3.398512e-006 1.716185e-005 9.658148e-001 -2.859319e-001
342465000 1.649657e-006 2.403525e-005 5.821636e-001 -6.303732e-001 8.495077e-006 8.348156e-006 9.651633e-001 -2.861594e-001
342750000 -2.432201e-006 2.904894e-006 5.596197e-001 -6.439757e-001 -3.013492e-006 1.419078e-005 9.669290e-001 -2.853374e-001
343035000 -2.638391e-005 4.074542e-006 5.371721e-001 -6.567178e-001 -3.705554e-006 9.865716e-006 9.647683e-001 -2.868468e-001
343320000 -1.614557e-005 5.577677e-006 5.147145e-001 -6.687546e-001 1.224575e-005 1.607155e-006 9.643060e-001 -2.862867e-001
343605000 -1.183616e-005 -8.386957e-006 4.921322e-001 -6.798936e-001 -1.399960e-005 2.746473e-006 9.644825e-001 -2.863890e-001
343890000 8.614915e-006 -1.258908e-005 4.696067e-001 -6.903396e-001 6.206708e-006 4.360185e-006 9.653241e-001 -2.872220e-001
