!Agilent Technologies,N5230C,SG49000117,A.08.50.07
!Agilent N5230C: A.08.50.07
!Date: Sunday, March 17, 2024 00:54:58
!Correction: S11(Off) 
!S21(Off) 
!S12(Off) 
!S22(Full 1 Port(2)) 
!S2P File: Measurements: S11, S21, S12, S22:
# Hz S  RI   R 50
300000000 1.016477e-006 -7.068527e-006 -6.482999e-001 -6.014180e-001 6.874429e-006 -5.084174e-006 9.648223e-001 -2.877008e-001
300285000 -5.727497e-006 -2.646447e-007 -6.619929e-001 -5.779773e-001 -1.084005e-005 -1.005072e-005 9.653350e-001 -2.879669e-001
300570000 -3.673256e-006 -1.683917e-005 -6.748348e-001 -5.545480e-001 -5.414813e-008 -1.182000e-006 9.656926e-001 -2.885181e-001
300855000 9.033960e-006 -9.601682e-006 -6.868484e-001 -5.309896e-001 -1.062339e-005 -7.482079e-007 9.660102e-001 -2.881748e-001
301140000 -7.390371e-006 7.379645e-006 -6.980528e-001 -5.073270e-001 7.056254e-006 1.114915e-005 9.655109e-001 -2.891700e-001
301425000 2.661464e-007 -3.295738e-006 -7.083976e-001 -4.837731e-001 -4.056903e-006 -4.492319e-006 9.663484e-001 -2.892525e-001
301710000 1.045731e-005 -5.442481e-006 -7.181088e-001 -4.603082e-001 7.237402e-006 6.484687e-006 9.661208e-001 -2.910609e-001
301995000 -9.939652e-006 8.384300e-006 -7.270228e-001 -4.367850e-001 4.820205e-006 -5.516592e-006 9.655576e-001 -2.893426e-001
302280000 6.116015e-006 3.248647e-006 -7.351541e-001 -4.133537e-001 -1.218009e-005 -1.229029e-005 9.660744e-001 -2.901839e-001
302565000 -3.300390e-006 1.326151e-005 -7.426621e-001 -3.901117e-001 1.061701e-005 -2.037230e-005 9.665052e-001 -2.909359e-001
302850000 2.628588e-006 -6.982683e-006 -7.494398e-001 -3.668723e-001 -1.977106e-005 -3.799211e-006 9.653742e-001 -2.895406e-001
303135000 -1.506066e-006 -2.703435e-006 -7.556174e-001 -3.439063e-001 1.410349e-005 3.654126e-006 9.653538e-001 -2.906803e-001
303420000 1.335072e-006 -8.978064e-006 -7.611381e-001 -3.209051e-001 1.506447e-005 -1.589362e-005 9.645916e-001 -2.922805e-001
303705000 5.629078e-006 7.094654e-007 -7.660357e-001 -2.981640e-001 1.298576e-005 3.684538e-006 9.666003e-001 -2.923010e-001
303990000 1.252723e-005 1.344414e-005 -7.703615e-001 -2.755669e-001 -1.024890e-005 -6.589791e-006 9.647233e-001 -2.911972e-001
304275000 1.072129e-005 -7.448434e-006 -7.741198e-001 -2.529900e-001 5.629818e-008 4.479704e-006 9.654949e-001 -2.921270e-001
304560000 5.888561e-006 1.273086e-005 -7.773364e-001 -2.306651e-001 1.963169e-006 -2.110812e-005 9.656577e-001 -2.921428e-001
304845000 -6.179136e-006 -2.391734e-006 -7.800145e-001 -2.085144e-001 5.265916e-007 -4.639845e-006 9.645506e-001 -2.922485e-001
305130000 -1.520408e-005 7.933892e-006 -7.822027e-001 -1.864125e-001 -4.172268e-007 2.209499e-005 9.644278e-001 -2.920873e-001
305415000 7.086324e-008 2.667726e-006 -7.838905e-001 -1.645676e-001 -1.449138e-006 -2.761487e-006 9.650478e-001 -2.929460e-001
305700000 8.923155e-006 -1.221908e-005 -7.850789e-001 -1.428611e-001 -1.440288e-005 -1.178996e-005 9.653801e-001 -2.926556e-001
305985000 6.033734e-006 -6.101573e-006 -7.858138e-001 -1.212028e-001 8.736823e-006 -1.763439e-006 9.655067e-001 -2.940142e-001
306270000 1.380712e-005 8.672714e-007 -7.859991e-001 -9.976783e-002 5.285525e-006 1.075914e-005 9.666232e-001 -2.930204e-001
306555000 9.312970e-006 6.898213e-006 -7.858480e-001 -7.858143e-002 6.750716e-006 -1.927611e-005 9.657894e-001 -2.954670e-001
306840000 -2.662910e-006 -1.361238e-005 -7.852142e-001 -5.743691e-002 -5.662922e-007 -7.349665e-007 9.648404e-001 -2.934206e-001
307125000 8.835575e-008 -2.635163e-006 -7.841563e-001 -3.648050e-002 8.347421e-006 5.694856e-006 9.647838e-001 -2.946418e-001
307410000 -2.259738e-006 -3.691136e-006 -7.828026e-001 -1.565248e-002 7.107047e-006 6.682126e-006 9.653546e-001 -2.950004e-001
307695000 -5.727813e-006 -5.769663e-006 -7.809042e-001 4.998402e-003 -3.477832e-006 9.765644e-006 9.652239e-001 -2.960116e-001
307980000 3.689390e-006 -1.297605e-005 -7.787268e-001 2.550030e-002 -4.301269e-006 9.220074e-006 9.638660e-001 -2.954843e-001
308265000 4.777696e-006 -1.334881e-006 -7.761664e-001 4.585785e-002 -7.344414e-006 -1.828826e-006 9.640617e-001 -2.958384e-001
308550000 1.286694e-005 7.420812e-007 -7.731826e-001 6.613841e-002 -1.478493e-006 1.430457e-006 9.636816e-001 -2.952412e-001
308835000 -1.253952e-005 -2.081191e-005 -7.698042e-001 8.615604e-002 -8.725385e-006 -4.908371e-006 9.639218e-001 -2.965665e-001
309120000 -9.944796e-006 -1.074844e-005 -7.660865e-001 1.061356e-001 4.531357e-006 -1.423093e-005 9.648229e-001 -2.978464e-001
309405000 -1.165987e-005 -7.811856e-006 -7.620280e-001 1.260619e-001 -9.813964e-006 -3.060981e-006 9.662589e-001 -2.974098e-001
309690000 4.153471e-006 -1.237638e-005 -7.576204e-001 1.457265e-001 -9.655018e-007 -2.593455e-005 9.652531e-001 -2.974758e-001
309975000 1.375967e-005 5.916822e-006 -7.527621e-001 1.653377e-001 -1.029119e-005 -8.792930e-006 9.641609e-001 -2.972175e-001
310260000 -3.829849e-006 5.488903e-006 -7.476806e-001 1.847235e-001 1.235077e-006 -1.762217e-006 9.658818e-001 -2.978247e-001
310545000 1.444192e-005 7.378552e-006 -7.421367e-001 2.041446e-001 -5.033163e-006 -1.484634e-005 9.643664e-001 -2.988523e-001
310830000 1.445523e-006 4.185104e-006 -7.363181e-001 2.233570e-001 -4.208786e-006 -8.416103e-006 9.655598e-001 -2.993222e-001
311115000 -6.317654e-006 -1.155292e-005 -7.300773e-001 2.425003e-001 9.585426e-006 -9.781172e-006 9.640172e-001 -2.985481e-001
311400000 -1.395608e-006 3.509901e-006 -7.234961e-001 2.615073e-001 -1.432460e-005 3.217254e-006 9.640259e-001 -2.993203e-001
311685000 -1.811408e-005 -4.395067e-007 -7.165961e-001 2.805159e-001 -6.266399e-006 2.947124e-006 9.647092e-001 -2.989569e-001
311970000 -1.376311e-005 -5.911529e-007 -7.093268e-001 2.992783e-001 -9.142958e-006 -3.841294e-006 9.629041e-001 -2.992275e-001
312255000 -4.326099e-006 -1.632033e-005 -7.016181e-001 3.180513e-001 -8.972038e-006 -6.560555e-006 9.635967e-001 -2.993554e-001
312540000 2.987776e-006 -1.258694e-005 -6.936187e-001 3.366764e-001 -4.829672e-006 -1.319997e-006 9.633619e-001 -2.998812e-001
312825000 -2.070679e-007 -3.470887e-006 -6.852339e-001 3.552101e-001 -8.235895e-006 2.529355e-006 9.633834e-001 -3.003986e-001
313110000 -7.846518e-006 -1.112966e-005 -6.764948e-001 3.736856e-001 8.336180e-006 -3.568522e-006 9.632838e-001 -3.014564e-001
313395000 5.612848e-006 -5.643868e-006 -6.672279e-001 3.920172e-001 -3.421926e-006 -1.441057e-005 9.637181e-001 -3.004007e-001
313680000 2.399124e-005 -5.736978e-006 -6.577215e-001 4.102650e-001 -1.168588e-005 -8.295313e-007 9.644822e-001 -3.006964e-001
313965000 6.081748e-006 -1.208690e-005 -6.477363e-001 4.284938e-001 -4.605333e-006 5.479156e-006 9.636438e-001 -3.013093e-001
314250000 1.101577e-005 -1.991958e-006 -6.373387e-001 4.465334e-001 -7.545594e-006 -4.100999e-006 9.626672e-001 -3.014631e-001
314535000 2.501290e-006 1.575995e-006 -6.265063e-001 4.645308e-001 -9.017687e-006 2.579379e-006 9.628310e-001 -3.015919e-001
314820000 -2.763611e-006 3.374503e-006 -6.152918e-001 4.824385e-001 -1.132462e-005 -8.631594e-006 9.628292e-001 -3.028435e-001
315105000 -1.218496e-005 7.541009e-006 -6.036266e-001 5.002217e-001 -7.266036e-007 -7.030181e-006 9.602857e-001 -3.022858e-001
315390000 4.845163e-007 1.937321e-006 -5.914544e-001 5.179333e-001 -1.536195e-005 4.724552e-006 9.631773e-001 -3.031116e-001
315675000 -5.825728e-006 -1.354806e-006 -5.788351e-001 5.354254e-001 3.303988e-006 1.096176e-006 9.619379e-001 -3.020325e-001
315960000 -1.596171e-005 -4.295352e-006 -5.657775e-001 5.529621e-001 1.442213e-005 3.696137e-006 9.616068e-001 -3.028421e-001
316245000 -2.455140e-005 -5.343185e-006 -5.522367e-001 5.702034e-001 8.492193e-006 1.127095e-005 9.613472e-001 -3.025368e-001
316530000 -1.565767e-006 -1.795847e-005 -5.381032e-001 5.873795e-001 3.849774e-006 -3.712968e-006 9.622465e-001 -3.038778e-001
316815000 -8.668347e-006 -1.343981e-005 -5.235374e-001 6.044671e-001 7.774885e-006 8.977460e-006 9.629854e-001 -3.033723e-001
317100000 4.835851e-006 -7.052467e-006 -5.083973e-001 6.213285e-001 -5.193896e-007 -3.803864e-006 9.614229e-001 -3.032026e-001
317385000 -8.633148e-006 5.412547e-007 -4.927337e-001 6.380193e-001 -6.295721e-006 1.957259e-005 9.631886e-001 -3.032877e-001
317670000 -7.263378e-006 1.400003e-006 -4.765852e-001 6.545070e-001 2.910978e-007 2.679808e-006 9.626597e-001 -3.047972e-001
317955000 -4.303461e-006 -1.199824e-005 -4.597817e-001 6.707327e-001 -1.882808e-006 6.841160e-006 9.629786e-001 -3.048791e-001
318240000 1.183231e-005 -1.422479e-005 -4.423530e-001 6.868792e-001 -1.634252e-005 5.601016e-008 9.617835e-001 -3.049892e-001
318525000 2.900106e-006 -1.732648e-005 -4.242965e-001 7.026761e-001 -7.602298e-006 -9.471211e-007 9.619041e-001 -3.048163e-001
318810000 -7.014557e-006 -1.968928e-005 -4.057344e-001 7.183107e-001 5.173685e-006 -1.109259e-005 9.611940e-001 -3.054115e-001
319095000 5.067651e-006 1.634911e-007 -3.864563e-001 7.335730e-001 -4.863085e-006 -4.054671e-006 9.609424e-001 -3.047374e-001
319380000 1.156975e-005 2.134476e-005 -3.665312e-001 7.486410e-001 -1.367081e-005 -9.233351e-006 9.615458e-001 -3.068134e-001
319665000 2.210787e-006 9.483761e-006 -3.458898e-001 7.631907e-001 3.125082e-006 -6.461045e-006 9.620657e-001 -3.057893e-001
319950000 -1.822481e-005 -7.442816e-006 -3.246449e-001 7.775158e-001 -1.330048e-005 2.443105e-006 9.610534e-001 -3.076605e-001
320235000 4.201491e-006 -3.546531e-006 -3.027444e-001 7.913784e-001 -1.175075e-005 1.393377e-005 9.613944e-001 -3.078304e-001
320520000 -1.035238e-005 -1.803990e-006 -2.801486e-001 8.048154e-001 -8.375532e-006 -4.680747e-006 9.608805e-001 -3.076347e-001
320805000 1.277800e-006 2.846919e-006 -2.568063e-001 8.178425e-001 -7.673884e-006 -2.075996e-006 9.602553e-001 -3.069140e-001
321090000 -1.460489e-005 7.701190e-006 -2.326801e-001 8.302452e-001 -4.707867e-006 1.556745e-005 9.599649e-001 -3.074060e-001
321375000 -1.598418e-005 -1.216265e-005 -2.078993e-001 8.422427e-001 2.891064e-006 6.156899e-006 9.605805e-001 -3.076268e-001
321660000 -2.050186e-005 3.394276e-006 -1.824550e-001 8.535079e-001 -1.588981e-005 8.377999e-006 9.608662e-001 -3.082466e-001
321945000 -1.044381e-005 1.054866e-005 -1.561939e-001 8.642507e-001 -3.700682e-007 5.777205e-006 9.599102e-001 -3.094157e-001
322230000 -7.353617e-006 -1.648564e-005 -1.291883e-001 8.741476e-001 -4.645165e-006 3.257156e-006 9.593001e-001 -3.094336e-001
322515000 2.866513e-006 -2.692188e-005 -1.015461e-001 8.834442e-001 -6.520765e-006 -6.053048e-006 9.589719e-001 -3.094874e-001
322800000 -7.735271e-006 -1.186159e-005 -7.310060e-002 8.918187e-001 -1.106037e-005 9.158124e-006 9.609573e-001 -3.094746e-001
323085000 -4.128548e-006 -5.404773e-006 -4.397704e-002 8.995036e-001 4.822137e-006 3.233765e-006 9.598303e-001 -3.094751e-001
323370000 2.064971e-009 -6.968633e-006 -1.412975e-002 9.063026e-001 2.428300e-008 6.407166e-006 9.599992e-001 -3.103533e-001
323655000 -3.652445e-006 1.667934e-005 1.640854e-002 9.118966e-001 2.092468e-006 -8.697146e-006 9.591047e-001 -3.109140e-001
323940000 -7.620338e-006 1.507170e-005 4.749953e-002 9.166586e-001 -1.322705e-006 4.395253e-006 9.589072e-001 -3.113585e-001
324225000 -2.045112e-006 -7.065901e-006 7.925123e-002 9.202687e-001 -1.730288e-005 -1.768156e-005 9.573595e-001 -3.104964e-001
324510000 -1.111130e-005 3.659367e-006 1.116401e-001 9.226915e-001 -1.949918e-005 5.802740e-007 9.597601e-001 -3.124755e-001
324795000 -7.988173e-007 4.108275e-006 1.445456e-001 9.239697e-001 -9.217823e-006 5.237062e-006 9.590032e-001 -3.115167e-001
325080000 8.540988e-006 5.197313e-007 1.779132e-001 9.240287e-001 8.418728e-006 -4.112129e-007 9.587249e-001 -3.113868e-001
325365000 -1.110010e-005 1.236160e-006 2.118396e-001 9.227092e-001 1.493461e-005 1.543710e-005 9.592171e-001 -3.119003e-001
325650000 -6.031039e-006 -5.915115e-006 2.460382e-001 9.198946e-001 7.152897e-006 -2.574552e-007 9.589419e-001 -3.116193e-001
325935000 -1.407100e-005 5.825568e-006 2.807370e-001 9.156852e-001 -3.538007e-007 1.464013e-005 9.583886e-001 -3.126056e-001
326220000 -1.476309e-006 7.690834e-006 3.153940e-001 9.100798e-001 -1.726898e-005 3.072013e-006 9.588357e-001 -3.130139e-001
326505000 -1.333062e-006 -1.659243e-005 3.505073e-001 9.027669e-001 -1.856264e-005 -5.448125e-006 9.580271e-001 -3.134479e-001
326790000 9.025540e-006 1.996876e-005 3.855937e-001 8.939173e-001 -3.787940e-006 -7.358848e-006 9.570333e-001 -3.122999e-001
327075000 -4.789079e-006 3.328007e-005 4.206595e-001 8.834803e-001 -4.896543e-006 -2.066933e-006 9.575036e-001 -3.140827e-001
327360000 2.812170e-006 -2.916973e-006 4.557984e-001 8.713443e-001 -1.828857e-005 -2.655942e-006 9.588329e-001 -3.140742e-001
327645000 -6.322391e-006 -7.372846e-006 4.905351e-001 8.574812e-001 -6.920013e-006 -1.057812e-005 9.581620e-001 -3.138623e-001
327930000 -6.461441e-006 -8.502251e-006 5.250899e-001 8.419838e-001 -1.749763e-005 -5.276947e-006 9.573370e-001 -3.135144e-001
328215000 -1.573692e-005 -3.329453e-006 5.590995e-001 8.246695e-001 -5.350714e-007 -1.572730e-005 9.574821e-001 -3.146879e-001
328500000 -9.625506e-006 1.260779e-006 5.926762e-001 8.057193e-001 -1.254983e-005 -7.412673e-006 9.566758e-001 -3.151375e-001
328785000 -6.986540e-007 9.020312e-006 6.254835e-001 7.851176e-001 2.388707e-006 -1.457219e-005 9.568516e-001 -3.144791e-001
329070000 -4.627396e-006 -1.066143e-005 6.575813e-001 7.626966e-001 7.892618e-007 3.103216e-006 9.568813e-001 -3.148948e-001
329355000 -5.355065e-006 -6.545783e-006 6.890025e-001 7.385560e-001 5.827339e-006 5.337951e-006 9.566631e-001 -3.159454e-001
329640000 1.183372e-006 -1.607743e-005 7.192031e-001 7.128775e-001 5.399590e-006 -3.698867e-006 9.570644e-001 -3.159685e-001
329925000 2.163517e-006 7.024008e-006 7.483039e-001 6.856489e-001 -4.090617e-006 -1.353438e-005 9.563532e-001 -3.157487e-001
330210000 5.426213e-006 1.339316e-006 7.763033e-001 6.569290e-001 -2.432815e-005 4.667143e-006 9.555942e-001 -3.162411e-001
330495000 6.607258e-008 -1.658918e-005 8.028191e-001 6.267369e-001 5.396030e-007 1.399018e-006 9.559624e-001 -3.164021e-001
330780000 4.667339e-006 -4.818738e-007 8.279464e-001 5.952887e-001 6.877775e-007 4.827417e-006 9.565266e-001 -3.175873e-001
331065000 -1.647285e-005 2.401511e-005 8.515866e-001 5.624548e-001 -5.359804e-006 9.519609e-007 9.552054e-001 -3.158916e-001
331350000 -1.741989e-005 -1.363179e-005 8.736517e-001 5.284600e-001 -1.312906e-005 -7.760746e-006 9.555025e-001 -3.168552e-001
331635000 -1.252951e-005 1.786123e-006 8.938526e-001 4.935064e-001 -2.718013e-006 -1.406356e-006 9.565764e-001 -3.174227e-001
331920000 -3.650697e-006 -1.015335e-005 9.125647e-001 4.575539e-001 -8.756650e-006 8.126934e-006 9.560761e-001 -3.175467e-001
332205000 -1.408054e-005 -3.150790e-006 9.293993e-001 4.207634e-001 -4.951735e-007 1.417215e-006 9.553656e-001 -3.185199e-001
332490000 1.914193e-007 -9.640455e-006 9.441788e-001 3.834049e-001 6.918903e-007 8.746940e-006 9.562849e-001 -3.181658e-001
332775000 -1.129286e-005 3.828070e-006 9.572971e-001 3.453953e-001 1.210436e-006 9.941970e-006 9.557073e-001 -3.189056e-001
333060000 -2.932778e-006 -5.274035e-006 9.684438e-001 3.069391e-001 -4.106449e-006 -8.243726e-006 9.557768e-001 -3.190837e-001
333345000 2.544231e-006 8.171527e-006 9.777135e-001 2.683026e-001 1.396786e-005 -7.916497e-006 9.566636e-001 -3.185983e-001
333630000 1.762781e-006 -4.972798e-006 9.850061e-001 2.293317e-001 9.394343e-006 2.902193e-007 9.556636e-001 -3.204440e-001
333915000 2.290942e-006 7.795092e-006 9.904532e-001 1.903134e-001 2.496670e-006 2.093053e-007 9.551739e-001 -3.196577e-001
334200000 -4.853606e-006 -1.735782e-005 9.940187e-001 1.514121e-001 5.414768e-006 -7.076829e-006 9.559705e-001 -3.207565e-001
334485000 8.716120e-006 8.478855e-006 9.956943e-001 1.127470e-001 -5.912785e-006 6.485892e-006 9.553277e-001 -3.197073e-001
334770000 1.325731e-005 4.159392e-006 9.956682e-001 7.428774e-002 -1.412332e-005 3.049565e-006 9.555865e-001 -3.208310e-001
335055000 7.290374e-006 6.749650e-007 9.937907e-001 3.627534e-002 -2.224757e-005 -1.678032e-006 9.560671e-001 -3.206920e-001
335340000 -1.883310e-005 5.343429e-006 9.901177e-001 -1.213843e-003 -7.867109e-006 -1.170981e-005 9.556989e-001 -3.223114e-001
335625000 -1.701392e-005 -6.036966e-006 9.850405e-001 -3.812993e-002 -1.334021e-005 -6.510918e-006 9.556288e-001 -3.217609e-001
335910000 1.479748e-005 7.312158e-006 9.781973e-001 -7.433540e-002 -4.649355e-006 1.017382e-007 9.553103e-001 -3.215442e-001
336195000 2.118871e-005 2.026368e-005 9.699230e-001 -1.097597e-001 1.789222e-005 4.838527e-006 9.544929e-001 -3.216842e-001
336480000 -1.152543e-005 -2.592210e-006 9.604134e-001 -1.444543e-001 2.417623e-006 -4.082507e-006 9.556474e-001 -3.218288e-001
336765000 3.346721e-006 1.280371e-005 9.495180e-001 -1.782300e-001 1.161495e-005 1.350488e-005 9.551312e-001 -3.226654e-001
337050000 -4.171150e-007 5.170496e-006 9.372578e-001 -2.110655e-001 8.226449e-006 1.830535e-005 9.556891e-001 -3.228123e-001
337335000 7.816034e-006 -1.105470e-005 9.238642e-001 -2.430562e-001 -1.396586e-006 3.505623e-006 9.547050e-001 -3.243827e-001
337620000 3.807928e-006 4.062735e-006 9.095162e-001 -2.739139e-001 -3.002249e-007 2.412295e-006 9.548048e-001 -3.242914e-001
337905000 -1.015796e-005 2.814928e-006 8.940434e-001 -3.037755e-001 -7.122261e-006 1.053907e-005 9.539068e-001 -3.225607e-001
338190000 -2.312505e-006 3.567787e-006 8.776511e-001 -3.326191e-001 9.237436e-006 2.396963e-006 9.544497e-001 -3.243189e-001
338475000 -1.196058e-005 1.510915e-005 8.604711e-001 -3.603456e-001 -3.417168e-006 1.154853e-005 9.554328e-001 -3.233679e-001
338760000 6.927234e-006 5.974319e-006 8.425313e-001 -3.871125e-001 -2.234169e-006 -2.439742e-006 9.548259e-001 -3.241183e-001
339045000 -5.369646e-006 9.227579e-006 8.238586e-001 -4.127760e-001 -6.470521e-006 3.273623e-007 9.548650e-001 -3.245660e-001
339330000 -6.539438e-006 1.035373e-005 8.046088e-001 -4.373448e-001 -4.720298e-006 1.223783e-006 9.558800e-001 -3.237268e-001
339615000 -3.888717e-006 -7.806821e-006 7.847012e-001 -4.608116e-001 -1.451782e-005 1.714453e-005 9.550075e-001 -3.254054e-001
339900000 -9.621423e-006 3.929130e-006 7.644584e-001 -4.834328e-001 -6.320887e-006 -3.388319e-006 9.542832e-001 -3.261254e-001
340185000 8.648032e-006 -1.173774e-005 7.436029e-001 -5.048431e-001 3.662897e-007 -4.830725e-006 9.547063e-001 -3.261533e-001
340470000 4.566592e-006 -7.151995e-006 7.225351e-001 -5.253326e-001 -4.869763e-006 -1.735597e-006 9.547662e-001 -3.252631e-001
340755000 7.234536e-006 1.070689e-005 7.010711e-001 -5.447022e-001 4.401659e-006 1.299167e-005 9.544165e-001 -3.272834e-001
341040000 6.506581e-006 4.183452e-006 6.793108e-001 -5.630976e-001 2.238084e-006 -1.924451e-006 9.539983e-001 -3.273183e-001
341325000 -5.186091e-006 6.923168e-006 6.571659e-001 -5.805678e-001 -5.846960e-006 1.928803e-006 9.554043e-001 -3.257168e-001
341610000 8.711941e-006 -9.987500e-007 6.350591e-001 -5.971082e-001 6.692586e-007 6.965872e-006 9.559733e-001 -3.265795e-001
341895000 -1.245119e-005 1.294700e-005 6.127486e-001 -6.127092e-001 3.039596e-006 -1.710361e-006 9.539892e-001 -3.277897e-001
342180000 -9.617023e-006 1.989255e-005 5.902026e-001 -6.273915e-001 9.895092e-006 4.034209e-006 9.552805e-001 -3.285495e-001
342465000 -1.836174e-005 1.721068e-006 5.676706e-001 -6.413465e-001 -1.391318e-005 9.942923e-006 9.542146e-001 -3.284505e-001
342750000 -2.648169e-005 1.459511e-005 5.450853e-001 -6.543056e-001 -5.878642e-006 4.749245e-006 9.561235e-001 -3.280267e-001
343035000 -1.336233e-005 -3.103151e-006 5.223517e-001 -6.665097e-001 -1.004793e-006 3.759451e-006 9.539772e-001 -3.294665e-001
343320000 -2.352111e-007 4.384823e-006 4.997486e-001 -6.780086e-001 -1.206120e-006 -3.715919e-006 9.535875e-001 -3.288803e-001
343605000 -4.905241e-006 -1.368819e-005 4.771173e-001 -6.887043e-001 1.344004e-005 -6.101986e-006 9.538423e-001 -3.289660e-001
343890000 3.613975e-006 -7.003890e-006 4.544882e-001 -6.985791e-001 -3.539031e-006 5.055027e-007 9.545335e-001 -3.298092e-001
