!Agilent Technologies,N5230C,SG49000117,A.08.50.07
!Agilent N5230C: A.08.50.07
!Date: Sunday, March 17, 2024 00:57:17
!Correction: S11(Off) 
!S21(Off) 
!S12(Off) 
!S22(Full 1 Port(2)) 
!S2P File: Measurements: S11, S21, S12, S22:
# Hz S  RI   R 50
300000000 1.574770e-006 -6.996037e-006 -6.668288e-001 -5.748768e-001 -1.520885e-006 3.229737e-006 9.426215e-001 -3.611149e-001
300285000 7.170936e-006 -7.674693e-006 -6.795301e-001 -5.512130e-001 9.218122e-006 -1.540317e-005 9.429445e-001 -3.615288e-001
300570000 -7.789738e-006 -1.315890e-005 -6.913972e-001 -5.275139e-001 3.734710e-006 -2.859729e-006 9.431657e-001 -3.621269e-001
300855000 2.034733e-006 -7.008203e-006 -7.024981e-001 -5.038726e-001 7.028298e-006 1.125065e-005 9.440104e-001 -3.618124e-001
301140000 8.009417e-006 -8.854066e-006 -7.128108e-001 -4.801547e-001 1.008026e-005 -1.055163e-005 9.432566e-001 -3.629007e-001
301425000 1.684910e-005 2.209500e-007 -7.223589e-001 -4.564464e-001 -1.940447e-006 -2.554401e-006 9.439948e-001 -3.632785e-001
301710000 -1.132109e-005 -1.017413e-005 -7.310345e-001 -4.327797e-001 1.394986e-005 -9.073965e-006 9.437740e-001 -3.650685e-001
301995000 2.408777e-008 -5.818524e-006 -7.390798e-001 -4.092482e-001 8.384214e-006 -3.541229e-006 9.429600e-001 -3.633046e-001
302280000 8.558273e-006 4.419487e-006 -7.464740e-001 -3.858556e-001 -8.670645e-008 -8.749364e-006 9.433239e-001 -3.642502e-001
302565000 1.403323e-005 9.725080e-006 -7.531104e-001 -3.625504e-001 -2.032357e-006 1.629289e-005 9.440913e-001 -3.650905e-001
302850000 1.003180e-005 -4.805003e-006 -7.591317e-001 -3.393786e-001 -3.940534e-006 2.064274e-005 9.429359e-001 -3.636260e-001
303135000 3.114766e-006 2.453948e-007 -7.644793e-001 -3.163123e-001 -3.760470e-006 -4.313034e-006 9.425288e-001 -3.650269e-001
303420000 2.022254e-007 -5.348695e-006 -7.693158e-001 -2.935337e-001 1.352042e-005 -2.874814e-006 9.419384e-001 -3.665513e-001
303705000 3.521611e-006 -4.348943e-006 -7.733757e-001 -2.706533e-001 4.186590e-006 2.585662e-006 9.436366e-001 -3.665119e-001
303990000 -1.803629e-005 -3.664112e-006 -7.769542e-001 -2.481467e-001 -3.653220e-006 1.136887e-005 9.421592e-001 -3.654928e-001
304275000 -8.882478e-006 6.384845e-006 -7.800355e-001 -2.256961e-001 -1.051084e-006 -7.176042e-006 9.424446e-001 -3.663720e-001
304560000 3.807839e-006 -3.526483e-006 -7.826411e-001 -2.033479e-001 4.872300e-006 9.590894e-006 9.424815e-001 -3.667319e-001
304845000 1.546795e-005 -1.042812e-005 -7.847453e-001 -1.813138e-001 1.960236e-006 8.597630e-006 9.418586e-001 -3.664844e-001
305130000 -1.252168e-006 -2.384869e-009 -7.861122e-001 -1.593538e-001 -9.149019e-006 5.379944e-006 9.412570e-001 -3.669179e-001
305415000 9.258284e-006 -1.442863e-005 -7.872109e-001 -1.374957e-001 -3.256428e-006 -6.660039e-006 9.418082e-001 -3.676583e-001
305700000 7.114023e-006 -3.432163e-006 -7.878014e-001 -1.159357e-001 6.787436e-006 -1.335826e-005 9.424719e-001 -3.673910e-001
305985000 2.146937e-005 1.126204e-006 -7.879735e-001 -9.440517e-002 1.710067e-005 6.673897e-006 9.421784e-001 -3.686976e-001
306270000 6.067151e-006 -8.579487e-006 -7.875278e-001 -7.309943e-002 8.193733e-007 -4.256834e-006 9.433967e-001 -3.683564e-001
306555000 2.313841e-005 -4.363080e-006 -7.867972e-001 -5.187472e-002 -2.451703e-006 -1.116403e-005 9.421434e-001 -3.704568e-001
306840000 -6.187402e-006 1.061210e-005 -7.855108e-001 -3.095649e-002 -1.603710e-005 -6.252345e-006 9.415955e-001 -3.682548e-001
307125000 1.258244e-005 -1.258058e-005 -7.840512e-001 -9.995225e-003 6.259794e-006 -5.925132e-006 9.412745e-001 -3.698055e-001
307410000 1.110804e-005 -1.198511e-006 -7.820183e-001 1.068622e-002 -6.162112e-006 4.581719e-007 9.417856e-001 -3.701438e-001
307695000 1.792040e-005 -8.814533e-006 -7.796155e-001 3.121837e-002 -6.706409e-006 1.715201e-006 9.417471e-001 -3.712815e-001
307980000 1.550311e-005 -2.548334e-005 -7.768679e-001 5.163948e-002 8.433168e-006 6.303002e-007 9.405609e-001 -3.707470e-001
308265000 -1.552721e-005 -1.249954e-005 -7.736559e-001 7.194845e-002 5.967006e-006 3.241966e-006 9.404595e-001 -3.709219e-001
308550000 1.179341e-005 -2.744544e-006 -7.702011e-001 9.202211e-002 6.311458e-006 2.114671e-006 9.401632e-001 -3.704492e-001
308835000 2.146747e-005 6.288241e-006 -7.662852e-001 1.120458e-001 2.278151e-006 -1.345765e-006 9.397438e-001 -3.718062e-001
309120000 -4.631335e-006 1.070067e-005 -7.621219e-001 1.318864e-001 -1.819572e-005 1.056145e-005 9.409496e-001 -3.733843e-001
309405000 -1.042216e-005 2.968139e-007 -7.574887e-001 1.515378e-001 -4.500476e-006 -1.509881e-006 9.424405e-001 -3.731073e-001
309690000 -1.783366e-006 7.374582e-006 -7.525476e-001 1.711303e-001 3.919105e-006 9.117128e-006 9.412807e-001 -3.730485e-001
309975000 -8.240896e-006 5.440500e-006 -7.471780e-001 1.906566e-001 -2.462830e-006 -6.811058e-006 9.403009e-001 -3.729394e-001
310260000 4.175598e-007 -5.786246e-006 -7.415493e-001 2.099870e-001 -2.540298e-007 -1.678232e-005 9.420196e-001 -3.736771e-001
310545000 5.349648e-009 -8.606633e-006 -7.354352e-001 2.292357e-001 1.297568e-005 3.484636e-006 9.401385e-001 -3.743536e-001
310830000 1.504806e-006 -1.015355e-006 -7.290866e-001 2.483957e-001 2.196665e-006 -1.133630e-005 9.416818e-001 -3.751003e-001
311115000 1.137434e-005 -1.180494e-005 -7.222975e-001 2.674844e-001 -2.248605e-005 -4.673510e-006 9.398017e-001 -3.743040e-001
311400000 9.875136e-006 -1.194128e-005 -7.152260e-001 2.863501e-001 -2.064365e-005 -6.962528e-006 9.398023e-001 -3.750453e-001
311685000 1.522677e-005 -5.021406e-006 -7.077941e-001 3.051954e-001 -2.244896e-006 8.283824e-007 9.404015e-001 -3.747807e-001
311970000 7.651979e-006 -1.686098e-005 -6.999586e-001 3.238179e-001 3.793749e-006 1.103582e-006 9.388554e-001 -3.749366e-001
312255000 -1.585413e-005 -1.010149e-005 -6.918103e-001 3.424569e-001 -1.895802e-005 -6.603429e-006 9.393119e-001 -3.756624e-001
312540000 -1.246405e-006 2.947153e-006 -6.831545e-001 3.609664e-001 3.109486e-006 7.569891e-007 9.390683e-001 -3.759375e-001
312825000 -6.666998e-006 2.728700e-006 -6.741896e-001 3.794282e-001 -1.564808e-005 -8.522731e-006 9.390065e-001 -3.765118e-001
313110000 -8.954321e-007 2.146697e-006 -6.648456e-001 3.978197e-001 9.065175e-006 -4.497093e-007 9.386808e-001 -3.780017e-001
313395000 4.189993e-006 -1.177318e-005 -6.551431e-001 4.160320e-001 -7.155770e-007 -2.062142e-005 9.392791e-001 -3.766283e-001
313680000 -1.423592e-005 -1.166248e-005 -6.449855e-001 4.341310e-001 -7.094185e-006 -6.383950e-006 9.397407e-001 -3.772052e-001
313965000 -7.031832e-006 -1.086939e-005 -6.344321e-001 4.521373e-001 -6.961577e-006 2.924380e-006 9.392442e-001 -3.776655e-001
314250000 -1.487570e-005 -1.443907e-005 -6.234763e-001 4.701630e-001 -3.320316e-006 -7.062041e-006 9.377526e-001 -3.781115e-001
314535000 -2.719657e-008 -1.635019e-005 -6.120383e-001 4.879631e-001 -1.176591e-005 -1.132480e-005 9.381096e-001 -3.780204e-001
314820000 -2.287956e-006 -1.906267e-005 -6.001692e-001 5.056635e-001 -6.075556e-006 1.188648e-006 9.377572e-001 -3.794909e-001
315105000 -2.466895e-005 -1.453830e-005 -5.878943e-001 5.232610e-001 -2.585703e-006 -1.111219e-005 9.354594e-001 -3.785200e-001
315390000 7.988288e-006 -7.903137e-007 -5.750958e-001 5.408401e-001 -1.649885e-006 -2.232415e-006 9.380955e-001 -3.797845e-001
315675000 7.776188e-006 5.603027e-006 -5.618901e-001 5.581431e-001 -1.115526e-006 -1.506493e-005 9.372259e-001 -3.787773e-001
315960000 8.760749e-008 2.435299e-006 -5.480665e-001 5.753997e-001 6.610055e-006 -6.060861e-006 9.367787e-001 -3.795691e-001
316245000 5.967453e-006 6.631083e-007 -5.338531e-001 5.923643e-001 1.237572e-006 1.352328e-008 9.365600e-001 -3.794452e-001
316530000 -2.166602e-005 9.383106e-006 -5.191202e-001 6.094227e-001 -4.532871e-006 1.138155e-005 9.372231e-001 -3.808886e-001
316815000 -4.976846e-006 -1.779544e-005 -5.037674e-001 6.261600e-001 -1.207364e-005 -3.335364e-006 9.377650e-001 -3.801900e-001
317100000 -6.606449e-006 -9.194319e-006 -4.878992e-001 6.427690e-001 -9.674376e-006 9.943494e-006 9.362740e-001 -3.801192e-001
317385000 6.633284e-006 -1.755186e-006 -4.714786e-001 6.592175e-001 -8.227529e-007 -1.781761e-005 9.381537e-001 -3.806513e-001
317670000 1.279874e-005 4.414249e-006 -4.544660e-001 6.754119e-001 -7.108659e-006 5.840661e-006 9.372001e-001 -3.819100e-001
317955000 -6.844641e-007 1.814073e-005 -4.369321e-001 6.913294e-001 8.098891e-006 -5.790654e-008 9.375775e-001 -3.820510e-001
318240000 -1.836283e-005 -1.118944e-005 -4.187348e-001 7.070477e-001 -3.082233e-006 -1.772304e-005 9.365289e-001 -3.824779e-001
318525000 -2.022227e-005 -2.031867e-005 -4.000078e-001 7.225122e-001 -1.259503e-005 -4.028503e-006 9.365883e-001 -3.822171e-001
318810000 6.079050e-006 -8.063381e-006 -3.806172e-001 7.376043e-001 -1.340576e-005 -7.708172e-006 9.356403e-001 -3.829048e-001
319095000 -8.698588e-006 -6.039487e-006 -3.604680e-001 7.525518e-001 -9.493349e-006 -7.669475e-006 9.355318e-001 -3.823652e-001
319380000 6.025747e-007 -1.431284e-005 -3.396127e-001 7.670315e-001 1.694496e-005 6.199054e-006 9.358802e-001 -3.843673e-001
319665000 1.090084e-005 -3.185085e-006 -3.182505e-001 7.811014e-001 -2.267128e-006 4.045865e-006 9.364643e-001 -3.833235e-001
319950000 1.119844e-005 4.470152e-006 -2.961591e-001 7.948672e-001 -6.167314e-007 -1.390355e-005 9.351404e-001 -3.852807e-001
320235000 1.989160e-007 -5.990313e-006 -2.733452e-001 8.081094e-001 5.594711e-006 -9.344185e-007 9.355997e-001 -3.855690e-001
320520000 6.038726e-006 5.447932e-006 -2.498239e-001 8.208920e-001 1.995191e-006 -8.979355e-006 9.351645e-001 -3.854935e-001
320805000 -8.364210e-006 6.835569e-006 -2.256050e-001 8.332488e-001 1.717985e-005 -9.915663e-006 9.345506e-001 -3.846180e-001
321090000 -1.257856e-005 1.143102e-006 -2.007125e-001 8.449463e-001 2.041595e-007 -3.138150e-006 9.339252e-001 -3.851638e-001
321375000 4.162765e-006 9.620006e-006 -1.749625e-001 8.560467e-001 -9.074716e-006 2.346912e-006 9.347669e-001 -3.854828e-001
321660000 4.025613e-006 -5.627623e-006 -1.486597e-001 8.665597e-001 5.134972e-006 -4.247455e-006 9.348993e-001 -3.864101e-001
321945000 -6.744002e-006 6.881138e-006 -1.215372e-001 8.762488e-001 -5.239167e-006 -8.975598e-007 9.336399e-001 -3.873377e-001
322230000 -1.264064e-005 1.071610e-006 -9.357786e-002 8.853526e-001 -1.136916e-005 2.500137e-005 9.333763e-001 -3.873354e-001
322515000 -1.062560e-005 -3.359972e-006 -6.503959e-002 8.935999e-001 -1.236868e-005 -3.472234e-007 9.327415e-001 -3.876570e-001
322800000 7.330730e-006 -1.331691e-005 -3.579535e-002 9.009117e-001 -7.875436e-006 -5.910694e-006 9.349506e-001 -3.877522e-001
323085000 2.195002e-006 -8.912702e-006 -5.811851e-003 9.073529e-001 -9.998845e-007 1.537321e-005 9.336305e-001 -3.878626e-001
323370000 -8.972236e-006 3.004461e-006 2.484453e-002 9.128554e-001 -3.868653e-006 -9.448260e-006 9.338961e-001 -3.886677e-001
323655000 9.680693e-006 1.567995e-006 5.601239e-002 9.172059e-001 1.954157e-007 -1.064782e-005 9.328484e-001 -3.891677e-001
323940000 2.077087e-006 1.388250e-005 8.796915e-002 9.205780e-001 1.771920e-006 -1.842155e-006 9.324019e-001 -3.897912e-001
324225000 3.558778e-006 -1.143117e-006 1.203993e-001 9.227331e-001 -4.396738e-006 -5.379942e-007 9.310642e-001 -3.888377e-001
324510000 2.286325e-007 -5.779048e-006 1.534145e-001 9.236864e-001 8.229411e-006 9.694958e-006 9.331253e-001 -3.911775e-001
324795000 1.057364e-005 -2.382994e-006 1.867894e-001 9.234679e-001 1.110225e-005 4.256583e-006 9.324597e-001 -3.900163e-001
325080000 1.236671e-005 6.038044e-006 2.208370e-001 9.217158e-001 -6.022666e-006 7.641229e-007 9.320739e-001 -3.901670e-001
325365000 -3.528549e-006 5.511154e-006 2.551504e-001 9.186774e-001 -2.316878e-006 4.422879e-006 9.326399e-001 -3.907878e-001
325650000 -1.765675e-006 2.520301e-006 2.897615e-001 9.141268e-001 -1.500203e-005 5.381321e-006 9.322407e-001 -3.904646e-001
325935000 4.864803e-007 1.520755e-005 3.246298e-001 9.081340e-001 2.235117e-005 -1.205517e-006 9.316020e-001 -3.915767e-001
326220000 7.638109e-006 1.933617e-005 3.595345e-001 9.004905e-001 4.827239e-007 -8.372227e-006 9.319978e-001 -3.920723e-001
326505000 3.513802e-006 4.269557e-006 3.947600e-001 8.912573e-001 8.282368e-006 1.901963e-006 9.312207e-001 -3.924335e-001
326790000 -6.346202e-006 -3.158156e-006 4.298893e-001 8.804042e-001 -8.468712e-006 1.140823e-005 9.301732e-001 -3.912867e-001
327075000 -4.094909e-006 6.399799e-006 4.647215e-001 8.680022e-001 -1.225970e-005 6.822982e-006 9.306175e-001 -3.931630e-001
327360000 -1.234773e-005 -9.406907e-006 4.996435e-001 8.537418e-001 -2.033143e-005 6.844356e-006 9.317575e-001 -3.933669e-001
327645000 -1.917892e-005 -7.178216e-006 5.339875e-001 8.378396e-001 -1.489499e-005 1.220994e-005 9.312164e-001 -3.932180e-001
327930000 -2.553137e-005 8.403429e-007 5.680755e-001 8.201678e-001 1.062624e-005 1.384734e-005 9.305527e-001 -3.928098e-001
328215000 1.376337e-006 4.484645e-006 6.014991e-001 8.007476e-001 -6.864966e-006 6.564092e-006 9.304047e-001 -3.940216e-001
328500000 -2.761538e-005 1.736836e-005 6.343036e-001 7.796790e-001 -6.501629e-006 -1.191484e-005 9.295350e-001 -3.944360e-001
328785000 -7.374520e-006 -3.721814e-006 6.662155e-001 7.569394e-001 -9.952020e-006 9.412623e-006 9.298155e-001 -3.937929e-001
329070000 -7.597396e-006 -1.114204e-005 6.972476e-001 7.325662e-001 4.886514e-007 6.241366e-007 9.297909e-001 -3.945698e-001
329355000 3.888812e-006 2.970545e-006 7.274700e-001 7.063414e-001 -4.085276e-006 1.208423e-005 9.293392e-001 -3.954032e-001
329640000 -2.302313e-005 -7.721093e-006 7.564471e-001 6.787968e-001 -1.491571e-005 2.413184e-005 9.296455e-001 -3.956998e-001
329925000 -1.729455e-006 6.448602e-006 7.840462e-001 6.497156e-001 -6.835711e-006 5.517463e-006 9.290524e-001 -3.954984e-001
330210000 -9.064321e-006 1.858962e-006 8.104143e-001 6.192080e-001 -1.573737e-006 1.168427e-005 9.282419e-001 -3.960416e-001
330495000 -6.203789e-006 3.121780e-007 8.352990e-001 5.872656e-001 -1.677148e-005 -1.142663e-005 9.286716e-001 -3.961188e-001
330780000 -7.668713e-006 3.936887e-006 8.585527e-001 5.542381e-001 -1.401731e-005 1.328977e-005 9.290117e-001 -3.974541e-001
331065000 -6.942796e-006 2.167821e-006 8.802494e-001 5.198547e-001 -1.517391e-005 -1.547593e-006 9.275491e-001 -3.957908e-001
331350000 7.268777e-007 -2.750941e-006 9.003003e-001 4.845094e-001 1.974003e-006 -9.841631e-006 9.280412e-001 -3.970052e-001
331635000 4.062085e-006 1.596791e-005 9.185722e-001 4.482926e-001 -1.030127e-005 -2.662942e-006 9.290522e-001 -3.976499e-001
331920000 -7.725767e-006 -1.136544e-006 9.349674e-001 4.113280e-001 2.173487e-005 5.101166e-006 9.285932e-001 -3.978494e-001
332205000 -9.338266e-006 6.265765e-007 9.495569e-001 3.736944e-001 5.109911e-006 2.709255e-006 9.275045e-001 -3.986264e-001
332490000 -1.135005e-005 9.472883e-006 9.622261e-001 3.353802e-001 1.137857e-005 1.577265e-006 9.285355e-001 -3.983950e-001
332775000 -9.459991e-006 -5.533890e-006 9.729472e-001 2.967898e-001 1.216373e-005 1.101021e-005 9.277047e-001 -3.990299e-001
333060000 -2.801905e-005 1.882598e-005 9.816750e-001 2.578169e-001 8.739335e-006 1.567188e-005 9.280117e-001 -3.993354e-001
333345000 -1.028461e-005 -1.649961e-006 9.886616e-001 2.186649e-001 9.032236e-006 1.447567e-005 9.287984e-001 -3.991746e-001
333630000 -3.011545e-005 7.906835e-006 9.937021e-001 1.796038e-001 -2.159573e-006 1.007424e-005 9.276231e-001 -4.009115e-001
333915000 -2.029032e-005 -8.478442e-006 9.966617e-001 1.404861e-001 -9.052519e-006 1.140478e-005 9.271746e-001 -3.999979e-001
334200000 4.862017e-006 8.873011e-006 9.979761e-001 1.016670e-001 1.289143e-005 -8.314160e-007 9.276353e-001 -4.014634e-001
334485000 -7.936356e-007 4.762888e-006 9.974976e-001 6.316672e-002 -2.874746e-006 -6.159774e-006 9.273863e-001 -4.003935e-001
334770000 -8.383992e-006 1.116246e-005 9.952596e-001 2.505405e-002 3.643788e-006 1.577288e-005 9.274279e-001 -4.015243e-001
335055000 -1.139294e-006 1.643489e-005 9.911611e-001 -1.251083e-002 6.257332e-006 8.907242e-006 9.278724e-001 -4.015471e-001
335340000 -1.971255e-005 3.054183e-006 9.856020e-001 -4.936747e-002 -6.156786e-006 -4.846132e-006 9.272876e-001 -4.029725e-001
335625000 -2.069043e-005 -3.143168e-006 9.784161e-001 -8.559221e-002 2.613838e-006 1.586293e-005 9.271998e-001 -4.026710e-001
335910000 1.166135e-005 5.249180e-007 9.696946e-001 -1.211232e-001 -1.830282e-005 1.107406e-005 9.270800e-001 -4.025026e-001
336195000 -1.332939e-006 2.596798e-005 9.596180e-001 -1.556513e-001 -3.235901e-006 -3.657901e-006 9.258939e-001 -4.025938e-001
336480000 -2.675702e-006 1.007112e-005 9.482625e-001 -1.893918e-001 1.059186e-006 1.442932e-005 9.271871e-001 -4.030340e-001
336765000 3.043719e-006 -5.605713e-006 9.356598e-001 -2.221520e-001 -1.555029e-005 -4.566001e-006 9.267325e-001 -4.037129e-001
337050000 6.551008e-006 2.927018e-006 9.219143e-001 -2.540050e-001 -7.347610e-006 -5.847384e-006 9.270781e-001 -4.040433e-001
337335000 -4.994519e-006 1.979785e-006 9.069824e-001 -2.847263e-001 -8.962924e-006 -1.301796e-006 9.259839e-001 -4.055891e-001
337620000 -1.410937e-005 -8.918489e-006 8.912294e-001 -3.145241e-001 -1.253136e-005 -4.421851e-006 9.260693e-001 -4.054312e-001
337905000 -7.342633e-006 5.462192e-006 8.744882e-001 -3.431502e-001 -1.033169e-005 -4.530936e-006 9.252656e-001 -4.038643e-001
338190000 -2.759538e-005 1.708758e-006 8.569984e-001 -3.707899e-001 -1.274554e-005 -1.024839e-006 9.255399e-001 -4.058037e-001
338475000 -7.605636e-006 2.360750e-006 8.385646e-001 -3.973517e-001 4.729127e-007 -2.186811e-005 9.268284e-001 -4.049481e-001
338760000 2.992912e-006 4.747160e-006 8.195778e-001 -4.228162e-001 -6.420134e-006 -2.955697e-006 9.260038e-001 -4.057240e-001
339045000 4.733710e-006 -7.981198e-006 7.999383e-001 -4.471938e-001 2.408511e-006 -2.594464e-006 9.259651e-001 -4.062091e-001
339330000 -8.319494e-007 2.529404e-006 7.797619e-001 -4.705531e-001 1.957007e-005 -1.552380e-005 9.272459e-001 -4.054090e-001
339615000 4.886241e-006 6.664158e-006 7.591226e-001 -4.927596e-001 2.540440e-006 -5.349089e-006 9.258158e-001 -4.070908e-001
339900000 3.607871e-006 1.477730e-005 7.380240e-001 -5.140515e-001 1.629800e-005 4.256406e-008 9.251590e-001 -4.077717e-001
340185000 -4.165921e-006 6.855640e-006 7.166268e-001 -5.341472e-001 1.574534e-005 1.107931e-005 9.253867e-001 -4.080238e-001
340470000 -3.689945e-007 -1.130044e-005 6.948756e-001 -5.533382e-001 1.544162e-005 8.556865e-007 9.257021e-001 -4.070266e-001
340755000 2.967339e-006 -1.178056e-005 6.728943e-001 -5.714872e-001 4.344458e-006 6.919091e-006 9.251423e-001 -4.088498e-001
341040000 -1.105361e-005 6.073190e-006 6.506269e-001 -5.886943e-001 -3.086309e-006 -1.139152e-005 9.246919e-001 -4.090948e-001
341325000 -1.555887e-005 6.016351e-006 6.281146e-001 -6.049256e-001 -1.681904e-005 4.405660e-006 9.262471e-001 -4.076525e-001
341610000 3.564709e-006 -2.178265e-006 6.056848e-001 -6.203275e-001 -6.705192e-006 1.412337e-005 9.265225e-001 -4.089684e-001
341895000 -6.409070e-006 4.000035e-006 5.829316e-001 -6.347145e-001 -1.393015e-005 -7.473640e-006 9.244066e-001 -4.100586e-001
342180000 4.835096e-006 3.674893e-006 5.602325e-001 -6.483891e-001 -2.322619e-005 8.730520e-006 9.254521e-001 -4.108318e-001
342465000 -2.753627e-006 -9.091122e-006 5.374030e-001 -6.611755e-001 1.061159e-005 -3.197081e-007 9.248407e-001 -4.107479e-001
342750000 1.104658e-005 -2.489990e-006 5.146381e-001 -6.730331e-001 -6.318701e-007 -1.883141e-006 9.264626e-001 -4.104690e-001
343035000 -1.015794e-006 -4.853274e-007 4.917098e-001 -6.842611e-001 1.035252e-005 1.673619e-005 9.241649e-001 -4.117715e-001
343320000 1.513466e-005 8.280649e-006 4.689993e-001 -6.946772e-001 5.601136e-006 -1.210349e-005 9.239172e-001 -4.109986e-001
343605000 7.722066e-006 -3.259731e-007 4.462209e-001 -7.043693e-001 5.370414e-006 1.363385e-006 9.240415e-001 -4.112984e-001
343890000 4.302880e-006 1.893629e-005 4.236181e-001 -7.134091e-001 -2.177293e-005 -8.683974e-007 9.245811e-001 -4.122710e-001
