!Agilent Technologies,N5230C,SG49000117,A.08.50.07
!Agilent N5230C: A.08.50.07
!Date: Sunday, March 17, 2024 01:25:17
!Correction: S11(Off) 
!S21(Off) 
!S12(Off) 
!S22(Off) 
!S2P File: Measurements: S11, S21, S12, S22:
# Hz S  RI   R 50
300000000 -6.462444e-005 4.843889e-005 -6.086143e-001 -6.690106e-001 3.274109e-005 -7.788913e-005 -6.106535e-001 -6.703563e-001
300285000 1.766498e-005 8.169145e-005 -6.250408e-001 -6.456673e-001 2.558396e-005 3.474441e-005 -6.265081e-001 -6.478978e-001
300570000 -9.951965e-005 4.162638e-005 -6.398283e-001 -6.226829e-001 -2.299614e-005 -7.798324e-005 -6.418122e-001 -6.251019e-001
300855000 2.777186e-005 4.040936e-005 -6.537916e-001 -5.994653e-001 -1.450700e-004 4.362694e-005 -6.564185e-001 -6.012456e-001
301140000 8.396504e-005 -7.279544e-005 -6.674898e-001 -5.757506e-001 -5.992634e-005 -3.032440e-005 -6.702331e-001 -5.777952e-001
301425000 -1.170183e-006 3.938784e-005 -6.803275e-001 -5.520496e-001 9.383296e-006 1.001596e-004 -6.828939e-001 -5.538501e-001
301710000 -8.927436e-005 2.411646e-005 -6.917245e-001 -5.282390e-001 1.470271e-004 -4.171074e-005 -6.945598e-001 -5.305027e-001
301995000 5.130631e-005 -9.543921e-005 -7.027367e-001 -5.048958e-001 4.575657e-005 -1.738230e-005 -7.056304e-001 -5.071464e-001
302280000 -2.352694e-005 -7.892348e-005 -7.133855e-001 -4.816930e-001 4.836886e-005 -6.037581e-006 -7.161497e-001 -4.830442e-001
302565000 3.431780e-005 -8.223566e-005 -7.224160e-001 -4.579058e-001 -5.425084e-005 3.235469e-005 -7.254760e-001 -4.600776e-001
302850000 7.273304e-005 6.350221e-006 -7.310562e-001 -4.344209e-001 -6.109264e-005 9.136523e-005 -7.339443e-001 -4.362127e-001
303135000 -1.725318e-005 -3.247014e-006 -7.390082e-001 -4.115275e-001 -1.095116e-004 -3.430427e-005 -7.421245e-001 -4.127323e-001
303420000 3.673374e-005 -4.181765e-005 -7.464383e-001 -3.889459e-001 -1.247239e-004 3.690030e-005 -7.496023e-001 -3.898730e-001
303705000 -1.149239e-005 -1.107934e-004 -7.531859e-001 -3.650116e-001 -1.714306e-005 3.578066e-005 -7.564626e-001 -3.664759e-001
303990000 -1.698562e-005 -3.635040e-005 -7.592958e-001 -3.426748e-001 -4.029148e-005 -1.902139e-005 -7.620968e-001 -3.438015e-001
304275000 1.150324e-004 3.804547e-006 -7.647076e-001 -3.200880e-001 1.790658e-005 -8.853800e-005 -7.675350e-001 -3.203981e-001
304560000 -5.621817e-006 7.715760e-005 -7.697704e-001 -2.966441e-001 2.021503e-005 -6.829652e-005 -7.726276e-001 -2.983082e-001
304845000 -3.596730e-005 -1.107980e-005 -7.738233e-001 -2.746385e-001 2.834727e-005 -8.156335e-005 -7.769074e-001 -2.752837e-001
305130000 -6.965939e-005 4.292416e-005 -7.780860e-001 -2.517768e-001 8.070451e-005 1.234330e-005 -7.805662e-001 -2.531084e-001
305415000 5.527207e-005 8.623140e-005 -7.809601e-001 -2.297179e-001 6.735465e-005 5.336439e-005 -7.837806e-001 -2.302211e-001
305700000 1.287735e-005 4.389852e-005 -7.835126e-001 -2.077578e-001 9.058951e-005 -2.997617e-005 -7.866188e-001 -2.085438e-001
305985000 6.771131e-005 1.326194e-004 -7.858939e-001 -1.853485e-001 1.252323e-005 -7.101216e-005 -7.888726e-001 -1.863926e-001
306270000 -5.498357e-005 5.046656e-005 -7.880223e-001 -1.638409e-001 2.618260e-005 8.982376e-005 -7.900048e-001 -1.648098e-001
306555000 6.558587e-005 -1.795687e-005 -7.886276e-001 -1.416966e-001 -1.171516e-004 9.290628e-005 -7.916729e-001 -1.430282e-001
306840000 1.428056e-006 1.456455e-005 -7.896829e-001 -1.205048e-001 -9.868806e-005 7.544621e-005 -7.925676e-001 -1.213427e-001
307125000 8.390116e-006 7.247116e-005 -7.898452e-001 -9.943435e-002 -9.719215e-005 -8.166535e-005 -7.926205e-001 -9.961554e-002
307410000 -6.467923e-005 6.204230e-006 -7.896131e-001 -7.819441e-002 3.125780e-005 -6.034477e-005 -7.928855e-001 -7.853396e-002
307695000 -8.305674e-005 -1.387810e-004 -7.888132e-001 -5.691400e-002 -2.741699e-005 -4.938585e-005 -7.920763e-001 -5.730997e-002
307980000 5.485225e-005 2.456860e-005 -7.881358e-001 -3.631959e-002 -5.263655e-005 -9.967446e-005 -7.911947e-001 -3.611910e-002
308265000 1.847093e-005 -4.364304e-005 -7.864427e-001 -1.528608e-002 3.051964e-005 7.882163e-006 -7.896827e-001 -1.559127e-002
308550000 7.413686e-005 -1.286653e-005 -7.847497e-001 5.617292e-003 2.934886e-005 -5.097272e-005 -7.885624e-001 5.157087e-003
308835000 -4.397671e-006 4.708888e-005 -7.831316e-001 2.584206e-002 -4.735657e-005 -1.866006e-004 -7.858147e-001 2.547485e-002
309120000 -4.767104e-005 4.982108e-005 -7.803044e-001 4.544510e-002 1.313131e-005 7.707735e-005 -7.833813e-001 4.609651e-002
309405000 -6.407328e-005 -6.915601e-006 -7.773213e-001 6.674376e-002 -3.900011e-005 4.938631e-005 -7.802991e-001 6.704471e-002
309690000 -1.140182e-004 -1.796163e-005 -7.741760e-001 8.645398e-002 9.043450e-006 1.899339e-005 -7.773428e-001 8.702729e-002
309975000 4.218405e-005 4.589050e-007 -7.709535e-001 1.064316e-001 -1.118709e-004 1.069962e-004 -7.740119e-001 1.065859e-001
310260000 -1.057038e-004 -4.261389e-005 -7.664753e-001 1.264284e-001 4.124906e-005 -1.352618e-005 -7.697088e-001 1.269327e-001
310545000 3.596884e-005 8.308799e-005 -7.627681e-001 1.457967e-001 -3.142903e-005 -3.917479e-005 -7.654507e-001 1.461602e-001
310830000 -2.110290e-005 3.729981e-005 -7.578040e-001 1.656338e-001 -1.855104e-005 -5.116380e-005 -7.604827e-001 1.662677e-001
311115000 3.973491e-005 7.175496e-005 -7.528697e-001 1.851945e-001 4.667560e-005 -5.260591e-005 -7.564005e-001 1.855495e-001
311400000 2.320635e-005 1.143324e-004 -7.474145e-001 2.048114e-001 2.326191e-005 -6.505195e-005 -7.503257e-001 2.052549e-001
311685000 4.674747e-005 -1.150712e-004 -7.420903e-001 2.239664e-001 -7.047362e-005 2.602345e-005 -7.451910e-001 2.246780e-001
311970000 8.634971e-006 -6.542021e-005 -7.358567e-001 2.431367e-001 -2.892160e-005 1.449836e-005 -7.386056e-001 2.439839e-001
312255000 3.370741e-005 3.307280e-005 -7.289245e-001 2.623171e-001 -1.384762e-004 4.145052e-005 -7.319356e-001 2.629890e-001
312540000 9.236711e-005 3.826284e-005 -7.223476e-001 2.813562e-001 1.057581e-004 -9.428758e-005 -7.255667e-001 2.823379e-001
312825000 -7.685430e-005 -3.441163e-005 -7.151645e-001 3.001811e-001 -6.488532e-005 7.387793e-005 -7.184718e-001 3.015670e-001
313110000 4.395892e-005 5.358563e-005 -7.080561e-001 3.190030e-001 2.245865e-005 -4.470347e-005 -7.103993e-001 3.200190e-001
313395000 1.236738e-004 3.654138e-005 -7.000644e-001 3.379226e-001 -1.909299e-005 -6.266821e-005 -7.024520e-001 3.393496e-001
313680000 -2.074070e-005 1.604228e-005 -6.917656e-001 3.564885e-001 9.785288e-005 3.240747e-005 -6.943400e-001 3.579942e-001
313965000 -2.985630e-005 1.957406e-006 -6.828390e-001 3.750678e-001 3.861771e-005 -3.438552e-005 -6.860209e-001 3.767166e-001
314250000 1.181635e-005 -1.184211e-004 -6.737666e-001 3.937747e-001 -3.140793e-005 6.125917e-005 -6.766326e-001 3.951984e-001
314535000 5.477320e-006 3.762027e-005 -6.643625e-001 4.127005e-001 1.725470e-006 -1.061044e-004 -6.670895e-001 4.138582e-001
314820000 3.185895e-005 -1.001701e-004 -6.548541e-001 4.308555e-001 6.994206e-005 2.210068e-005 -6.574457e-001 4.326017e-001
315105000 -5.247835e-005 -1.201024e-004 -6.447279e-001 4.494174e-001 -7.961968e-005 -1.149572e-004 -6.469831e-001 4.508056e-001
315390000 1.331780e-004 1.762652e-005 -6.334482e-001 4.672289e-001 1.123193e-004 -4.565711e-005 -6.361678e-001 4.690463e-001
315675000 -7.498873e-005 -6.516179e-005 -6.222962e-001 4.851863e-001 1.885716e-004 -3.318359e-005 -6.251172e-001 4.872013e-001
315960000 -1.292346e-006 -6.595090e-005 -6.106946e-001 5.032827e-001 2.535897e-005 -1.298779e-005 -6.133421e-001 5.055466e-001
316245000 5.273730e-005 7.061095e-005 -5.990890e-001 5.217586e-001 -8.834615e-006 1.104601e-004 -6.013205e-001 5.235094e-001
316530000 2.646822e-005 3.004601e-006 -5.861921e-001 5.388702e-001 1.566560e-005 6.669180e-005 -5.886621e-001 5.415205e-001
316815000 2.285756e-005 6.918647e-005 -5.730129e-001 5.567570e-001 -1.475462e-004 1.224592e-004 -5.756261e-001 5.595638e-001
317100000 1.429539e-004 6.121903e-005 -5.600138e-001 5.744694e-001 -3.489230e-005 -6.415703e-005 -5.618995e-001 5.764393e-001
317385000 9.166246e-005 1.441807e-004 -5.455049e-001 5.922007e-001 -3.937959e-005 -2.108618e-005 -5.477457e-001 5.945083e-001
317670000 8.450113e-005 -1.087581e-006 -5.311264e-001 6.091260e-001 5.636202e-005 -2.289641e-005 -5.328035e-001 6.119934e-001
317955000 -6.961667e-005 -5.050347e-005 -5.161739e-001 6.262794e-001 2.224241e-005 -7.154214e-005 -5.182719e-001 6.293616e-001
318240000 2.915482e-005 1.002116e-004 -5.001270e-001 6.434180e-001 1.063478e-004 -6.557138e-005 -5.027679e-001 6.460994e-001
318525000 -5.424658e-005 -5.689113e-005 -4.840353e-001 6.609410e-001 1.671074e-005 5.590966e-006 -4.859938e-001 6.629428e-001
318810000 2.712966e-005 5.192175e-005 -4.672618e-001 6.770368e-001 8.726001e-005 3.066782e-006 -4.693700e-001 6.797239e-001
319095000 5.054613e-005 -2.117576e-005 -4.498363e-001 6.940230e-001 7.269727e-005 4.378152e-006 -4.516554e-001 6.965004e-001
319380000 -7.167738e-005 -2.343800e-006 -4.317195e-001 7.095496e-001 8.335591e-005 6.889983e-005 -4.333846e-001 7.131810e-001
319665000 -1.978569e-005 -3.959119e-005 -4.125339e-001 7.255778e-001 3.870197e-005 1.401931e-004 -4.142693e-001 7.283010e-001
319950000 6.205814e-006 -4.844660e-005 -3.933548e-001 7.412378e-001 -6.518844e-005 9.613766e-005 -3.947069e-001 7.443081e-001
320235000 6.562243e-006 -6.892563e-005 -3.734306e-001 7.561222e-001 -5.169691e-005 8.205346e-006 -3.749370e-001 7.594395e-001
320520000 1.387048e-006 3.991845e-005 -3.526133e-001 7.718466e-001 -5.349331e-005 2.317825e-005 -3.540925e-001 7.749070e-001
320805000 7.203934e-006 2.182505e-005 -3.308543e-001 7.860499e-001 -1.085908e-004 2.122162e-005 -3.325834e-001 7.896214e-001
321090000 -3.303363e-005 -2.121144e-005 -3.088161e-001 8.010281e-001 -1.158015e-004 2.729299e-006 -3.103344e-001 8.043054e-001
321375000 -5.699770e-007 -1.041285e-004 -2.859794e-001 8.147550e-001 1.178053e-006 6.110763e-006 -2.876138e-001 8.178033e-001
321660000 1.797365e-005 -2.999455e-005 -2.626338e-001 8.275292e-001 1.027332e-005 -1.529830e-004 -2.638995e-001 8.314249e-001
321945000 -4.670443e-005 -8.007571e-005 -2.381133e-001 8.405768e-001 -4.966869e-005 9.574959e-005 -2.393314e-001 8.443425e-001
322230000 -1.259772e-006 1.352758e-005 -2.132406e-001 8.528894e-001 -4.440733e-005 8.737405e-005 -2.142751e-001 8.566902e-001
322515000 1.007839e-004 5.672954e-005 -1.871872e-001 8.648020e-001 3.072159e-005 -2.203964e-006 -1.877519e-001 8.684859e-001
322800000 -4.612924e-005 3.212079e-005 -1.606943e-001 8.755131e-001 9.966971e-006 -4.670403e-005 -1.613158e-001 8.793780e-001
323085000 -4.965992e-005 1.092304e-004 -1.328177e-001 8.857633e-001 -4.379803e-005 -8.332447e-005 -1.341246e-001 8.897966e-001
323370000 -4.775236e-005 -3.121965e-005 -1.051529e-001 8.957576e-001 2.271168e-005 -1.532321e-004 -1.054065e-001 8.996913e-001
323655000 1.979067e-005 -5.485623e-005 -7.660728e-002 9.040464e-001 -1.064615e-005 -1.877745e-005 -7.702246e-002 9.080017e-001
323940000 -1.184265e-005 -2.498542e-005 -4.690316e-002 9.127079e-001 4.218395e-005 -1.084527e-004 -4.684025e-002 9.158671e-001
324225000 -2.077362e-005 -8.718170e-005 -1.635727e-002 9.188033e-001 2.668394e-005 -8.472289e-005 -1.731213e-002 9.227091e-001
324510000 -4.234193e-005 3.972929e-005 1.459256e-002 9.253263e-001 -7.562429e-005 -8.139383e-006 1.475744e-002 9.291185e-001
324795000 2.658762e-005 -5.756321e-005 4.597316e-002 9.306316e-001 -2.903322e-005 5.167294e-005 4.648461e-002 9.340481e-001
325080000 3.341606e-006 -5.371249e-005 7.872237e-002 9.342809e-001 3.260961e-005 3.278470e-005 7.918803e-002 9.383946e-001
325365000 -9.766396e-005 4.113544e-006 1.120968e-001 9.369376e-001 5.858384e-005 1.932969e-005 1.119763e-001 9.406725e-001
325650000 6.526533e-005 -2.079679e-005 1.453460e-001 9.377552e-001 1.718528e-005 -9.701344e-005 1.453963e-001 9.412801e-001
325935000 1.725709e-005 2.069512e-005 1.795249e-001 9.378312e-001 2.567393e-005 2.227319e-005 1.800319e-001 9.418156e-001
326220000 -1.707684e-005 2.061353e-005 2.137357e-001 9.374419e-001 -6.999823e-005 -6.358440e-005 2.144492e-001 9.408278e-001
326505000 -6.848384e-006 4.235976e-006 2.490398e-001 9.343314e-001 -7.938049e-005 -7.793686e-005 2.489627e-001 9.377093e-001
326790000 -5.153989e-005 1.437882e-004 2.839637e-001 9.297453e-001 -4.194706e-005 -6.671219e-005 2.845614e-001 9.333048e-001
327075000 -3.329625e-005 6.532298e-005 3.187954e-001 9.235158e-001 -3.806188e-005 -1.281587e-005 3.208728e-001 9.278635e-001
327360000 2.997863e-005 -8.761876e-006 3.550406e-001 9.164746e-001 7.353396e-005 -1.063135e-004 3.563684e-001 9.200973e-001
327645000 -4.416191e-005 8.825399e-005 3.910722e-001 9.072454e-001 -2.453371e-005 -4.725819e-005 3.920363e-001 9.119958e-001
327930000 -7.911455e-005 -8.859734e-006 4.263225e-001 8.969340e-001 3.874439e-005 -7.855007e-005 4.279847e-001 9.010324e-001
328215000 1.302585e-005 -9.973964e-006 4.620243e-001 8.847482e-001 7.282466e-006 1.510880e-005 4.632771e-001 8.885838e-001
328500000 -1.555218e-005 -1.321375e-004 4.972167e-001 8.706032e-001 -3.173195e-005 -1.476944e-005 4.993263e-001 8.743885e-001
328785000 3.628364e-005 8.372093e-005 5.325713e-001 8.544635e-001 6.827857e-005 -4.219881e-005 5.351121e-001 8.587064e-001
329070000 8.749156e-005 -3.961565e-005 5.670624e-001 8.371474e-001 -1.736396e-005 -9.230748e-006 5.698294e-001 8.408442e-001
329355000 -9.022204e-006 4.382110e-005 6.019709e-001 8.175046e-001 5.199503e-005 3.646917e-005 6.044267e-001 8.212247e-001
329640000 -5.784440e-006 1.104858e-005 6.351607e-001 7.966677e-001 1.352956e-004 -3.296463e-005 6.369557e-001 8.002703e-001
329925000 -5.319681e-005 3.304470e-005 6.672634e-001 7.735602e-001 4.552540e-005 -7.010978e-005 6.700079e-001 7.769189e-001
330210000 1.376929e-005 3.165436e-005 6.988878e-001 7.490255e-001 -8.079733e-005 1.415703e-004 7.017837e-001 7.518986e-001
330495000 -5.275422e-007 1.013802e-004 7.298700e-001 7.227499e-001 8.025183e-005 -9.844672e-005 7.324592e-001 7.255140e-001
330780000 -8.956320e-006 1.606670e-004 7.592390e-001 6.947137e-001 1.121352e-004 2.460586e-005 7.620409e-001 6.977212e-001
331065000 -1.887843e-004 -3.000199e-005 7.870294e-001 6.659445e-001 1.310046e-005 2.525061e-005 7.905622e-001 6.685404e-001
331350000 -1.339498e-005 -3.816167e-005 8.138515e-001 6.350912e-001 -6.328261e-005 -5.063735e-007 8.176729e-001 6.369999e-001
331635000 2.882291e-005 4.276756e-005 8.395935e-001 6.027783e-001 -8.519432e-006 -1.532325e-005 8.427415e-001 6.055311e-001
331920000 4.368342e-005 -3.911133e-005 8.630849e-001 5.686768e-001 2.430244e-005 4.409753e-005 8.669014e-001 5.712931e-001
332205000 1.007313e-004 -7.705524e-005 8.853339e-001 5.348834e-001 -3.634874e-005 3.146558e-005 8.894871e-001 5.373763e-001
332490000 5.407850e-005 4.212137e-005 9.061365e-001 4.996449e-001 7.301609e-005 -4.212773e-005 9.087996e-001 5.009882e-001
332775000 2.551781e-006 -9.921321e-006 9.242145e-001 4.631262e-001 -2.761093e-006 -6.369082e-006 9.278118e-001 4.650975e-001
333060000 4.823072e-005 1.509648e-005 9.411001e-001 4.254234e-001 -3.932499e-005 -7.471660e-006 9.445795e-001 4.270788e-001
333345000 6.015376e-005 -2.307154e-005 9.554761e-001 3.878321e-001 -2.922992e-005 -7.338580e-005 9.601837e-001 3.892108e-001
333630000 -5.247246e-005 1.372795e-005 9.686898e-001 3.488851e-001 -3.008036e-005 5.541542e-006 9.727194e-001 3.506351e-001
333915000 -3.504967e-005 1.526197e-004 9.791792e-001 3.101323e-001 -9.117874e-005 -3.207832e-005 9.840823e-001 3.112086e-001
334200000 4.590028e-005 -9.095186e-006 9.886535e-001 2.711042e-001 -6.166031e-005 -8.041123e-005 9.932514e-001 2.721427e-001
334485000 -3.057152e-005 1.235413e-004 9.960526e-001 2.317595e-001 -2.088597e-005 1.122966e-004 9.998786e-001 2.330362e-001
334770000 -1.375141e-005 2.411962e-006 1.000813e+000 1.923609e-001 -5.430335e-005 -6.033469e-005 1.005788e+000 1.933448e-001
335055000 9.753564e-005 -3.870522e-005 1.004702e+000 1.537245e-001 -9.614541e-005 3.984568e-005 1.008802e+000 1.538183e-001
335340000 3.513857e-005 1.312968e-005 1.005621e+000 1.139137e-001 -1.182080e-006 -8.210041e-005 1.010328e+000 1.147218e-001
335625000 1.427614e-004 1.244479e-004 1.005397e+000 7.549515e-002 -2.527040e-005 -3.297666e-005 1.009792e+000 7.568127e-002
335910000 6.673409e-005 6.908467e-005 1.003061e+000 3.725404e-002 -5.844246e-005 7.409062e-005 1.007384e+000 3.751625e-002
336195000 -2.898103e-005 -9.896767e-006 9.998761e-001 2.675149e-004 1.554076e-005 -5.017985e-005 1.004172e+000 -2.926371e-004
336480000 -3.269852e-005 -4.275970e-006 9.941611e-001 -3.762519e-002 -5.140590e-005 2.064202e-006 9.986510e-001 -3.747403e-002
336765000 -3.993064e-005 1.085652e-004 9.873878e-001 -7.351797e-002 7.374398e-005 4.937244e-005 9.915174e-001 -7.403984e-002
337050000 -1.258685e-004 3.984727e-005 9.787544e-001 -1.087864e-001 -2.339334e-005 -2.605566e-005 9.831120e-001 -1.095464e-001
337335000 1.013621e-004 -3.485528e-005 9.692736e-001 -1.441674e-001 9.673844e-005 2.363472e-005 9.730656e-001 -1.440881e-001
337620000 1.602807e-005 6.505327e-005 9.576799e-001 -1.773997e-001 4.064249e-005 -7.314426e-006 9.618270e-001 -1.783255e-001
337905000 -3.960984e-005 4.054320e-005 9.456489e-001 -2.105080e-001 1.971649e-006 -3.970973e-005 9.500827e-001 -2.110871e-001
338190000 -3.058350e-005 3.316638e-005 9.322011e-001 -2.426189e-001 -1.063328e-005 7.151937e-005 9.359113e-001 -2.437718e-001
338475000 -9.005274e-006 6.706723e-006 9.172764e-001 -2.733906e-001 5.052561e-005 -1.988272e-005 9.217208e-001 -2.744224e-001
338760000 -8.690076e-005 -5.242501e-005 9.021602e-001 -3.035996e-001 -3.437102e-005 -3.910426e-006 9.064938e-001 -3.049242e-001
339045000 -7.239151e-005 -3.266465e-005 8.857785e-001 -3.318974e-001 3.427477e-005 7.977200e-005 8.887171e-001 -3.337191e-001
339330000 -8.256376e-005 3.242702e-005 8.681317e-001 -3.602235e-001 3.106846e-005 -1.800582e-005 8.718293e-001 -3.616063e-001
339615000 3.458197e-005 -1.116106e-004 8.506387e-001 -3.870977e-001 4.327717e-005 -4.141734e-005 8.538315e-001 -3.883017e-001
339900000 1.395578e-004 3.747679e-005 8.316802e-001 -4.126986e-001 3.523356e-005 -3.158142e-005 8.350940e-001 -4.144858e-001
340185000 -5.534518e-005 -2.697707e-005 8.120289e-001 -4.365406e-001 -4.096262e-005 -5.286853e-005 8.159904e-001 -4.390058e-001
340470000 -5.466656e-006 -1.350147e-004 7.928222e-001 -4.605799e-001 -4.842041e-005 -5.131903e-005 7.960907e-001 -4.627583e-001
340755000 1.988930e-006 -1.942616e-005 7.719655e-001 -4.831212e-001 -3.459525e-005 3.102084e-005 7.756754e-001 -4.857502e-001
341040000 -5.204428e-005 -3.672445e-005 7.519459e-001 -5.045053e-001 1.898978e-004 6.591990e-006 7.545989e-001 -5.066571e-001
341325000 -2.409935e-005 -1.021527e-004 7.307344e-001 -5.252144e-001 1.888468e-006 -1.202640e-004 7.329940e-001 -5.274546e-001
341610000 6.784925e-005 3.213296e-005 7.091999e-001 -5.445794e-001 -8.414494e-005 -1.100191e-004 7.123510e-001 -5.470629e-001
341895000 -5.245450e-005 1.025069e-005 6.875494e-001 -5.632291e-001 4.044867e-005 2.518742e-005 6.901879e-001 -5.654370e-001
342180000 4.096483e-005 2.042343e-005 6.655805e-001 -5.812023e-001 3.593095e-005 5.296898e-005 6.686046e-001 -5.829141e-001
342465000 -1.628205e-005 2.396395e-005 6.429937e-001 -5.971957e-001 -8.557043e-005 7.430495e-005 6.456631e-001 -5.993841e-001
342750000 -2.488740e-005 5.963955e-005 6.214086e-001 -6.131549e-001 -2.227572e-005 7.535909e-005 6.236903e-001 -6.157712e-001
343035000 -7.640470e-005 1.007786e-005 5.985295e-001 -6.276090e-001 5.684560e-005 1.830106e-005 6.006491e-001 -6.305460e-001
343320000 1.024627e-004 6.354223e-005 5.764034e-001 -6.419070e-001 -2.954764e-005 5.870126e-005 5.790049e-001 -6.449559e-001
343605000 1.021210e-004 1.181381e-004 5.535353e-001 -6.543818e-001 -3.464159e-005 -9.655584e-005 5.558792e-001 -6.577592e-001
343890000 4.200300e-005 3.416035e-005 5.311491e-001 -6.677849e-001 -8.500272e-007 -2.979933e-005 5.333816e-001 -6.699726e-001
