!Agilent Technologies,N5230C,SG49000117,A.08.50.07
!Agilent N5230C: A.08.50.07
!Date: Sunday, March 17, 2024 01:26:37
!Correction: S11(Off) 
!S21(Off) 
!S12(Off) 
!S22(Off) 
!S2P File: Measurements: S11, S21, S12, S22:
# Hz S  RI   R 50
300000000 7.450944e-005 7.843143e-005 -6.173435e-001 -6.568177e-001 -1.466637e-004 -1.127802e-004 -6.197718e-001 -6.590080e-001
300285000 5.585739e-005 7.409324e-005 -6.333807e-001 -6.332223e-001 -9.082473e-006 -6.410232e-005 -6.354014e-001 -6.355057e-001
300570000 -1.190102e-005 4.632415e-005 -6.479156e-001 -6.103582e-001 -4.665361e-005 5.275328e-005 -6.499249e-001 -6.123748e-001
300855000 -9.516928e-006 7.410387e-006 -6.616871e-001 -5.868526e-001 8.008335e-006 4.074369e-007 -6.648528e-001 -5.887975e-001
301140000 -7.353217e-005 -7.415462e-005 -6.749177e-001 -5.632251e-001 6.489354e-005 3.581549e-005 -6.776298e-001 -5.653117e-001
301425000 2.324991e-006 1.449822e-005 -6.873768e-001 -5.399348e-001 -1.189207e-005 5.180034e-005 -6.898994e-001 -5.415422e-001
301710000 4.542776e-005 3.340626e-005 -6.983272e-001 -5.161176e-001 -1.176729e-005 -2.870162e-005 -7.009059e-001 -5.181360e-001
301995000 3.696384e-005 -8.401905e-005 -7.090455e-001 -4.921212e-001 -1.361542e-005 4.503750e-005 -7.112597e-001 -4.943972e-001
302280000 -1.506799e-004 -3.606890e-005 -7.185782e-001 -4.689256e-001 -3.460507e-005 2.360757e-005 -7.216339e-001 -4.708351e-001
302565000 6.399826e-005 -2.798333e-005 -7.284857e-001 -4.457242e-001 2.164206e-005 8.854427e-005 -7.304206e-001 -4.471669e-001
302850000 -7.445180e-005 1.632344e-005 -7.364898e-001 -4.218625e-001 4.971342e-005 -1.997968e-005 -7.388559e-001 -4.234264e-001
303135000 4.672495e-005 -8.803186e-005 -7.437829e-001 -3.990107e-001 -3.922831e-005 -3.852955e-005 -7.464322e-001 -4.005102e-001
303420000 2.731278e-005 -5.553581e-005 -7.511268e-001 -3.758267e-001 -1.734610e-005 5.857878e-006 -7.537636e-001 -3.767514e-001
303705000 2.110842e-005 2.921212e-005 -7.572668e-001 -3.526580e-001 4.957285e-005 -5.001466e-005 -7.598204e-001 -3.537184e-001
303990000 -1.366516e-004 3.582812e-005 -7.631424e-001 -3.293750e-001 1.215485e-004 -2.765471e-005 -7.659374e-001 -3.311985e-001
304275000 1.629330e-005 -1.122832e-004 -7.682920e-001 -3.071172e-001 -3.406694e-005 1.996119e-004 -7.707134e-001 -3.084139e-001
304560000 -1.268546e-005 -4.200514e-005 -7.725661e-001 -2.841156e-001 -2.737115e-005 4.474144e-005 -7.751892e-001 -2.856030e-001
304845000 5.486717e-005 4.993503e-005 -7.761848e-001 -2.616356e-001 1.788730e-005 6.082597e-005 -7.797127e-001 -2.627141e-001
305130000 -7.487956e-005 -2.749651e-006 -7.802523e-001 -2.394760e-001 1.745485e-004 6.257284e-005 -7.829421e-001 -2.403958e-001
305415000 1.543121e-005 -3.419636e-005 -7.827448e-001 -2.176514e-001 7.215198e-006 -6.080091e-005 -7.858687e-001 -2.185279e-001
305700000 -3.040576e-005 -1.193800e-005 -7.849401e-001 -1.953372e-001 -4.473051e-005 4.058340e-005 -7.884936e-001 -1.961099e-001
305985000 4.378220e-005 3.288579e-006 -7.870659e-001 -1.736189e-001 -1.791109e-005 -1.141144e-006 -7.903550e-001 -1.743253e-001
306270000 -6.318655e-005 3.478982e-006 -7.887241e-001 -1.518952e-001 -5.197852e-005 -7.530050e-007 -7.916751e-001 -1.520336e-001
306555000 -7.392147e-005 -1.652864e-005 -7.897048e-001 -1.301187e-001 5.603688e-005 2.082034e-006 -7.925366e-001 -1.306605e-001
306840000 -3.306268e-005 8.920125e-005 -7.901121e-001 -1.083510e-001 -5.493991e-005 -1.253457e-005 -7.928361e-001 -1.089063e-001
307125000 2.499230e-005 -4.925122e-005 -7.898459e-001 -8.719181e-002 -8.341282e-005 -3.074243e-005 -7.929164e-001 -8.758592e-002
307410000 3.787818e-005 -7.052365e-005 -7.895183e-001 -6.630283e-002 -5.718376e-005 -4.214634e-005 -7.927002e-001 -6.640102e-002
307695000 3.797814e-005 1.098019e-005 -7.888876e-001 -4.501154e-002 1.063074e-005 -5.861768e-005 -7.918022e-001 -4.481303e-002
307980000 -2.004709e-005 -5.312667e-005 -7.879092e-001 -2.367674e-002 -2.111220e-006 1.746022e-005 -7.905827e-001 -2.422768e-002
308265000 -1.285195e-005 3.157039e-005 -7.860035e-001 -3.376211e-003 -6.407990e-005 -1.439664e-005 -7.892145e-001 -3.460960e-003
308550000 5.331242e-005 5.618047e-005 -7.839133e-001 1.724705e-002 -3.991698e-005 -4.187214e-007 -7.867713e-001 1.755854e-002
308835000 2.168925e-005 1.581639e-005 -7.817605e-001 3.770106e-002 3.291182e-005 -7.839831e-006 -7.844079e-001 3.743100e-002
309120000 8.139265e-005 9.666840e-006 -7.787756e-001 5.774135e-002 7.139514e-005 -4.681705e-005 -7.818449e-001 5.781883e-002
309405000 1.351018e-004 3.897136e-007 -7.758635e-001 7.782027e-002 -1.444882e-005 6.125779e-005 -7.790790e-001 7.835306e-002
309690000 3.146210e-005 -3.699516e-005 -7.720206e-001 9.824335e-002 1.923193e-005 2.396478e-005 -7.756335e-001 9.837706e-002
309975000 8.235855e-005 -7.143176e-005 -7.688580e-001 1.180598e-001 1.614412e-004 7.493730e-005 -7.714607e-001 1.184422e-001
310260000 1.100976e-005 -7.457019e-005 -7.641597e-001 1.375602e-001 9.224084e-005 6.914604e-006 -7.675567e-001 1.381170e-001
310545000 4.197981e-005 5.786628e-006 -7.598045e-001 1.575657e-001 -1.253971e-004 1.654891e-004 -7.625464e-001 1.582733e-001
310830000 -1.489924e-005 3.793785e-005 -7.550141e-001 1.771041e-001 -7.131130e-005 1.103085e-004 -7.580780e-001 1.780488e-001
311115000 6.250769e-005 2.670141e-005 -7.493887e-001 1.962244e-001 7.454756e-005 4.989880e-006 -7.526504e-001 1.974306e-001
311400000 3.318284e-005 -2.275020e-005 -7.440409e-001 2.163579e-001 -9.572272e-005 1.089901e-004 -7.470273e-001 2.168032e-001
311685000 -1.366209e-004 7.005360e-005 -7.379699e-001 2.347728e-001 3.854211e-005 5.367073e-005 -7.409590e-001 2.359289e-001
311970000 2.921516e-005 -7.568579e-005 -7.319116e-001 2.544054e-001 4.563640e-005 7.265074e-005 -7.339769e-001 2.553770e-001
312255000 3.631611e-005 3.591878e-005 -7.250276e-001 2.736951e-001 -1.647361e-004 2.219415e-005 -7.280449e-001 2.747421e-001
312540000 -3.414249e-005 -9.077762e-005 -7.180213e-001 2.929433e-001 -6.746045e-005 -7.233380e-005 -7.213835e-001 2.935175e-001
312825000 -4.731205e-005 1.152338e-004 -7.108331e-001 3.108003e-001 -8.857890e-005 1.691416e-005 -7.135453e-001 3.120451e-001
313110000 -1.956539e-005 7.247920e-005 -7.031533e-001 3.303901e-001 1.061096e-004 -5.387832e-005 -7.054954e-001 3.314023e-001
313395000 2.055824e-005 -2.795908e-005 -6.947548e-001 3.488646e-001 1.311711e-004 3.359829e-005 -6.973641e-001 3.500584e-001
313680000 1.453998e-004 -1.768655e-005 -6.860680e-001 3.673044e-001 9.319022e-007 -1.253124e-004 -6.892749e-001 3.688256e-001
313965000 -8.331186e-005 -8.197364e-005 -6.775702e-001 3.856836e-001 1.189326e-004 -5.028990e-005 -6.797572e-001 3.881769e-001
314250000 7.546793e-005 -1.472497e-004 -6.676286e-001 4.047684e-001 7.123442e-006 -3.383144e-005 -6.704103e-001 4.061449e-001
314535000 4.201110e-005 -6.480279e-005 -6.583474e-001 4.228852e-001 6.521464e-005 -2.546238e-005 -6.608804e-001 4.246486e-001
314820000 -2.254856e-005 -3.423801e-005 -6.481896e-001 4.410610e-001 8.019657e-005 4.645575e-005 -6.507595e-001 4.429999e-001
315105000 -8.974358e-006 1.343108e-005 -6.372201e-001 4.599595e-001 7.706924e-005 5.627254e-005 -6.404599e-001 4.612241e-001
315390000 -1.139844e-004 4.070197e-005 -6.264874e-001 4.778033e-001 -5.042069e-005 1.566699e-005 -6.295085e-001 4.798742e-001
315675000 -4.867701e-005 5.352279e-005 -6.152824e-001 4.958693e-001 -3.457343e-005 -2.194786e-005 -6.176643e-001 4.977596e-001
315960000 1.343298e-006 -1.017411e-005 -6.035832e-001 5.137873e-001 -1.298232e-005 7.071064e-005 -6.058822e-001 5.152863e-001
316245000 -1.637102e-005 8.002143e-005 -5.908565e-001 5.312757e-001 -1.215254e-004 5.252358e-005 -5.934062e-001 5.333889e-001
316530000 5.717978e-005 9.221202e-005 -5.783418e-001 5.493177e-001 -3.325514e-006 3.468478e-005 -5.804617e-001 5.512334e-001
316815000 2.156815e-005 5.769245e-005 -5.653117e-001 5.671020e-001 2.209355e-005 -1.093585e-005 -5.670719e-001 5.688366e-001
317100000 -1.859260e-005 -4.137953e-005 -5.511568e-001 5.838781e-001 -7.582951e-005 -1.292232e-005 -5.534508e-001 5.868042e-001
317385000 -1.045856e-004 -5.022892e-007 -5.363255e-001 6.021323e-001 -1.561142e-005 1.142268e-005 -5.390936e-001 6.049580e-001
317670000 3.298861e-005 -3.357747e-005 -5.220681e-001 6.189880e-001 6.762316e-005 -1.059914e-004 -5.241314e-001 6.216405e-001
317955000 -1.886506e-005 -7.467459e-005 -5.064858e-001 6.363694e-001 4.088972e-005 -1.880251e-005 -5.082554e-001 6.385231e-001
318240000 -4.887949e-005 -3.818375e-005 -4.908142e-001 6.530763e-001 8.895080e-006 2.164537e-005 -4.924877e-001 6.553262e-001
318525000 1.465786e-005 -6.241514e-005 -4.739048e-001 6.693793e-001 -1.515071e-004 -3.749203e-005 -4.756741e-001 6.724404e-001
318810000 -1.115370e-004 1.606769e-005 -4.565746e-001 6.858670e-001 4.347954e-005 -3.830934e-005 -4.580339e-001 6.886218e-001
319095000 -1.025238e-004 -8.809545e-005 -4.383776e-001 7.029257e-001 5.521826e-005 2.258164e-005 -4.403778e-001 7.055843e-001
319380000 1.020225e-004 -8.828857e-005 -4.199768e-001 7.185990e-001 -8.625543e-005 -8.619796e-005 -4.218262e-001 7.213663e-001
319665000 1.188758e-005 -1.274085e-004 -4.009079e-001 7.343876e-001 3.762510e-005 -5.769789e-005 -4.028926e-001 7.372108e-001
319950000 -9.280729e-006 -1.603383e-005 -3.817303e-001 7.490422e-001 6.605490e-005 2.982391e-005 -3.827882e-001 7.529384e-001
320235000 9.046109e-006 5.681426e-006 -3.608000e-001 7.648175e-001 1.245091e-005 9.753124e-005 -3.626888e-001 7.682573e-001
320520000 -6.807837e-005 7.287160e-005 -3.397998e-001 7.794634e-001 -8.137022e-005 -6.444261e-006 -3.413438e-001 7.825574e-001
320805000 -1.704400e-005 4.865389e-005 -3.180895e-001 7.939121e-001 3.368815e-006 -1.862214e-005 -3.194007e-001 7.973616e-001
321090000 -5.113059e-006 1.204131e-005 -2.949153e-001 8.080047e-001 3.217824e-005 -1.877704e-005 -2.966255e-001 8.115648e-001
321375000 -5.298436e-005 3.590625e-005 -2.725281e-001 8.223230e-001 -1.238681e-005 -1.834036e-004 -2.729537e-001 8.249964e-001
321660000 -2.808671e-005 5.071955e-005 -2.484126e-001 8.347751e-001 2.053281e-006 -6.064541e-005 -2.494059e-001 8.381427e-001
321945000 -4.700540e-006 -2.529424e-005 -2.233338e-001 8.473099e-001 -9.189107e-005 -6.003855e-006 -2.247182e-001 8.508874e-001
322230000 3.616971e-006 1.355970e-006 -1.982188e-001 8.589085e-001 1.147208e-004 -3.362949e-006 -1.987972e-001 8.626250e-001
322515000 1.301956e-004 -5.495143e-005 -1.711330e-001 8.699791e-001 4.789655e-005 4.502728e-005 -1.720932e-001 8.740004e-001
322800000 6.280807e-005 3.707959e-005 -1.442263e-001 8.805297e-001 -6.404245e-005 3.381751e-005 -1.451844e-001 8.841671e-001
323085000 -2.806884e-005 1.506555e-004 -1.171511e-001 8.906936e-001 1.074894e-005 -3.366274e-005 -1.174856e-001 8.943478e-001
323370000 -5.430114e-005 -6.189202e-005 -8.843973e-002 8.999661e-001 1.800566e-004 4.096669e-005 -8.850985e-002 9.038523e-001
323655000 -2.303224e-005 -9.977506e-005 -5.917902e-002 9.083853e-001 1.015034e-004 -1.657058e-006 -5.907857e-002 9.122516e-001
323940000 -9.205663e-005 -6.528343e-005 -2.876090e-002 9.154918e-001 3.398959e-005 -1.211453e-006 -2.925197e-002 9.190507e-001
324225000 -1.015176e-004 -1.393022e-005 2.078465e-003 9.223065e-001 1.198764e-004 1.679978e-005 1.446488e-003 9.258630e-001
324510000 -1.045867e-004 -1.801505e-006 3.264286e-002 9.274377e-001 -7.478068e-005 6.768003e-005 3.365178e-002 9.308559e-001
324795000 3.057702e-005 6.768223e-005 6.543826e-002 9.313658e-001 -6.467858e-005 -6.462621e-005 6.523597e-002 9.354619e-001
325080000 -3.165863e-005 1.191887e-005 9.717791e-002 9.347352e-001 -2.201949e-004 -8.837665e-005 9.814589e-002 9.386533e-001
325365000 8.794272e-005 -8.048832e-005 1.305909e-001 9.367493e-001 -7.915659e-005 -2.604991e-006 1.312207e-001 9.409387e-001
325650000 7.225802e-005 2.324221e-005 1.650511e-001 9.372748e-001 -1.026205e-004 -4.767495e-005 1.646498e-001 9.413447e-001
325935000 5.669470e-005 4.752656e-005 1.987486e-001 9.363667e-001 1.529529e-005 -2.958019e-005 1.996618e-001 9.404740e-001
326220000 5.935857e-005 1.108899e-004 2.337175e-001 9.344070e-001 -4.794953e-005 -4.283518e-005 2.348135e-001 9.382663e-001
326505000 2.483848e-005 3.502458e-005 2.685598e-001 9.306213e-001 3.054276e-005 -4.452315e-005 2.691963e-001 9.348189e-001
326790000 -8.203231e-005 1.214354e-005 3.038859e-001 9.258137e-001 1.256161e-004 1.525790e-005 3.046471e-001 9.298542e-001
327075000 3.843259e-005 5.254523e-005 3.396739e-001 9.196274e-001 -1.577109e-004 -8.193596e-005 3.409346e-001 9.227241e-001
327360000 -6.478012e-005 2.023749e-005 3.755101e-001 9.113073e-001 -1.416090e-004 -1.440924e-005 3.762277e-001 9.151245e-001
327645000 -3.010630e-005 -4.851904e-005 4.107085e-001 9.007791e-001 6.525208e-005 -2.614171e-005 4.120112e-001 9.048156e-001
327930000 2.228353e-005 -2.228191e-005 4.467345e-001 8.893975e-001 -3.909896e-005 -2.515444e-005 4.490508e-001 8.930880e-001
328215000 6.418335e-005 6.029329e-005 4.821364e-001 8.757671e-001 2.618823e-005 1.229702e-005 4.842147e-001 8.789345e-001
328500000 -4.426541e-005 -6.375477e-005 5.170876e-001 8.607172e-001 9.169618e-006 -7.953499e-005 5.193287e-001 8.645753e-001
328785000 -1.564166e-004 -2.950187e-005 5.519635e-001 8.442736e-001 4.670134e-005 -3.761688e-005 5.542829e-001 8.470284e-001
329070000 -3.745023e-005 3.892138e-005 5.864894e-001 8.252903e-001 5.956646e-006 -1.169600e-004 5.888866e-001 8.286302e-001
329355000 -8.047998e-005 4.171802e-005 6.202988e-001 8.050326e-001 -6.788404e-005 8.779053e-005 6.222322e-001 8.089121e-001
329640000 -3.905083e-005 -3.806303e-005 6.527514e-001 7.826971e-001 -4.965799e-005 5.634508e-005 6.565844e-001 7.859210e-001
329925000 2.822797e-005 -7.118070e-006 6.846319e-001 7.587619e-001 -3.574259e-005 2.976519e-005 6.878764e-001 7.623283e-001
330210000 -1.468441e-005 2.017804e-005 7.158618e-001 7.335454e-001 -5.796144e-005 -3.489263e-005 7.192680e-001 7.369506e-001
330495000 -7.548356e-006 2.974196e-005 7.456805e-001 7.067405e-001 3.977184e-005 -7.670190e-005 7.492040e-001 7.097577e-001
330780000 6.782373e-006 -2.218550e-005 7.746019e-001 6.784864e-001 6.275295e-005 2.784341e-005 7.786068e-001 6.806700e-001
331065000 -5.772885e-005 -6.060111e-005 8.019813e-001 6.483653e-001 2.091106e-005 -1.486722e-004 8.055013e-001 6.510282e-001
331350000 4.067222e-005 -7.922266e-005 8.284449e-001 6.159741e-001 2.249614e-005 -2.574121e-005 8.319238e-001 6.188088e-001
331635000 -3.702396e-005 9.332112e-005 8.520782e-001 5.833070e-001 -1.334984e-004 9.540327e-005 8.564553e-001 5.861434e-001
331920000 8.851727e-005 4.406137e-005 8.756464e-001 5.493361e-001 -6.808004e-005 6.576036e-005 8.797218e-001 5.512796e-001
332205000 4.661191e-006 4.993303e-005 8.969846e-001 5.141652e-001 -5.870619e-005 -7.108646e-005 9.004773e-001 5.164341e-001
332490000 3.041890e-005 2.151120e-005 9.160641e-001 4.779884e-001 -9.610125e-005 3.228007e-005 9.201575e-001 4.805224e-001
332775000 6.311202e-005 9.460225e-005 9.335142e-001 4.408284e-001 -1.023369e-004 -1.394512e-005 9.377400e-001 4.429024e-001
333060000 -1.358441e-005 -7.297769e-005 9.496241e-001 4.029832e-001 -1.850381e-005 -1.326041e-005 9.531348e-001 4.056056e-001
333345000 4.664820e-005 -4.530112e-005 9.633598e-001 3.650494e-001 -1.013943e-004 -7.473541e-005 9.674979e-001 3.676127e-001
333630000 6.947857e-006 6.596051e-005 9.756682e-001 3.263796e-001 8.279033e-006 6.563731e-005 9.791023e-001 3.281299e-001
333915000 -5.213655e-005 -5.547845e-005 9.845853e-001 2.877308e-001 -5.277282e-005 1.775232e-005 9.890279e-001 2.891276e-001
334200000 7.412724e-006 -1.466597e-005 9.932579e-001 2.485741e-001 8.968174e-005 3.280074e-005 9.971855e-001 2.494294e-001
334485000 -4.568005e-005 -6.928788e-005 9.985780e-001 2.100503e-001 2.990363e-006 3.183699e-005 1.003446e+000 2.099899e-001
334770000 2.725951e-005 -8.621628e-006 1.003750e+000 1.694864e-001 -7.992141e-005 1.743568e-005 1.007480e+000 1.703185e-001
335055000 4.711615e-005 -6.387149e-005 1.005436e+000 1.304228e-001 -4.630856e-005 1.425323e-005 1.009895e+000 1.310509e-001
335340000 2.417089e-005 -3.887658e-005 1.005802e+000 9.119961e-002 3.396317e-006 -3.403627e-005 1.010553e+000 9.190638e-002
335625000 -4.454361e-005 1.230861e-004 1.004161e+000 5.344120e-002 1.934129e-005 -5.248915e-006 1.008849e+000 5.365112e-002
335910000 1.127539e-004 4.466371e-005 1.001342e+000 1.531382e-002 3.863003e-005 -1.898429e-005 1.006169e+000 1.528007e-002
336195000 1.276754e-004 3.989176e-005 9.960931e-001 -2.165636e-002 3.615694e-005 3.866808e-005 1.001123e+000 -2.176046e-002
336480000 2.187399e-005 -3.332624e-005 9.905981e-001 -5.907150e-002 6.834646e-005 -9.883958e-005 9.949413e-001 -5.878337e-002
336765000 3.600125e-005 4.233465e-005 9.821676e-001 -9.432689e-002 5.955562e-005 8.954523e-005 9.866143e-001 -9.538162e-002
337050000 -7.827237e-005 -6.599546e-005 9.734559e-001 -1.299582e-001 1.849882e-005 7.940597e-005 9.778721e-001 -1.308932e-001
337335000 2.512191e-006 -4.439861e-005 9.631531e-001 -1.640652e-001 7.669834e-005 4.458864e-005 9.667128e-001 -1.645610e-001
337620000 7.618454e-005 1.307389e-004 9.510628e-001 -1.973990e-001 -1.896432e-005 -3.924621e-005 9.550036e-001 -1.982021e-001
337905000 -5.655692e-005 -6.726925e-005 9.378009e-001 -2.302357e-001 -2.125712e-005 3.353119e-005 9.416854e-001 -2.310830e-001
338190000 -1.069835e-004 -5.509890e-005 9.241582e-001 -2.613327e-001 8.213184e-006 1.931139e-005 9.275612e-001 -2.623038e-001
338475000 2.853576e-006 1.722232e-004 9.088336e-001 -2.919225e-001 6.691304e-005 1.483150e-004 9.127562e-001 -2.928388e-001
338760000 -1.258710e-004 1.766292e-005 8.929744e-001 -3.211937e-001 3.966330e-005 7.036273e-005 8.965040e-001 -3.220401e-001
339045000 -9.815685e-005 1.611294e-005 8.760104e-001 -3.490317e-001 -2.476151e-005 3.316137e-005 8.792618e-001 -3.510436e-001
339330000 -3.568401e-005 3.853361e-005 8.584141e-001 -3.764640e-001 -4.545137e-005 1.342083e-004 8.610936e-001 -3.782323e-001
339615000 -4.119293e-005 4.289104e-005 8.394588e-001 -4.032307e-001 -8.135627e-005 5.111688e-005 8.429563e-001 -4.041794e-001
339900000 -1.733725e-005 -7.123693e-005 8.202870e-001 -4.280111e-001 -8.274891e-005 5.203589e-005 8.242098e-001 -4.297385e-001
340185000 -2.848295e-005 -6.835756e-006 8.010371e-001 -4.525218e-001 2.539271e-005 -1.425785e-005 8.041700e-001 -4.544715e-001
340470000 1.615841e-005 -6.766592e-006 7.806442e-001 -4.746870e-001 -3.385355e-005 -8.712601e-005 7.839921e-001 -4.771440e-001
340755000 -8.442406e-005 1.440904e-005 7.600107e-001 -4.966956e-001 8.519362e-005 -3.671311e-005 7.634000e-001 -4.989129e-001
341040000 2.244672e-005 -1.147668e-005 7.388033e-001 -5.176743e-001 5.467272e-005 -1.411225e-005 7.422627e-001 -5.197670e-001
341325000 -8.680742e-006 2.587975e-005 7.171692e-001 -5.374569e-001 6.802996e-005 -3.885199e-005 7.208304e-001 -5.400395e-001
341610000 2.202387e-005 7.655303e-005 6.962501e-001 -5.570250e-001 1.712579e-004 1.811655e-007 6.992485e-001 -5.586282e-001
341895000 6.388467e-005 5.619516e-005 6.737937e-001 -5.745762e-001 -5.066090e-005 3.616180e-005 6.771096e-001 -5.769678e-001
342180000 2.590769e-005 -3.146564e-005 6.521247e-001 -5.913238e-001 -3.752178e-005 7.807816e-005 6.544011e-001 -5.936449e-001
342465000 -2.030233e-005 -2.285105e-005 6.301458e-001 -6.073683e-001 -8.128968e-005 7.787099e-005 6.319011e-001 -6.101115e-001
342750000 -3.662320e-005 8.570149e-005 6.072067e-001 -6.229642e-001 -8.310351e-005 6.737997e-005 6.098253e-001 -6.257082e-001
343035000 -1.458836e-005 -2.201697e-005 5.851275e-001 -6.368890e-001 1.666920e-005 -9.993294e-006 5.873858e-001 -6.398679e-001
343320000 -3.285406e-005 -1.097496e-004 5.623201e-001 -6.506163e-001 -4.131019e-005 -6.566467e-005 5.645078e-001 -6.536736e-001
343605000 1.844966e-005 -8.859281e-006 5.398123e-001 -6.636105e-001 -4.224236e-005 -9.342872e-005 5.419234e-001 -6.657498e-001
343890000 -1.529252e-005 1.098567e-005 5.170159e-001 -6.755880e-001 1.357118e-005 4.251519e-006 5.189053e-001 -6.777174e-001
