!Agilent Technologies,N5230C,SG49000117,A.08.50.07
!Agilent N5230C: A.08.50.07
!Date: Sunday, March 17, 2024 01:29:13
!Correction: S11(Off) 
!S21(Off) 
!S12(Off) 
!S22(Off) 
!S2P File: Measurements: S11, S21, S12, S22:
# Hz S  RI   R 50
300000000 1.045526e-005 1.722113e-005 -6.348208e-001 -6.336173e-001 -7.863840e-005 -8.830403e-005 -6.369017e-001 -6.361569e-001
300285000 4.442324e-005 4.193495e-005 -6.491292e-001 -6.106181e-001 1.952216e-005 -2.196882e-005 -6.520733e-001 -6.128182e-001
300570000 -6.043268e-006 -1.444284e-005 -6.632633e-001 -5.866608e-001 2.008752e-005 -4.235995e-005 -6.656977e-001 -5.883244e-001
300855000 -2.144007e-005 4.482262e-005 -6.768842e-001 -5.628108e-001 3.209314e-006 1.103517e-005 -6.792954e-001 -5.651590e-001
301140000 3.690317e-005 -9.090917e-005 -6.890881e-001 -5.392650e-001 6.063055e-005 -4.031037e-005 -6.909841e-001 -5.410546e-001
301425000 -9.591561e-006 -4.844596e-005 -6.998216e-001 -5.158970e-001 1.267455e-004 -9.354974e-005 -7.024544e-001 -5.172459e-001
301710000 -4.034935e-005 -3.395572e-005 -7.104365e-001 -4.920205e-001 2.536692e-005 -7.258373e-005 -7.134655e-001 -4.934223e-001
301995000 2.769655e-005 -1.778903e-006 -7.202294e-001 -4.683648e-001 -1.112994e-005 -2.143599e-005 -7.232453e-001 -4.698845e-001
302280000 -9.123287e-005 -1.562623e-004 -7.292317e-001 -4.441498e-001 -3.978825e-005 1.831711e-004 -7.324469e-001 -4.462156e-001
302565000 -1.019135e-004 -1.117319e-005 -7.382855e-001 -4.211111e-001 -7.019153e-005 7.449101e-005 -7.404295e-001 -4.227841e-001
302850000 5.483438e-005 3.092590e-005 -7.453899e-001 -3.980802e-001 1.712719e-005 2.689212e-005 -7.478148e-001 -3.995298e-001
303135000 -2.226923e-005 -1.062624e-005 -7.527655e-001 -3.747047e-001 4.989658e-005 4.218753e-006 -7.553307e-001 -3.759245e-001
303420000 4.547086e-005 4.617428e-005 -7.586907e-001 -3.516482e-001 -1.700343e-005 -1.930381e-005 -7.612627e-001 -3.533884e-001
303705000 1.020551e-004 -2.076675e-005 -7.643340e-001 -3.284833e-001 -1.252119e-006 -1.280377e-004 -7.672865e-001 -3.299347e-001
303990000 -6.766068e-005 6.185380e-006 -7.693842e-001 -3.049263e-001 -1.615548e-004 -3.462829e-005 -7.723802e-001 -3.068334e-001
304275000 3.249828e-005 5.830378e-005 -7.740856e-001 -2.828090e-001 1.939823e-004 -4.816810e-006 -7.765328e-001 -2.841155e-001
304560000 3.334058e-005 -2.571120e-005 -7.779132e-001 -2.602623e-001 1.562333e-005 -5.012714e-005 -7.807496e-001 -2.609773e-001
304845000 6.120777e-006 -2.078743e-006 -7.813470e-001 -2.379726e-001 1.444483e-005 4.899438e-005 -7.837272e-001 -2.385978e-001
305130000 -1.027839e-004 1.253404e-005 -7.837161e-001 -2.152452e-001 6.275054e-005 3.423595e-005 -7.865643e-001 -2.165281e-001
305415000 -9.183440e-007 7.776170e-005 -7.862832e-001 -1.933333e-001 6.444968e-005 2.157222e-005 -7.896171e-001 -1.940029e-001
305700000 6.728373e-005 -3.495119e-005 -7.883750e-001 -1.718225e-001 -1.167358e-004 3.306887e-005 -7.911614e-001 -1.725028e-001
305985000 7.148327e-005 1.674822e-005 -7.892924e-001 -1.500593e-001 5.829479e-005 2.382367e-007 -7.925822e-001 -1.500567e-001
306270000 5.101740e-005 -1.248947e-004 -7.901520e-001 -1.274972e-001 -2.467462e-005 1.117638e-005 -7.929972e-001 -1.285001e-001
306555000 -4.912800e-005 -5.149316e-005 -7.904595e-001 -1.063142e-001 -1.401993e-005 1.136767e-005 -7.936203e-001 -1.071259e-001
306840000 -1.621022e-006 -6.566617e-006 -7.907394e-001 -8.493230e-002 -2.063352e-005 -4.415690e-005 -7.935383e-001 -8.541939e-002
307125000 7.121430e-005 -2.569446e-005 -7.896393e-001 -6.349546e-002 -9.279612e-005 -1.729595e-005 -7.932959e-001 -6.402281e-002
307410000 8.301736e-006 2.388811e-006 -7.893136e-001 -4.285725e-002 1.360177e-004 5.563974e-005 -7.921054e-001 -4.342911e-002
307695000 1.776644e-005 -2.333618e-005 -7.876848e-001 -2.147012e-002 -7.545485e-005 -8.762472e-006 -7.911013e-001 -2.185626e-002
307980000 1.179881e-004 8.315767e-006 -7.864184e-001 -1.332907e-003 6.040320e-005 3.469651e-006 -7.889512e-001 -1.171250e-003
308265000 -5.734709e-006 4.208376e-005 -7.841307e-001 1.954778e-002 -4.194279e-005 -3.420968e-005 -7.872344e-001 1.915545e-002
308550000 -1.289722e-005 -1.248653e-004 -7.815851e-001 3.992160e-002 -5.954582e-005 -9.727727e-005 -7.845691e-001 4.006986e-002
308835000 -6.174111e-005 -6.092802e-005 -7.792888e-001 6.020708e-002 -6.622198e-005 -8.633692e-005 -7.822389e-001 6.082826e-002
309120000 -8.079463e-006 -8.491737e-005 -7.758825e-001 8.041496e-002 -1.082295e-005 -2.556573e-005 -7.788776e-001 8.078709e-002
309405000 -3.440063e-005 2.759937e-005 -7.720593e-001 1.002565e-001 6.434812e-005 3.663702e-005 -7.754350e-001 1.008921e-001
309690000 -2.338408e-005 -6.044104e-005 -7.681652e-001 1.206225e-001 6.205519e-005 4.395103e-005 -7.711269e-001 1.210512e-001
309975000 3.799298e-005 -2.779839e-005 -7.638893e-001 1.409045e-001 -8.691026e-005 -5.078117e-005 -7.671012e-001 1.405097e-001
310260000 1.490997e-004 5.814917e-005 -7.594854e-001 1.597557e-001 5.120104e-005 -1.593135e-005 -7.617941e-001 1.608560e-001
310545000 -8.394290e-005 -3.834550e-005 -7.545799e-001 1.792711e-001 -2.900725e-005 1.815504e-005 -7.576596e-001 1.807516e-001
310830000 2.301980e-005 -2.582891e-005 -7.486430e-001 1.990295e-001 -2.245185e-005 4.013072e-006 -7.516626e-001 1.998469e-001
311115000 -5.448848e-005 7.182846e-005 -7.437780e-001 2.181778e-001 1.394505e-004 -2.078170e-005 -7.462924e-001 2.190326e-001
311400000 -1.491213e-004 -3.447106e-005 -7.374940e-001 2.374445e-001 -6.456555e-005 -1.129905e-004 -7.402583e-001 2.386890e-001
311685000 -4.315268e-005 3.376843e-005 -7.305440e-001 2.563804e-001 5.494561e-006 -4.757112e-005 -7.335541e-001 2.573935e-001
311970000 5.653049e-005 5.615116e-005 -7.238021e-001 2.762995e-001 -3.884739e-005 2.233701e-005 -7.268830e-001 2.774894e-001
312255000 1.381532e-004 8.262735e-006 -7.169371e-001 2.946312e-001 -2.914292e-005 -1.429040e-004 -7.199101e-001 2.963895e-001
312540000 -5.758705e-005 3.184760e-005 -7.090231e-001 3.139936e-001 2.431013e-005 -1.352943e-006 -7.120025e-001 3.150845e-001
312825000 1.459174e-005 -3.847004e-005 -7.013693e-001 3.325711e-001 7.301055e-005 -2.126950e-005 -7.044056e-001 3.338224e-001
313110000 -1.310133e-004 -5.193695e-005 -6.932350e-001 3.508103e-001 1.357462e-005 4.977793e-006 -6.960391e-001 3.526943e-001
313395000 -1.543550e-005 1.100315e-004 -6.846649e-001 3.696009e-001 1.461835e-005 -1.000329e-004 -6.875579e-001 3.709776e-001
313680000 6.891110e-005 -1.140448e-004 -6.756855e-001 3.888041e-001 7.164961e-005 -7.910990e-006 -6.781089e-001 3.903276e-001
313965000 6.798447e-005 -2.638639e-005 -6.663511e-001 4.068087e-001 -3.774242e-006 3.978450e-005 -6.692902e-001 4.080944e-001
314250000 -9.146558e-006 -6.867564e-005 -6.564005e-001 4.252743e-001 1.522234e-004 -1.368857e-005 -6.590405e-001 4.272226e-001
314535000 3.322151e-005 6.177949e-007 -6.461386e-001 4.434316e-001 -4.973321e-005 -9.246659e-005 -6.490869e-001 4.450862e-001
314820000 -5.182488e-005 -3.880194e-005 -6.356044e-001 4.619471e-001 3.307804e-005 -1.908353e-005 -6.383057e-001 4.637445e-001
315105000 2.739253e-005 1.791314e-005 -6.245726e-001 4.793668e-001 2.038112e-005 -7.222604e-006 -6.272787e-001 4.815607e-001
315390000 4.918077e-005 -1.172215e-004 -6.134868e-001 4.977967e-001 1.363157e-004 -2.043567e-005 -6.153490e-001 4.998303e-001
315675000 6.315464e-005 -3.655231e-005 -6.011238e-001 5.153534e-001 -3.649633e-005 5.204035e-005 -6.033064e-001 5.178210e-001
315960000 -3.581984e-006 -3.683293e-005 -5.885695e-001 5.333930e-001 -2.522022e-005 -1.094706e-004 -5.909422e-001 5.353907e-001
316245000 -1.127329e-005 3.620428e-005 -5.756930e-001 5.506752e-001 -5.039026e-005 2.559850e-005 -5.781519e-001 5.533205e-001
316530000 6.682539e-005 -1.272774e-005 -5.619733e-001 5.686989e-001 -2.715910e-005 1.061508e-005 -5.648096e-001 5.712937e-001
316815000 2.434846e-005 6.417681e-005 -5.483139e-001 5.858608e-001 2.153552e-005 7.997212e-005 -5.509697e-001 5.885774e-001
317100000 -1.623906e-004 8.832637e-005 -5.335908e-001 6.032766e-001 4.763295e-005 5.421324e-005 -5.360465e-001 6.059648e-001
317385000 3.234777e-005 1.196688e-005 -5.186659e-001 6.206159e-001 -1.844727e-006 1.304587e-005 -5.214143e-001 6.230962e-001
317670000 1.381442e-005 5.162501e-005 -5.035427e-001 6.374844e-001 -8.078165e-005 -6.653140e-005 -5.051499e-001 6.399273e-001
317955000 1.288725e-005 -4.068626e-005 -4.873588e-001 6.547446e-001 -7.268211e-005 -2.639363e-005 -4.893247e-001 6.566206e-001
318240000 -1.133953e-004 6.075325e-005 -4.701700e-001 6.708575e-001 8.532844e-005 -9.893702e-005 -4.723448e-001 6.739566e-001
318525000 -2.960815e-005 8.154447e-005 -4.532506e-001 6.875849e-001 -9.443846e-005 -1.058359e-004 -4.553828e-001 6.898168e-001
318810000 -1.816306e-005 -1.274231e-005 -4.355061e-001 7.031453e-001 3.691141e-005 -7.623096e-005 -4.367164e-001 7.063332e-001
319095000 -7.312786e-006 -7.254578e-005 -4.168467e-001 7.195045e-001 -9.091445e-006 -2.944785e-005 -4.184956e-001 7.219177e-001
319380000 -2.855547e-005 -4.513341e-006 -3.980337e-001 7.350150e-001 8.272514e-005 -5.787747e-005 -3.992066e-001 7.383310e-001
319665000 -2.022581e-005 -1.551425e-005 -3.784826e-001 7.499871e-001 7.842043e-005 -1.367608e-004 -3.800271e-001 7.536581e-001
319950000 7.051961e-005 4.674403e-005 -3.575376e-001 7.651685e-001 6.309814e-005 2.280487e-005 -3.587398e-001 7.685576e-001
320235000 -9.826392e-006 -6.186700e-005 -3.363873e-001 7.800084e-001 -8.504508e-007 -3.888792e-005 -3.371731e-001 7.837512e-001
320520000 3.832161e-005 -2.881723e-005 -3.143384e-001 7.944378e-001 5.582796e-005 -4.795649e-007 -3.156570e-001 7.981703e-001
320805000 6.393151e-005 9.651343e-007 -2.918572e-001 8.089585e-001 -7.706867e-005 -4.949487e-006 -2.927199e-001 8.117416e-001
321090000 4.895540e-005 8.399068e-005 -2.687702e-001 8.214155e-001 5.005422e-005 -2.254985e-006 -2.697006e-001 8.249878e-001
321375000 -1.206149e-004 7.605998e-005 -2.447086e-001 8.341690e-001 -1.281148e-004 4.792022e-005 -2.448790e-001 8.379806e-001
321660000 -2.404605e-005 -4.378761e-005 -2.200630e-001 8.464019e-001 -1.929177e-005 -1.870592e-004 -2.208761e-001 8.507432e-001
321945000 9.140865e-006 7.976550e-005 -1.944645e-001 8.584856e-001 3.679497e-006 -2.511194e-005 -1.952302e-001 8.624119e-001
322230000 2.247735e-005 1.853315e-005 -1.676971e-001 8.693766e-001 7.764559e-006 -7.841258e-005 -1.683545e-001 8.734800e-001
322515000 8.172310e-005 -1.314742e-005 -1.406722e-001 8.802790e-001 8.625146e-005 -7.382387e-005 -1.415290e-001 8.842089e-001
322800000 1.860043e-005 -2.585600e-005 -1.136177e-001 8.901520e-001 -7.314901e-005 -5.399742e-005 -1.139310e-001 8.935696e-001
323085000 6.158050e-006 8.224278e-006 -8.481139e-002 8.988301e-001 1.213206e-004 -3.452756e-005 -8.480979e-002 9.028807e-001
323370000 -3.926163e-005 -9.438061e-005 -5.552020e-002 9.067413e-001 -8.428885e-005 -4.821908e-005 -5.575855e-002 9.109890e-001
323655000 1.086108e-004 9.187926e-005 -2.539263e-002 9.144199e-001 -1.483711e-005 2.423107e-005 -2.591936e-002 9.179122e-001
323940000 9.599500e-005 9.619731e-005 5.100962e-003 9.205382e-001 3.903957e-005 -1.557726e-006 5.273012e-003 9.240075e-001
324225000 -3.131605e-006 1.060641e-005 3.703410e-002 9.256557e-001 -3.360726e-005 7.553199e-005 3.666377e-002 9.293355e-001
324510000 -5.284807e-005 1.148203e-005 6.825849e-002 9.299294e-001 4.879072e-006 8.139527e-005 6.866137e-002 9.337692e-001
324795000 2.549392e-005 -6.468385e-005 1.009471e-001 9.326223e-001 -7.317363e-005 -8.869938e-006 1.011434e-001 9.367264e-001
325080000 -2.854161e-005 -7.031519e-006 1.343288e-001 9.345779e-001 -4.827254e-005 -5.999195e-005 1.344808e-001 9.386191e-001
325365000 -1.078791e-004 -8.507014e-005 1.677460e-001 9.347908e-001 -1.985855e-004 2.562450e-005 1.680601e-001 9.390683e-001
325650000 -5.858472e-005 -4.184400e-006 2.018096e-001 9.340592e-001 -1.432824e-005 1.038867e-004 2.027588e-001 9.382276e-001
325935000 -4.470583e-005 -3.977580e-005 2.365800e-001 9.318937e-001 -6.152791e-005 -4.154135e-005 2.376363e-001 9.361115e-001
326220000 -4.532293e-005 1.679335e-006 2.716482e-001 9.289814e-001 4.985559e-005 1.094426e-006 2.726688e-001 9.321021e-001
326505000 3.117387e-005 -4.351851e-005 3.076848e-001 9.231638e-001 1.045996e-005 -5.634728e-005 3.081537e-001 9.271314e-001
326790000 -5.725852e-005 5.041716e-005 3.424919e-001 9.168501e-001 -1.266138e-006 8.172848e-005 3.436176e-001 9.201642e-001
327075000 1.062767e-004 -1.843335e-006 3.785810e-001 9.086711e-001 -7.471594e-006 2.485829e-006 3.799984e-001 9.122849e-001
327360000 3.102477e-005 9.606792e-006 4.139116e-001 8.983877e-001 -1.044137e-004 1.846404e-005 4.154328e-001 9.017892e-001
327645000 5.315854e-006 1.043108e-004 4.495730e-001 8.860300e-001 -8.228834e-005 -3.824027e-005 4.511656e-001 8.904844e-001
327930000 3.855899e-005 3.443019e-005 4.842904e-001 8.731195e-001 -2.566693e-005 -6.106286e-005 4.869347e-001 8.772215e-001
328215000 4.553884e-005 1.403370e-005 5.198532e-001 8.577260e-001 2.999222e-005 -3.972139e-005 5.220973e-001 8.620725e-001
328500000 -3.695095e-005 -8.904702e-006 5.548599e-001 8.407252e-001 7.607955e-005 8.475495e-006 5.572542e-001 8.447129e-001
328785000 -1.199872e-005 -5.756721e-005 5.890291e-001 8.224828e-001 5.871140e-005 1.849205e-005 5.913720e-001 8.262566e-001
329070000 7.176935e-005 -3.575133e-006 6.224856e-001 8.018277e-001 4.437971e-005 -3.132398e-005 6.252505e-001 8.051822e-001
329355000 -2.013675e-005 6.478596e-005 6.551186e-001 7.796478e-001 1.234531e-005 8.475720e-005 6.580577e-001 7.831464e-001
329640000 6.564920e-005 -8.331227e-005 6.868101e-001 7.554384e-001 1.880602e-004 7.710252e-005 6.905243e-001 7.586157e-001
329925000 -3.027993e-005 -3.885264e-006 7.180492e-001 7.303607e-001 -1.099885e-005 4.058609e-006 7.220867e-001 7.332672e-001
330210000 7.265060e-006 8.740475e-005 7.487077e-001 7.031126e-001 4.881334e-006 -5.023310e-005 7.509634e-001 7.060680e-001
330495000 4.896808e-005 -1.193651e-005 7.770358e-001 6.743883e-001 -7.344729e-005 -1.025398e-004 7.806773e-001 6.775437e-001
330780000 -2.727990e-005 -5.491903e-005 8.037916e-001 6.438757e-001 -1.924895e-005 1.167225e-004 8.074591e-001 6.471393e-001
331065000 7.119530e-005 2.884059e-005 8.304826e-001 6.125020e-001 -9.777753e-005 2.555985e-005 8.334702e-001 6.151079e-001
331350000 2.752042e-005 9.485560e-005 8.541927e-001 5.795419e-001 -4.836868e-005 -1.027840e-004 8.583114e-001 5.818964e-001
331635000 -4.199673e-005 6.818166e-005 8.771634e-001 5.457505e-001 2.605862e-005 -2.590962e-006 8.811923e-001 5.484147e-001
331920000 -7.724121e-005 4.236908e-005 8.985894e-001 5.097198e-001 1.974413e-005 1.058577e-004 9.021420e-001 5.121709e-001
332205000 2.681471e-005 -9.517623e-005 9.178059e-001 4.745433e-001 -1.007275e-004 7.740322e-006 9.212931e-001 4.759133e-001
332490000 -4.490061e-005 -5.401651e-005 9.350480e-001 4.372045e-001 1.347499e-005 2.320948e-005 9.393550e-001 4.394197e-001
332775000 8.549241e-005 1.218432e-006 9.505552e-001 3.995215e-001 -1.031780e-004 1.872894e-005 9.550321e-001 4.014418e-001
333060000 2.372668e-005 -5.425339e-005 9.643419e-001 3.611873e-001 -1.104804e-004 -8.868379e-005 9.685059e-001 3.632301e-001
333345000 3.641925e-005 3.239763e-005 9.760845e-001 3.221186e-001 2.363768e-005 -3.617250e-007 9.803541e-001 3.240300e-001
333630000 -5.527370e-005 4.709620e-005 9.858481e-001 2.831422e-001 -7.065577e-006 -2.928150e-006 9.903026e-001 2.845873e-001
333915000 4.758656e-005 -3.078378e-005 9.937976e-001 2.439108e-001 5.261261e-005 -5.416033e-005 9.976808e-001 2.446544e-001
334200000 -1.825250e-005 -6.603202e-005 9.995588e-001 2.044332e-001 -1.112812e-004 -3.860412e-005 1.003891e+000 2.053979e-001
334485000 2.223880e-005 4.518253e-005 1.002821e+000 1.654263e-001 -3.594991e-005 6.178509e-005 1.008170e+000 1.657134e-001
334770000 -2.839542e-005 -1.361607e-007 1.005419e+000 1.259300e-001 1.349829e-005 6.548806e-005 1.010771e+000 1.262417e-001
335055000 7.966219e-005 5.298310e-005 1.006157e+000 8.745975e-002 -9.680334e-007 3.256862e-005 1.010126e+000 8.753687e-002
335340000 -2.791653e-005 2.191038e-005 1.004947e+000 4.849053e-002 -3.181136e-005 -1.672831e-005 1.008871e+000 4.890396e-002
335625000 -8.576721e-005 3.490879e-005 1.001350e+000 1.049341e-002 -6.872808e-006 3.212066e-005 1.005791e+000 1.017298e-002
335910000 -5.400697e-005 2.667528e-005 9.966092e-001 -2.706455e-002 5.912213e-005 -3.115044e-005 1.001314e+000 -2.691548e-002
336195000 1.026621e-004 -3.417968e-005 9.903861e-001 -6.301324e-002 5.366573e-005 8.568541e-005 9.940509e-001 -6.395369e-002
336480000 -9.374155e-006 7.122997e-006 9.818387e-001 -9.925967e-002 3.544793e-005 -4.350891e-005 9.864383e-001 -1.001766e-001
336765000 1.132337e-004 -1.445512e-005 9.726663e-001 -1.350002e-001 8.425808e-005 -6.388529e-005 9.777731e-001 -1.352489e-001
337050000 -5.438567e-005 5.996746e-006 9.620386e-001 -1.685957e-001 1.215742e-004 3.199778e-005 9.664093e-001 -1.697974e-001
337335000 -4.178960e-005 -2.265599e-005 9.504553e-001 -2.026888e-001 1.193312e-004 4.958555e-005 9.543369e-001 -2.034054e-001
337620000 9.556407e-005 -5.991960e-005 9.371495e-001 -2.348203e-001 -3.993169e-006 2.307020e-005 9.408196e-001 -2.356326e-001
337905000 5.112226e-005 -4.024649e-005 9.225065e-001 -2.663722e-001 -1.131944e-004 1.910621e-005 9.265648e-001 -2.680793e-001
338190000 6.552134e-005 -8.383834e-005 9.070022e-001 -2.971988e-001 7.794198e-005 2.456366e-005 9.115555e-001 -2.981855e-001
338475000 2.381837e-005 9.049555e-005 8.909668e-001 -3.256615e-001 1.142218e-004 1.120169e-004 8.951380e-001 -3.271663e-001
338760000 -6.933238e-005 2.136224e-005 8.741177e-001 -3.546723e-001 4.383089e-005 -5.830912e-005 8.784142e-001 -3.557871e-001
339045000 7.490382e-005 3.717527e-005 8.558784e-001 -3.814574e-001 -5.919796e-005 -2.563189e-005 8.595525e-001 -3.829314e-001
339330000 8.486186e-006 5.074178e-005 8.373181e-001 -4.076524e-001 3.837124e-005 -6.522358e-005 8.405156e-001 -4.098670e-001
339615000 9.170533e-005 -4.957842e-005 8.181051e-001 -4.331667e-001 3.163554e-005 5.684148e-005 8.214747e-001 -4.342802e-001
339900000 1.130918e-004 1.139713e-004 7.983405e-001 -4.563161e-001 -1.034776e-005 7.317190e-005 8.011547e-001 -4.585173e-001
340185000 8.755351e-006 1.179199e-005 7.776683e-001 -4.793703e-001 3.566785e-006 7.146336e-005 7.812377e-001 -4.814264e-001
340470000 -8.049257e-005 -1.279317e-005 7.576156e-001 -5.012093e-001 -2.578940e-005 7.564243e-005 7.607257e-001 -5.033771e-001
340755000 1.171518e-005 1.035748e-004 7.356614e-001 -5.219116e-001 -1.057110e-005 -5.001344e-005 7.390389e-001 -5.242959e-001
341040000 3.432768e-005 4.604515e-005 7.147725e-001 -5.418488e-001 2.631560e-005 -6.053121e-005 7.172581e-001 -5.442606e-001
341325000 3.335999e-005 -2.960317e-005 6.927584e-001 -5.604771e-001 -3.704041e-005 4.248809e-005 6.955794e-001 -5.632537e-001
341610000 -8.280127e-005 3.344928e-005 6.708024e-001 -5.787291e-001 -1.595168e-005 9.115935e-006 6.734654e-001 -5.814334e-001
341895000 2.779598e-005 -2.817240e-005 6.479939e-001 -5.959041e-001 1.742501e-004 -7.386826e-005 6.510223e-001 -5.980825e-001
342180000 4.571851e-005 -5.031399e-006 6.257178e-001 -6.112267e-001 9.961940e-006 1.866086e-005 6.286290e-001 -6.142082e-001
342465000 1.354806e-004 6.481863e-005 6.031353e-001 -6.268087e-001 -6.616506e-005 -1.350100e-005 6.058215e-001 -6.291056e-001
342750000 9.687318e-005 -6.165257e-005 5.807212e-001 -6.409283e-001 1.832473e-005 -7.328585e-005 5.830685e-001 -6.430442e-001
343035000 9.311666e-006 1.399238e-004 5.580603e-001 -6.541518e-001 -3.220201e-006 8.576417e-005 5.604237e-001 -6.571922e-001
343320000 4.710592e-005 8.306374e-005 5.352210e-001 -6.665328e-001 4.552714e-005 -2.699828e-005 5.374833e-001 -6.693186e-001
343605000 4.161974e-005 5.391434e-005 5.128193e-001 -6.786515e-001 -1.403135e-004 -8.465770e-006 5.145307e-001 -6.812319e-001
343890000 -1.097708e-005 -4.338473e-005 4.901194e-001 -6.896110e-001 4.183928e-005 -2.809961e-006 4.924701e-001 -6.926598e-001
