!Agilent Technologies,N5230C,SG49000117,A.08.50.07
!Agilent N5230C: A.08.50.07
!Date: Sunday, March 17, 2024 01:30:38
!Correction: S11(Off) 
!S21(Off) 
!S12(Off) 
!S22(Off) 
!S2P File: Measurements: S11, S21, S12, S22:
# Hz S  RI   R 50
300000000 -1.712249e-005 -2.169648e-005 -6.440969e-001 -6.203831e-001 -9.231971e-006 1.381140e-005 -6.459145e-001 -6.228046e-001
300285000 6.626537e-005 -9.516065e-005 -6.582710e-001 -5.970117e-001 2.804552e-005 1.162351e-005 -6.603762e-001 -5.993460e-001
300570000 7.420104e-005 2.676963e-005 -6.717946e-001 -5.735875e-001 2.429786e-006 4.063460e-005 -6.742648e-001 -5.759280e-001
300855000 2.486904e-005 -1.355403e-005 -6.841204e-001 -5.494285e-001 -8.727043e-005 7.374824e-005 -6.863445e-001 -5.520619e-001
301140000 6.147441e-005 1.291333e-005 -6.961306e-001 -5.258095e-001 -6.791649e-005 1.247620e-004 -6.983607e-001 -5.277526e-001
301425000 -2.422647e-005 6.311144e-005 -7.073432e-001 -5.019915e-001 -6.172301e-005 3.184425e-005 -7.093490e-001 -5.037476e-001
301710000 -5.240575e-005 1.197979e-004 -7.171006e-001 -4.787728e-001 -7.283099e-006 8.108536e-006 -7.196245e-001 -4.804420e-001
301995000 -2.447530e-005 1.023411e-004 -7.262141e-001 -4.551673e-001 -7.156279e-005 1.430148e-005 -7.288936e-001 -4.572703e-001
302280000 1.300400e-005 1.034110e-005 -7.350679e-001 -4.310475e-001 -4.317146e-005 -7.113544e-005 -7.374592e-001 -4.327265e-001
302565000 -6.316225e-005 -1.130288e-005 -7.427533e-001 -4.079651e-001 5.164113e-005 -1.553136e-005 -7.453378e-001 -4.098211e-001
302850000 5.817456e-005 -9.565335e-005 -7.500404e-001 -3.848214e-001 -4.148089e-005 -4.221454e-005 -7.520542e-001 -3.859426e-001
303135000 -1.022478e-004 2.360406e-005 -7.565331e-001 -3.608335e-001 2.892729e-005 1.732609e-006 -7.593771e-001 -3.620968e-001
303420000 1.172387e-004 -2.942682e-005 -7.621402e-001 -3.379787e-001 -6.689569e-005 -8.031636e-005 -7.653401e-001 -3.394489e-001
303705000 2.900112e-005 -4.734973e-005 -7.674799e-001 -3.151501e-001 7.105690e-005 -8.286344e-006 -7.705033e-001 -3.165301e-001
303990000 4.406260e-005 -8.771874e-006 -7.727600e-001 -2.922145e-001 -4.013790e-005 -7.164196e-005 -7.753969e-001 -2.932121e-001
304275000 4.139087e-005 -4.421713e-005 -7.770383e-001 -2.696159e-001 4.967672e-005 -8.864616e-005 -7.794153e-001 -2.708257e-001
304560000 4.445983e-005 1.928146e-005 -7.807475e-001 -2.467201e-001 -2.833242e-005 -6.876703e-005 -7.834153e-001 -2.481166e-001
304845000 -3.892637e-005 3.108830e-005 -7.834260e-001 -2.249994e-001 2.186465e-005 -4.299789e-005 -7.863119e-001 -2.253026e-001
305130000 2.942739e-005 -4.249351e-005 -7.857570e-001 -2.023000e-001 1.004978e-004 5.696791e-005 -7.887350e-001 -2.033527e-001
305415000 1.416054e-004 -2.432928e-005 -7.879034e-001 -1.804976e-001 -2.282580e-006 5.003470e-005 -7.913520e-001 -1.811035e-001
305700000 4.922142e-005 -2.867000e-005 -7.890457e-001 -1.587443e-001 6.926780e-005 2.624707e-005 -7.919325e-001 -1.585618e-001
305985000 -5.799505e-005 5.226706e-006 -7.904277e-001 -1.369167e-001 1.182475e-005 1.047233e-004 -7.933607e-001 -1.373684e-001
306270000 -1.075116e-004 -1.990869e-005 -7.910916e-001 -1.150961e-001 8.508702e-005 3.191148e-005 -7.939191e-001 -1.155707e-001
306555000 6.297257e-005 -6.333453e-005 -7.911468e-001 -9.353882e-002 -1.012657e-004 -4.053825e-005 -7.939733e-001 -9.406309e-002
306840000 7.404065e-005 2.586041e-005 -7.907910e-001 -7.254653e-002 5.891373e-005 3.799878e-005 -7.938187e-001 -7.257962e-002
307125000 -6.526274e-005 7.632185e-005 -7.898884e-001 -5.107741e-002 -3.274081e-005 -9.913915e-005 -7.927600e-001 -5.139960e-002
307410000 -1.116434e-004 7.942422e-005 -7.889542e-001 -3.018770e-002 1.486363e-004 -4.101088e-005 -7.919244e-001 -3.028908e-002
307695000 8.932331e-006 1.027701e-004 -7.870108e-001 -9.546923e-003 -1.403912e-005 -6.069451e-005 -7.905271e-001 -8.940498e-003
307980000 3.837466e-005 -9.858446e-007 -7.855417e-001 1.136646e-002 -2.778127e-005 -1.520035e-005 -7.883014e-001 1.096904e-002
308265000 -2.599529e-006 -1.904511e-005 -7.827477e-001 3.193577e-002 2.912484e-005 -4.455911e-005 -7.862749e-001 3.191232e-002
308550000 -8.465390e-006 -5.723811e-005 -7.801353e-001 5.239514e-002 4.962636e-005 -8.659086e-006 -7.834330e-001 5.246561e-002
308835000 -4.716411e-005 -1.170132e-005 -7.775053e-001 7.231883e-002 1.087649e-004 5.383824e-005 -7.801842e-001 7.336340e-002
309120000 -3.251898e-005 -1.773573e-005 -7.736806e-001 9.264576e-002 8.859558e-005 1.623132e-005 -7.765653e-001 9.307688e-002
309405000 3.673813e-005 -1.191950e-004 -7.703986e-001 1.128348e-001 5.071655e-005 -4.432701e-005 -7.731168e-001 1.132547e-001
309690000 1.078162e-004 -6.323557e-005 -7.657620e-001 1.328870e-001 6.610423e-006 -5.805312e-005 -7.686907e-001 1.333008e-001
309975000 7.613332e-005 -5.534829e-005 -7.612178e-001 1.528454e-001 -6.233565e-005 7.515561e-005 -7.641907e-001 1.525310e-001
310260000 3.975374e-005 3.164958e-005 -7.564730e-001 1.717799e-001 3.964164e-006 9.028040e-005 -7.591440e-001 1.724611e-001
310545000 -3.909768e-005 -7.148514e-005 -7.514224e-001 1.916876e-001 1.046303e-005 7.931512e-005 -7.539322e-001 1.926769e-001
310830000 -1.075446e-004 -1.530861e-005 -7.453531e-001 2.105335e-001 4.977246e-006 -4.182637e-006 -7.482654e-001 2.114202e-001
311115000 1.012659e-004 6.252437e-005 -7.389714e-001 2.303618e-001 -7.777474e-005 1.118771e-004 -7.424715e-001 2.310663e-001
311400000 -1.038538e-004 4.851114e-005 -7.335011e-001 2.492933e-001 2.443424e-006 -1.186493e-004 -7.361981e-001 2.506708e-001
311685000 -6.007633e-005 1.478750e-005 -7.266777e-001 2.689080e-001 1.040502e-004 -7.182077e-005 -7.293786e-001 2.689646e-001
311970000 -4.170812e-005 -4.786448e-005 -7.194422e-001 2.869186e-001 -1.275180e-005 -5.939626e-005 -7.224094e-001 2.884822e-001
312255000 -5.457132e-005 2.941701e-007 -7.119548e-001 3.064938e-001 -9.806010e-005 7.641230e-005 -7.147430e-001 3.081245e-001
312540000 7.369542e-005 -1.449091e-004 -7.047524e-001 3.250191e-001 -1.988996e-005 5.190598e-005 -7.075056e-001 3.264924e-001
312825000 -8.342333e-006 -9.320446e-005 -6.962386e-001 3.439162e-001 -2.831161e-005 9.002211e-007 -6.990542e-001 3.454391e-001
313110000 2.322075e-005 -6.106154e-005 -6.878480e-001 3.627446e-001 4.836772e-005 1.049866e-004 -6.902986e-001 3.641302e-001
313395000 7.521805e-005 3.106335e-005 -6.789931e-001 3.804629e-001 8.494747e-006 6.945914e-006 -6.819921e-001 3.829108e-001
313680000 1.853228e-005 7.222593e-006 -6.696512e-001 4.004216e-001 1.105282e-004 -2.731718e-006 -6.723655e-001 4.015595e-001
313965000 3.319062e-005 2.376419e-005 -6.599929e-001 4.176386e-001 -5.611121e-005 4.945812e-005 -6.629053e-001 4.196217e-001
314250000 3.574343e-005 -1.788445e-005 -6.497267e-001 4.362182e-001 -2.060606e-005 4.336876e-005 -6.525623e-001 4.379605e-001
314535000 -6.368038e-006 3.410477e-005 -6.392023e-001 4.548665e-001 -2.475075e-005 1.509357e-004 -6.417966e-001 4.561814e-001
314820000 3.611569e-005 7.773927e-006 -6.285285e-001 4.720311e-001 9.031613e-007 -8.041847e-006 -6.309289e-001 4.744745e-001
315105000 1.820380e-006 -5.019655e-005 -6.175577e-001 4.907218e-001 -4.777298e-005 3.575686e-005 -6.194162e-001 4.924600e-001
315390000 5.637886e-005 -2.198495e-005 -6.054803e-001 5.088447e-001 -6.764591e-005 3.795815e-005 -6.077924e-001 5.105177e-001
315675000 -5.166409e-005 -6.992467e-005 -5.929564e-001 5.262742e-001 -6.945364e-005 -5.444713e-005 -5.953970e-001 5.285056e-001
315960000 -9.532429e-005 8.463274e-005 -5.799419e-001 5.438591e-001 -6.539190e-005 -6.462893e-005 -5.825105e-001 5.459634e-001
316245000 -8.291341e-005 -5.319122e-006 -5.670653e-001 5.619078e-001 8.761837e-006 -8.858764e-005 -5.692029e-001 5.638764e-001
316530000 1.387957e-004 1.458001e-004 -5.537086e-001 5.791482e-001 -6.218506e-005 -4.497285e-006 -5.560310e-001 5.817801e-001
316815000 -9.453593e-005 -4.697382e-005 -5.387906e-001 5.965352e-001 6.442460e-005 4.369444e-005 -5.409600e-001 5.986114e-001
317100000 -6.398497e-005 2.952267e-005 -5.242546e-001 6.134921e-001 -4.379617e-005 -2.617100e-005 -5.264482e-001 6.157216e-001
317385000 2.774249e-005 -1.971568e-005 -5.087571e-001 6.302820e-001 1.034373e-004 1.701621e-005 -5.108771e-001 6.327879e-001
317670000 -2.371878e-006 1.048433e-005 -4.926758e-001 6.474949e-001 2.806882e-005 -6.874240e-005 -4.948071e-001 6.494986e-001
317955000 -7.795594e-005 -1.634913e-005 -4.764505e-001 6.638855e-001 1.002023e-004 -1.364686e-005 -4.785585e-001 6.670325e-001
318240000 -2.316871e-005 8.315650e-006 -4.590786e-001 6.802114e-001 4.123681e-005 2.441111e-007 -4.609545e-001 6.834509e-001
318525000 -4.538261e-005 -3.502750e-005 -4.420089e-001 6.970209e-001 1.139977e-004 6.301703e-005 -4.439367e-001 6.999161e-001
318810000 7.002553e-005 -6.008198e-006 -4.235376e-001 7.129570e-001 -1.699882e-006 -2.034254e-005 -4.252004e-001 7.154717e-001
319095000 4.127146e-005 5.506914e-005 -4.048870e-001 7.284835e-001 -6.385280e-006 4.350797e-005 -4.063342e-001 7.312901e-001
319380000 6.479485e-005 1.212109e-005 -3.852429e-001 7.437820e-001 5.271966e-005 8.951487e-005 -3.870136e-001 7.466838e-001
319665000 -1.870896e-004 6.332388e-005 -3.649769e-001 7.593515e-001 -4.042901e-005 3.299102e-005 -3.663826e-001 7.622377e-001
319950000 -1.226617e-005 1.994932e-005 -3.444510e-001 7.734281e-001 8.541412e-006 3.614923e-005 -3.453280e-001 7.769106e-001
320235000 -3.357309e-006 -1.188116e-004 -3.228920e-001 7.880584e-001 1.106823e-004 -7.448208e-005 -3.239308e-001 7.914665e-001
320520000 -1.493164e-004 5.755274e-005 -3.005039e-001 8.022560e-001 -1.586512e-005 -3.544620e-005 -3.015978e-001 8.052205e-001
320805000 3.542112e-005 6.630147e-005 -2.774984e-001 8.154798e-001 -6.147976e-005 -1.265806e-005 -2.787170e-001 8.190124e-001
321090000 1.278884e-005 2.405571e-005 -2.532014e-001 8.283926e-001 1.608268e-006 -1.437057e-005 -2.545920e-001 8.320659e-001
321375000 -7.187215e-006 -2.096843e-005 -2.290192e-001 8.415179e-001 -3.080499e-005 9.710501e-005 -2.301318e-001 8.447104e-001
321660000 -1.786106e-005 5.133876e-005 -2.039166e-001 8.528098e-001 1.873478e-005 -8.179150e-005 -2.047247e-001 8.564649e-001
321945000 -4.140530e-006 -3.445001e-005 -1.781518e-001 8.651127e-001 -8.050557e-006 2.664244e-005 -1.792349e-001 8.680125e-001
322230000 -3.229820e-005 -1.793902e-004 -1.516295e-001 8.754801e-001 -8.708229e-006 4.442839e-005 -1.517036e-001 8.789160e-001
322515000 3.071392e-005 -3.139652e-006 -1.242692e-001 8.850463e-001 4.294049e-005 -7.655664e-005 -1.247187e-001 8.891063e-001
322800000 7.688025e-005 -8.457366e-005 -9.606875e-002 8.946701e-001 -7.652912e-006 6.559883e-005 -9.638943e-002 8.982726e-001
323085000 1.917458e-007 -1.332795e-005 -6.731307e-002 9.033378e-001 -1.202855e-005 9.675513e-005 -6.692124e-002 9.062521e-001
323370000 -9.074309e-005 -3.103154e-006 -3.735909e-002 9.106486e-001 1.068519e-005 -5.018779e-005 -3.778424e-002 9.145181e-001
323655000 -5.666598e-005 -6.859902e-005 -6.773296e-003 9.174900e-001 -8.768951e-005 -8.653796e-005 -6.515423e-003 9.205151e-001
323940000 3.842975e-006 3.564057e-006 2.401922e-002 9.229151e-001 -5.831705e-005 -6.803835e-005 2.438141e-002 9.266242e-001
324225000 -3.736094e-006 9.249642e-005 5.590762e-002 9.276195e-001 -1.130682e-004 -1.012959e-004 5.596793e-002 9.312434e-001
324510000 1.060548e-004 -8.884969e-005 8.850010e-002 9.305564e-001 -1.544540e-005 -2.164226e-005 8.822213e-002 9.346065e-001
324795000 -7.141710e-006 -4.152224e-005 1.210826e-001 9.329257e-001 2.748313e-005 3.990137e-006 1.217314e-001 9.370010e-001
325080000 -1.208481e-005 1.884281e-005 1.548522e-001 9.343277e-001 -1.265432e-005 -3.952419e-005 1.549847e-001 9.377701e-001
325365000 6.965446e-006 -6.680317e-005 1.884410e-001 9.338439e-001 -1.135082e-004 1.482910e-004 1.894456e-001 9.384993e-001
325650000 -4.065974e-005 -3.545384e-005 2.229922e-001 9.323274e-001 -8.119453e-005 -2.138247e-005 2.240389e-001 9.360847e-001
325935000 -4.611491e-005 -1.308279e-004 2.576670e-001 9.292775e-001 8.072249e-005 1.998184e-005 2.585906e-001 9.336915e-001
326220000 8.548906e-005 6.954464e-005 2.930586e-001 9.243839e-001 6.641865e-005 -8.722983e-006 2.935101e-001 9.280518e-001
326505000 -1.311303e-005 -2.191601e-005 3.281170e-001 9.189125e-001 2.724770e-005 9.618155e-005 3.298524e-001 9.222792e-001
326790000 4.774194e-005 2.338973e-005 3.637197e-001 9.106904e-001 4.579293e-005 2.641648e-005 3.651868e-001 9.143559e-001
327075000 3.166197e-005 -2.951453e-005 3.990349e-001 9.014796e-001 -2.574958e-005 7.038468e-006 4.011417e-001 9.049847e-001
327360000 1.194022e-004 5.765597e-005 4.344206e-001 8.901286e-001 -2.083794e-005 6.159007e-005 4.364616e-001 8.943407e-001
327645000 -2.049589e-005 6.151589e-006 4.695989e-001 8.776997e-001 -2.722377e-005 2.309406e-005 4.721534e-001 8.816422e-001
327930000 2.885481e-006 2.172477e-005 5.057218e-001 8.634934e-001 -2.230483e-005 7.604802e-006 5.072993e-001 8.666319e-001
328215000 -1.861012e-005 -6.443349e-005 5.404665e-001 8.471764e-001 -6.369464e-005 6.177835e-006 5.423725e-001 8.510922e-001
328500000 3.513081e-005 1.318586e-005 5.748354e-001 8.297628e-001 4.846608e-005 -7.042697e-005 5.775154e-001 8.324664e-001
328785000 3.086472e-005 5.215936e-006 6.082962e-001 8.098992e-001 9.539489e-005 3.379354e-005 6.111493e-001 8.131872e-001
329070000 5.132324e-005 -1.457489e-005 6.417631e-001 7.879097e-001 -1.812672e-005 -3.703907e-005 6.438642e-001 7.915668e-001
329355000 1.477199e-004 -1.451596e-004 6.734169e-001 7.652083e-001 -3.664874e-005 3.665774e-005 6.771045e-001 7.684118e-001
329640000 1.808200e-005 1.088064e-004 7.057847e-001 7.396790e-001 -5.751553e-005 2.138741e-005 7.088046e-001 7.431160e-001
329925000 1.043539e-004 1.062896e-004 7.355804e-001 7.132391e-001 6.091027e-006 3.286443e-005 7.388921e-001 7.171164e-001
330210000 1.800013e-005 -4.912014e-006 7.648549e-001 6.858328e-001 -3.230766e-005 5.693824e-006 7.680714e-001 6.885441e-001
330495000 6.999158e-005 -1.191766e-005 7.931645e-001 6.554403e-001 -2.001718e-005 1.306409e-005 7.966059e-001 6.588140e-001
330780000 -6.220808e-005 4.220792e-005 8.193768e-001 6.252741e-001 -2.399419e-005 -1.314300e-005 8.228253e-001 6.273905e-001
331065000 -8.864024e-005 1.105037e-004 8.445268e-001 5.930680e-001 -5.079276e-005 -2.027475e-005 8.482364e-001 5.948578e-001
331350000 -6.435254e-005 6.591745e-005 8.679624e-001 5.594126e-001 1.180076e-006 -9.922020e-005 8.713590e-001 5.616053e-001
331635000 -3.861566e-005 -6.756237e-005 8.897301e-001 5.245149e-001 -2.923166e-005 3.631777e-005 8.935801e-001 5.271950e-001
331920000 -4.216464e-005 1.144976e-005 9.100580e-001 4.882628e-001 -5.164231e-005 -3.799453e-005 9.138206e-001 4.905255e-001
332205000 -4.003614e-005 -5.832691e-005 9.278232e-001 4.518789e-001 6.978204e-005 3.067206e-005 9.318569e-001 4.536623e-001
332490000 -1.246557e-005 2.429072e-005 9.449807e-001 4.143859e-001 9.623518e-005 -4.702858e-005 9.479476e-001 4.159011e-001
332775000 -1.232817e-005 -2.702626e-005 9.595020e-001 3.761990e-001 1.012571e-005 -4.015565e-006 9.631761e-001 3.775857e-001
333060000 -2.831930e-005 -7.220914e-005 9.710357e-001 3.374173e-001 3.980462e-005 3.934475e-005 9.757705e-001 3.392620e-001
333345000 -4.923395e-005 -6.791551e-005 9.823204e-001 2.987862e-001 1.163986e-004 4.326414e-005 9.862559e-001 2.998961e-001
333630000 4.260885e-005 -1.742975e-004 9.906322e-001 2.593740e-001 7.138573e-005 2.737152e-005 9.954094e-001 2.597171e-001
333915000 -5.773979e-005 -6.495995e-005 9.975197e-001 2.197965e-001 3.756462e-005 -1.432518e-005 1.001917e+000 2.211905e-001
334200000 -3.492068e-006 1.016138e-005 1.002920e+000 1.807203e-001 7.639317e-005 8.531262e-005 1.006681e+000 1.816359e-001
334485000 -1.883222e-005 -8.459451e-006 1.005341e+000 1.411380e-001 -9.374917e-005 1.511964e-005 1.009537e+000 1.420506e-001
334770000 -6.352296e-005 1.074695e-006 1.006369e+000 1.020645e-001 -6.400510e-005 -1.095513e-004 1.010658e+000 1.023769e-001
335055000 6.210003e-006 -5.148905e-005 1.006026e+000 6.350385e-002 4.129151e-006 -1.713306e-005 1.009674e+000 6.348346e-002
335340000 -4.773970e-005 -6.147259e-005 1.003087e+000 2.536143e-002 -6.535882e-005 -5.051810e-005 1.007446e+000 2.549122e-002
335625000 4.008432e-005 -2.535564e-005 9.988410e-001 -1.315121e-002 7.648254e-007 5.546285e-005 1.003165e+000 -1.300029e-002
335910000 4.861712e-005 9.256995e-006 9.931150e-001 -4.934964e-002 1.824602e-005 1.055220e-004 9.973530e-001 -4.994030e-002
336195000 2.052077e-005 2.072723e-005 9.855468e-001 -8.601312e-002 5.951761e-005 5.241630e-005 9.894804e-001 -8.662543e-002
336480000 -5.358541e-005 2.243020e-005 9.773719e-001 -1.212727e-001 2.507333e-006 8.803633e-005 9.807993e-001 -1.220202e-001
336765000 -7.630400e-007 1.347568e-004 9.668177e-001 -1.564609e-001 4.908210e-005 6.816509e-005 9.704995e-001 -1.571257e-001
337050000 -7.326494e-005 -2.245699e-005 9.552752e-001 -1.902613e-001 1.284488e-005 -3.654424e-005 9.590307e-001 -1.907249e-001
337335000 1.083010e-006 1.761929e-004 9.420697e-001 -2.229234e-001 -7.604709e-005 6.829386e-005 9.460639e-001 -2.237771e-001
337620000 7.963582e-006 -7.988378e-006 9.286236e-001 -2.546695e-001 -1.270866e-004 1.377055e-005 9.318491e-001 -2.555683e-001
337905000 8.279258e-005 -4.756503e-005 9.128637e-001 -2.852910e-001 -3.945532e-005 -4.413855e-006 9.176179e-001 -2.864334e-001
338190000 6.176397e-005 -1.997044e-005 8.969125e-001 -3.149749e-001 9.101548e-006 6.638443e-005 9.010184e-001 -3.163589e-001
338475000 3.914088e-005 -1.655233e-005 8.805850e-001 -3.441051e-001 -1.219530e-004 -9.448113e-005 8.845180e-001 -3.462014e-001
338760000 -7.071844e-005 1.053224e-005 8.631967e-001 -3.718790e-001 -4.807419e-006 -2.987677e-005 8.666590e-001 -3.730670e-001
339045000 -7.465262e-005 1.906523e-005 8.446407e-001 -3.983520e-001 -6.449322e-005 -1.161663e-004 8.482515e-001 -3.995140e-001
339330000 -8.615971e-006 -2.336635e-005 8.258280e-001 -4.231843e-001 6.002694e-005 -1.276510e-005 8.295319e-001 -4.254482e-001
339615000 1.096055e-004 4.591589e-005 8.061488e-001 -4.484744e-001 -4.334049e-005 -2.023828e-006 8.091588e-001 -4.505275e-001
339900000 -6.545622e-005 -1.929534e-005 7.855009e-001 -4.717206e-001 5.610312e-005 -4.764271e-005 7.888958e-001 -4.735659e-001
340185000 5.540369e-006 -2.634486e-006 7.648417e-001 -4.942253e-001 -9.747050e-005 -8.033647e-005 7.685208e-001 -4.957367e-001
340470000 5.329283e-005 -5.558326e-005 7.441384e-001 -5.151092e-001 9.426840e-005 5.948680e-005 7.470598e-001 -5.172228e-001
340755000 -9.125654e-005 -2.388102e-005 7.220563e-001 -5.350875e-001 -7.303897e-005 8.099543e-005 7.245293e-001 -5.373353e-001
341040000 2.083949e-005 -4.351739e-005 7.009819e-001 -5.544212e-001 -8.908123e-005 9.114631e-005 7.035245e-001 -5.565748e-001
341325000 2.520490e-005 3.043670e-005 6.785856e-001 -5.725108e-001 -5.824646e-005 -2.742240e-005 6.815904e-001 -5.751608e-001
341610000 1.173596e-004 2.981517e-005 6.561862e-001 -5.900801e-001 -8.783815e-005 -2.992741e-005 6.590413e-001 -5.928732e-001
341895000 4.361253e-005 -2.750531e-005 6.338297e-001 -6.064216e-001 -1.187361e-005 -3.967417e-005 6.363614e-001 -6.085905e-001
342180000 -6.733355e-006 1.673148e-005 6.117841e-001 -6.217136e-001 -5.488345e-005 -4.245941e-005 6.136981e-001 -6.241617e-001
342465000 1.906058e-006 1.807784e-005 5.890116e-001 -6.362767e-001 -3.103637e-005 -4.176268e-005 5.913089e-001 -6.391373e-001
342750000 1.139838e-005 1.014128e-005 5.660744e-001 -6.496837e-001 -1.499084e-005 6.152815e-006 5.684915e-001 -6.527998e-001
343035000 -3.563488e-005 -7.141596e-007 5.429011e-001 -6.631212e-001 2.898722e-005 -4.711807e-005 5.453860e-001 -6.657646e-001
343320000 3.343035e-005 2.900477e-005 5.205317e-001 -6.745814e-001 4.308755e-005 -1.310655e-005 5.222358e-001 -6.772430e-001
343605000 1.212600e-005 1.798190e-005 4.976148e-001 -6.863465e-001 4.463149e-005 -8.077122e-006 4.999302e-001 -6.890113e-001
343890000 1.294828e-004 3.792194e-005 4.748326e-001 -6.965320e-001 -5.990769e-005 -7.608715e-005 4.766451e-001 -6.998202e-001
