!Agilent Technologies,N5230C,SG49000117,A.08.50.07
!Agilent N5230C: A.08.50.07
!Date: Sunday, March 17, 2024 01:31:50
!Correction: S11(Off) 
!S21(Off) 
!S12(Off) 
!S22(Off) 
!S2P File: Measurements: S11, S21, S12, S22:
# Hz S  RI   R 50
300000000 -3.696399e-005 4.102901e-005 -6.603678e-001 -5.959269e-001 -1.197014e-005 3.734481e-005 -6.623557e-001 -5.978374e-001
300285000 -1.069949e-006 1.175976e-005 -6.735619e-001 -5.727131e-001 -1.094984e-004 3.414159e-005 -6.753173e-001 -5.741225e-001
300570000 2.691209e-005 -2.759939e-005 -6.856177e-001 -5.489151e-001 2.704140e-005 1.516504e-005 -6.881710e-001 -5.504509e-001
300855000 -2.984633e-005 -5.361457e-005 -6.976073e-001 -5.247062e-001 5.103057e-005 5.359377e-005 -7.001312e-001 -5.267701e-001
301140000 -1.041882e-005 -4.177220e-005 -7.085435e-001 -5.007318e-001 8.182489e-005 -5.355176e-005 -7.107769e-001 -5.027382e-001
301425000 3.208428e-005 3.793839e-005 -7.181311e-001 -4.768512e-001 -1.109724e-004 8.089580e-005 -7.213309e-001 -4.787228e-001
301710000 1.063153e-004 -1.399813e-005 -7.281778e-001 -4.535540e-001 -1.340152e-005 1.979152e-005 -7.312600e-001 -4.547695e-001
301995000 -6.985968e-006 4.706032e-006 -7.364649e-001 -4.295009e-001 -5.275272e-005 4.887836e-005 -7.392759e-001 -4.311389e-001
302280000 -5.612231e-005 3.542787e-005 -7.444085e-001 -4.058659e-001 9.200463e-005 2.716371e-006 -7.473446e-001 -4.075749e-001
302565000 -1.388915e-005 -9.360476e-005 -7.513576e-001 -3.826724e-001 6.101626e-005 -2.609077e-005 -7.543352e-001 -3.839508e-001
302850000 1.156559e-004 -1.502650e-005 -7.579124e-001 -3.593264e-001 -1.879539e-005 4.846833e-005 -7.605326e-001 -3.603196e-001
303135000 5.544895e-006 8.151324e-005 -7.642854e-001 -3.364623e-001 -6.278615e-005 -6.666614e-005 -7.662833e-001 -3.376565e-001
303420000 -1.074383e-004 9.606150e-005 -7.690876e-001 -3.128352e-001 -4.592857e-006 -1.585093e-005 -7.722594e-001 -3.144091e-001
303705000 4.072204e-005 -2.425351e-005 -7.736173e-001 -2.898371e-001 -6.759228e-005 5.637720e-005 -7.769361e-001 -2.915151e-001
303990000 -7.932873e-005 9.187972e-005 -7.779371e-001 -2.675055e-001 5.652955e-005 -4.813811e-005 -7.806413e-001 -2.687998e-001
304275000 -1.793864e-005 -6.435738e-005 -7.813072e-001 -2.446124e-001 -5.095205e-005 2.634431e-005 -7.849247e-001 -2.452493e-001
304560000 -6.434710e-005 4.872311e-005 -7.845115e-001 -2.220564e-001 -2.988510e-005 -8.331474e-005 -7.868249e-001 -2.231853e-001
304845000 -9.461294e-005 -5.759622e-005 -7.865535e-001 -2.002552e-001 4.394339e-005 -2.943512e-005 -7.898573e-001 -2.008360e-001
305130000 -1.654110e-005 1.685080e-005 -7.891891e-001 -1.777868e-001 2.070895e-005 -6.511878e-005 -7.915948e-001 -1.782701e-001
305415000 -2.885745e-005 8.907770e-005 -7.905154e-001 -1.555612e-001 -4.271689e-005 7.680689e-005 -7.933289e-001 -1.565647e-001
305700000 7.191471e-005 -6.089682e-005 -7.910345e-001 -1.341399e-001 -4.128231e-005 -4.346616e-005 -7.938448e-001 -1.345688e-001
305985000 -4.896496e-005 -1.094581e-004 -7.914516e-001 -1.125139e-001 9.580940e-005 -3.317679e-005 -7.946663e-001 -1.130480e-001
306270000 1.075189e-004 1.482202e-004 -7.916185e-001 -9.118115e-002 -1.011268e-005 8.624981e-005 -7.951043e-001 -9.110326e-002
306555000 1.027815e-004 3.309267e-005 -7.913167e-001 -6.945784e-002 6.899484e-005 1.281289e-005 -7.945508e-001 -6.957603e-002
306840000 8.909926e-005 -4.169308e-005 -7.902701e-001 -4.833947e-002 -5.354814e-005 -7.878568e-005 -7.935520e-001 -4.833226e-002
307125000 9.966270e-005 -5.226867e-005 -7.888250e-001 -2.753471e-002 -8.304828e-006 -8.712802e-006 -7.920477e-001 -2.748903e-002
307410000 1.320869e-004 -8.489510e-005 -7.875564e-001 -6.400730e-003 2.579566e-005 4.268930e-005 -7.905798e-001 -6.733052e-003
307695000 4.187228e-005 3.300531e-005 -7.853944e-001 1.472788e-002 -4.310012e-005 -6.475391e-005 -7.887218e-001 1.435415e-002
307980000 4.083665e-005 -3.117202e-005 -7.830341e-001 3.512563e-002 2.705014e-005 1.115099e-004 -7.861843e-001 3.492630e-002
308265000 -4.170562e-005 3.591884e-005 -7.798023e-001 5.495032e-002 6.182247e-005 6.590241e-005 -7.828804e-001 5.527821e-002
308550000 1.324124e-005 1.223596e-005 -7.769669e-001 7.553367e-002 -8.158196e-005 -3.909488e-005 -7.796232e-001 7.580384e-002
308835000 4.448407e-005 1.967105e-005 -7.737791e-001 9.587061e-002 2.048930e-005 3.767912e-005 -7.764433e-001 9.604175e-002
309120000 -6.708068e-005 1.546002e-005 -7.694865e-001 1.158978e-001 -1.186619e-004 -3.926398e-005 -7.723259e-001 1.159600e-001
309405000 3.393502e-005 -7.976728e-005 -7.652671e-001 1.358209e-001 -3.090954e-005 1.721100e-005 -7.681239e-001 1.362259e-001
309690000 1.951280e-006 -3.563723e-005 -7.606072e-001 1.554131e-001 2.689730e-005 -1.401887e-005 -7.634394e-001 1.561201e-001
309975000 9.834668e-006 -8.357091e-005 -7.555720e-001 1.749591e-001 4.722675e-005 2.959148e-005 -7.583672e-001 1.756063e-001
310260000 -5.705515e-005 -6.556958e-005 -7.501244e-001 1.943013e-001 1.074466e-004 -1.145446e-004 -7.528076e-001 1.949984e-001
310545000 9.662007e-006 -7.289783e-005 -7.444230e-001 2.144016e-001 -1.307452e-004 -1.687446e-005 -7.478772e-001 2.147079e-001
310830000 2.675456e-005 -2.612807e-005 -7.387284e-001 2.332640e-001 -1.860723e-007 1.794669e-005 -7.411119e-001 2.343507e-001
311115000 -9.463033e-007 7.961965e-005 -7.321766e-001 2.524829e-001 -8.037559e-005 -3.900095e-005 -7.351629e-001 2.534481e-001
311400000 1.419915e-004 -8.030092e-005 -7.247560e-001 2.712721e-001 2.166452e-005 -1.017943e-004 -7.280394e-001 2.726510e-001
311685000 -5.263758e-005 2.313184e-005 -7.182952e-001 2.906563e-001 -4.935021e-007 3.185792e-005 -7.211984e-001 2.914954e-001
311970000 -4.216621e-005 2.130523e-005 -7.105768e-001 3.092898e-001 3.117398e-005 9.366302e-005 -7.135321e-001 3.103677e-001
312255000 -7.346555e-005 1.110253e-004 -7.027110e-001 3.277501e-001 -7.281184e-005 5.875299e-006 -7.057454e-001 3.299104e-001
312540000 -1.064319e-004 -2.299513e-005 -6.946638e-001 3.469110e-001 -5.144656e-005 -3.971121e-005 -6.976637e-001 3.480225e-001
312825000 -1.374314e-004 -7.487318e-005 -6.862291e-001 3.650537e-001 -6.420236e-005 -1.155704e-004 -6.887831e-001 3.666661e-001
313110000 3.241906e-005 -6.139423e-005 -6.767319e-001 3.841966e-001 2.489124e-005 -2.881018e-005 -6.797819e-001 3.857090e-001
313395000 -2.932379e-005 4.911260e-005 -6.675894e-001 4.023187e-001 -8.472049e-005 -1.003077e-005 -6.701576e-001 4.041122e-001
313680000 -3.244848e-006 -5.582042e-005 -6.575500e-001 4.205830e-001 5.282505e-005 -4.982727e-005 -6.599793e-001 4.217067e-001
313965000 1.103934e-004 3.115290e-007 -6.475707e-001 4.393127e-001 -3.409959e-005 6.049415e-005 -6.500404e-001 4.406850e-001
314250000 1.507110e-004 -4.941994e-006 -6.371313e-001 4.570801e-001 5.633871e-005 2.145238e-006 -6.396062e-001 4.591080e-001
314535000 -1.423767e-005 -2.664115e-005 -6.260461e-001 4.755083e-001 9.092547e-005 8.595925e-006 -6.282016e-001 4.771092e-001
314820000 1.123430e-004 -8.477733e-006 -6.139872e-001 4.926758e-001 1.397836e-005 7.512749e-005 -6.165590e-001 4.949197e-001
315105000 -5.081653e-007 -5.428542e-006 -6.025383e-001 5.113146e-001 -3.310446e-005 -2.380085e-005 -6.052822e-001 5.128822e-001
315390000 5.111199e-005 5.640627e-006 -5.901793e-001 5.285372e-001 3.680286e-005 7.027701e-005 -5.925775e-001 5.309876e-001
315675000 6.429954e-005 2.731474e-005 -5.770879e-001 5.461681e-001 6.358478e-005 1.106330e-004 -5.795105e-001 5.486770e-001
315960000 3.764264e-005 3.332282e-005 -5.637933e-001 5.636919e-001 3.910375e-005 1.639024e-005 -5.661151e-001 5.662081e-001
316245000 -2.804236e-005 -8.845089e-005 -5.501872e-001 5.811855e-001 -7.662049e-005 -6.391427e-005 -5.518259e-001 5.837223e-001
316530000 2.138952e-005 1.126788e-005 -5.359148e-001 5.982916e-001 6.665322e-005 -5.760408e-005 -5.381687e-001 6.007059e-001
316815000 3.887777e-006 -6.425651e-005 -5.207283e-001 6.155753e-001 -7.106458e-005 -4.248470e-005 -5.224977e-001 6.178467e-001
317100000 -4.147489e-005 4.206209e-005 -5.052095e-001 6.323119e-001 3.493201e-005 -4.596798e-005 -5.072104e-001 6.350839e-001
317385000 -1.584275e-005 -1.719382e-004 -4.892849e-001 6.496407e-001 -1.621619e-005 4.030314e-006 -4.913916e-001 6.520619e-001
317670000 4.183099e-007 1.004188e-005 -4.725177e-001 6.653263e-001 3.050457e-006 6.715714e-006 -4.750724e-001 6.684855e-001
317955000 1.844860e-004 5.742893e-005 -4.559955e-001 6.827198e-001 7.006015e-007 -3.196059e-005 -4.576720e-001 6.848482e-001
318240000 -4.694890e-006 -2.673719e-005 -4.380814e-001 6.983579e-001 -8.825445e-006 -6.717342e-005 -4.398852e-001 7.012197e-001
318525000 7.605414e-005 1.447347e-004 -4.195952e-001 7.140538e-001 1.000377e-005 3.147107e-005 -4.218488e-001 7.169494e-001
318810000 -1.931540e-005 2.078878e-005 -4.006844e-001 7.296385e-001 8.396678e-006 -2.373304e-005 -4.021741e-001 7.327022e-001
319095000 -4.880750e-005 1.400544e-005 -3.812394e-001 7.446569e-001 6.839241e-005 -1.349147e-005 -3.829014e-001 7.475690e-001
319380000 -6.299318e-005 1.162873e-004 -3.613511e-001 7.598637e-001 5.142210e-005 7.273772e-006 -3.624748e-001 7.628400e-001
319665000 1.206571e-005 -4.519279e-005 -3.401441e-001 7.746210e-001 5.268057e-005 -2.818138e-005 -3.411446e-001 7.776667e-001
319950000 1.381613e-005 -1.628116e-005 -3.184133e-001 7.884994e-001 -1.064248e-006 -1.142624e-005 -3.196635e-001 7.920305e-001
320235000 -3.692886e-005 -1.345869e-005 -2.958363e-001 8.021113e-001 -2.864923e-005 -1.556238e-005 -2.973680e-001 8.058870e-001
320520000 -2.499672e-005 -2.017993e-005 -2.730903e-001 8.162773e-001 4.636038e-005 8.224612e-005 -2.739969e-001 8.189212e-001
320805000 -8.596839e-006 -3.600768e-005 -2.495612e-001 8.291892e-001 -3.401250e-005 1.572660e-004 -2.497875e-001 8.325719e-001
321090000 7.569989e-005 -5.409660e-005 -2.248020e-001 8.414811e-001 8.686377e-005 5.429199e-005 -2.256226e-001 8.449814e-001
321375000 -1.643315e-005 -3.907267e-005 -1.988802e-001 8.529716e-001 -1.488897e-004 -4.610750e-005 -2.004928e-001 8.567702e-001
321660000 8.663789e-005 -9.929667e-005 -1.734524e-001 8.644271e-001 -2.125319e-005 6.776933e-005 -1.740745e-001 8.677225e-001
321945000 -1.369798e-005 -2.014387e-005 -1.461913e-001 8.750607e-001 -5.846321e-005 4.561213e-005 -1.474876e-001 8.790764e-001
322230000 -1.353248e-005 -4.794393e-006 -1.191001e-001 8.845214e-001 3.270426e-005 9.522162e-005 -1.198253e-001 8.883357e-001
322515000 2.006237e-004 1.040317e-004 -9.094851e-002 8.943729e-001 2.699035e-005 -5.281155e-007 -9.168840e-002 8.973965e-001
322800000 -2.038718e-005 -1.048144e-005 -6.255070e-002 9.017976e-001 -5.580797e-005 3.333527e-005 -6.231854e-002 9.056426e-001
323085000 3.339912e-005 8.424187e-005 -3.269193e-002 9.098254e-001 -1.030204e-005 -6.794641e-005 -3.265600e-002 9.134120e-001
323370000 -2.333889e-005 7.881073e-005 -2.308371e-003 9.155391e-001 -6.371576e-005 6.197389e-005 -2.476003e-003 9.196572e-001
323655000 2.415210e-005 -1.113210e-004 2.831130e-002 9.215773e-001 3.037970e-005 4.201592e-005 2.875241e-002 9.250578e-001
323940000 -7.884100e-005 4.124837e-006 6.039083e-002 9.255940e-001 6.119772e-005 -5.165515e-005 6.048843e-002 9.295671e-001
324225000 -1.770251e-005 1.650026e-006 9.239984e-002 9.296756e-001 6.649267e-005 -5.120158e-005 9.265028e-002 9.330497e-001
324510000 1.697442e-005 2.774330e-005 1.258255e-001 9.309652e-001 -1.696532e-005 -5.530200e-005 1.265205e-001 9.357483e-001
324795000 -4.689841e-005 6.199828e-006 1.588676e-001 9.320182e-001 -4.663567e-005 9.058778e-005 1.596243e-001 9.362510e-001
325080000 7.537635e-005 8.028556e-005 1.926216e-001 9.319636e-001 5.586486e-006 -3.853965e-005 1.936881e-001 9.358781e-001
325365000 7.689457e-005 -1.094715e-004 2.272618e-001 9.297471e-001 -5.447587e-005 -1.020922e-004 2.281701e-001 9.340290e-001
325650000 8.576242e-005 6.159487e-006 2.614616e-001 9.268518e-001 6.081111e-006 -2.941314e-005 2.628014e-001 9.302316e-001
325935000 1.472621e-005 -9.329490e-005 2.969138e-001 9.219861e-001 -4.003386e-005 -4.725868e-005 2.976123e-001 9.262871e-001
326220000 2.993680e-005 2.146029e-005 3.316897e-001 9.157630e-001 -2.941961e-005 -1.382707e-005 3.334798e-001 9.195365e-001
326505000 -6.002554e-005 -7.359866e-005 3.676428e-001 9.076753e-001 -3.544609e-005 3.210540e-005 3.695233e-001 9.112712e-001
326790000 7.957698e-006 1.314172e-004 4.027477e-001 8.986875e-001 -8.715704e-005 -8.878112e-005 4.053551e-001 9.023292e-001
327075000 3.337160e-005 3.839782e-005 4.388833e-001 8.874580e-001 -3.080285e-005 -5.263110e-005 4.403374e-001 8.903992e-001
327360000 -2.996810e-005 5.643378e-005 4.738838e-001 8.743808e-001 4.703199e-005 8.250820e-006 4.758548e-001 8.777401e-001
327645000 5.915080e-005 9.890956e-006 5.089606e-001 8.599837e-001 2.521957e-005 -5.042413e-005 5.110708e-001 8.630660e-001
327930000 8.203277e-005 -2.263043e-005 5.437279e-001 8.436587e-001 3.457152e-005 3.269460e-005 5.462236e-001 8.472443e-001
328215000 1.258555e-006 6.434902e-006 5.780687e-001 8.249297e-001 -6.301923e-005 5.952183e-005 5.811114e-001 8.288974e-001
328500000 4.454289e-005 -2.261352e-005 6.116433e-001 8.053001e-001 -6.744608e-006 -3.371353e-005 6.146053e-001 8.087795e-001
328785000 -8.823784e-005 -5.639200e-005 6.453944e-001 7.839601e-001 3.227163e-006 1.061974e-004 6.483482e-001 7.872461e-001
329070000 7.163351e-006 -5.900462e-005 6.778904e-001 7.607528e-001 2.318603e-005 1.159519e-005 6.803707e-001 7.646257e-001
329355000 -1.454675e-004 -6.921381e-005 7.082966e-001 7.350180e-001 -1.012347e-006 3.417797e-005 7.118168e-001 7.389023e-001
329640000 -1.433792e-005 -4.552751e-005 7.387412e-001 7.093205e-001 -1.991279e-005 1.014551e-004 7.423830e-001 7.125683e-001
329925000 2.374034e-005 7.073607e-005 7.674271e-001 6.805336e-001 -8.044471e-005 2.591771e-005 7.711841e-001 6.838322e-001
330210000 2.655103e-005 6.314945e-006 7.960666e-001 6.515679e-001 -1.048516e-006 -8.233587e-005 7.990108e-001 6.534166e-001
330495000 -7.243422e-005 -3.848596e-006 8.217828e-001 6.202726e-001 6.338872e-006 6.478756e-005 8.251925e-001 6.226092e-001
330780000 6.890863e-005 1.106147e-005 8.469583e-001 5.873643e-001 -2.645222e-005 2.432569e-005 8.504230e-001 5.900859e-001
331065000 -9.919811e-006 -3.119944e-005 8.703124e-001 5.536776e-001 -5.028624e-006 -2.731501e-005 8.733360e-001 5.565264e-001
331350000 -1.398523e-005 -3.159129e-005 8.914370e-001 5.191242e-001 -1.230277e-005 3.880982e-005 8.959212e-001 5.215096e-001
331635000 1.485795e-005 2.616591e-005 9.111417e-001 4.832326e-001 -6.683669e-005 2.419093e-005 9.160139e-001 4.852675e-001
331920000 -4.757978e-005 6.885615e-005 9.293506e-001 4.462391e-001 3.121384e-005 -2.514386e-006 9.332978e-001 4.483457e-001
332205000 4.771058e-005 -1.059493e-004 9.460421e-001 4.086607e-001 -1.117926e-004 -1.137337e-004 9.504432e-001 4.101475e-001
332490000 -2.335353e-005 -7.974859e-005 9.597893e-001 3.711732e-001 -3.397414e-005 -2.219741e-005 9.651415e-001 3.725275e-001
332775000 5.813856e-005 -5.346693e-005 9.728283e-001 3.321351e-001 9.924929e-005 -1.256500e-005 9.768185e-001 3.329918e-001
333060000 -4.492391e-005 -1.393723e-005 9.825016e-001 2.931508e-001 -8.427435e-005 2.191754e-005 9.876872e-001 2.943362e-001
333345000 -3.898256e-005 -6.202588e-005 9.914557e-001 2.539219e-001 -9.149819e-006 -4.750881e-005 9.955170e-001 2.547272e-001
333630000 -8.967319e-005 2.733698e-005 9.981211e-001 2.140325e-001 -2.073859e-005 -4.916366e-005 1.002650e+000 2.152895e-001
333915000 -4.192812e-005 -7.124739e-005 1.002150e+000 1.747567e-001 -1.059629e-004 4.169003e-005 1.006785e+000 1.753848e-001
334200000 5.429577e-005 1.594378e-005 1.005477e+000 1.352478e-001 3.087675e-005 4.075899e-005 1.009480e+000 1.356686e-001
334485000 -6.457334e-005 -7.036615e-005 1.006199e+000 9.701499e-002 -5.204842e-005 -7.291370e-005 1.010798e+000 9.686869e-002
334770000 1.147364e-004 -5.461217e-005 1.005533e+000 5.712482e-002 -5.163806e-005 2.500991e-005 1.009797e+000 5.785664e-002
335055000 -6.555381e-005 -2.228454e-005 1.003425e+000 1.909504e-002 -6.338739e-005 2.514778e-005 1.007535e+000 1.912522e-002
335340000 3.833231e-005 3.515296e-006 9.982856e-001 -1.850197e-002 4.105522e-005 -5.765696e-006 1.002986e+000 -1.818699e-002
335625000 -8.872355e-005 3.269837e-005 9.924749e-001 -5.540516e-002 -6.040919e-005 -7.269929e-005 9.970238e-001 -5.527331e-002
335910000 5.055488e-005 -1.177722e-004 9.845377e-001 -9.196126e-002 -2.060083e-004 -7.780178e-005 9.888209e-001 -9.232066e-002
336195000 4.540565e-005 4.967099e-005 9.755407e-001 -1.271884e-001 8.034114e-005 2.016173e-005 9.804634e-001 -1.279157e-001
336480000 -7.923214e-005 5.782743e-005 9.651227e-001 -1.622745e-001 -1.214457e-004 -9.248710e-005 9.696909e-001 -1.635097e-001
336765000 2.985167e-005 6.743483e-005 9.535117e-001 -1.956936e-001 -2.574900e-005 -7.980777e-005 9.574760e-001 -1.959780e-001
337050000 4.643338e-005 -5.311684e-005 9.407120e-001 -2.285519e-001 3.044026e-005 6.531572e-005 9.446126e-001 -2.300717e-001
337335000 1.338455e-004 -7.184184e-005 9.265488e-001 -2.606399e-001 1.246598e-004 -5.557333e-005 9.302281e-001 -2.613311e-001
337620000 -3.078918e-005 6.841316e-005 9.107005e-001 -2.912494e-001 3.059451e-005 -4.095102e-005 9.149126e-001 -2.921657e-001
337905000 -4.289557e-005 4.933999e-006 8.945895e-001 -3.207767e-001 2.204750e-005 -1.867476e-005 8.985912e-001 -3.225791e-001
338190000 8.774794e-005 3.078844e-005 8.779946e-001 -3.498151e-001 -8.881535e-005 4.226817e-005 8.817763e-001 -3.513031e-001
338475000 5.358912e-005 6.520328e-005 8.603482e-001 -3.769453e-001 -3.324638e-005 8.327343e-005 8.639253e-001 -3.788770e-001
338760000 8.579290e-005 3.459161e-005 8.411826e-001 -4.037174e-001 9.643990e-006 1.082752e-004 8.449646e-001 -4.052849e-001
339045000 -1.190017e-005 8.347720e-005 8.224636e-001 -4.295415e-001 -2.025741e-005 3.415374e-005 8.260978e-001 -4.312704e-001
339330000 5.905159e-005 5.700858e-005 8.021080e-001 -4.530515e-001 3.112925e-005 -1.941940e-005 8.062811e-001 -4.554149e-001
339615000 -4.570722e-005 -6.875088e-005 7.819089e-001 -4.772697e-001 -1.878385e-005 1.192153e-005 7.856893e-001 -4.786381e-001
339900000 -6.365006e-005 1.798779e-005 7.611539e-001 -4.995776e-001 -7.937434e-006 4.907820e-005 7.645760e-001 -5.006154e-001
340185000 -2.193217e-005 -1.553149e-005 7.400706e-001 -5.199928e-001 -2.257448e-005 3.219007e-005 7.428218e-001 -5.223922e-001
340470000 -6.549032e-005 -9.808638e-005 7.178035e-001 -5.404865e-001 1.770260e-005 -2.988263e-005 7.210464e-001 -5.424686e-001
340755000 -5.591539e-005 -2.382293e-005 6.966295e-001 -5.590214e-001 2.324164e-005 -3.878933e-005 6.993326e-001 -5.621070e-001
341040000 -6.170645e-005 -5.500025e-005 6.743491e-001 -5.777845e-001 3.705868e-005 -2.284333e-005 6.768106e-001 -5.794821e-001
341325000 7.387528e-005 -3.935839e-005 6.520093e-001 -5.942055e-001 -3.788961e-005 -3.378219e-006 6.541920e-001 -5.969388e-001
341610000 -4.256057e-006 -2.354902e-005 6.293203e-001 -6.101226e-001 1.010443e-004 -5.117336e-005 6.324083e-001 -6.128596e-001
341895000 3.662386e-005 -3.593743e-006 6.068223e-001 -6.258515e-001 1.347154e-005 3.575398e-005 6.093161e-001 -6.282647e-001
342180000 -5.111692e-006 1.042983e-005 5.834914e-001 -6.401320e-001 9.568351e-006 1.889246e-005 5.860196e-001 -6.430704e-001
342465000 -5.585497e-005 8.554878e-005 5.607177e-001 -6.542613e-001 9.594743e-005 -2.802837e-005 5.630910e-001 -6.565614e-001
342750000 -9.590804e-005 5.133079e-005 5.378194e-001 -6.663779e-001 5.656130e-005 -7.871924e-007 5.401633e-001 -6.691701e-001
343035000 7.319240e-006 7.125855e-005 5.151712e-001 -6.782138e-001 1.313514e-005 4.724308e-005 5.172181e-001 -6.814173e-001
343320000 -5.218539e-005 -2.019113e-005 4.921310e-001 -6.896055e-001 2.385025e-005 2.797832e-006 4.944405e-001 -6.921081e-001
343605000 -1.090900e-004 4.081772e-006 4.696043e-001 -6.996557e-001 -7.513210e-005 -1.924248e-005 4.713688e-001 -7.027571e-001
343890000 -7.200274e-005 -1.594508e-004 4.462254e-001 -7.090068e-001 -5.024442e-005 8.028393e-005 4.481419e-001 -7.121622e-001
