!Agilent Technologies,N5230C,SG49000117,A.08.50.07
!Agilent N5230C: A.08.50.07
!Date: Sunday, March 17, 2024 02:55:24
!Correction: S11(Off) 
!S21(Off) 
!S12(Off) 
!S22(Off) 
!S2P File: Measurements: S11, S21, S12, S22:
# Hz S  RI   R 50
300000000 -1.108682e-005 -5.642456e-005 -6.992629e-001 -5.196465e-001 -4.060969e-006 4.895561e-005 -7.018086e-001 -5.213844e-001
300285000 -2.668771e-005 -4.194955e-005 -7.101455e-001 -4.955606e-001 3.419136e-005 7.705640e-005 -7.124011e-001 -4.976749e-001
300570000 8.119731e-005 8.675393e-005 -7.201723e-001 -4.720147e-001 -3.590063e-005 -9.576276e-005 -7.228429e-001 -4.738310e-001
300855000 2.253857e-005 7.609186e-005 -7.290030e-001 -4.479192e-001 -9.664759e-005 9.242112e-005 -7.313995e-001 -4.500871e-001
301140000 7.693656e-005 -4.238869e-005 -7.376180e-001 -4.243678e-001 8.429923e-005 -3.628974e-005 -7.403029e-001 -4.254200e-001
301425000 2.297995e-005 -1.901303e-005 -7.455468e-001 -4.003240e-001 1.858284e-005 1.551303e-005 -7.484481e-001 -4.017931e-001
301710000 -1.652631e-005 -8.737978e-006 -7.526861e-001 -3.762532e-001 -5.513706e-005 3.387564e-005 -7.548315e-001 -3.782080e-001
301995000 -4.270756e-006 -6.926117e-005 -7.584870e-001 -3.530085e-001 -7.925756e-006 -4.304036e-005 -7.612257e-001 -3.544529e-001
302280000 -6.949267e-006 -1.440103e-005 -7.645144e-001 -3.301075e-001 2.756492e-005 2.981939e-005 -7.671909e-001 -3.312822e-001
302565000 -6.803181e-005 -3.392571e-005 -7.695724e-001 -3.064201e-001 -6.788113e-005 -4.091367e-005 -7.724267e-001 -3.080774e-001
302850000 4.995245e-006 1.419151e-004 -7.739784e-001 -2.835595e-001 1.906242e-005 -5.509574e-005 -7.767462e-001 -2.845680e-001
303135000 3.435455e-005 1.020498e-004 -7.783868e-001 -2.606075e-001 6.779780e-005 -4.098923e-005 -7.808968e-001 -2.611400e-001
303420000 5.480913e-005 -7.117337e-005 -7.804317e-001 -2.377959e-001 5.400055e-005 -3.345248e-005 -7.841914e-001 -2.388149e-001
303705000 7.751096e-005 1.912180e-004 -7.841936e-001 -2.155044e-001 -1.014032e-004 -3.946941e-005 -7.866656e-001 -2.160351e-001
303990000 -2.443089e-005 2.982078e-005 -7.865484e-001 -1.925436e-001 -1.672778e-005 7.115596e-005 -7.892706e-001 -1.939978e-001
304275000 -5.380020e-005 1.679103e-005 -7.877237e-001 -1.705091e-001 1.581606e-005 4.198756e-005 -7.905849e-001 -1.714170e-001
304560000 1.232710e-005 4.812334e-005 -7.891538e-001 -1.487332e-001 2.205779e-005 9.934956e-006 -7.918226e-001 -1.492634e-001
304845000 -7.645590e-005 6.500079e-005 -7.898726e-001 -1.266972e-001 -1.397277e-005 6.538461e-005 -7.928307e-001 -1.273047e-001
305130000 -3.987525e-005 3.732537e-005 -7.901011e-001 -1.051046e-001 1.028940e-004 8.201199e-005 -7.932467e-001 -1.051210e-001
305415000 2.029155e-005 -4.952662e-005 -7.900445e-001 -8.363331e-002 2.523649e-005 -4.929898e-005 -7.926109e-001 -8.357573e-002
305700000 4.345731e-005 1.838592e-005 -7.890090e-001 -6.177855e-002 1.061145e-005 7.290656e-006 -7.925525e-001 -6.247687e-002
305985000 4.731225e-006 -1.474859e-004 -7.881632e-001 -4.049015e-002 -3.066407e-005 6.028248e-005 -7.912232e-001 -4.088357e-002
306270000 5.812974e-005 5.908544e-005 -7.863606e-001 -1.979016e-002 -7.223981e-005 5.925159e-006 -7.898623e-001 -1.970737e-002
306555000 1.411595e-004 1.820514e-005 -7.848235e-001 1.614960e-003 -2.702821e-005 6.630480e-005 -7.878709e-001 1.118011e-003
306840000 9.507897e-005 -3.796756e-005 -7.821421e-001 2.194565e-002 2.121965e-005 -3.217885e-005 -7.848110e-001 2.211480e-002
307125000 5.211245e-005 1.147427e-005 -7.796474e-001 4.334316e-002 -5.886033e-005 -3.227283e-005 -7.821713e-001 4.299462e-002
307410000 -5.169379e-005 3.451149e-006 -7.770706e-001 6.289247e-002 -1.939287e-005 -7.453936e-005 -7.791505e-001 6.313812e-002
307695000 5.810834e-005 -5.010514e-005 -7.729435e-001 8.314583e-002 -2.029368e-005 -1.765284e-005 -7.758818e-001 8.383082e-002
307980000 1.304615e-004 4.401132e-005 -7.689459e-001 1.040496e-001 1.327429e-005 3.073048e-005 -7.721047e-001 1.038893e-001
308265000 3.610269e-005 -8.320374e-005 -7.650052e-001 1.237572e-001 3.259572e-005 1.120222e-005 -7.680141e-001 1.237372e-001
308550000 3.700227e-005 -4.818352e-005 -7.604443e-001 1.433380e-001 3.907261e-005 -4.460358e-005 -7.632844e-001 1.439383e-001
308835000 -3.556621e-005 6.348867e-005 -7.555957e-001 1.626938e-001 6.209607e-005 3.866193e-005 -7.585326e-001 1.638474e-001
309120000 -3.165343e-005 2.304124e-005 -7.499027e-001 1.827515e-001 1.360885e-004 8.066443e-005 -7.527025e-001 1.832074e-001
309405000 -6.207849e-005 4.003669e-005 -7.442462e-001 2.017080e-001 4.072098e-006 6.180166e-005 -7.474211e-001 2.033435e-001
309690000 -1.336633e-004 1.497921e-005 -7.380105e-001 2.211072e-001 7.960512e-005 -1.203269e-005 -7.413647e-001 2.224893e-001
309975000 -9.097256e-005 -4.676032e-005 -7.325370e-001 2.408532e-001 4.865207e-005 3.993720e-005 -7.347702e-001 2.411943e-001
310260000 4.779644e-005 -5.265787e-005 -7.252274e-001 2.596007e-001 1.050865e-004 -5.383368e-005 -7.280254e-001 2.607172e-001
310545000 1.000208e-004 -9.519953e-005 -7.188600e-001 2.787773e-001 2.077958e-005 1.921561e-005 -7.207754e-001 2.797664e-001
310830000 3.436683e-005 -6.346456e-005 -7.102790e-001 2.972372e-001 -5.115295e-005 -6.944925e-005 -7.133850e-001 2.986553e-001
311115000 -1.016685e-004 -8.204831e-005 -7.032606e-001 3.163918e-001 -1.272728e-004 -9.343105e-005 -7.058296e-001 3.176857e-001
311400000 -3.378211e-005 6.583049e-005 -6.948787e-001 3.350559e-001 1.353685e-005 -1.269897e-005 -6.979036e-001 3.362132e-001
311685000 -4.766444e-006 -6.730171e-005 -6.862393e-001 3.532239e-001 -1.879384e-006 6.549131e-005 -6.891088e-001 3.546750e-001
311970000 -5.757849e-005 -2.338294e-005 -6.775098e-001 3.717493e-001 1.167212e-005 -5.345103e-006 -6.800367e-001 3.729444e-001
312255000 6.902641e-006 -5.360740e-005 -6.680332e-001 3.902096e-001 -4.470932e-005 -6.033692e-005 -6.706861e-001 3.917568e-001
312540000 3.184217e-007 -9.415682e-006 -6.583863e-001 4.080557e-001 -3.534045e-005 -2.076041e-005 -6.610327e-001 4.102090e-001
312825000 -3.501703e-006 9.182158e-006 -6.481305e-001 4.268557e-001 9.574797e-005 -4.049568e-005 -6.507561e-001 4.280150e-001
313110000 -3.647549e-005 -5.663358e-005 -6.378641e-001 4.447670e-001 2.016891e-005 -1.801657e-004 -6.405374e-001 4.465839e-001
313395000 -8.192867e-005 -4.012787e-006 -6.267647e-001 4.625840e-001 4.873649e-005 4.651008e-005 -6.293846e-001 4.638806e-001
313680000 1.333243e-006 9.333777e-005 -6.160898e-001 4.803410e-001 -2.423490e-006 2.868564e-005 -6.183379e-001 4.823933e-001
313965000 5.292541e-005 -3.331562e-005 -6.039515e-001 4.980249e-001 -2.814691e-005 -5.702552e-005 -6.065035e-001 4.998284e-001
314250000 1.069427e-004 5.623491e-005 -5.920390e-001 5.157639e-001 9.804739e-005 3.424511e-005 -5.940703e-001 5.175066e-001
314535000 3.468630e-006 1.491435e-004 -5.790309e-001 5.327474e-001 5.544388e-005 2.736519e-005 -5.813001e-001 5.352437e-001
314820000 2.455642e-005 -4.726886e-006 -5.656734e-001 5.496190e-001 1.319464e-004 9.935204e-005 -5.682190e-001 5.525219e-001
315105000 -5.632636e-005 -6.597458e-005 -5.523244e-001 5.675394e-001 -2.093731e-006 3.525240e-006 -5.541027e-001 5.700349e-001
315390000 -1.095349e-004 -6.948665e-005 -5.379823e-001 5.848657e-001 -6.728820e-005 -1.242912e-005 -5.406671e-001 5.866788e-001
315675000 1.740459e-005 -1.121751e-005 -5.239651e-001 6.013788e-001 -1.928805e-005 2.192627e-005 -5.259069e-001 6.034952e-001
315960000 6.477192e-005 -1.584479e-004 -5.089495e-001 6.180251e-001 -6.232897e-005 5.646853e-005 -5.106611e-001 6.208074e-001
316245000 -4.767498e-005 -1.601113e-005 -4.930622e-001 6.348817e-001 -5.305218e-006 -1.270748e-004 -4.949560e-001 6.374392e-001
316530000 1.060947e-004 -4.083513e-005 -4.765125e-001 6.507555e-001 1.077289e-004 -6.654559e-005 -4.785402e-001 6.536015e-001
316815000 8.842839e-005 -6.320439e-005 -4.602858e-001 6.672204e-001 5.106656e-005 5.197888e-005 -4.618611e-001 6.693918e-001
317100000 6.804258e-005 1.476761e-004 -4.425019e-001 6.832786e-001 3.392854e-005 4.386514e-005 -4.444644e-001 6.858876e-001
317385000 4.368730e-005 4.183026e-005 -4.249611e-001 6.989611e-001 6.641812e-006 -3.137812e-005 -4.268236e-001 7.012403e-001
317670000 8.117627e-005 4.167913e-005 -4.063089e-001 7.139618e-001 3.337532e-005 -1.536532e-005 -4.076529e-001 7.171171e-001
317955000 6.039779e-005 1.060781e-005 -3.877706e-001 7.292568e-001 4.091279e-005 1.035920e-005 -3.889776e-001 7.319447e-001
318240000 -2.708353e-005 -3.288716e-006 -3.675742e-001 7.438315e-001 1.112492e-004 9.500360e-005 -3.693448e-001 7.474716e-001
318525000 7.215729e-006 1.765998e-005 -3.473403e-001 7.583005e-001 3.362149e-005 3.780463e-005 -3.484813e-001 7.615356e-001
318810000 -2.612088e-005 5.121480e-005 -3.257326e-001 7.725165e-001 7.864600e-006 7.820085e-006 -3.274301e-001 7.756830e-001
319095000 5.122280e-005 -5.831244e-005 -3.043979e-001 7.862873e-001 -1.246702e-005 1.011402e-004 -3.058198e-001 7.897825e-001
319380000 -7.063208e-006 -9.981616e-005 -2.819074e-001 7.998344e-001 -9.193466e-005 -1.461340e-005 -2.831874e-001 8.030101e-001
319665000 -1.563312e-006 -1.050178e-005 -2.591021e-001 8.127536e-001 2.461924e-005 1.728126e-006 -2.600509e-001 8.159322e-001
319950000 3.531979e-005 -4.847327e-005 -2.350438e-001 8.251795e-001 1.358301e-005 2.748195e-005 -2.360621e-001 8.286046e-001
320235000 -6.352836e-005 -2.392535e-005 -2.110895e-001 8.368936e-001 -9.241466e-005 -8.412600e-005 -2.121317e-001 8.403931e-001
320520000 6.989700e-005 1.571401e-005 -1.853815e-001 8.486178e-001 -1.015958e-005 -4.715098e-005 -1.863974e-001 8.516187e-001
320805000 -4.544436e-005 -1.492702e-005 -1.590672e-001 8.588784e-001 4.238498e-005 3.457513e-005 -1.599838e-001 8.627661e-001
321090000 -2.486388e-005 -1.208384e-005 -1.330618e-001 8.693839e-001 8.161386e-005 -1.181163e-004 -1.335539e-001 8.723891e-001
321375000 -7.870242e-006 9.620820e-006 -1.051405e-001 8.785578e-001 9.776320e-006 -1.485856e-004 -1.057494e-001 8.821265e-001
321660000 -5.731933e-005 -3.186022e-005 -7.731652e-002 8.865146e-001 -4.171535e-005 -4.191095e-005 -7.715662e-002 8.905119e-001
321945000 -2.448731e-005 5.094829e-005 -4.818497e-002 8.939755e-001 -9.898756e-005 -5.524162e-005 -4.859992e-002 8.985831e-001
322230000 7.215173e-006 1.825737e-005 -1.892365e-002 9.011900e-001 2.000919e-005 -2.951210e-005 -1.935242e-002 9.051517e-001
322515000 -3.450740e-005 -1.072638e-004 1.125546e-002 9.073731e-001 6.339088e-005 -7.729109e-005 1.112477e-002 9.110132e-001
322800000 1.014828e-005 -1.460276e-005 4.212008e-002 9.123785e-001 5.131601e-005 5.241916e-005 4.126702e-002 9.154941e-001
323085000 4.501606e-005 1.288300e-005 7.296237e-002 9.162721e-001 -3.233660e-005 3.428414e-006 7.359933e-002 9.196385e-001
323370000 -7.606181e-005 -1.257292e-007 1.052583e-001 9.180665e-001 4.832894e-005 -9.949368e-005 1.058897e-001 9.227024e-001
323655000 2.509276e-005 5.873697e-005 1.379426e-001 9.201142e-001 8.998070e-005 -9.873519e-005 1.383838e-001 9.244051e-001
323940000 2.261097e-005 1.270074e-004 1.709952e-001 9.205592e-001 -9.608007e-005 4.305510e-005 1.717887e-001 9.245277e-001
324225000 -1.951758e-005 -1.062276e-004 2.042630e-001 9.198983e-001 3.750116e-005 -4.388686e-005 2.054844e-001 9.230648e-001
324510000 -1.212348e-004 -9.226655e-005 2.382762e-001 9.173631e-001 -2.128407e-005 1.098844e-004 2.391286e-001 9.210709e-001
324795000 5.906546e-005 -1.374771e-004 2.728652e-001 9.133770e-001 -9.744291e-005 -8.251522e-005 2.739217e-001 9.176748e-001
325080000 2.642986e-005 -3.593427e-005 3.076347e-001 9.081104e-001 -4.299478e-005 1.175303e-004 3.087944e-001 9.118911e-001
325365000 5.562016e-005 -1.132619e-005 3.421083e-001 9.010434e-001 1.398334e-005 -3.755367e-005 3.437963e-001 9.057589e-001
325650000 -4.128011e-005 -2.017780e-005 3.771776e-001 8.929792e-001 -3.834988e-005 -3.842829e-006 3.784740e-001 8.969665e-001
325935000 -4.143900e-005 -6.074700e-005 4.121163e-001 8.830190e-001 -9.544782e-005 -7.137174e-005 4.140368e-001 8.875580e-001
326220000 -6.313288e-005 -1.342349e-004 4.472761e-001 8.710738e-001 1.266698e-004 7.954425e-005 4.492372e-001 8.755041e-001
326505000 -8.026662e-006 1.458611e-004 4.821857e-001 8.590903e-001 4.041900e-006 -1.537803e-005 4.838682e-001 8.619843e-001
326790000 5.524428e-005 -5.275725e-005 5.167288e-001 8.439861e-001 -7.369637e-005 -1.190063e-005 5.186764e-001 8.475186e-001
327075000 1.178110e-004 5.065024e-006 5.508295e-001 8.271053e-001 1.040366e-004 6.231070e-005 5.524784e-001 8.307731e-001
327360000 -3.363043e-005 3.144887e-005 5.839709e-001 8.080994e-001 2.907167e-005 -6.337315e-005 5.868759e-001 8.120888e-001
327645000 -3.075487e-005 -3.779709e-005 6.172330e-001 7.885810e-001 1.182095e-004 7.126117e-005 6.195958e-001 7.918231e-001
327930000 -7.422257e-005 4.858175e-005 6.505729e-001 7.663342e-001 -4.356241e-005 2.371113e-005 6.531640e-001 7.707166e-001
328215000 2.692544e-005 4.636634e-006 6.816576e-001 7.435674e-001 -1.475264e-005 2.184449e-004 6.843691e-001 7.462779e-001
328500000 2.749056e-005 2.224994e-005 7.121707e-001 7.179250e-001 -1.153972e-004 6.142108e-005 7.146677e-001 7.207708e-001
328785000 1.564236e-005 -6.198404e-005 7.419301e-001 6.916887e-001 -4.991486e-005 -1.274408e-006 7.448044e-001 6.938748e-001
329070000 -1.752401e-005 1.336003e-004 7.706585e-001 6.634258e-001 -1.130622e-005 -4.491436e-005 7.731719e-001 6.661028e-001
329355000 2.169632e-005 -2.563988e-005 7.971010e-001 6.337658e-001 1.187118e-005 5.578207e-005 8.013140e-001 6.364068e-001
329640000 -5.876310e-005 8.066281e-005 8.232659e-001 6.020912e-001 -1.914898e-005 1.065024e-005 8.264924e-001 6.050884e-001
329925000 2.854831e-005 5.410713e-005 8.468137e-001 5.696449e-001 -3.043699e-005 5.878254e-005 8.509494e-001 5.723421e-001
330210000 3.080262e-005 8.349623e-005 8.704092e-001 5.362035e-001 -3.860898e-005 2.533433e-006 8.733875e-001 5.382280e-001
330495000 7.288740e-005 -1.238333e-005 8.908176e-001 5.016735e-001 -1.930688e-005 -1.409942e-004 8.946385e-001 5.033883e-001
330780000 -2.347028e-005 1.169460e-004 9.104276e-001 4.654723e-001 5.672290e-005 8.369170e-005 9.143017e-001 4.672841e-001
331065000 5.088489e-005 -1.663300e-005 9.277679e-001 4.285951e-001 -1.909897e-005 -6.092564e-006 9.320436e-001 4.309930e-001
331350000 -4.137310e-005 2.447937e-005 9.438530e-001 3.911625e-001 7.792464e-005 -3.956991e-005 9.478936e-001 3.930079e-001
331635000 -1.144567e-005 -2.481086e-005 9.579985e-001 3.533818e-001 -1.667178e-004 1.294024e-004 9.616706e-001 3.548082e-001
331920000 9.762015e-006 3.730605e-005 9.688829e-001 3.141630e-001 -4.486799e-005 1.265938e-004 9.735301e-001 3.159781e-001
332205000 -3.227389e-005 3.917188e-005 9.787843e-001 2.763946e-001 -5.486748e-005 2.345079e-005 9.832737e-001 2.770567e-001
332490000 2.106369e-005 6.993601e-006 9.868317e-001 2.366186e-001 -7.649673e-005 7.827237e-005 9.912814e-001 2.372792e-001
332775000 1.997879e-005 8.389040e-005 9.926361e-001 1.975434e-001 9.137714e-005 6.239206e-005 9.973410e-001 1.982868e-001
333060000 -3.163895e-005 -4.100125e-005 9.967626e-001 1.576452e-001 -7.780980e-005 5.987699e-005 1.000893e+000 1.585340e-001
333345000 9.540367e-006 1.045789e-006 9.991958e-001 1.190615e-001 -7.329207e-005 1.423881e-005 1.003986e+000 1.190544e-001
333630000 2.551043e-005 9.756726e-005 9.993228e-001 7.975467e-002 -9.217822e-005 -3.622474e-005 1.003440e+000 7.969113e-002
333915000 2.303672e-005 2.063884e-005 9.985526e-001 4.127642e-002 9.393476e-006 -4.249268e-005 1.002424e+000 4.130819e-002
334200000 -1.368749e-004 -1.317935e-004 9.952512e-001 2.623050e-003 6.595677e-005 4.217727e-005 9.993601e-001 3.249718e-003
334485000 -6.509894e-005 -4.187506e-006 9.896448e-001 -3.450973e-002 -1.258952e-004 7.585595e-006 9.946346e-001 -3.473281e-002
334770000 -7.968201e-005 4.619814e-006 9.838609e-001 -7.134324e-002 -8.511631e-005 -1.482220e-005 9.880887e-001 -7.163581e-002
335055000 -3.405541e-005 -4.147107e-005 9.753091e-001 -1.076288e-001 -6.925642e-005 2.440135e-005 9.798075e-001 -1.081676e-001
335340000 1.726366e-005 3.293127e-006 9.657491e-001 -1.429653e-001 -9.510863e-005 -1.819277e-005 9.706787e-001 -1.433615e-001
335625000 -1.139460e-004 1.366342e-004 9.551274e-001 -1.769868e-001 -5.656608e-005 -3.535190e-005 9.593465e-001 -1.784654e-001
335910000 5.889560e-005 -4.218474e-005 9.432221e-001 -2.106667e-001 -3.280918e-005 -3.023835e-005 9.472688e-001 -2.119623e-001
336195000 6.490357e-006 6.308944e-005 9.294556e-001 -2.432583e-001 5.473641e-005 2.654739e-005 9.338102e-001 -2.440881e-001
336480000 1.273949e-004 -2.906981e-005 9.152752e-001 -2.744982e-001 -4.593430e-005 8.372712e-006 9.191082e-001 -2.762453e-001
336765000 -1.593996e-005 4.273107e-005 8.996179e-001 -3.052599e-001 -3.384993e-005 3.540459e-005 9.033968e-001 -3.063649e-001
337050000 2.843829e-005 1.165715e-005 8.826124e-001 -3.341133e-001 -5.288390e-005 -3.496248e-006 8.868442e-001 -3.362175e-001
337335000 4.350628e-005 -2.661847e-005 8.652939e-001 -3.633514e-001 1.004792e-004 -4.683591e-005 8.691382e-001 -3.639895e-001
337620000 5.660918e-005 -1.408730e-005 8.478868e-001 -3.903392e-001 -2.082683e-005 -5.304821e-006 8.512974e-001 -3.917040e-001
337905000 3.457081e-005 -8.346229e-005 8.283021e-001 -4.156588e-001 9.859692e-005 -1.112034e-004 8.320577e-001 -4.179532e-001
338190000 6.117142e-005 6.728838e-005 8.088422e-001 -4.410943e-001 2.851112e-005 3.669741e-005 8.125209e-001 -4.428175e-001
338475000 1.063357e-004 -2.995828e-006 7.885323e-001 -4.648461e-001 -1.796053e-005 -1.698195e-005 7.919931e-001 -4.671708e-001
338760000 -1.163197e-005 3.169283e-005 7.680079e-001 -4.873336e-001 1.105494e-005 8.858174e-005 7.711349e-001 -4.902425e-001
339045000 8.761531e-005 7.647664e-005 7.464774e-001 -5.100748e-001 1.379600e-005 -6.149551e-005 7.499472e-001 -5.120209e-001
339330000 3.746116e-005 2.498074e-005 7.250307e-001 -5.302842e-001 -4.008886e-005 -5.224208e-005 7.278476e-001 -5.331405e-001
339615000 2.767805e-005 -1.380946e-005 7.030526e-001 -5.500650e-001 1.633165e-005 -3.355071e-006 7.057404e-001 -5.523911e-001
339900000 -1.093000e-004 5.325009e-006 6.807034e-001 -5.687903e-001 5.831699e-005 5.691167e-006 6.838396e-001 -5.713454e-001
340185000 -2.618620e-005 1.506265e-005 6.584975e-001 -5.862964e-001 -3.502497e-005 2.392841e-005 6.613813e-001 -5.888376e-001
340470000 -2.023038e-007 -1.023723e-004 6.353536e-001 -6.030392e-001 -6.482948e-007 3.652590e-005 6.386033e-001 -6.055372e-001
340755000 4.445407e-005 -3.689556e-005 6.132562e-001 -6.187859e-001 2.039327e-005 2.952679e-005 6.153981e-001 -6.216677e-001
341040000 -1.291709e-005 7.512401e-005 5.900739e-001 -6.332558e-001 2.414248e-006 2.527366e-006 5.925385e-001 -6.363667e-001
341325000 1.357256e-004 -8.471729e-005 5.666896e-001 -6.471347e-001 -3.290432e-005 -1.428682e-004 5.684068e-001 -6.498013e-001
341610000 -1.175237e-005 1.133475e-005 5.434980e-001 -6.599822e-001 4.811983e-006 4.108371e-005 5.462240e-001 -6.631989e-001
341895000 -2.692726e-006 9.243255e-005 5.205036e-001 -6.715569e-001 5.059905e-005 6.164545e-005 5.227207e-001 -6.757735e-001
342180000 7.491239e-005 -1.105770e-004 4.978110e-001 -6.842642e-001 2.881364e-005 1.425463e-005 4.996501e-001 -6.865191e-001
342465000 -2.138123e-005 4.704424e-005 4.740590e-001 -6.948056e-001 3.357155e-005 1.596701e-004 4.763228e-001 -6.977333e-001
342750000 -8.685647e-005 -2.963754e-005 4.513004e-001 -7.044564e-001 -5.080623e-006 9.555682e-005 4.530703e-001 -7.072044e-001
343035000 -1.310137e-004 5.205417e-005 4.288106e-001 -7.134443e-001 2.248691e-006 2.619877e-005 4.301803e-001 -7.162409e-001
343320000 -3.150468e-005 1.197900e-005 4.058276e-001 -7.223073e-001 -8.429226e-005 2.048618e-005 4.067712e-001 -7.251952e-001
343605000 5.188935e-005 1.526786e-004 3.831599e-001 -7.294333e-001 -4.570792e-005 3.940256e-005 3.841430e-001 -7.325956e-001
343890000 -1.290729e-005 -8.914292e-006 3.600863e-001 -7.369688e-001 -4.135804e-006 -1.661428e-005 3.621320e-001 -7.399312e-001
