!Agilent Technologies,N5230C,SG49000117,A.08.50.07
!Agilent N5230C: A.08.50.07
!Date: Sunday, March 17, 2024 02:16:47
!Correction: S11(Off) 
!S21(Off) 
!S12(Off) 
!S22(Off) 
!S2P File: Measurements: S11, S21, S12, S22:
# Hz S  RI   R 50
300000000 5.213007e-005 2.062778e-005 -6.029155e-001 -6.768171e-001 4.230366e-005 -6.208749e-005 -6.045070e-001 -6.790957e-001
300285000 4.447612e-005 -6.533352e-005 -6.186972e-001 -6.536828e-001 -5.000188e-005 -2.104672e-005 -6.211531e-001 -6.559841e-001
300570000 -5.140855e-005 -3.116987e-005 -6.344984e-001 -6.304433e-001 -1.021807e-004 7.513771e-006 -6.366388e-001 -6.328797e-001
300855000 6.662626e-005 -4.793498e-005 -6.487636e-001 -6.072408e-001 -1.122799e-004 -4.539439e-005 -6.509629e-001 -6.093482e-001
301140000 -1.479195e-005 1.152308e-005 -6.622966e-001 -5.841959e-001 1.000794e-005 1.229491e-005 -6.649047e-001 -5.859099e-001
301425000 -4.900462e-006 -6.642771e-006 -6.756602e-001 -5.603012e-001 1.904054e-005 -3.579006e-005 -6.780083e-001 -5.623275e-001
301710000 3.784169e-005 2.898522e-005 -6.876041e-001 -5.365714e-001 1.103059e-005 7.562691e-006 -6.902071e-001 -5.386343e-001
301995000 2.683115e-005 4.479747e-005 -6.987246e-001 -5.134094e-001 2.541147e-005 3.216524e-005 -7.011094e-001 -5.149449e-001
302280000 2.669939e-005 -3.305758e-005 -7.094387e-001 -4.897694e-001 -9.580632e-005 5.075673e-005 -7.121860e-001 -4.912081e-001
302565000 -2.383938e-005 -3.655936e-005 -7.193024e-001 -4.659736e-001 2.488637e-006 -6.630252e-005 -7.218863e-001 -4.684128e-001
302850000 -4.925069e-005 -1.161545e-005 -7.284119e-001 -4.430297e-001 -3.114335e-005 -4.487044e-005 -7.304077e-001 -4.447908e-001
303135000 -5.424038e-005 -5.779843e-005 -7.360494e-001 -4.200383e-001 4.106912e-005 -9.927906e-006 -7.387071e-001 -4.216499e-001
303420000 2.701939e-005 -5.364850e-005 -7.435618e-001 -3.965565e-001 1.731449e-005 -6.023758e-005 -7.463842e-001 -3.983412e-001
303705000 9.626980e-005 1.313692e-005 -7.507284e-001 -3.734905e-001 5.528242e-005 -2.546403e-005 -7.537095e-001 -3.749193e-001
303990000 -7.190139e-005 1.014945e-004 -7.572032e-001 -3.503505e-001 -7.867794e-005 2.988991e-005 -7.596285e-001 -3.515309e-001
304275000 5.834975e-006 -5.433372e-005 -7.626848e-001 -3.279884e-001 4.243684e-005 -9.854332e-005 -7.655526e-001 -3.288248e-001
304560000 -4.737429e-005 -6.343380e-006 -7.675626e-001 -3.048359e-001 -6.054766e-005 -5.841013e-005 -7.705734e-001 -3.063203e-001
304845000 -2.599001e-005 -3.806599e-005 -7.722610e-001 -2.827024e-001 -9.195352e-005 -3.178674e-005 -7.751499e-001 -2.837241e-001
305130000 3.765615e-005 3.083703e-005 -7.760810e-001 -2.598206e-001 9.707201e-005 -3.111564e-005 -7.790688e-001 -2.610729e-001
305415000 9.432965e-005 -6.844382e-005 -7.796831e-001 -2.382218e-001 1.961442e-005 -4.071364e-005 -7.825189e-001 -2.389643e-001
305700000 5.215426e-005 5.167735e-005 -7.824816e-001 -2.153688e-001 5.896037e-005 6.601074e-005 -7.858251e-001 -2.167649e-001
305985000 -2.060097e-005 3.481987e-005 -7.847950e-001 -1.936491e-001 3.785029e-005 1.989433e-004 -7.878023e-001 -1.940278e-001
306270000 -7.561126e-005 5.588871e-007 -7.866450e-001 -1.719147e-001 1.061667e-005 1.458842e-004 -7.896851e-001 -1.722682e-001
306555000 1.044943e-005 -1.309874e-004 -7.877392e-001 -1.503173e-001 9.799033e-006 -9.080242e-005 -7.913674e-001 -1.505038e-001
306840000 -1.693765e-005 2.894967e-005 -7.885893e-001 -1.284497e-001 9.960542e-006 -3.697020e-005 -7.920141e-001 -1.289736e-001
307125000 -1.309687e-005 5.034143e-005 -7.894010e-001 -1.070189e-001 5.594988e-005 -3.918711e-005 -7.926085e-001 -1.073182e-001
307410000 -8.691741e-006 1.156791e-004 -7.895306e-001 -8.612645e-002 2.264429e-005 5.250163e-005 -7.927730e-001 -8.692050e-002
307695000 -3.568192e-005 1.183083e-004 -7.889350e-001 -6.486981e-002 4.216755e-005 -3.423853e-005 -7.919747e-001 -6.528323e-002
307980000 5.689463e-005 1.549229e-005 -7.882870e-001 -4.389955e-002 5.748414e-006 5.488653e-005 -7.909663e-001 -4.357662e-002
308265000 -8.936894e-005 2.617365e-005 -7.875250e-001 -2.366544e-002 7.938105e-005 -2.276879e-005 -7.904844e-001 -2.314558e-002
308550000 -4.940098e-005 -9.515633e-005 -7.854053e-001 -2.256761e-003 -3.469321e-006 8.532960e-005 -7.886238e-001 -2.134533e-003
308835000 2.484199e-005 -8.988262e-005 -7.834578e-001 1.785410e-002 3.902513e-005 -4.720451e-006 -7.864629e-001 1.805183e-002
309120000 -9.777530e-006 -9.736799e-005 -7.816530e-001 3.840987e-002 -6.555791e-005 3.040891e-005 -7.843264e-001 3.808843e-002
309405000 -2.500397e-005 -1.218057e-004 -7.783578e-001 5.889364e-002 -6.848024e-005 9.164998e-005 -7.817618e-001 5.879116e-002
309690000 3.533906e-005 -9.046037e-005 -7.755070e-001 7.885800e-002 -5.994029e-005 9.133715e-005 -7.787245e-001 7.895751e-002
309975000 -3.035619e-005 5.600335e-005 -7.717909e-001 9.874655e-002 7.705615e-005 -8.705729e-005 -7.748442e-001 9.952604e-002
310260000 1.891343e-005 9.724948e-005 -7.678871e-001 1.185373e-001 -4.368690e-005 -1.326019e-004 -7.717589e-001 1.190494e-001
310545000 1.470707e-006 -9.076959e-005 -7.643295e-001 1.385724e-001 2.050954e-006 -5.744812e-005 -7.670833e-001 1.392916e-001
310830000 3.363987e-005 -1.749638e-005 -7.596105e-001 1.577914e-001 -6.344396e-005 1.028303e-005 -7.626002e-001 1.587412e-001
311115000 1.256349e-004 -9.111478e-005 -7.548679e-001 1.780489e-001 -4.093965e-005 -8.866304e-005 -7.576363e-001 1.784194e-001
311400000 7.523323e-005 -6.053458e-005 -7.493498e-001 1.972032e-001 -5.995815e-005 -4.020879e-006 -7.527496e-001 1.979568e-001
311685000 2.271010e-005 -3.622175e-005 -7.440222e-001 2.164518e-001 7.011731e-007 2.960949e-005 -7.470508e-001 2.170916e-001
311970000 -3.320242e-005 -2.449186e-005 -7.383979e-001 2.359951e-001 6.252573e-005 1.776532e-005 -7.410297e-001 2.364438e-001
312255000 5.693629e-005 -5.751244e-005 -7.317848e-001 2.547427e-001 1.196897e-005 4.017349e-005 -7.345010e-001 2.556604e-001
312540000 7.493445e-005 1.588440e-005 -7.251537e-001 2.742046e-001 -2.005942e-005 3.723757e-005 -7.283019e-001 2.747650e-001
312825000 9.710828e-005 -1.142850e-004 -7.184885e-001 2.929510e-001 -1.296161e-005 -2.303202e-005 -7.207139e-001 2.939532e-001
313110000 -9.275698e-005 4.413003e-005 -7.109122e-001 3.122468e-001 7.431586e-005 -1.451595e-004 -7.135890e-001 3.134176e-001
313395000 1.035543e-005 2.437543e-005 -7.026837e-001 3.312526e-001 -5.770950e-005 -3.342893e-005 -7.056783e-001 3.322577e-001
313680000 -3.585380e-005 -4.444197e-005 -6.950684e-001 3.493173e-001 5.821020e-005 -4.974721e-005 -6.977555e-001 3.510501e-001
313965000 -4.105055e-005 -5.474376e-005 -6.865676e-001 3.684041e-001 1.164290e-005 4.941408e-005 -6.894448e-001 3.696138e-001
314250000 -1.002471e-004 -2.091632e-006 -6.775213e-001 3.868213e-001 -2.019639e-005 2.149205e-005 -6.804512e-001 3.884189e-001
314535000 -2.903000e-005 4.595004e-005 -6.679902e-001 4.050148e-001 -4.748538e-005 -1.268618e-005 -6.710735e-001 4.069806e-001
314820000 -7.468679e-005 5.346720e-005 -6.588227e-001 4.239976e-001 6.065288e-005 -1.003264e-005 -6.613171e-001 4.252549e-001
315105000 -4.895006e-005 -7.956313e-005 -6.487703e-001 4.424188e-001 2.274353e-005 -3.768371e-005 -6.507742e-001 4.437084e-001
315390000 -3.380835e-005 1.859994e-005 -6.378665e-001 4.601900e-001 -1.897404e-005 1.140122e-004 -6.403974e-001 4.621998e-001
315675000 2.545465e-005 -9.721360e-005 -6.273238e-001 4.786468e-001 -3.119121e-005 -3.619518e-005 -6.300199e-001 4.800484e-001
315960000 -1.923771e-005 -4.753672e-005 -6.157378e-001 4.964225e-001 -3.070217e-005 -7.841768e-005 -6.180275e-001 4.986530e-001
316245000 3.737064e-005 -3.150721e-005 -6.037949e-001 5.147988e-001 -8.124009e-006 -5.839301e-005 -6.063054e-001 5.170199e-001
316530000 -3.985431e-005 7.394071e-006 -5.911617e-001 5.321208e-001 -1.466700e-006 4.187064e-005 -5.940101e-001 5.350522e-001
316815000 -1.240381e-005 -5.868482e-005 -5.782835e-001 5.500407e-001 3.044537e-005 1.292784e-004 -5.809770e-001 5.523576e-001
317100000 -1.585704e-005 -1.062975e-004 -5.655599e-001 5.681539e-001 -2.329595e-005 3.394054e-005 -5.673460e-001 5.701199e-001
317385000 2.769949e-005 -1.101993e-004 -5.514882e-001 5.856717e-001 1.564150e-007 -9.397341e-005 -5.534728e-001 5.883254e-001
317670000 3.262282e-006 -9.303879e-006 -5.368572e-001 6.030848e-001 6.904038e-005 2.192970e-005 -5.391526e-001 6.053602e-001
317955000 5.249719e-005 -9.857678e-005 -5.222464e-001 6.203982e-001 -1.429091e-005 -1.095673e-004 -5.244229e-001 6.225263e-001
318240000 -1.901797e-005 1.953383e-007 -5.066368e-001 6.373532e-001 -2.699908e-005 -2.368562e-005 -5.085057e-001 6.397401e-001
318525000 -2.981419e-005 4.918515e-005 -4.905106e-001 6.542150e-001 9.784378e-005 2.162153e-005 -4.923269e-001 6.573620e-001
318810000 -6.833194e-005 3.336550e-005 -4.742688e-001 6.713132e-001 -1.149959e-004 -4.507515e-005 -4.758590e-001 6.738538e-001
319095000 5.611009e-005 -9.809080e-006 -4.566175e-001 6.878927e-001 -9.489895e-005 7.711980e-005 -4.583372e-001 6.900667e-001
319380000 5.842926e-005 -7.114169e-006 -4.388956e-001 7.042950e-001 4.481940e-005 3.475693e-005 -4.406976e-001 7.070686e-001
319665000 -1.304378e-005 -5.608933e-005 -4.196421e-001 7.203769e-001 3.709277e-005 1.365424e-005 -4.221539e-001 7.232333e-001
319950000 2.536521e-005 -7.216623e-006 -4.007205e-001 7.360455e-001 -4.800794e-006 -7.667935e-005 -4.024541e-001 7.387691e-001
320235000 1.948660e-005 2.299531e-005 -3.808219e-001 7.511539e-001 -3.020612e-005 -2.555343e-005 -3.826122e-001 7.542921e-001
320520000 -1.637945e-005 8.094750e-005 -3.610472e-001 7.662630e-001 -5.549051e-006 3.228968e-005 -3.624480e-001 7.696699e-001
320805000 2.024590e-005 2.108637e-007 -3.395729e-001 7.811800e-001 3.020856e-005 -1.166821e-004 -3.414816e-001 7.849647e-001
321090000 6.136086e-005 1.576689e-005 -3.180433e-001 7.954927e-001 -3.554689e-005 1.055705e-005 -3.189966e-001 7.993057e-001
321375000 -3.812244e-005 -4.366079e-005 -2.949162e-001 8.103374e-001 1.525043e-005 -9.796857e-005 -2.967038e-001 8.136953e-001
321660000 -4.147463e-005 -7.992159e-006 -2.719271e-001 8.233278e-001 2.433532e-005 2.725701e-005 -2.728632e-001 8.266655e-001
321945000 7.058107e-005 -1.653389e-005 -2.477198e-001 8.367056e-001 7.338270e-005 -5.994595e-005 -2.487518e-001 8.406000e-001
322230000 -1.154460e-004 -4.009965e-005 -2.230190e-001 8.491975e-001 3.459803e-005 6.193350e-005 -2.237511e-001 8.527375e-001
322515000 -6.672196e-005 2.985825e-005 -1.970794e-001 8.610724e-001 7.039933e-005 -2.588816e-005 -1.978194e-001 8.648204e-001
322800000 -1.040360e-004 -3.812953e-005 -1.715281e-001 8.727301e-001 -5.231875e-005 -5.802008e-005 -1.716402e-001 8.763074e-001
323085000 -5.270301e-005 -3.326232e-005 -1.440252e-001 8.830448e-001 4.744581e-005 -5.926800e-005 -1.440917e-001 8.863877e-001
323370000 -4.599346e-005 1.813160e-005 -1.162513e-001 8.932052e-001 6.721764e-005 -1.566918e-005 -1.162369e-001 8.965555e-001
323655000 -1.565628e-004 -9.663075e-005 -8.768939e-002 9.020632e-001 4.821791e-005 5.964895e-005 -8.774821e-002 9.054767e-001
323940000 -4.885462e-005 -3.101028e-005 -5.789286e-002 9.101741e-001 -2.360357e-005 -4.658376e-005 -5.782398e-002 9.133052e-001
324225000 -1.346344e-005 2.558199e-006 -2.832706e-002 9.176503e-001 -9.382951e-005 4.510967e-005 -2.802148e-002 9.210564e-001
324510000 -9.073371e-005 -2.443295e-006 2.940935e-003 9.237350e-001 -5.691869e-005 -1.477088e-005 3.429387e-003 9.277334e-001
324795000 -5.496353e-005 -9.627506e-006 3.405961e-002 9.291176e-001 -1.387335e-004 -3.971179e-005 3.510619e-002 9.324761e-001
325080000 5.327552e-005 -2.632018e-005 6.632395e-002 9.334778e-001 6.780360e-005 -6.707774e-005 6.726847e-002 9.377092e-001
325365000 7.254612e-005 -4.458634e-006 9.906895e-002 9.372730e-001 1.739227e-005 -1.297820e-005 1.001173e-001 9.402891e-001
325650000 6.799651e-005 -1.338812e-004 1.325999e-001 9.384703e-001 -2.541879e-005 -7.237470e-006 1.331411e-001 9.428062e-001
325935000 1.035170e-004 -2.974746e-005 1.662847e-001 9.386166e-001 3.359016e-005 1.506030e-005 1.671269e-001 9.420094e-001
326220000 -2.703376e-005 2.268319e-005 2.008107e-001 9.384766e-001 3.053988e-005 -7.928482e-005 2.014743e-001 9.420031e-001
326505000 2.112349e-005 -9.531370e-006 2.362590e-001 9.361309e-001 6.025253e-005 -3.716262e-005 2.372452e-001 9.406587e-001
326790000 -3.567139e-005 5.071442e-005 2.708735e-001 9.317673e-001 -1.191666e-005 -3.657687e-005 2.719554e-001 9.358407e-001
327075000 -3.611249e-005 -2.380839e-005 3.064137e-001 9.272822e-001 2.422825e-005 1.364380e-004 3.077315e-001 9.311861e-001
327360000 -6.409132e-005 1.045065e-004 3.421791e-001 9.200670e-001 -4.300450e-005 -2.263778e-005 3.433698e-001 9.243904e-001
327645000 -1.203286e-004 -8.498284e-005 3.775749e-001 9.116772e-001 1.378501e-005 -2.778959e-006 3.788470e-001 9.157397e-001
327930000 -3.309720e-005 -2.914870e-005 4.133876e-001 9.024554e-001 -5.860371e-005 -1.355606e-005 4.153837e-001 9.055386e-001
328215000 -1.438898e-004 -1.102713e-004 4.490031e-001 8.898007e-001 -7.670740e-005 8.380161e-005 4.509805e-001 8.937108e-001
328500000 -1.681903e-005 1.503800e-005 4.844115e-001 8.764694e-001 1.810203e-005 9.813939e-006 4.860973e-001 8.801887e-001
328785000 5.686607e-005 -3.531547e-005 5.197430e-001 8.613048e-001 9.890562e-006 6.229362e-005 5.217892e-001 8.652824e-001
329070000 -4.120385e-005 6.611655e-005 5.546644e-001 8.442302e-001 -5.663361e-005 -5.597634e-005 5.573692e-001 8.472452e-001
329355000 2.993434e-005 1.087095e-004 5.889397e-001 8.247594e-001 9.349721e-005 1.948306e-005 5.910140e-001 8.285629e-001
329640000 -8.378870e-005 -9.489797e-005 6.229004e-001 8.048698e-001 4.588696e-005 -4.601508e-007 6.252356e-001 8.078418e-001
329925000 1.188228e-005 8.306559e-007 6.552112e-001 7.826898e-001 6.483133e-005 2.224101e-005 6.582269e-001 7.856861e-001
330210000 4.534432e-005 3.930148e-005 6.873961e-001 7.589569e-001 -8.827859e-005 -2.609739e-005 6.903484e-001 7.617422e-001
330495000 -6.451990e-005 8.805784e-005 7.188861e-001 7.325613e-001 -1.398041e-005 6.203329e-005 7.217475e-001 7.360306e-001
330780000 -2.625217e-005 5.600525e-005 7.482295e-001 7.055803e-001 4.830211e-005 2.531190e-005 7.511415e-001 7.086090e-001
331065000 -1.510261e-004 5.026440e-005 7.773079e-001 6.774410e-001 8.059626e-006 -4.627792e-005 7.804789e-001 6.801959e-001
331350000 -2.765628e-005 -5.830549e-005 8.046881e-001 6.461237e-001 -6.155492e-005 -5.373608e-005 8.083097e-001 6.491688e-001
331635000 -3.864633e-005 -1.149549e-004 8.306822e-001 6.149908e-001 -6.103461e-006 -9.887143e-005 8.340383e-001 6.176056e-001
331920000 -1.068458e-005 -2.718768e-005 8.544402e-001 5.820010e-001 -1.339011e-005 3.634789e-005 8.581895e-001 5.842863e-001
332205000 -2.486943e-005 -4.592096e-005 8.774694e-001 5.475644e-001 2.553868e-005 -1.694112e-004 8.815932e-001 5.503709e-001
332490000 -7.049475e-005 -6.172132e-005 8.978370e-001 5.126117e-001 -5.181458e-005 -3.880102e-005 9.022689e-001 5.150315e-001
332775000 1.518534e-005 1.701040e-006 9.174404e-001 4.766554e-001 -6.675439e-005 -2.806234e-005 9.217505e-001 4.786438e-001
333060000 9.445967e-005 -9.184641e-005 9.350786e-001 4.395457e-001 -1.007791e-005 -6.716180e-006 9.390359e-001 4.411452e-001
333345000 1.206809e-005 6.691992e-006 9.504293e-001 4.015794e-001 1.549398e-005 -8.556718e-005 9.546210e-001 4.037419e-001
333630000 5.834892e-005 7.491763e-005 9.640737e-001 3.640646e-001 -1.039878e-004 2.154645e-006 9.681863e-001 3.651762e-001
333915000 -7.228863e-006 -7.287588e-005 9.758089e-001 3.250568e-001 8.948334e-005 -6.760456e-006 9.796798e-001 3.260078e-001
334200000 -1.429049e-004 -3.050652e-005 9.854304e-001 2.856677e-001 2.862427e-005 3.038426e-005 9.900031e-001 2.873209e-001
334485000 -1.164290e-004 -4.230041e-005 9.938400e-001 2.465696e-001 8.059125e-005 -9.643131e-005 9.978976e-001 2.472034e-001
334770000 -1.935917e-005 -9.797434e-006 9.989169e-001 2.073024e-001 2.316664e-006 -4.517666e-005 1.003460e+000 2.077517e-001
335055000 -1.111797e-005 4.909085e-005 1.003276e+000 1.678927e-001 -1.282155e-005 2.964032e-005 1.007407e+000 1.687321e-001
335340000 -3.907533e-005 -4.641895e-005 1.005414e+000 1.282687e-001 5.974652e-005 -1.601597e-005 1.009989e+000 1.292218e-001
335625000 1.063994e-004 1.755000e-005 1.005698e+000 9.032254e-002 -4.591262e-005 -7.097558e-005 1.010253e+000 8.984151e-002
335910000 -4.146355e-005 -5.025874e-005 1.004008e+000 5.180903e-002 -1.118513e-004 -1.081131e-005 1.008602e+000 5.253365e-002
336195000 6.164163e-006 2.078289e-005 1.000679e+000 1.406912e-002 7.356691e-006 -3.056323e-005 1.005173e+000 1.395079e-002
336480000 -6.289774e-005 -8.659748e-006 9.966461e-001 -2.296635e-002 -2.456986e-005 6.236161e-005 1.000127e+000 -2.278586e-002
336765000 3.704997e-005 1.671966e-005 9.902250e-001 -6.015528e-002 4.162717e-005 1.639829e-005 9.940616e-001 -5.990450e-002
337050000 3.490585e-005 8.909201e-005 9.817582e-001 -9.535336e-002 -7.270363e-005 1.913776e-005 9.861323e-001 -9.620629e-002
337335000 2.288834e-005 5.750775e-005 9.724011e-001 -1.305150e-001 -3.932697e-006 -6.024599e-005 9.769266e-001 -1.313743e-001
337620000 6.824136e-005 -3.076901e-005 9.617811e-001 -1.648208e-001 -5.708465e-005 -1.754119e-005 9.664354e-001 -1.655252e-001
337905000 8.872781e-005 5.677599e-005 9.501016e-001 -1.983206e-001 -1.399616e-006 -7.161657e-005 9.544274e-001 -1.987022e-001
338190000 -1.416657e-005 5.137749e-005 9.375747e-001 -2.301921e-001 5.129814e-005 1.089284e-004 9.412186e-001 -2.310828e-001
338475000 -7.902182e-005 5.388565e-005 9.231731e-001 -2.620939e-001 8.410592e-006 1.227112e-004 9.270390e-001 -2.626269e-001
338760000 -1.207609e-005 -1.761925e-005 9.081649e-001 -2.920116e-001 -1.240482e-004 -1.882631e-005 9.122247e-001 -2.929259e-001
339045000 2.091307e-005 -3.962891e-005 8.916540e-001 -3.207593e-001 -5.817777e-005 -7.982421e-006 8.962139e-001 -3.222103e-001
339330000 -5.570427e-005 -3.326471e-005 8.751979e-001 -3.494009e-001 1.004005e-005 -9.112026e-005 8.790832e-001 -3.506648e-001
339615000 -4.612545e-005 -5.078506e-005 8.571115e-001 -3.762293e-001 -2.019519e-005 -1.959940e-005 8.610578e-001 -3.779935e-001
339900000 1.562249e-007 -1.000362e-004 8.385156e-001 -4.024020e-001 -4.597606e-005 -4.095533e-005 8.429976e-001 -4.039198e-001
340185000 2.849814e-005 8.804261e-005 8.205230e-001 -4.271005e-001 6.082573e-006 -1.112151e-005 8.234894e-001 -4.289515e-001
340470000 2.344236e-005 1.299148e-004 8.002685e-001 -4.515989e-001 1.373106e-005 -4.770472e-005 8.035079e-001 -4.533207e-001
340755000 1.939465e-006 1.396129e-004 7.801288e-001 -4.743413e-001 1.721522e-005 -1.685817e-005 7.834414e-001 -4.767309e-001
341040000 -3.590353e-005 -1.695715e-005 7.595391e-001 -4.959829e-001 7.312568e-005 -1.548622e-005 7.629687e-001 -4.981373e-001
341325000 -1.804701e-005 -3.828544e-005 7.390726e-001 -5.170293e-001 7.198992e-005 7.305244e-005 7.418625e-001 -5.189592e-001
341610000 -2.612387e-006 1.212859e-005 7.180720e-001 -5.365239e-001 1.531533e-005 1.155486e-004 7.208070e-001 -5.395638e-001
341895000 -2.024465e-005 4.239081e-005 6.955732e-001 -5.557725e-001 6.988848e-005 4.028695e-005 6.990222e-001 -5.582572e-001
342180000 -7.862373e-005 -2.923787e-005 6.741628e-001 -5.739126e-001 -7.520129e-005 2.739312e-005 6.768181e-001 -5.757125e-001
342465000 -2.239491e-005 6.987264e-006 6.521910e-001 -5.907618e-001 -2.208937e-005 -5.757896e-005 6.549528e-001 -5.933567e-001
342750000 -6.527932e-005 -2.848110e-005 6.298775e-001 -6.067625e-001 -1.011986e-004 9.905620e-005 6.325748e-001 -6.090031e-001
343035000 1.066278e-005 -1.087207e-005 6.079669e-001 -6.218161e-001 -3.536147e-005 -5.201442e-005 6.102254e-001 -6.246011e-001
343320000 -1.482457e-005 -2.234303e-006 5.850609e-001 -6.360678e-001 -3.923263e-005 -5.705954e-005 5.878403e-001 -6.389281e-001
343605000 8.142836e-005 -1.443845e-004 5.627921e-001 -6.498435e-001 -9.096656e-005 -4.712885e-005 5.654563e-001 -6.521999e-001
343890000 2.251943e-005 -4.314762e-005 5.405569e-001 -6.623402e-001 4.225885e-005 -1.401330e-004 5.425504e-001 -6.654896e-001
