!Agilent Technologies,N5230C,SG49000117,A.08.50.07
!Agilent N5230C: A.08.50.07
!Date: Sunday, March 17, 2024 02:18:10
!Correction: S11(Off) 
!S21(Off) 
!S12(Off) 
!S22(Off) 
!S2P File: Measurements: S11, S21, S12, S22:
# Hz S  RI   R 50
300000000 7.761319e-005 -9.758431e-005 -6.082594e-001 -6.685916e-001 -6.127965e-005 -5.834567e-005 -6.105976e-001 -6.712872e-001
300285000 5.631731e-005 -1.682414e-004 -6.245077e-001 -6.457633e-001 3.546308e-005 4.604668e-005 -6.272432e-001 -6.478129e-001
300570000 1.213227e-004 -5.762201e-006 -6.400020e-001 -6.224248e-001 4.039291e-005 6.930302e-006 -6.421546e-001 -6.246489e-001
300855000 2.333081e-005 -6.372465e-005 -6.539654e-001 -5.986741e-001 1.422015e-004 -1.198686e-004 -6.565890e-001 -6.014787e-001
301140000 8.765682e-005 -1.082192e-004 -6.676792e-001 -5.755947e-001 9.106443e-006 -5.430678e-005 -6.698686e-001 -5.777205e-001
301425000 1.494053e-004 -6.311309e-005 -6.804382e-001 -5.517119e-001 1.880506e-006 5.691827e-005 -6.832070e-001 -5.538748e-001
301710000 -3.564039e-005 4.876220e-005 -6.921498e-001 -5.282930e-001 -4.300952e-005 5.338919e-005 -6.944744e-001 -5.306778e-001
301995000 -2.214557e-005 8.069799e-005 -7.035816e-001 -5.049295e-001 1.467208e-005 4.361715e-005 -7.056800e-001 -5.069947e-001
302280000 -1.177273e-004 -1.990665e-005 -7.137708e-001 -4.813835e-001 1.627081e-005 4.347660e-005 -7.162524e-001 -4.831920e-001
302565000 -1.789532e-005 7.264388e-005 -7.225826e-001 -4.574460e-001 3.883357e-005 -5.867602e-005 -7.246519e-001 -4.594755e-001
302850000 -4.639220e-005 2.956927e-005 -7.314973e-001 -4.350298e-001 -2.358087e-005 3.300364e-005 -7.343901e-001 -4.360849e-001
303135000 -9.037133e-005 -1.283014e-005 -7.389144e-001 -4.113718e-001 -5.315018e-005 7.719348e-005 -7.423411e-001 -4.131158e-001
303420000 4.040185e-006 -2.840930e-005 -7.467254e-001 -3.883868e-001 5.585098e-005 9.564665e-005 -7.498078e-001 -3.897327e-001
303705000 -8.369439e-005 -4.716228e-005 -7.533662e-001 -3.649160e-001 4.452476e-005 -6.268540e-005 -7.560432e-001 -3.664132e-001
303990000 2.504584e-005 1.913194e-005 -7.594624e-001 -3.417907e-001 -5.744588e-005 7.781116e-005 -7.623755e-001 -3.439942e-001
304275000 -4.608339e-005 4.871114e-005 -7.655841e-001 -3.195970e-001 1.974214e-006 -7.424768e-005 -7.676787e-001 -3.207459e-001
304560000 2.593567e-005 -4.074951e-006 -7.697194e-001 -2.969002e-001 -2.286464e-005 -6.476843e-005 -7.725874e-001 -2.978457e-001
304845000 -3.059455e-005 -8.314168e-005 -7.740586e-001 -2.743063e-001 -2.387898e-005 -3.227624e-006 -7.770966e-001 -2.750867e-001
305130000 -1.106550e-004 -1.757801e-005 -7.776194e-001 -2.517011e-001 7.373995e-005 -1.098374e-004 -7.812726e-001 -2.525209e-001
305415000 2.757173e-005 -7.866866e-005 -7.807298e-001 -2.295914e-001 6.001067e-005 1.621282e-005 -7.840989e-001 -2.303210e-001
305700000 5.193201e-005 -1.306875e-006 -7.837544e-001 -2.071686e-001 9.041767e-005 -3.180884e-005 -7.865796e-001 -2.084533e-001
305985000 -4.531280e-005 1.563658e-004 -7.860537e-001 -1.853453e-001 1.000725e-004 9.425229e-006 -7.886283e-001 -1.861006e-001
306270000 1.905248e-006 1.016148e-005 -7.874922e-001 -1.633420e-001 1.069041e-004 -1.145160e-005 -7.903128e-001 -1.643449e-001
306555000 5.186829e-005 3.304527e-005 -7.887174e-001 -1.421435e-001 3.068587e-005 -9.103269e-005 -7.921382e-001 -1.425691e-001
306840000 -1.446787e-005 1.385143e-004 -7.891181e-001 -1.203410e-001 -6.973000e-006 -1.815657e-005 -7.922455e-001 -1.212330e-001
307125000 -3.288626e-005 -7.957926e-005 -7.899122e-001 -9.917677e-002 8.458048e-005 2.310393e-005 -7.926903e-001 -9.941225e-002
307410000 4.243977e-005 -8.377305e-005 -7.898864e-001 -7.774576e-002 2.635848e-005 1.508681e-005 -7.924465e-001 -7.823092e-002
307695000 -9.100437e-005 3.952883e-005 -7.890160e-001 -5.683802e-002 -2.301164e-005 1.953076e-005 -7.918846e-001 -5.675795e-002
307980000 -8.093650e-005 4.765168e-005 -7.876869e-001 -3.569360e-002 -6.671037e-005 1.265219e-004 -7.912275e-001 -3.610057e-002
308265000 -3.751315e-005 -5.192591e-006 -7.867582e-001 -1.536035e-002 -1.869081e-005 -9.712229e-006 -7.902571e-001 -1.530466e-002
308550000 -1.109540e-004 4.243906e-006 -7.852591e-001 5.991324e-003 7.353867e-005 4.420194e-005 -7.880394e-001 5.442370e-003
308835000 -1.196346e-004 -8.192922e-005 -7.831979e-001 2.593572e-002 -3.262174e-006 3.633997e-005 -7.856019e-001 2.616869e-002
309120000 6.708876e-005 -1.766104e-005 -7.804095e-001 4.600713e-002 -1.355829e-004 7.808954e-005 -7.839313e-001 4.656047e-002
309405000 2.450369e-006 3.870950e-005 -7.776840e-001 6.614665e-002 -9.676854e-005 6.777400e-005 -7.807644e-001 6.660196e-002
309690000 8.819095e-005 -1.293574e-005 -7.740497e-001 8.683135e-002 -3.498214e-005 -1.809062e-005 -7.773789e-001 8.683508e-002
309975000 2.454137e-005 -1.252390e-004 -7.708904e-001 1.066439e-001 4.802121e-005 1.071546e-005 -7.735276e-001 1.071965e-001
310260000 -1.592995e-005 7.400064e-007 -7.669981e-001 1.264226e-001 -1.809597e-005 2.764779e-005 -7.700244e-001 1.272243e-001
310545000 6.119209e-005 5.794538e-005 -7.619716e-001 1.464453e-001 -6.258752e-005 5.957383e-006 -7.655500e-001 1.466513e-001
310830000 5.582035e-005 4.939899e-005 -7.583185e-001 1.659746e-001 -3.925513e-005 6.537358e-005 -7.607692e-001 1.663480e-001
311115000 -4.485022e-005 -3.115644e-005 -7.528163e-001 1.852278e-001 4.609339e-005 -1.250872e-004 -7.555339e-001 1.856513e-001
311400000 7.708707e-005 2.280237e-005 -7.472342e-001 2.048673e-001 3.563560e-005 -3.052943e-005 -7.505996e-001 2.058640e-001
311685000 -7.114348e-005 8.799085e-006 -7.416336e-001 2.244078e-001 7.402193e-005 -7.332343e-005 -7.438865e-001 2.246220e-001
311970000 -7.623339e-005 8.010456e-005 -7.355253e-001 2.430983e-001 2.207254e-007 1.624485e-005 -7.386573e-001 2.443961e-001
312255000 2.169846e-005 1.154976e-004 -7.288449e-001 2.623262e-001 2.747593e-005 2.389692e-005 -7.319111e-001 2.635355e-001
312540000 -7.349031e-005 3.157793e-005 -7.223396e-001 2.816800e-001 -2.171977e-005 5.192869e-005 -7.249440e-001 2.826189e-001
312825000 3.525224e-006 2.132462e-006 -7.151490e-001 3.005675e-001 9.543190e-005 -2.959807e-006 -7.183577e-001 3.016539e-001
313110000 -2.248688e-005 8.526766e-005 -7.080721e-001 3.192247e-001 -1.426984e-005 9.595649e-005 -7.105280e-001 3.206900e-001
313395000 -7.997762e-005 -4.113755e-005 -6.997279e-001 3.377819e-001 2.423008e-005 5.757956e-005 -7.026103e-001 3.392459e-001
313680000 -1.159918e-005 1.456965e-005 -6.917331e-001 3.571277e-001 3.790785e-005 -1.382915e-005 -6.942406e-001 3.580990e-001
313965000 -4.330332e-005 -1.045000e-004 -6.828839e-001 3.752587e-001 -4.532776e-005 3.303590e-005 -6.853472e-001 3.765728e-001
314250000 2.617046e-005 2.397646e-005 -6.734139e-001 3.940375e-001 -5.303642e-005 -1.433296e-004 -6.765062e-001 3.951985e-001
314535000 -6.867317e-005 -1.044080e-004 -6.639831e-001 4.126473e-001 4.480224e-005 -8.067062e-005 -6.669673e-001 4.145823e-001
314820000 1.764493e-005 -3.116640e-005 -6.544203e-001 4.305499e-001 -9.382655e-005 -1.117909e-004 -6.570836e-001 4.328607e-001
315105000 -4.438746e-005 1.882965e-005 -6.442237e-001 4.491480e-001 3.671728e-005 -5.134833e-005 -6.471227e-001 4.511100e-001
315390000 -5.493649e-005 6.320456e-005 -6.333978e-001 4.672071e-001 7.577310e-006 -3.780938e-005 -6.358454e-001 4.690501e-001
315675000 -4.302045e-005 9.320759e-005 -6.223236e-001 4.853550e-001 6.169238e-005 -7.420610e-006 -6.248553e-001 4.877758e-001
315960000 -5.004410e-005 -1.599416e-005 -6.107023e-001 5.039511e-001 1.589079e-005 4.206293e-005 -6.133857e-001 5.058688e-001
316245000 6.565022e-005 7.115379e-005 -5.987227e-001 5.217992e-001 -7.894052e-005 5.982408e-006 -6.011955e-001 5.236747e-001
316530000 5.214291e-005 3.452995e-005 -5.859118e-001 5.393156e-001 -2.197195e-005 -5.022468e-005 -5.883697e-001 5.419284e-001
316815000 -6.232362e-005 -1.576832e-005 -5.728091e-001 5.572516e-001 5.351982e-005 8.143202e-006 -5.753831e-001 5.589151e-001
317100000 2.053128e-005 1.267673e-004 -5.593479e-001 5.748523e-001 2.665928e-005 3.379237e-005 -5.620617e-001 5.769284e-001
317385000 -5.180384e-005 5.809073e-005 -5.449978e-001 5.926390e-001 -1.068783e-005 3.830637e-005 -5.477637e-001 5.950373e-001
317670000 -4.611377e-005 3.534768e-005 -5.309696e-001 6.102006e-001 -5.624627e-005 1.077096e-006 -5.332267e-001 6.118339e-001
317955000 -1.066781e-004 -5.114600e-005 -5.155231e-001 6.266745e-001 -2.389767e-005 -1.090371e-004 -5.179337e-001 6.294596e-001
318240000 -8.484934e-005 -3.177336e-005 -5.004249e-001 6.441149e-001 -8.132701e-005 -4.473809e-005 -5.019796e-001 6.463177e-001
318525000 2.465242e-005 7.532742e-005 -4.839869e-001 6.606831e-001 -8.257927e-005 -8.604718e-005 -4.863148e-001 6.631855e-001
318810000 -5.733819e-005 -9.352415e-005 -4.667880e-001 6.771601e-001 -4.977041e-005 -1.049106e-004 -4.694231e-001 6.799371e-001
319095000 5.625493e-005 -1.444500e-004 -4.493583e-001 6.939763e-001 -5.746085e-006 6.674021e-005 -4.513466e-001 6.965746e-001
319380000 -7.954495e-005 -1.251867e-004 -4.312603e-001 7.101931e-001 -7.823418e-005 -1.042051e-004 -4.329904e-001 7.131586e-001
319665000 9.360964e-005 -1.642413e-004 -4.125209e-001 7.261137e-001 3.957715e-005 8.314128e-006 -4.146451e-001 7.287436e-001
319950000 2.787895e-005 9.027933e-006 -3.928925e-001 7.416416e-001 -2.459743e-006 -6.891206e-005 -3.948665e-001 7.442645e-001
320235000 5.130047e-005 -1.291837e-005 -3.730746e-001 7.569905e-001 7.402989e-005 -1.320017e-005 -3.747113e-001 7.598148e-001
320520000 9.122104e-005 -2.942888e-005 -3.521559e-001 7.720709e-001 8.768134e-005 -4.900654e-005 -3.542653e-001 7.752372e-001
320805000 3.564887e-007 8.351576e-005 -3.303534e-001 7.865925e-001 3.198441e-005 5.969377e-005 -3.323775e-001 7.901178e-001
321090000 5.972811e-005 1.121588e-005 -3.081929e-001 8.010027e-001 6.695931e-005 5.219918e-005 -3.101201e-001 8.041367e-001
321375000 -8.278554e-005 1.436358e-004 -2.855235e-001 8.144982e-001 1.092789e-004 7.046735e-006 -2.872742e-001 8.181275e-001
321660000 -2.468499e-005 3.143097e-005 -2.621773e-001 8.282512e-001 -5.920228e-005 -2.558971e-006 -2.635659e-001 8.317280e-001
321945000 3.487366e-005 2.664764e-005 -2.381383e-001 8.408640e-001 -1.841521e-005 8.182085e-005 -2.386455e-001 8.449509e-001
322230000 3.314959e-005 -4.288430e-005 -2.128125e-001 8.530155e-001 3.086780e-005 -5.943358e-005 -2.137346e-001 8.568607e-001
322515000 -1.073381e-004 -7.441130e-005 -1.870309e-001 8.648221e-001 -6.339703e-005 -2.809540e-005 -1.878017e-001 8.683431e-001
322800000 -6.963767e-005 -1.638730e-005 -1.605619e-001 8.755532e-001 -8.819082e-005 -9.057972e-006 -1.610622e-001 8.793295e-001
323085000 -8.219363e-005 -3.252813e-005 -1.335552e-001 8.858560e-001 6.960385e-006 1.817462e-005 -1.330443e-001 8.903532e-001
323370000 -8.561171e-005 -4.270770e-005 -1.048452e-001 8.955297e-001 4.930889e-005 -2.050577e-005 -1.058963e-001 8.994043e-001
323655000 -3.815391e-005 -3.033971e-005 -7.573934e-002 9.046551e-001 -3.139949e-005 2.554005e-005 -7.687434e-002 9.078924e-001
323940000 -7.474137e-005 -5.512778e-005 -4.661976e-002 9.124441e-001 3.118621e-005 -3.939946e-005 -4.645899e-002 9.161226e-001
324225000 4.568072e-007 7.774758e-006 -1.576567e-002 9.195508e-001 -3.381240e-005 -2.365019e-005 -1.649502e-002 9.232190e-001
324510000 -4.337623e-005 -7.558380e-005 1.504753e-002 9.253359e-001 9.393055e-005 -1.444895e-005 1.465253e-002 9.293137e-001
324795000 6.539009e-005 -1.758063e-006 4.638572e-002 9.301540e-001 6.310313e-006 -4.900972e-005 4.691546e-002 9.341738e-001
325080000 6.795800e-005 4.120135e-005 7.930116e-002 9.336186e-001 1.360831e-004 1.474170e-005 7.891518e-002 9.379790e-001
325365000 -3.303951e-005 7.868412e-006 1.118114e-001 9.373199e-001 1.930444e-004 -1.226351e-005 1.125899e-001 9.409534e-001
325650000 8.304411e-005 -6.961066e-005 1.450751e-001 9.380156e-001 9.802905e-005 7.421714e-005 1.459316e-001 9.420931e-001
325935000 4.291288e-005 6.327555e-005 1.794082e-001 9.380260e-001 -2.505888e-005 -1.531450e-005 1.808637e-001 9.419093e-001
326220000 5.845802e-005 1.550775e-004 2.133844e-001 9.362153e-001 2.419302e-005 -2.819589e-005 2.148092e-001 9.406731e-001
326505000 7.397156e-005 -4.061396e-006 2.488309e-001 9.343283e-001 -1.043340e-004 2.817983e-005 2.498911e-001 9.379222e-001
326790000 1.296836e-005 -2.969178e-005 2.840325e-001 9.298633e-001 4.180779e-005 -5.695779e-005 2.856879e-001 9.335660e-001
327075000 -8.856133e-005 -8.116453e-006 3.194005e-001 9.240147e-001 -2.490471e-006 -4.960205e-005 3.212462e-001 9.276844e-001
327360000 -6.973222e-005 2.015218e-005 3.553249e-001 9.160408e-001 -6.683281e-005 2.835205e-005 3.571033e-001 9.205882e-001
327645000 -4.189585e-005 -3.321446e-005 3.910994e-001 9.077194e-001 -1.333609e-005 1.931252e-006 3.926205e-001 9.112315e-001
327930000 2.948624e-005 2.217977e-005 4.266417e-001 8.973927e-001 -2.295555e-006 1.587862e-005 4.285612e-001 9.008722e-001
328215000 -1.612107e-005 -1.995241e-005 4.622723e-001 8.841372e-001 6.126809e-005 2.175010e-005 4.642719e-001 8.877282e-001
328500000 2.777052e-005 -2.683150e-005 4.979682e-001 8.707966e-001 9.628759e-005 1.042607e-005 4.997885e-001 8.742511e-001
328785000 -5.544889e-005 -2.131041e-005 5.327823e-001 8.546626e-001 3.981525e-005 -8.117778e-005 5.351024e-001 8.581327e-001
329070000 2.788179e-005 1.723580e-005 5.672669e-001 8.365321e-001 -6.244786e-005 6.260003e-005 5.698646e-001 8.405176e-001
329355000 -2.026321e-005 -6.825959e-005 6.016407e-001 8.169440e-001 -1.170043e-005 1.845172e-004 6.041644e-001 8.203701e-001
329640000 -1.135543e-005 -4.491594e-006 6.356277e-001 7.964461e-001 -2.132445e-005 5.854725e-005 6.380041e-001 7.998095e-001
329925000 -2.188257e-005 6.456659e-005 6.681076e-001 7.727946e-001 -5.127077e-005 1.951355e-005 6.706166e-001 7.763728e-001
330210000 1.086387e-004 -1.822064e-005 6.991574e-001 7.488611e-001 -5.925978e-006 -3.592042e-005 7.021467e-001 7.516456e-001
330495000 1.212706e-004 -2.649327e-005 7.297135e-001 7.226294e-001 -1.240661e-004 4.291480e-005 7.327853e-001 7.252006e-001
330780000 -5.309796e-005 1.106127e-004 7.589152e-001 6.941814e-001 -1.155667e-004 5.519334e-005 7.625161e-001 6.971180e-001
331065000 -1.742563e-004 6.130651e-006 7.874519e-001 6.649961e-001 -1.004278e-004 1.183327e-005 7.909170e-001 6.676813e-001
331350000 2.576393e-005 -4.949549e-005 8.141892e-001 6.340497e-001 -8.798642e-005 -4.954225e-005 8.179501e-001 6.368528e-001
331635000 5.761417e-005 -5.231175e-005 8.396372e-001 6.022764e-001 -6.137927e-006 7.359526e-006 8.429108e-001 6.050493e-001
331920000 3.595570e-005 8.224914e-006 8.628823e-001 5.686291e-001 7.072963e-005 -6.809067e-005 8.669917e-001 5.711823e-001
332205000 -8.588975e-005 -4.235097e-005 8.855950e-001 5.344935e-001 1.462026e-005 -1.435689e-005 8.884609e-001 5.367270e-001
332490000 -6.005414e-006 -3.357404e-005 9.052275e-001 4.986116e-001 2.446763e-005 -7.529373e-005 9.090331e-001 5.008603e-001
332775000 -2.538957e-005 2.827936e-005 9.243829e-001 4.621034e-001 6.194461e-005 2.289891e-007 9.279671e-001 4.646004e-001
333060000 7.889152e-005 1.088608e-004 9.414343e-001 4.251010e-001 7.200774e-006 7.230540e-005 9.450247e-001 4.270739e-001
333345000 8.062596e-005 9.472009e-005 9.560949e-001 3.872343e-001 -4.357323e-005 2.273281e-005 9.598223e-001 3.889731e-001
333630000 6.301883e-005 4.955605e-005 9.693013e-001 3.490165e-001 7.669712e-005 2.708051e-005 9.730234e-001 3.507224e-001
333915000 1.237838e-005 6.281849e-005 9.794952e-001 3.091534e-001 1.502931e-005 9.016853e-005 9.844756e-001 3.115014e-001
334200000 -1.197085e-005 1.882472e-004 9.888361e-001 2.707366e-001 2.168510e-005 -3.399941e-005 9.931780e-001 2.720261e-001
334485000 6.506139e-006 -6.958950e-006 9.958219e-001 2.316009e-001 2.672440e-006 -1.569250e-005 9.999167e-001 2.319604e-001
334770000 1.850814e-005 -3.803215e-005 1.001022e+000 1.916994e-001 4.600108e-005 -2.563343e-005 1.005716e+000 1.926097e-001
335055000 1.301825e-005 5.871338e-005 1.004337e+000 1.524190e-001 2.136194e-005 -9.791266e-005 1.009027e+000 1.535541e-001
335340000 7.914729e-005 -5.900124e-005 1.005635e+000 1.137786e-001 2.331033e-005 -1.063763e-004 1.010200e+000 1.144207e-001
335625000 3.818720e-005 -6.909819e-005 1.004842e+000 7.564796e-002 6.917290e-006 1.258558e-005 1.009454e+000 7.601710e-002
335910000 8.045117e-005 -3.438167e-005 1.003889e+000 3.748234e-002 2.435587e-005 8.178478e-006 1.007938e+000 3.729929e-002
336195000 -2.538555e-005 -1.444921e-005 9.995855e-001 -3.504351e-004 6.117071e-005 -3.732226e-005 1.004494e+000 -7.605945e-004
336480000 5.603020e-005 1.806220e-005 9.941002e-001 -3.739634e-002 -5.599005e-005 4.579658e-005 9.985667e-001 -3.746885e-002
336765000 -7.841901e-005 9.213240e-005 9.867957e-001 -7.403947e-002 -5.583799e-005 -9.394394e-007 9.915901e-001 -7.428712e-002
337050000 -5.306969e-005 -3.692748e-005 9.787959e-001 -1.094924e-001 3.423193e-005 6.901924e-006 9.828874e-001 -1.098817e-001
337335000 3.902269e-005 3.884503e-005 9.692124e-001 -1.444124e-001 -3.879309e-005 -3.348918e-005 9.734678e-001 -1.450895e-001
337620000 7.992486e-005 4.851338e-005 9.580182e-001 -1.780448e-001 -1.490329e-005 -1.159923e-005 9.621233e-001 -1.787476e-001
337905000 4.665937e-005 -3.323377e-005 9.455789e-001 -2.109041e-001 4.740879e-005 5.143555e-005 9.495394e-001 -2.114263e-001
338190000 -7.898309e-005 1.218684e-004 9.318302e-001 -2.426287e-001 -9.804490e-005 -6.564464e-005 9.357722e-001 -2.444761e-001
338475000 -2.065630e-004 6.117545e-005 9.174577e-001 -2.738264e-001 7.267571e-006 -9.554626e-005 9.215332e-001 -2.751122e-001
338760000 -3.854766e-005 5.463101e-005 9.017236e-001 -3.038198e-001 2.527636e-005 -6.996946e-007 9.059812e-001 -3.049344e-001
339045000 -1.050141e-004 -1.762570e-004 8.853765e-001 -3.328675e-001 2.928604e-005 2.799631e-005 8.894036e-001 -3.342577e-001
339330000 5.984678e-005 -3.883668e-005 8.682656e-001 -3.604845e-001 1.008418e-004 5.023496e-005 8.721970e-001 -3.616121e-001
339615000 5.089296e-006 -1.071026e-004 8.502612e-001 -3.875946e-001 -1.929417e-005 6.767399e-005 8.540859e-001 -3.888842e-001
339900000 1.216150e-006 3.417466e-005 8.315533e-001 -4.130111e-001 6.044070e-005 3.527343e-005 8.352810e-001 -4.145730e-001
340185000 2.225229e-005 6.556665e-006 8.125169e-001 -4.376203e-001 4.864344e-005 -1.500695e-005 8.152198e-001 -4.392988e-001
340470000 5.092981e-005 -3.495986e-006 7.927908e-001 -4.613157e-001 4.650593e-005 7.345650e-005 7.956769e-001 -4.629727e-001
340755000 6.627889e-005 9.850303e-005 7.720431e-001 -4.832321e-001 -4.123815e-005 3.249103e-005 7.753987e-001 -4.854545e-001
341040000 1.223670e-004 -4.849782e-005 7.510672e-001 -5.048572e-001 -5.777318e-005 6.711012e-005 7.549292e-001 -5.067311e-001
341325000 1.297425e-004 4.949907e-005 7.300608e-001 -5.252213e-001 -7.747484e-005 2.771155e-005 7.330244e-001 -5.278381e-001
341610000 5.960681e-005 1.309920e-004 7.088109e-001 -5.448791e-001 -4.294944e-005 -6.244744e-005 7.119501e-001 -5.471166e-001
341895000 -2.353018e-005 3.480347e-005 6.867313e-001 -5.630215e-001 1.797089e-005 -1.799355e-005 6.898901e-001 -5.656363e-001
342180000 5.772372e-005 6.178116e-006 6.649289e-001 -5.810944e-001 -1.996780e-006 -7.269251e-005 6.679527e-001 -5.836905e-001
342465000 -7.062143e-005 -6.947253e-006 6.435360e-001 -5.972455e-001 3.763158e-005 -3.691390e-005 6.460822e-001 -6.000646e-001
342750000 -6.407392e-005 7.186399e-005 6.208969e-001 -6.135643e-001 1.367864e-005 9.568946e-006 6.236691e-001 -6.154650e-001
343035000 -2.528339e-005 3.551467e-005 5.986741e-001 -6.283492e-001 2.035366e-004 1.009556e-004 6.006389e-001 -6.307538e-001
343320000 -1.858576e-005 7.868758e-006 5.757851e-001 -6.420689e-001 -2.971188e-005 -6.174605e-005 5.785127e-001 -6.446238e-001
343605000 -4.469036e-006 4.853047e-005 5.532529e-001 -6.551203e-001 -3.756195e-005 7.890219e-006 5.557615e-001 -6.580901e-001
343890000 2.302983e-006 -5.286180e-005 5.307943e-001 -6.680233e-001 9.640991e-005 1.902869e-005 5.326452e-001 -6.704764e-001
