!Agilent Technologies,N5230C,SG49000117,A.08.50.07
!Agilent N5230C: A.08.50.07
!Date: Sunday, March 17, 2024 02:19:11
!Correction: S11(Off) 
!S21(Off) 
!S12(Off) 
!S22(Off) 
!S2P File: Measurements: S11, S21, S12, S22:
# Hz S  RI   R 50
300000000 -1.139110e-004 -6.636249e-005 -6.148630e-001 -6.603140e-001 6.168471e-006 8.605758e-005 -6.170086e-001 -6.628099e-001
300285000 1.164076e-004 -5.110271e-005 -6.302762e-001 -6.375071e-001 -1.941848e-005 -2.151371e-005 -6.322811e-001 -6.397480e-001
300570000 -1.788233e-006 -8.299836e-005 -6.458543e-001 -6.138252e-001 4.968351e-006 3.249933e-005 -6.480093e-001 -6.164792e-001
300855000 5.433386e-005 8.821407e-005 -6.593109e-001 -5.905310e-001 -3.635020e-005 6.636887e-005 -6.620331e-001 -5.927514e-001
301140000 -1.236005e-004 2.268280e-005 -6.723685e-001 -5.671571e-001 7.050700e-006 -2.904841e-005 -6.754004e-001 -5.688149e-001
301425000 5.261613e-005 -2.354715e-005 -6.850700e-001 -5.435834e-001 -8.855925e-005 2.824909e-005 -6.872603e-001 -5.453454e-001
301710000 1.063530e-004 -9.283651e-006 -6.962259e-001 -5.202095e-001 2.245922e-006 5.064123e-005 -6.993099e-001 -5.218450e-001
301995000 1.356920e-004 3.727097e-006 -7.067900e-001 -4.964109e-001 -1.396880e-005 2.303791e-005 -7.103140e-001 -4.982248e-001
302280000 -4.991156e-005 2.469565e-005 -7.170455e-001 -4.731709e-001 9.409718e-005 2.491706e-005 -7.197454e-001 -4.744613e-001
302565000 3.860908e-005 -3.748234e-005 -7.262051e-001 -4.496663e-001 3.523988e-005 -1.152404e-006 -7.286990e-001 -4.513044e-001
302850000 1.173766e-004 1.873854e-005 -7.347183e-001 -4.260029e-001 -4.128845e-005 2.744597e-006 -7.378772e-001 -4.278970e-001
303135000 5.743510e-005 1.052760e-004 -7.422851e-001 -4.029320e-001 2.123453e-005 -9.840504e-005 -7.451781e-001 -4.040181e-001
303420000 2.395279e-005 5.769046e-006 -7.499458e-001 -3.795081e-001 -1.390800e-005 -3.392975e-005 -7.522810e-001 -3.811044e-001
303705000 -3.115432e-005 1.141196e-005 -7.557300e-001 -3.564581e-001 1.374674e-005 -3.411470e-005 -7.588947e-001 -3.580238e-001
303990000 -1.202706e-004 4.977776e-005 -7.617745e-001 -3.338680e-001 4.332683e-005 -6.949099e-005 -7.646942e-001 -3.349273e-001
304275000 -5.231045e-005 -9.098912e-006 -7.671323e-001 -3.105290e-001 4.460629e-005 3.530915e-005 -7.698760e-001 -3.115096e-001
304560000 -1.895215e-005 2.804900e-005 -7.715839e-001 -2.883069e-001 6.033822e-005 7.116552e-005 -7.743329e-001 -2.891502e-001
304845000 -3.431980e-005 9.137968e-005 -7.755852e-001 -2.658846e-001 -1.961671e-005 3.174494e-006 -7.782300e-001 -2.669625e-001
305130000 4.203338e-005 -8.984475e-005 -7.797002e-001 -2.433166e-001 -5.572310e-006 7.372968e-005 -7.823520e-001 -2.439758e-001
305415000 -8.157181e-005 -1.180047e-005 -7.821205e-001 -2.216780e-001 1.558988e-005 5.551960e-005 -7.848505e-001 -2.220433e-001
305700000 -1.122439e-005 -2.965690e-005 -7.853115e-001 -1.988393e-001 -1.012516e-005 -4.587827e-005 -7.878624e-001 -1.999861e-001
305985000 -8.438715e-007 -1.175606e-004 -7.869948e-001 -1.771784e-001 -8.221132e-005 3.447995e-005 -7.899545e-001 -1.779818e-001
306270000 3.758725e-005 -6.103982e-005 -7.884283e-001 -1.549464e-001 -1.986583e-005 -6.386064e-005 -7.911080e-001 -1.561667e-001
306555000 8.699750e-005 2.956407e-005 -7.891287e-001 -1.337516e-001 -1.138328e-004 4.091075e-005 -7.923949e-001 -1.341068e-001
306840000 -2.085911e-005 4.715754e-006 -7.900267e-001 -1.120848e-001 -6.798706e-005 -8.658578e-005 -7.925287e-001 -1.128956e-001
307125000 6.245050e-005 -3.353036e-005 -7.899991e-001 -9.095955e-002 5.008622e-005 -1.897542e-005 -7.927157e-001 -9.103248e-002
307410000 -1.779868e-005 6.972513e-006 -7.898012e-001 -7.007663e-002 -1.228759e-004 -5.638575e-005 -7.928948e-001 -6.994364e-002
307695000 2.211411e-005 6.892427e-005 -7.887990e-001 -4.864589e-002 -4.313831e-005 1.999223e-005 -7.914091e-001 -4.843044e-002
307980000 -2.634755e-006 4.902507e-005 -7.879258e-001 -2.797952e-002 -4.666975e-005 1.712053e-005 -7.905378e-001 -2.805922e-002
308265000 1.323186e-004 2.486536e-005 -7.865927e-001 -6.796608e-003 1.610131e-004 1.341355e-004 -7.893064e-001 -6.924434e-003
308550000 -1.021400e-004 5.236057e-005 -7.843491e-001 1.361674e-002 6.690840e-005 2.959624e-005 -7.875233e-001 1.403328e-002
308835000 -7.010804e-005 1.624026e-005 -7.817887e-001 3.404247e-002 6.117062e-005 6.674568e-005 -7.849368e-001 3.369111e-002
309120000 -4.385513e-005 -8.097916e-006 -7.792735e-001 5.468000e-002 7.295953e-005 -5.074309e-005 -7.821969e-001 5.456094e-002
309405000 -1.023180e-004 -1.416355e-004 -7.765267e-001 7.426117e-002 1.178007e-004 -2.079389e-006 -7.795035e-001 7.459806e-002
309690000 4.332503e-005 -3.841827e-005 -7.727634e-001 9.441640e-002 -2.043019e-005 9.077055e-006 -7.760379e-001 9.510297e-002
309975000 2.674229e-008 -8.283062e-005 -7.689095e-001 1.145367e-001 4.288456e-005 1.962152e-006 -7.723178e-001 1.148247e-001
310260000 -4.402156e-005 9.879073e-006 -7.653511e-001 1.341659e-001 8.370361e-005 8.643831e-005 -7.681015e-001 1.345205e-001
310545000 -6.785453e-005 1.228293e-005 -7.605972e-001 1.536903e-001 -8.351100e-005 1.718682e-005 -7.636331e-001 1.546374e-001
310830000 -8.287337e-005 -4.851076e-005 -7.559936e-001 1.735282e-001 -7.312206e-005 3.907013e-005 -7.589040e-001 1.739796e-001
311115000 -3.982421e-006 -1.858135e-005 -7.506095e-001 1.927897e-001 -1.049976e-004 4.387161e-005 -7.533159e-001 1.939775e-001
311400000 4.190594e-005 5.406245e-005 -7.448468e-001 2.123372e-001 -1.877543e-004 2.709791e-005 -7.478943e-001 2.135315e-001
311685000 7.151497e-005 -1.337152e-005 -7.393041e-001 2.317587e-001 3.005801e-005 -3.219342e-005 -7.424142e-001 2.325030e-001
311970000 8.655430e-005 6.036007e-005 -7.325667e-001 2.507771e-001 -1.353635e-004 1.591995e-005 -7.361476e-001 2.521138e-001
312255000 6.145609e-005 -6.736273e-005 -7.263730e-001 2.699166e-001 1.182006e-005 -7.719793e-005 -7.292449e-001 2.710696e-001
312540000 7.455326e-006 2.114068e-005 -7.194725e-001 2.892061e-001 3.511821e-005 -1.109130e-004 -7.223948e-001 2.901557e-001
312825000 1.088394e-005 -2.893172e-005 -7.121083e-001 3.076609e-001 -5.311170e-005 6.856336e-005 -7.148997e-001 3.092110e-001
313110000 -2.236497e-005 -3.833578e-005 -7.043356e-001 3.266568e-001 -2.659768e-005 4.265716e-005 -7.070381e-001 3.284612e-001
313395000 3.443353e-005 5.183611e-005 -6.962559e-001 3.451177e-001 2.327441e-005 -2.878163e-005 -6.992252e-001 3.469009e-001
313680000 -9.027745e-005 7.518981e-005 -6.883755e-001 3.640640e-001 5.864963e-005 4.135134e-005 -6.908672e-001 3.651879e-001
313965000 -9.119808e-005 8.039919e-005 -6.791388e-001 3.824830e-001 -9.491798e-006 -1.000148e-005 -6.815384e-001 3.842779e-001
314250000 -1.035018e-004 7.500298e-006 -6.697521e-001 4.015997e-001 7.709944e-005 1.003412e-004 -6.724856e-001 4.027828e-001
314535000 -1.500442e-004 3.432601e-005 -6.602730e-001 4.196032e-001 8.548283e-005 -1.124490e-004 -6.631442e-001 4.213670e-001
314820000 -3.135663e-005 -3.460715e-005 -6.503768e-001 4.379308e-001 1.493760e-004 1.941125e-004 -6.528770e-001 4.398113e-001
315105000 7.824939e-006 -2.355420e-005 -6.397057e-001 4.560111e-001 -2.598088e-005 3.903681e-005 -6.418648e-001 4.578753e-001
315390000 -9.959274e-005 -1.354049e-004 -6.290838e-001 4.741291e-001 -4.728089e-005 5.423977e-005 -6.314538e-001 4.762471e-001
315675000 1.071678e-004 -5.418202e-005 -6.174496e-001 4.928071e-001 -1.016627e-004 -4.458871e-005 -6.199967e-001 4.941602e-001
315960000 6.413554e-005 7.429457e-006 -6.057312e-001 5.105111e-001 5.221675e-005 9.008419e-005 -6.085788e-001 5.128754e-001
316245000 1.165373e-004 -3.540337e-005 -5.933062e-001 5.282214e-001 -4.482318e-005 5.982794e-005 -5.954573e-001 5.304747e-001
316530000 1.210520e-004 -5.908279e-005 -5.809802e-001 5.464337e-001 7.171156e-006 5.639291e-005 -5.828264e-001 5.484414e-001
316815000 9.381142e-005 8.288175e-005 -5.670553e-001 5.636428e-001 6.169596e-005 -6.824608e-005 -5.699155e-001 5.663896e-001
317100000 8.712257e-005 3.054837e-005 -5.537804e-001 5.813424e-001 -3.638779e-005 1.115524e-005 -5.558919e-001 5.837879e-001
317385000 1.088700e-004 -3.643888e-005 -5.395365e-001 5.988620e-001 -9.473240e-006 7.749591e-005 -5.416180e-001 6.013510e-001
317670000 -2.233174e-006 5.639679e-005 -5.250506e-001 6.160269e-001 -1.534906e-005 -3.955019e-005 -5.269386e-001 6.183574e-001
317955000 1.077635e-005 1.503414e-006 -5.095003e-001 6.331340e-001 2.016298e-005 -2.883843e-005 -5.114008e-001 6.356980e-001
318240000 1.446130e-005 2.489294e-005 -4.935448e-001 6.499802e-001 -8.918289e-006 -1.171595e-004 -4.955644e-001 6.525215e-001
318525000 3.187981e-005 -5.372138e-005 -4.764725e-001 6.669493e-001 8.150814e-005 -9.926905e-005 -4.791725e-001 6.695161e-001
318810000 -2.654384e-005 -6.967450e-005 -4.597850e-001 6.832544e-001 3.465007e-005 -2.029986e-005 -4.616552e-001 6.863823e-001
319095000 4.732988e-006 1.118550e-004 -4.421822e-001 7.000592e-001 1.183328e-004 -8.256159e-007 -4.440224e-001 7.024459e-001
319380000 2.197047e-005 7.329189e-005 -4.236569e-001 7.159238e-001 5.461779e-005 6.025933e-005 -4.257190e-001 7.189614e-001
319665000 -3.339663e-006 -4.380949e-005 -4.042765e-001 7.313929e-001 4.004447e-005 1.323091e-004 -4.062735e-001 7.339267e-001
319950000 -4.710311e-005 -4.427170e-005 -3.849780e-001 7.474983e-001 -3.032743e-005 -5.206620e-005 -3.874687e-001 7.500086e-001
320235000 1.430626e-005 7.604258e-005 -3.647462e-001 7.626767e-001 5.095028e-005 -8.131276e-006 -3.664753e-001 7.653716e-001
320520000 -5.935775e-005 3.099226e-005 -3.436736e-001 7.776767e-001 5.273212e-006 2.713314e-005 -3.452244e-001 7.808045e-001
320805000 -1.104705e-004 -1.381620e-005 -3.221010e-001 7.920046e-001 2.662930e-006 -1.040274e-005 -3.237586e-001 7.945415e-001
321090000 7.269805e-005 1.269196e-005 -3.000338e-001 8.060699e-001 4.086716e-005 5.166034e-005 -3.008631e-001 8.089226e-001
321375000 -4.689893e-005 -2.520105e-005 -2.768689e-001 8.193135e-001 -4.753540e-006 -9.100902e-006 -2.773960e-001 8.223202e-001
321660000 -6.661742e-005 -3.895967e-005 -2.524131e-001 8.325590e-001 -5.998394e-006 -3.698386e-005 -2.536883e-001 8.362747e-001
321945000 5.603370e-005 1.080222e-004 -2.281501e-001 8.451973e-001 -1.314865e-004 -9.515280e-005 -2.293179e-001 8.487921e-001
322230000 9.805452e-005 -4.154949e-005 -2.025508e-001 8.568419e-001 -2.227218e-005 -3.104274e-005 -2.032363e-001 8.604473e-001
322515000 -1.284703e-005 1.444459e-005 -1.764504e-001 8.689439e-001 -6.607007e-005 -6.637860e-005 -1.765811e-001 8.721021e-001
322800000 2.713087e-005 -1.980741e-005 -1.498216e-001 8.794369e-001 8.753860e-005 -9.160861e-005 -1.502552e-001 8.828990e-001
323085000 -4.361689e-005 7.939091e-005 -1.217454e-001 8.893765e-001 -6.831483e-005 -1.837619e-005 -1.226067e-001 8.931561e-001
323370000 2.896334e-005 6.199906e-006 -9.349085e-002 8.981606e-001 -8.720357e-005 7.894640e-006 -9.357203e-002 9.022433e-001
323655000 -3.836758e-005 -1.364286e-005 -6.459964e-002 9.066249e-001 -1.007923e-004 -1.083880e-005 -6.467915e-002 9.104148e-001
323940000 -9.190684e-005 3.695395e-005 -3.426846e-002 9.145768e-001 1.550342e-004 3.645728e-005 -3.455589e-002 9.183281e-001
324225000 -1.811044e-005 5.094799e-005 -4.066344e-003 9.209199e-001 -1.244997e-005 -1.585883e-005 -4.259024e-003 9.247651e-001
324510000 -1.179470e-005 -8.767145e-006 2.690223e-002 9.263437e-001 -7.905877e-005 6.480987e-005 2.732333e-002 9.303490e-001
324795000 -7.492444e-005 -2.337322e-005 5.916975e-002 9.313127e-001 1.872143e-005 1.098724e-004 5.917820e-002 9.347450e-001
325080000 -5.639126e-006 5.917237e-005 9.207610e-002 9.341720e-001 -2.683632e-005 1.031088e-004 9.228437e-002 9.382080e-001
325365000 -1.241876e-004 -3.672236e-005 1.247997e-001 9.364567e-001 -6.339957e-005 1.418772e-005 1.252158e-001 9.403966e-001
325650000 4.693008e-006 -4.970778e-005 1.582294e-001 9.370945e-001 -8.841032e-005 4.354216e-005 1.597550e-001 9.408045e-001
325935000 -1.320238e-006 -9.297465e-005 1.926001e-001 9.369290e-001 -9.948762e-005 -3.887886e-005 1.935973e-001 9.406906e-001
326220000 -7.667151e-005 -5.768058e-005 2.268711e-001 9.349529e-001 -1.139954e-004 -2.125888e-005 2.287946e-001 9.395427e-001
326505000 5.212508e-005 -8.921537e-005 2.624967e-001 9.313124e-001 1.920887e-005 -1.655217e-005 2.635446e-001 9.355180e-001
326790000 3.413166e-005 1.636158e-005 2.979779e-001 9.266585e-001 6.514863e-005 2.147300e-005 2.994216e-001 9.309729e-001
327075000 3.148201e-005 -7.713759e-005 3.333452e-001 9.205621e-001 -8.655312e-006 -1.319338e-004 3.341905e-001 9.244434e-001
327360000 3.223017e-005 1.229715e-004 3.686900e-001 9.124961e-001 5.635042e-005 -9.391912e-006 3.704429e-001 9.166254e-001
327645000 -2.513285e-005 6.504767e-005 4.044044e-001 9.029854e-001 2.012353e-005 6.907621e-005 4.063201e-001 9.071593e-001
327930000 1.518439e-005 2.437061e-005 4.405316e-001 8.913181e-001 4.923694e-005 1.108023e-005 4.419425e-001 8.954169e-001
328215000 -1.047400e-004 3.157536e-005 4.761124e-001 8.788648e-001 -6.679486e-005 1.109997e-004 4.779196e-001 8.824954e-001
328500000 6.408458e-005 2.261146e-005 5.111291e-001 8.636864e-001 -4.177900e-005 -7.077289e-005 5.132703e-001 8.668524e-001
328785000 7.520674e-005 -3.723429e-005 5.461465e-001 8.474604e-001 -5.598824e-005 -8.724243e-006 5.479860e-001 8.509235e-001
329070000 4.986439e-005 5.805488e-005 5.800959e-001 8.291822e-001 2.532873e-006 2.100151e-005 5.822542e-001 8.326673e-001
329355000 4.639444e-005 4.863340e-005 6.147094e-001 8.084655e-001 -2.011666e-005 -1.559704e-004 6.169673e-001 8.120078e-001
329640000 -2.732812e-005 -7.721355e-005 6.474910e-001 7.870016e-001 6.675729e-005 -5.570565e-005 6.494738e-001 7.911109e-001
329925000 9.837402e-005 -1.608497e-005 6.795991e-001 7.643384e-001 -1.669407e-005 8.306078e-005 6.824517e-001 7.665094e-001
330210000 4.715041e-005 -3.353206e-006 7.103779e-001 7.382030e-001 4.694051e-005 -2.021816e-006 7.136411e-001 7.414958e-001
330495000 -1.925896e-006 3.157897e-006 7.410518e-001 7.113308e-001 7.469618e-005 1.175754e-005 7.442577e-001 7.149521e-001
330780000 2.917382e-005 7.132431e-005 7.699322e-001 6.831544e-001 -2.400096e-005 -7.894581e-005 7.734073e-001 6.862433e-001
331065000 -7.093351e-005 -1.232087e-004 7.975493e-001 6.536939e-001 6.736501e-005 6.012161e-005 8.012608e-001 6.559753e-001
331350000 -1.375437e-005 -5.384039e-005 8.233800e-001 6.221425e-001 -4.544799e-005 3.439554e-005 8.276059e-001 6.247198e-001
331635000 -4.182544e-005 2.613240e-005 8.494300e-001 5.893885e-001 -3.068268e-005 2.487294e-005 8.523651e-001 5.914932e-001
331920000 1.778052e-005 -6.676150e-005 8.713813e-001 5.557197e-001 9.216968e-006 1.007216e-004 8.749803e-001 5.578571e-001
332205000 2.886811e-005 5.726822e-005 8.937166e-001 5.210447e-001 -1.825663e-005 8.011417e-005 8.968706e-001 5.232586e-001
332490000 7.790381e-005 1.200939e-004 9.127977e-001 4.846332e-001 -6.184114e-005 3.628920e-005 9.165491e-001 4.870322e-001
332775000 -2.400612e-005 7.958175e-005 9.307717e-001 4.477296e-001 1.409889e-006 6.352973e-005 9.348576e-001 4.499741e-001
333060000 5.350046e-005 3.345478e-005 9.466003e-001 4.103141e-001 9.930627e-005 5.244682e-005 9.508565e-001 4.121274e-001
333345000 1.003029e-004 9.446637e-008 9.609241e-001 3.720753e-001 7.889800e-005 -7.652370e-005 9.649018e-001 3.737517e-001
333630000 1.237562e-006 -2.957119e-005 9.728904e-001 3.334321e-001 -4.170633e-005 6.696784e-007 9.774521e-001 3.353723e-001
333915000 -5.143097e-006 -3.975131e-005 9.832534e-001 2.943268e-001 -1.145429e-004 6.485842e-005 9.874152e-001 2.957477e-001
334200000 -8.124195e-005 3.571439e-005 9.921356e-001 2.551861e-001 1.378001e-004 -5.373306e-006 9.958167e-001 2.561198e-001
334485000 -1.078958e-004 -2.423129e-005 9.976027e-001 2.162646e-001 7.300368e-005 2.259333e-005 1.002696e+000 2.169085e-001
334770000 6.181817e-005 -9.747585e-005 1.002976e+000 1.769172e-001 -5.017155e-005 7.400585e-005 1.007145e+000 1.779802e-001
335055000 5.578191e-006 -4.521017e-005 1.005303e+000 1.378817e-001 -7.141299e-005 7.208400e-005 1.009658e+000 1.383665e-001
335340000 -2.312187e-005 7.391640e-005 1.006028e+000 9.849794e-002 3.609519e-005 -2.384340e-005 1.010338e+000 9.884822e-002
335625000 3.367487e-005 6.820539e-005 1.004835e+000 6.066808e-002 1.008094e-005 9.280793e-005 1.009250e+000 5.980445e-002
335910000 7.246956e-005 -5.590141e-005 1.001677e+000 2.226097e-002 9.717248e-005 6.140988e-005 1.006222e+000 2.258389e-002
336195000 4.605621e-005 3.243067e-005 9.978383e-001 -1.554664e-002 -2.729411e-005 3.007137e-006 1.002311e+000 -1.513792e-002
336480000 -4.717236e-005 6.252400e-006 9.918497e-001 -5.218350e-002 -3.062662e-005 9.510081e-005 9.960430e-001 -5.250747e-002
336765000 -5.477946e-005 -6.751114e-005 9.843270e-001 -8.836883e-002 -8.850737e-005 4.169765e-005 9.882039e-001 -8.814166e-002
337050000 6.521776e-005 1.024330e-004 9.753200e-001 -1.235776e-001 2.870593e-005 3.694504e-005 9.789543e-001 -1.237297e-001
337335000 -2.673627e-005 -7.532979e-006 9.644913e-001 -1.580704e-001 -2.147657e-005 6.448592e-005 9.690365e-001 -1.581639e-001
337620000 -8.866580e-005 4.024735e-005 9.527815e-001 -1.911730e-001 2.916863e-005 8.560711e-005 9.576107e-001 -1.921320e-001
337905000 -3.177977e-005 9.968237e-006 9.410117e-001 -2.242822e-001 -5.483845e-005 -6.744921e-005 9.445041e-001 -2.251687e-001
338190000 8.986432e-006 5.573478e-005 9.268255e-001 -2.556407e-001 1.474454e-006 2.725033e-005 9.304237e-001 -2.566768e-001
338475000 -5.386684e-005 4.417528e-005 9.120727e-001 -2.860711e-001 3.590476e-005 1.032807e-004 9.152931e-001 -2.873956e-001
338760000 -4.156671e-005 -3.104222e-005 8.956667e-001 -3.155535e-001 -3.528943e-005 -5.459708e-005 8.996196e-001 -3.172351e-001
339045000 -3.568651e-005 -1.864832e-005 8.790254e-001 -3.439479e-001 -1.034410e-004 -3.142161e-005 8.823349e-001 -3.456150e-001
339330000 -6.260966e-005 -2.252867e-005 8.616946e-001 -3.719528e-001 1.804042e-005 -7.226572e-005 8.653704e-001 -3.730104e-001
339615000 3.217002e-005 -2.321036e-005 8.430731e-001 -3.981488e-001 -4.406612e-005 -5.048065e-005 8.467394e-001 -3.997240e-001
339900000 2.491526e-005 4.547390e-005 8.241335e-001 -4.236451e-001 -3.577012e-005 -3.228351e-005 8.273169e-001 -4.249135e-001
340185000 6.214221e-005 -1.063293e-004 8.041245e-001 -4.480440e-001 1.275318e-004 -4.153786e-005 8.080402e-001 -4.495109e-001
340470000 -3.921096e-006 5.088732e-005 7.842680e-001 -4.703683e-001 1.605882e-004 4.297477e-005 7.876777e-001 -4.725253e-001
340755000 1.126610e-004 4.440143e-005 7.636105e-001 -4.929654e-001 8.668377e-005 1.956964e-005 7.673038e-001 -4.944658e-001
341040000 -7.058067e-005 5.812336e-005 7.433696e-001 -5.140854e-001 4.608288e-005 -2.840697e-005 7.459119e-001 -5.159199e-001
341325000 5.601748e-005 2.951228e-005 7.214403e-001 -5.334122e-001 4.098111e-005 -1.880929e-005 7.250030e-001 -5.359364e-001
341610000 9.176874e-005 1.033455e-004 6.997347e-001 -5.531502e-001 -9.177584e-005 8.946907e-006 7.025825e-001 -5.551586e-001
341895000 -6.347359e-006 1.140734e-005 6.783537e-001 -5.709487e-001 -9.388250e-006 3.534944e-005 6.809250e-001 -5.735164e-001
342180000 -9.520939e-005 2.024906e-005 6.568092e-001 -5.881751e-001 -8.405230e-005 6.301537e-005 6.586454e-001 -5.906390e-001
342465000 -7.681988e-005 -4.474545e-005 6.342267e-001 -6.043760e-001 -8.805125e-005 -3.151620e-005 6.367151e-001 -6.069497e-001
342750000 -1.265521e-004 8.952906e-006 6.112796e-001 -6.200016e-001 -1.018428e-005 -1.362723e-004 6.141540e-001 -6.223233e-001
343035000 -1.484285e-005 -7.057586e-006 5.889422e-001 -6.344550e-001 -3.178191e-005 -1.891279e-005 5.915909e-001 -6.368958e-001
343320000 -1.227009e-007 -1.260104e-004 5.666751e-001 -6.482181e-001 2.573287e-005 -1.213439e-004 5.689659e-001 -6.505239e-001
343605000 8.145053e-005 4.940117e-005 5.437393e-001 -6.608745e-001 -8.006354e-005 -1.826461e-005 5.464815e-001 -6.632867e-001
343890000 6.757715e-005 -8.138838e-005 5.212228e-001 -6.727108e-001 1.137541e-004 -2.518587e-005 5.237298e-001 -6.752040e-001
