!Agilent Technologies,N5230C,SG49000117,A.08.50.07
!Agilent N5230C: A.08.50.07
!Date: Sunday, March 17, 2024 02:20:04
!Correction: S11(Off) 
!S21(Off) 
!S12(Off) 
!S22(Off) 
!S2P File: Measurements: S11, S21, S12, S22:
# Hz S  RI   R 50
300000000 -9.721366e-006 1.375458e-005 -6.207232e-001 -6.531583e-001 -9.080382e-005 2.381308e-005 -6.228118e-001 -6.554515e-001
300285000 -3.629505e-005 -1.310756e-006 -6.362998e-001 -6.299037e-001 -3.609157e-007 2.426305e-005 -6.381489e-001 -6.320629e-001
300570000 -2.619331e-005 -2.808213e-005 -6.504015e-001 -6.063279e-001 9.212415e-005 2.074176e-005 -6.530092e-001 -6.081198e-001
300855000 3.190978e-005 -4.733450e-005 -6.642159e-001 -5.826786e-001 4.789942e-005 -4.600437e-005 -6.668610e-001 -5.850365e-001
301140000 -1.540679e-004 6.341763e-005 -6.777565e-001 -5.589824e-001 -8.588497e-005 -3.702472e-005 -6.796849e-001 -5.613678e-001
301425000 -8.718385e-005 -3.315464e-005 -6.890519e-001 -5.358380e-001 3.339535e-005 -1.124560e-004 -6.922894e-001 -5.377896e-001
301710000 -5.712670e-005 -1.075398e-004 -7.004851e-001 -5.118822e-001 -7.890494e-005 1.029401e-004 -7.032729e-001 -5.137696e-001
301995000 -3.386077e-005 3.573331e-005 -7.110535e-001 -4.882810e-001 -4.846891e-005 -1.388553e-005 -7.132580e-001 -4.903356e-001
302280000 -6.325855e-006 7.930625e-005 -7.212338e-001 -4.645618e-001 -2.237394e-006 -1.009576e-005 -7.238881e-001 -4.664158e-001
302565000 -5.559008e-005 -4.090566e-005 -7.301626e-001 -4.418478e-001 8.476924e-006 6.568359e-006 -7.325065e-001 -4.430711e-001
302850000 -2.252626e-005 -1.609564e-005 -7.376386e-001 -4.181156e-001 5.849141e-005 1.154221e-005 -7.406175e-001 -4.198971e-001
303135000 6.306698e-005 4.563834e-005 -7.456418e-001 -3.946038e-001 -8.576886e-005 -1.284019e-004 -7.479013e-001 -3.960545e-001
303420000 5.280335e-005 1.345401e-004 -7.519767e-001 -3.718351e-001 2.263368e-005 6.922018e-005 -7.551538e-001 -3.731124e-001
303705000 2.683749e-005 8.691342e-005 -7.587002e-001 -3.486157e-001 6.890793e-005 -3.131349e-005 -7.610715e-001 -3.502932e-001
303990000 8.839260e-005 6.619345e-005 -7.642884e-001 -3.256883e-001 -6.186934e-005 6.782189e-005 -7.671999e-001 -3.267240e-001
304275000 -3.736809e-005 2.760440e-005 -7.688822e-001 -3.031197e-001 -5.337724e-006 1.685545e-005 -7.718450e-001 -3.038734e-001
304560000 9.586511e-005 2.739682e-005 -7.735345e-001 -2.803835e-001 -1.673667e-005 2.468684e-005 -7.768065e-001 -2.816766e-001
304845000 -2.915550e-005 5.523900e-005 -7.775216e-001 -2.579972e-001 -6.506083e-005 -6.057977e-005 -7.802202e-001 -2.589504e-001
305130000 -1.022508e-004 -3.444269e-005 -7.804459e-001 -2.351391e-001 -1.618789e-005 -1.461478e-005 -7.836855e-001 -2.362152e-001
305415000 -5.696413e-005 -5.731009e-005 -7.835444e-001 -2.130382e-001 8.858016e-007 2.695934e-005 -7.868544e-001 -2.139808e-001
305700000 -8.701783e-006 -6.699836e-005 -7.858940e-001 -1.911458e-001 1.409590e-004 1.158002e-004 -7.883152e-001 -1.920917e-001
305985000 2.875744e-005 -3.963577e-005 -7.872289e-001 -1.694777e-001 -4.046201e-005 -1.640478e-005 -7.909775e-001 -1.702423e-001
306270000 1.547451e-005 4.331334e-005 -7.889730e-001 -1.473832e-001 -2.131140e-006 1.692231e-005 -7.919721e-001 -1.482314e-001
306555000 2.797488e-005 -1.173597e-004 -7.892880e-001 -1.258843e-001 -2.981939e-005 9.629288e-005 -7.926738e-001 -1.268492e-001
306840000 -6.441750e-005 -2.904112e-006 -7.900875e-001 -1.043273e-001 8.121318e-005 -1.447237e-007 -7.937567e-001 -1.044431e-001
307125000 6.781359e-005 -5.292642e-005 -7.901686e-001 -8.332301e-002 8.354650e-006 6.835139e-005 -7.928320e-001 -8.335593e-002
307410000 -4.963564e-005 5.298700e-005 -7.890860e-001 -6.234355e-002 -8.495012e-005 7.031085e-005 -7.926676e-001 -6.221910e-002
307695000 7.341675e-005 -1.663753e-005 -7.889068e-001 -4.126002e-002 4.656546e-005 4.239449e-005 -7.915931e-001 -4.152079e-002
307980000 2.474361e-005 -1.248559e-005 -7.873856e-001 -2.040737e-002 -7.528449e-005 1.464655e-005 -7.902060e-001 -2.008559e-002
308265000 1.152628e-005 -5.592628e-005 -7.857620e-001 5.005086e-004 -7.988455e-005 1.610284e-006 -7.889145e-001 3.452641e-004
308550000 9.381142e-005 9.953383e-005 -7.840806e-001 2.055950e-002 9.588999e-006 9.390163e-006 -7.868693e-001 2.073265e-002
308835000 9.453020e-005 -5.300670e-005 -7.815014e-001 4.129225e-002 -8.943511e-005 -8.864049e-005 -7.845742e-001 4.104966e-002
309120000 -7.175669e-006 -6.385268e-006 -7.779896e-001 6.195853e-002 -8.402287e-006 -6.210632e-006 -7.814656e-001 6.199021e-002
309405000 -1.442157e-005 5.770142e-005 -7.749978e-001 8.196551e-002 1.030397e-005 1.590268e-005 -7.780963e-001 8.232401e-002
309690000 -6.337257e-005 8.555739e-005 -7.721328e-001 1.021168e-001 2.411965e-005 -6.506198e-005 -7.748135e-001 1.022573e-001
309975000 2.269742e-005 2.684757e-005 -7.677754e-001 1.215317e-001 1.999632e-005 -4.798422e-005 -7.713264e-001 1.221178e-001
310260000 2.389682e-005 -6.043776e-006 -7.638755e-001 1.414628e-001 -2.840170e-005 1.082891e-005 -7.664918e-001 1.424261e-001
310545000 -2.385789e-005 6.151402e-005 -7.589862e-001 1.612423e-001 -2.321026e-005 -1.614061e-005 -7.619891e-001 1.617141e-001
310830000 -8.328268e-005 -6.279119e-005 -7.541428e-001 1.811639e-001 2.439641e-005 5.615668e-005 -7.568694e-001 1.816160e-001
311115000 -2.102795e-005 -3.464747e-005 -7.489009e-001 2.002947e-001 -6.261149e-005 2.043271e-005 -7.518456e-001 2.012611e-001
311400000 -8.226000e-005 2.492057e-005 -7.428809e-001 2.195082e-001 -1.784992e-005 6.779544e-005 -7.459088e-001 2.205863e-001
311685000 -5.663481e-005 -7.917241e-005 -7.373260e-001 2.388665e-001 -6.214179e-005 1.127048e-004 -7.406177e-001 2.397330e-001
311970000 3.493499e-006 -2.818341e-005 -7.304982e-001 2.577688e-001 -1.292912e-004 7.581128e-005 -7.334104e-001 2.588172e-001
312255000 -1.968660e-005 -7.875144e-005 -7.242175e-001 2.773124e-001 -8.162609e-006 -1.268322e-004 -7.265901e-001 2.780541e-001
312540000 6.426912e-006 -1.256799e-004 -7.168626e-001 2.960123e-001 3.129254e-005 -7.102819e-005 -7.199794e-001 2.970354e-001
312825000 -4.301898e-005 -1.292877e-004 -7.091121e-001 3.146754e-001 3.351607e-005 -1.999054e-005 -7.123351e-001 3.160670e-001
313110000 5.546887e-006 -5.097160e-005 -7.016919e-001 3.337016e-001 3.179082e-005 3.739527e-005 -7.035536e-001 3.353082e-001
313395000 -5.496501e-005 -3.270688e-005 -6.933764e-001 3.517364e-001 -6.559326e-005 -1.145447e-004 -6.961654e-001 3.538633e-001
313680000 1.972539e-005 -1.485353e-005 -6.847521e-001 3.710336e-001 6.026117e-005 -3.585126e-005 -6.873514e-001 3.726780e-001
313965000 7.324795e-005 -4.569694e-005 -6.753193e-001 3.894265e-001 3.562722e-005 -1.071923e-005 -6.786204e-001 3.909493e-001
314250000 7.969367e-005 3.790555e-005 -6.660473e-001 4.081312e-001 2.747577e-005 -5.147923e-005 -6.693017e-001 4.098022e-001
314535000 1.464646e-005 -7.052103e-005 -6.562762e-001 4.262016e-001 -4.265607e-005 2.236276e-006 -6.589280e-001 4.286609e-001
314820000 -8.221800e-006 2.691661e-005 -6.461728e-001 4.448637e-001 -2.407358e-005 -1.379956e-005 -6.485482e-001 4.464781e-001
315105000 -2.337581e-006 -3.958133e-005 -6.355400e-001 4.632227e-001 -5.454391e-005 1.364997e-005 -6.382222e-001 4.643628e-001
315390000 3.150966e-005 1.403711e-004 -6.243184e-001 4.812582e-001 -3.150685e-005 -2.534642e-005 -6.271443e-001 4.829722e-001
315675000 -5.816207e-005 7.091184e-005 -6.129618e-001 4.987371e-001 5.763275e-005 -4.996806e-005 -6.148815e-001 5.010700e-001
315960000 -1.097853e-004 -3.697262e-006 -6.010283e-001 5.171843e-001 -4.358188e-005 -1.896576e-005 -6.033574e-001 5.192221e-001
316245000 3.602190e-005 -3.862793e-005 -5.882432e-001 5.344857e-001 8.974629e-006 4.476617e-005 -5.904859e-001 5.368216e-001
316530000 3.809048e-005 -1.499780e-005 -5.754028e-001 5.524646e-001 1.384133e-005 -6.642251e-007 -5.779939e-001 5.550460e-001
316815000 -3.682177e-005 -1.988172e-005 -5.619347e-001 5.700710e-001 1.322884e-005 1.256793e-004 -5.644166e-001 5.721793e-001
317100000 -7.372058e-005 7.715204e-005 -5.487563e-001 5.879088e-001 -5.119905e-005 -1.233179e-004 -5.506625e-001 5.901415e-001
317385000 7.874118e-005 -5.540530e-005 -5.337347e-001 6.051827e-001 2.301193e-005 -8.215308e-005 -5.358164e-001 6.074252e-001
317670000 1.987017e-006 -7.428669e-005 -5.186793e-001 6.222290e-001 -6.924618e-005 7.280765e-006 -5.211879e-001 6.250721e-001
317955000 -1.482605e-006 1.121177e-004 -5.031286e-001 6.387547e-001 -1.610848e-006 -3.031723e-005 -5.053888e-001 6.419107e-001
318240000 7.447012e-005 6.784162e-005 -4.868560e-001 6.562236e-001 8.657024e-006 -7.746985e-005 -4.891265e-001 6.591319e-001
318525000 1.399055e-004 1.564933e-005 -4.701255e-001 6.724813e-001 -3.818663e-005 -1.339642e-004 -4.723950e-001 6.755198e-001
318810000 -1.031214e-004 -1.824725e-006 -4.530169e-001 6.890556e-001 1.114428e-004 -1.193886e-004 -4.545045e-001 6.923853e-001
319095000 6.229537e-005 -7.987508e-005 -4.352288e-001 7.049446e-001 -1.091549e-005 2.614861e-005 -4.371219e-001 7.085630e-001
319380000 -4.008385e-005 -1.226008e-004 -4.165883e-001 7.212176e-001 -4.881791e-005 -4.716020e-005 -4.183446e-001 7.245126e-001
319665000 7.080849e-005 6.743381e-005 -3.975417e-001 7.370737e-001 -6.437915e-005 -5.966938e-005 -3.991365e-001 7.397076e-001
319950000 9.365277e-005 -3.975047e-005 -3.773884e-001 7.519631e-001 2.771933e-005 3.336712e-005 -3.791586e-001 7.557545e-001
320235000 -8.728279e-005 4.094354e-005 -3.564576e-001 7.677825e-001 7.215203e-006 -3.756081e-005 -3.586117e-001 7.708465e-001
320520000 9.565041e-005 1.987117e-005 -3.358932e-001 7.823350e-001 2.568688e-005 1.267582e-004 -3.372075e-001 7.853755e-001
320805000 -1.403074e-004 3.975458e-005 -3.137989e-001 7.962872e-001 -1.083934e-004 3.166066e-005 -3.145337e-001 7.995690e-001
321090000 -1.565224e-004 -4.102872e-005 -2.909310e-001 8.103146e-001 2.738125e-006 2.237281e-005 -2.922332e-001 8.135515e-001
321375000 -1.119694e-004 -1.558408e-004 -2.674360e-001 8.235884e-001 -2.597983e-005 -2.072637e-005 -2.686603e-001 8.268723e-001
321660000 3.676700e-005 -5.571004e-005 -2.436092e-001 8.372547e-001 3.573207e-005 -6.295800e-005 -2.447993e-001 8.401393e-001
321945000 6.426233e-005 -8.331865e-005 -2.183053e-001 8.490487e-001 -1.347332e-005 5.644153e-005 -2.192392e-001 8.525929e-001
322230000 -2.817563e-005 -1.244221e-004 -1.931258e-001 8.611323e-001 5.553378e-005 1.124884e-006 -1.932702e-001 8.646330e-001
322515000 -5.177766e-006 -6.357863e-005 -1.662742e-001 8.720255e-001 7.377939e-005 3.352066e-005 -1.667629e-001 8.754773e-001
322800000 5.786386e-005 -7.379291e-005 -1.394279e-001 8.823734e-001 -6.141523e-005 4.617869e-005 -1.405677e-001 8.865048e-001
323085000 1.236508e-004 -4.094146e-006 -1.112765e-001 8.925373e-001 -9.794115e-005 4.314401e-005 -1.123184e-001 8.962513e-001
323370000 1.333795e-004 1.528361e-005 -8.296610e-002 9.009331e-001 -2.436937e-005 2.221374e-006 -8.351009e-002 9.049658e-001
323655000 7.576303e-005 3.103862e-005 -5.340156e-002 9.092787e-001 -9.857275e-005 3.557730e-005 -5.373006e-002 9.133913e-001
323940000 1.148572e-004 3.949303e-005 -2.312363e-002 9.165415e-001 -2.384976e-005 -8.526621e-005 -2.342078e-002 9.203227e-001
324225000 -6.617480e-007 -1.076834e-005 7.413699e-003 9.230061e-001 -6.938599e-005 4.924299e-005 7.383126e-003 9.267923e-001
324510000 2.883016e-005 -3.579567e-005 3.900332e-002 9.280581e-001 -1.216357e-005 2.947914e-005 3.899054e-002 9.319569e-001
324795000 -9.213066e-006 -4.374293e-005 7.030353e-002 9.322117e-001 -9.531571e-005 -4.305455e-005 7.133570e-002 9.360456e-001
325080000 -8.426697e-005 1.135023e-005 1.034717e-001 9.350736e-001 -3.447290e-005 -3.418016e-005 1.038102e-001 9.386262e-001
325365000 -3.732904e-005 5.410292e-005 1.370347e-001 9.364673e-001 -3.779019e-005 1.309154e-005 1.374920e-001 9.404787e-001
325650000 -8.150052e-005 -5.192704e-005 1.709515e-001 9.367998e-001 -8.374624e-005 -3.214815e-006 1.712811e-001 9.405922e-001
325935000 -1.112539e-004 -8.777029e-005 2.052293e-001 9.358157e-001 -5.798535e-005 -2.181883e-006 2.062712e-001 9.401249e-001
326220000 -1.569509e-005 1.875707e-005 2.402382e-001 9.336691e-001 -6.908418e-005 9.569998e-005 2.405572e-001 9.381198e-001
326505000 2.900914e-005 -3.317667e-005 2.749365e-001 9.301458e-001 9.618489e-005 -1.610567e-005 2.761385e-001 9.335267e-001
326790000 -3.076062e-005 -4.084796e-005 3.100697e-001 9.247670e-001 4.196344e-005 -1.720324e-005 3.113750e-001 9.284310e-001
327075000 5.824289e-005 6.332435e-005 3.461211e-001 9.176893e-001 2.773022e-005 1.024110e-004 3.474079e-001 9.213805e-001
327360000 5.752525e-006 -1.099172e-004 3.815685e-001 9.090676e-001 -2.462602e-005 9.999948e-005 3.834704e-001 9.120950e-001
327645000 -9.029677e-005 -3.976183e-005 4.169117e-001 8.991350e-001 -3.624233e-005 5.552935e-005 4.190930e-001 9.028632e-001
327930000 9.589634e-006 6.259975e-005 4.528533e-001 8.868494e-001 3.772162e-006 -5.264604e-005 4.544604e-001 8.906255e-001
328215000 1.709087e-004 -1.269640e-005 4.887162e-001 8.732069e-001 -6.593801e-005 -7.801966e-005 4.904384e-001 8.771539e-001
328500000 2.992464e-005 3.706971e-005 5.230603e-001 8.577126e-001 1.083804e-005 -1.506084e-004 5.258417e-001 8.617581e-001
328785000 -1.649884e-005 1.147927e-004 5.585975e-001 8.407438e-001 3.480407e-005 1.945677e-005 5.606701e-001 8.443031e-001
329070000 2.364949e-006 -5.798853e-005 5.922980e-001 8.215855e-001 1.264740e-004 -2.211965e-005 5.944216e-001 8.251845e-001
329355000 8.017407e-006 -4.429228e-005 6.255773e-001 8.012537e-001 -1.876450e-005 6.754270e-005 6.290661e-001 8.042060e-001
329640000 -3.094231e-005 -4.351382e-005 6.580483e-001 7.784586e-001 7.401879e-005 3.994389e-005 6.614910e-001 7.820518e-001
329925000 -4.756302e-005 -3.891838e-005 6.902466e-001 7.541759e-001 -9.458507e-005 -3.640292e-005 6.933090e-001 7.573999e-001
330210000 1.733128e-005 7.897500e-005 7.217925e-001 7.285951e-001 3.220888e-005 -4.375485e-005 7.245882e-001 7.314454e-001
330495000 6.763555e-005 7.044816e-005 7.513635e-001 7.015975e-001 -5.143726e-006 -3.001596e-005 7.545889e-001 7.040971e-001
330780000 -2.680120e-005 1.515566e-005 7.802150e-001 6.724912e-001 5.402051e-005 -1.556593e-004 7.830892e-001 6.750311e-001
331065000 7.117263e-005 1.174056e-004 8.072052e-001 6.415104e-001 5.014255e-006 -8.684671e-005 8.103633e-001 6.445183e-001
331350000 9.819726e-005 3.060292e-006 8.331515e-001 6.099494e-001 -6.953320e-005 1.800838e-005 8.365904e-001 6.124352e-001
331635000 -8.606184e-006 2.667273e-005 8.572619e-001 5.773438e-001 3.001006e-005 -5.924882e-005 8.610271e-001 5.794592e-001
331920000 -4.968277e-006 6.010015e-005 8.796353e-001 5.434396e-001 4.676131e-005 -1.288358e-006 8.831676e-001 5.451541e-001
332205000 4.116408e-005 3.255251e-005 9.003318e-001 5.077436e-001 8.508863e-005 -2.523334e-005 9.037839e-001 5.098498e-001
332490000 -8.175794e-005 -7.462607e-005 9.187296e-001 4.713690e-001 -9.978813e-006 2.747912e-005 9.237133e-001 4.737374e-001
332775000 -6.107493e-005 8.213079e-005 9.363431e-001 4.343588e-001 6.273522e-005 3.412128e-005 9.410589e-001 4.361190e-001
333060000 8.001102e-006 8.127039e-005 9.522561e-001 3.964423e-001 -4.033830e-005 -4.382696e-005 9.558359e-001 3.979687e-001
333345000 -6.881116e-005 -3.085276e-005 9.658864e-001 3.579407e-001 -5.418587e-005 2.215351e-005 9.697027e-001 3.597476e-001
333630000 5.815437e-005 7.202943e-005 9.769774e-001 3.192930e-001 -8.893837e-005 2.305731e-005 9.816684e-001 3.212515e-001
333915000 1.106117e-005 5.790575e-005 9.865977e-001 2.798100e-001 -2.202882e-005 3.338813e-005 9.909914e-001 2.814303e-001
334200000 1.988523e-005 2.735241e-005 9.941003e-001 2.409102e-001 -1.231418e-005 4.174230e-005 9.983310e-001 2.422937e-001
334485000 -4.410140e-005 2.137755e-005 1.000136e+000 2.017057e-001 -5.565687e-005 4.612402e-005 1.004372e+000 2.021825e-001
334770000 -1.820293e-005 4.988406e-005 1.003801e+000 1.620623e-001 -6.716898e-005 6.520933e-005 1.008187e+000 1.631016e-001
335055000 1.015165e-004 -1.292127e-004 1.005992e+000 1.237783e-001 -7.908436e-005 1.558482e-004 1.010233e+000 1.234091e-001
335340000 1.127955e-004 5.525802e-006 1.006034e+000 8.429158e-002 3.109397e-005 -8.138737e-005 1.011033e+000 8.452058e-002
335625000 -2.518115e-005 1.931347e-005 1.003975e+000 4.629895e-002 -1.911428e-005 4.711984e-005 1.008958e+000 4.639350e-002
335910000 -9.774060e-006 3.641786e-005 1.001227e+000 7.494532e-003 -9.393300e-005 -3.560365e-005 1.005168e+000 8.323561e-003
336195000 6.011753e-007 2.323375e-005 9.959372e-001 -2.926468e-002 -1.834422e-005 -7.804512e-005 1.000589e+000 -2.895129e-002
336480000 -1.542530e-005 -1.372159e-004 9.893526e-001 -6.541111e-002 -3.416712e-005 2.112990e-005 9.937078e-001 -6.597040e-002
336765000 -9.235862e-005 1.659294e-005 9.816294e-001 -1.009983e-001 2.133134e-006 -2.837699e-005 9.853634e-001 -1.008918e-001
337050000 -5.091967e-005 -1.094585e-005 9.714113e-001 -1.361680e-001 5.119393e-005 1.089729e-004 9.758767e-001 -1.368275e-001
337335000 -6.198708e-006 -7.883984e-006 9.607801e-001 -1.705216e-001 1.942196e-005 -3.332687e-005 9.654643e-001 -1.714107e-001
337620000 -1.725569e-005 2.389075e-005 9.486217e-001 -2.035004e-001 3.015426e-005 -9.707496e-007 9.526095e-001 -2.048975e-001
337905000 -2.842993e-005 -1.158939e-004 9.355816e-001 -2.361424e-001 -3.738672e-005 -1.361883e-004 9.396982e-001 -2.369063e-001
338190000 1.145717e-005 2.505036e-005 9.207623e-001 -2.673442e-001 -4.978083e-005 1.515289e-005 9.248838e-001 -2.692160e-001
338475000 -6.414454e-005 3.766543e-005 9.058905e-001 -2.973983e-001 8.714305e-005 1.476357e-005 9.102483e-001 -2.989098e-001
338760000 -1.194864e-004 -1.267832e-004 8.891398e-001 -3.268771e-001 -1.641336e-005 -2.447284e-005 8.937564e-001 -3.284129e-001
339045000 1.518618e-005 -9.070439e-005 8.718976e-001 -3.547634e-001 5.267122e-005 4.717954e-005 8.764495e-001 -3.563555e-001
339330000 -7.113186e-008 -4.563866e-005 8.545247e-001 -3.814162e-001 2.058675e-005 2.634379e-005 8.578043e-001 -3.832621e-001
339615000 8.125394e-005 3.801952e-005 8.360801e-001 -4.081347e-001 7.418360e-005 -6.473568e-005 8.394945e-001 -4.094465e-001
339900000 -3.698204e-005 1.528652e-004 8.170184e-001 -4.333369e-001 1.443303e-004 -6.166637e-005 8.207353e-001 -4.349351e-001
340185000 -9.724617e-005 3.340213e-005 7.979910e-001 -4.565684e-001 7.723464e-005 -1.650374e-005 8.004422e-001 -4.584371e-001
340470000 -3.135452e-005 4.116309e-005 7.776155e-001 -4.793274e-001 1.038441e-004 -1.410736e-005 7.803008e-001 -4.812635e-001
340755000 -4.015716e-005 -5.128662e-005 7.561703e-001 -5.013273e-001 4.503686e-005 7.355009e-005 7.592016e-001 -5.030966e-001
341040000 -1.078141e-006 -3.143603e-005 7.351539e-001 -5.218204e-001 -6.775976e-005 -2.622861e-005 7.386199e-001 -5.240041e-001
341325000 -1.036196e-004 -7.308751e-005 7.134934e-001 -5.419207e-001 9.032602e-005 -1.342368e-005 7.166910e-001 -5.438968e-001
341610000 -4.015032e-005 -3.999537e-005 6.917842e-001 -5.603969e-001 -6.227890e-005 2.433696e-005 6.948127e-001 -5.628896e-001
341895000 3.849484e-005 4.126000e-005 6.697109e-001 -5.786050e-001 -2.326324e-005 -3.512411e-005 6.728628e-001 -5.803831e-001
342180000 -2.650473e-005 -9.350415e-005 6.480563e-001 -5.949486e-001 8.640371e-005 -4.830643e-005 6.508096e-001 -5.971338e-001
342465000 1.453897e-005 -7.765471e-006 6.254696e-001 -6.109776e-001 -4.103927e-005 1.368042e-005 6.283917e-001 -6.129580e-001
342750000 3.585269e-005 -1.496268e-005 6.026599e-001 -6.258374e-001 -5.209316e-005 3.217005e-005 6.055900e-001 -6.286561e-001
343035000 8.289960e-005 -8.260988e-005 5.807233e-001 -6.402872e-001 1.627404e-005 -1.216876e-005 5.824015e-001 -6.430221e-001
343320000 -5.117238e-005 4.949250e-005 5.578666e-001 -6.535961e-001 5.905325e-005 -1.404396e-005 5.599047e-001 -6.564180e-001
343605000 4.117717e-005 3.627851e-005 5.352067e-001 -6.663373e-001 9.619805e-006 -2.213380e-005 5.373154e-001 -6.688681e-001
343890000 8.785279e-005 5.878452e-005 5.128928e-001 -6.778628e-001 -3.404110e-005 1.007444e-004 5.144489e-001 -6.806386e-001
