!Agilent Technologies,N5230C,SG49000117,A.08.50.07
!Agilent N5230C: A.08.50.07
!Date: Sunday, March 17, 2024 02:22:52
!Correction: S11(Off) 
!S21(Off) 
!S12(Off) 
!S22(Off) 
!S2P File: Measurements: S11, S21, S12, S22:
# Hz S  RI   R 50
300000000 -6.352996e-005 -5.631393e-005 -6.386420e-001 -6.282862e-001 -1.357353e-005 -7.443760e-005 -6.406966e-001 -6.308119e-001
300285000 6.836646e-005 -7.752913e-005 -6.533341e-001 -6.051372e-001 1.530549e-005 1.705373e-004 -6.555343e-001 -6.071865e-001
300570000 -5.789082e-006 6.487958e-005 -6.668831e-001 -5.814944e-001 -4.929776e-005 -3.957880e-005 -6.693831e-001 -5.834037e-001
300855000 -8.928900e-005 3.154605e-005 -6.798128e-001 -5.575511e-001 -8.582744e-008 -1.625762e-006 -6.822701e-001 -5.596418e-001
301140000 -1.128687e-004 -8.363635e-005 -6.916263e-001 -5.342070e-001 -2.990946e-005 -6.027628e-005 -6.944119e-001 -5.364242e-001
301425000 3.460783e-006 1.584775e-005 -7.032530e-001 -5.103441e-001 -5.829368e-005 -8.863314e-005 -7.055382e-001 -5.123411e-001
301710000 4.997448e-005 -1.370953e-004 -7.131984e-001 -4.861655e-001 7.826600e-006 1.770168e-005 -7.158859e-001 -4.883074e-001
301995000 -6.139298e-005 -9.382397e-005 -7.228382e-001 -4.628944e-001 1.491780e-005 -8.442940e-005 -7.257418e-001 -4.647219e-001
302280000 9.185085e-005 2.198677e-005 -7.320601e-001 -4.392275e-001 1.088862e-004 -1.339365e-004 -7.345535e-001 -4.409736e-001
302565000 3.503888e-005 7.195031e-005 -7.402654e-001 -4.159336e-001 -3.752984e-005 -2.893086e-005 -7.426163e-001 -4.172454e-001
302850000 -1.785129e-005 4.498202e-005 -7.477990e-001 -3.926876e-001 -6.464652e-006 -2.964991e-005 -7.501445e-001 -3.940109e-001
303135000 8.322170e-005 1.295631e-005 -7.542823e-001 -3.694536e-001 -3.036784e-005 4.422359e-005 -7.569656e-001 -3.703543e-001
303420000 -6.062905e-005 8.106865e-005 -7.603754e-001 -3.459878e-001 5.446741e-005 -1.003762e-005 -7.633863e-001 -3.474975e-001
303705000 -3.329777e-007 -5.586421e-005 -7.655126e-001 -3.232675e-001 4.960294e-005 -1.259097e-006 -7.688959e-001 -3.248155e-001
303990000 8.458307e-005 3.865225e-005 -7.706210e-001 -2.999443e-001 1.121850e-004 5.543860e-005 -7.735757e-001 -3.013456e-001
304275000 -8.576048e-005 1.701840e-006 -7.752784e-001 -2.779887e-001 -3.870495e-005 8.260106e-005 -7.783803e-001 -2.786814e-001
304560000 3.066394e-005 9.540116e-005 -7.792054e-001 -2.548041e-001 3.755913e-005 -2.407839e-005 -7.818395e-001 -2.560942e-001
304845000 7.446089e-005 9.296792e-005 -7.820846e-001 -2.321372e-001 -6.702747e-005 1.191178e-004 -7.849742e-001 -2.335254e-001
305130000 -5.216870e-005 4.974819e-005 -7.848879e-001 -2.099106e-001 -1.252915e-004 -6.348503e-006 -7.870611e-001 -2.113951e-001
305415000 5.542066e-005 1.644880e-005 -7.871692e-001 -1.886389e-001 -1.256005e-004 4.832907e-005 -7.899206e-001 -1.892387e-001
305700000 -7.216007e-007 6.009757e-005 -7.890376e-001 -1.663000e-001 -1.600106e-005 -2.995384e-005 -7.915815e-001 -1.669104e-001
305985000 -1.392036e-005 -4.718277e-005 -7.899988e-001 -1.446537e-001 1.394506e-005 -7.742763e-006 -7.927380e-001 -1.447979e-001
306270000 -8.606008e-005 -1.295615e-005 -7.907115e-001 -1.231581e-001 -4.466479e-005 -1.562117e-004 -7.939406e-001 -1.233407e-001
306555000 -8.478923e-005 -1.604379e-004 -7.908096e-001 -1.013818e-001 3.623707e-005 6.768419e-006 -7.939689e-001 -1.021044e-001
306840000 -1.858395e-005 5.104281e-005 -7.910382e-001 -7.983160e-002 -2.068958e-005 -1.168057e-005 -7.937732e-001 -8.019204e-002
307125000 9.671977e-006 -1.081394e-004 -7.900024e-001 -5.863908e-002 -7.833977e-005 -5.049250e-005 -7.934189e-001 -5.916716e-002
307410000 -2.913318e-005 5.709844e-006 -7.889342e-001 -3.800006e-002 -3.537015e-005 1.761995e-005 -7.921432e-001 -3.755643e-002
307695000 2.200348e-005 -5.736681e-005 -7.876786e-001 -1.705933e-002 -2.034892e-005 1.756463e-005 -7.909791e-001 -1.664383e-002
307980000 -8.557601e-005 -3.989802e-005 -7.865154e-001 3.572532e-003 5.716469e-007 2.426873e-006 -7.891629e-001 4.068519e-003
308265000 -4.024608e-005 2.288351e-005 -7.838156e-001 2.444993e-002 7.177032e-005 -1.008375e-004 -7.869786e-001 2.452677e-002
308550000 -8.482519e-005 -1.153810e-004 -7.814158e-001 4.504028e-002 -1.796075e-005 -4.078375e-005 -7.846057e-001 4.481878e-002
308835000 2.932400e-005 4.396835e-005 -7.782430e-001 6.471593e-002 3.447246e-005 -6.311609e-006 -7.810434e-001 6.530933e-002
309120000 -1.012836e-006 -1.897220e-005 -7.750568e-001 8.513348e-002 -2.317296e-005 6.791988e-006 -7.779039e-001 8.613744e-002
309405000 3.695406e-005 -6.845749e-005 -7.715877e-001 1.053195e-001 8.719198e-005 -9.173180e-005 -7.745984e-001 1.058052e-001
309690000 1.223135e-004 -6.758187e-005 -7.673253e-001 1.256228e-001 1.367663e-005 -4.484667e-006 -7.705846e-001 1.258105e-001
309975000 -2.736847e-005 -5.337480e-005 -7.632456e-001 1.446615e-001 -6.955361e-005 -4.021708e-005 -7.663860e-001 1.459955e-001
310260000 6.817646e-006 -4.139130e-006 -7.582012e-001 1.644592e-001 9.466136e-005 2.771893e-006 -7.612089e-001 1.655620e-001
310545000 4.182889e-005 -4.449455e-005 -7.529091e-001 1.843619e-001 8.276714e-005 -4.210904e-005 -7.561966e-001 1.852490e-001
310830000 4.199881e-005 4.537166e-005 -7.476845e-001 2.039759e-001 2.514599e-005 -4.096476e-005 -7.509902e-001 2.045985e-001
311115000 -3.691912e-005 -7.019856e-006 -7.424506e-001 2.230643e-001 -2.945259e-005 -2.164981e-005 -7.449729e-001 2.243999e-001
311400000 -5.612848e-005 -4.299434e-006 -7.359014e-001 2.424895e-001 -5.842940e-005 -5.904995e-006 -7.390465e-001 2.434882e-001
311685000 4.195717e-005 6.590165e-005 -7.294117e-001 2.617284e-001 -4.367384e-006 -1.174454e-005 -7.318132e-001 2.628666e-001
311970000 -6.882162e-005 -6.981436e-005 -7.223383e-001 2.802976e-001 5.079496e-005 6.970882e-006 -7.254421e-001 2.817183e-001
312255000 1.305634e-005 -3.510791e-005 -7.153996e-001 2.997100e-001 -8.515994e-005 -9.609444e-005 -7.184145e-001 3.005934e-001
312540000 3.691061e-005 -2.447841e-005 -7.080156e-001 3.185209e-001 -1.719140e-006 -1.250258e-004 -7.102075e-001 3.194872e-001
312825000 -3.149710e-005 -7.980154e-005 -6.996670e-001 3.366777e-001 -1.135219e-004 -6.526832e-005 -7.027172e-001 3.385754e-001
313110000 1.065145e-004 -5.085458e-005 -6.913469e-001 3.555675e-001 -3.667565e-006 -1.197670e-004 -6.938412e-001 3.572900e-001
313395000 6.444922e-005 2.597175e-005 -6.826383e-001 3.744237e-001 -4.782420e-005 -1.127566e-005 -6.851668e-001 3.758225e-001
313680000 1.293961e-005 -1.096170e-005 -6.735249e-001 3.927636e-001 -2.520672e-005 -6.539511e-005 -6.760325e-001 3.947387e-001
313965000 5.716688e-005 1.405131e-006 -6.638225e-001 4.108608e-001 -2.527586e-005 2.369455e-005 -6.665784e-001 4.128569e-001
314250000 1.030449e-004 -4.054619e-005 -6.541326e-001 4.296854e-001 6.834513e-005 2.096424e-005 -6.567114e-001 4.315808e-001
314535000 1.081744e-004 1.511141e-004 -6.433969e-001 4.478418e-001 -1.315998e-005 8.752978e-006 -6.457217e-001 4.495128e-001
314820000 1.733141e-005 8.857559e-005 -6.326753e-001 4.662626e-001 1.356303e-004 1.896970e-005 -6.354795e-001 4.678845e-001
315105000 -2.111018e-005 -4.586122e-005 -6.217963e-001 4.842107e-001 2.015496e-007 1.041997e-005 -6.241480e-001 4.858241e-001
315390000 5.024050e-005 9.340888e-006 -6.103309e-001 5.019645e-001 -7.316171e-006 2.858818e-005 -6.123627e-001 5.040084e-001
315675000 -8.716738e-005 8.915004e-005 -5.979506e-001 5.196410e-001 -4.348824e-005 -9.288135e-005 -6.001808e-001 5.223550e-001
315960000 2.846058e-005 6.437847e-005 -5.856062e-001 5.375062e-001 7.202176e-005 5.004432e-005 -5.876629e-001 5.397886e-001
316245000 6.194611e-005 -4.135388e-005 -5.723240e-001 5.552553e-001 9.631503e-005 -5.623475e-005 -5.744944e-001 5.572996e-001
316530000 -4.381743e-006 3.795391e-005 -5.589296e-001 5.732265e-001 7.106314e-005 -2.304101e-005 -5.610950e-001 5.751976e-001
316815000 4.881333e-005 -3.258125e-005 -5.450245e-001 5.905424e-001 -6.370690e-005 -6.179302e-005 -5.467541e-001 5.924642e-001
317100000 4.911658e-005 -7.020618e-005 -5.301937e-001 6.080530e-001 -6.324771e-005 -1.100253e-004 -5.320815e-001 6.105573e-001
317385000 -7.916286e-005 1.707374e-005 -5.149881e-001 6.245750e-001 1.686496e-005 -2.826859e-005 -5.172357e-001 6.274351e-001
317670000 9.008409e-005 -7.405025e-005 -4.992879e-001 6.412451e-001 -2.803069e-005 4.085301e-005 -5.009918e-001 6.439722e-001
317955000 5.582333e-005 -4.606433e-005 -4.828324e-001 6.579279e-001 3.871014e-006 -1.439104e-005 -4.853223e-001 6.612259e-001
318240000 -7.062583e-006 5.572158e-006 -4.665083e-001 6.745495e-001 7.405344e-005 1.378524e-004 -4.682831e-001 6.775201e-001
318525000 3.743231e-005 6.322942e-005 -4.492486e-001 6.911643e-001 3.483656e-005 1.630586e-004 -4.503410e-001 6.935514e-001
318810000 4.197681e-005 4.463317e-005 -4.304768e-001 7.075768e-001 -6.055462e-005 -4.089468e-005 -4.333833e-001 7.101059e-001
319095000 8.469397e-005 3.460652e-006 -4.117982e-001 7.231556e-001 6.982353e-005 -1.081663e-004 -4.138151e-001 7.259161e-001
319380000 1.040285e-004 7.642052e-005 -3.931804e-001 7.387162e-001 -6.153114e-005 -5.031914e-006 -3.947560e-001 7.412806e-001
319665000 3.481305e-006 1.692077e-004 -3.728112e-001 7.536969e-001 -1.064802e-004 -1.477868e-005 -3.748008e-001 7.568510e-001
319950000 -6.439853e-005 7.238146e-006 -3.524294e-001 7.693163e-001 -3.420209e-005 4.267520e-005 -3.538589e-001 7.716202e-001
320235000 -9.728288e-005 4.751421e-005 -3.311910e-001 7.833750e-001 5.473931e-005 9.126925e-005 -3.321584e-001 7.867607e-001
320520000 4.773712e-005 7.675977e-005 -3.093296e-001 7.973395e-001 -7.700257e-005 3.409723e-005 -3.103476e-001 8.011161e-001
320805000 -3.450544e-005 -5.087849e-005 -2.864510e-001 8.114651e-001 1.263075e-005 -7.293830e-005 -2.876993e-001 8.148718e-001
321090000 5.878644e-005 4.938582e-005 -2.630653e-001 8.249947e-001 -4.366253e-005 -5.241424e-006 -2.637989e-001 8.280252e-001
321375000 -5.705492e-005 -1.329573e-005 -2.384346e-001 8.370986e-001 -1.103549e-004 -9.358982e-005 -2.394021e-001 8.408507e-001
321660000 8.548814e-005 -1.480599e-006 -2.141559e-001 8.498799e-001 -7.149275e-006 -9.547345e-005 -2.142116e-001 8.527114e-001
321945000 -1.057699e-004 -2.550352e-005 -1.875212e-001 8.611807e-001 -5.767855e-005 7.214491e-005 -1.885304e-001 8.645068e-001
322230000 -1.552184e-007 1.042749e-004 -1.618685e-001 8.723760e-001 -1.401129e-004 -3.494371e-005 -1.621885e-001 8.758569e-001
322515000 3.159423e-005 -2.997424e-006 -1.343578e-001 8.825253e-001 -4.676774e-005 1.874100e-005 -1.347743e-001 8.861559e-001
322800000 -4.533637e-005 4.735525e-005 -1.066868e-001 8.922243e-001 1.286338e-005 -1.125265e-004 -1.070381e-001 8.959694e-001
323085000 1.904235e-005 1.775552e-006 -7.796643e-002 9.010859e-001 3.884187e-005 4.246674e-007 -7.830235e-002 9.051118e-001
323370000 1.034523e-004 -1.768773e-005 -4.831530e-002 9.090872e-001 -1.042395e-004 -7.282249e-005 -4.857560e-002 9.126393e-001
323655000 8.532275e-005 1.903688e-006 -1.774924e-002 9.156009e-001 -3.614138e-005 1.575379e-005 -1.841687e-002 9.199209e-001
323940000 9.170854e-005 -1.147678e-004 1.269713e-002 9.219581e-001 8.475078e-005 4.109751e-005 1.290394e-002 9.258545e-001
324225000 6.380588e-005 4.822164e-005 4.456794e-002 9.270794e-001 3.536604e-005 -1.221371e-005 4.449350e-002 9.304215e-001
324510000 1.913274e-005 -6.275655e-005 7.626273e-002 9.311174e-001 9.877592e-005 -1.496770e-006 7.656620e-002 9.345548e-001
324795000 -9.494181e-006 1.711338e-004 1.093900e-001 9.336892e-001 -8.754846e-005 1.708543e-005 1.088099e-001 9.374901e-001
325080000 -5.498446e-005 2.456683e-005 1.421320e-001 9.350494e-001 1.061312e-004 -4.630330e-005 1.426100e-001 9.388154e-001
325365000 -2.922529e-006 5.325189e-005 1.760923e-001 9.351898e-001 -1.474477e-004 5.483630e-006 1.764129e-001 9.395855e-001
325650000 -4.484045e-005 6.684515e-005 2.101954e-001 9.340489e-001 -4.643880e-005 -2.226054e-005 2.116195e-001 9.382687e-001
325935000 -1.690473e-005 -5.152484e-005 2.444620e-001 9.317881e-001 -7.899604e-005 5.665998e-005 2.464027e-001 9.355564e-001
326220000 2.692323e-005 1.476565e-005 2.808966e-001 9.275696e-001 -5.544800e-005 2.208014e-005 2.812540e-001 9.312503e-001
326505000 3.053213e-005 -7.415671e-005 3.153219e-001 9.219095e-001 2.006499e-005 9.324372e-005 3.167913e-001 9.259309e-001
326790000 9.182560e-006 -7.761248e-005 3.510255e-001 9.150242e-001 -8.632020e-005 -1.204322e-005 3.524022e-001 9.188025e-001
327075000 1.555403e-005 -9.228999e-006 3.864304e-001 9.061792e-001 -4.744413e-005 3.162657e-005 3.885557e-001 9.097542e-001
327360000 -2.143614e-005 -6.166964e-005 4.220063e-001 8.955386e-001 -5.458519e-005 -1.174958e-004 4.237311e-001 8.991882e-001
327645000 -4.299450e-005 -2.515015e-005 4.581747e-001 8.831186e-001 2.972151e-005 -5.017782e-005 4.597411e-001 8.869101e-001
327930000 -8.850413e-006 3.256575e-005 4.922953e-001 8.696185e-001 -6.317889e-005 -6.459706e-005 4.953964e-001 8.734843e-001
328215000 -1.735788e-005 -1.510486e-005 5.287865e-001 8.538820e-001 -1.530485e-005 -2.934470e-005 5.307703e-001 8.579508e-001
328500000 -1.382215e-005 -1.117602e-004 5.631334e-001 8.366550e-001 5.763928e-005 -7.529312e-005 5.656516e-001 8.397139e-001
328785000 -6.520781e-005 2.384006e-005 5.971812e-001 8.173418e-001 5.045408e-005 -3.134345e-005 5.993229e-001 8.206893e-001
329070000 -6.393572e-005 -2.412600e-005 6.305011e-001 7.960587e-001 1.840217e-005 1.147236e-005 6.328982e-001 7.999425e-001
329355000 1.187961e-006 -5.005109e-005 6.629665e-001 7.738208e-001 3.535069e-005 9.842140e-005 6.664208e-001 7.775134e-001
329640000 1.993501e-005 1.144210e-005 6.941667e-001 7.497813e-001 -1.206105e-005 6.783693e-005 6.976832e-001 7.532196e-001
329925000 1.414353e-005 1.641410e-005 7.248918e-001 7.236508e-001 1.049064e-005 1.354367e-004 7.282177e-001 7.266166e-001
330210000 -2.685899e-005 -4.514166e-005 7.550331e-001 6.960482e-001 4.487306e-005 6.586182e-005 7.580572e-001 6.990712e-001
330495000 2.824097e-005 -5.146135e-005 7.839949e-001 6.672148e-001 1.560398e-005 -1.956333e-005 7.862843e-001 6.696932e-001
330780000 -2.837746e-005 -1.100862e-004 8.099681e-001 6.365905e-001 9.536553e-005 -9.520289e-006 8.138890e-001 6.401682e-001
331065000 -5.551456e-006 -2.639766e-005 8.361490e-001 6.045612e-001 4.595130e-005 2.460597e-005 8.401954e-001 6.073481e-001
331350000 4.840895e-005 7.797654e-008 8.599636e-001 5.716471e-001 -5.340767e-005 8.689679e-006 8.638046e-001 5.746662e-001
331635000 1.187758e-005 8.074729e-005 8.825497e-001 5.372947e-001 -2.414906e-005 5.317762e-005 8.861539e-001 5.399997e-001
331920000 -1.320894e-005 8.785200e-005 9.028501e-001 5.018619e-001 -2.004313e-005 -2.853115e-005 9.069632e-001 5.038719e-001
332205000 -3.468983e-005 6.071651e-005 9.214844e-001 4.652778e-001 -8.775091e-008 1.400564e-004 9.266351e-001 4.670067e-001
332490000 5.029890e-005 -3.250462e-006 9.392776e-001 4.280998e-001 -3.783465e-005 3.044529e-005 9.434202e-001 4.300256e-001
332775000 -9.925858e-005 -2.011568e-005 9.542407e-001 3.903624e-001 2.639141e-005 -1.458286e-005 9.581515e-001 3.921409e-001
333060000 1.050009e-004 -3.500282e-006 9.674569e-001 3.517644e-001 -6.110291e-005 -3.755512e-005 9.717058e-001 3.532730e-001
333345000 -6.278034e-005 8.747989e-005 9.787506e-001 3.129344e-001 9.826724e-005 1.134363e-005 9.829683e-001 3.140885e-001
333630000 -1.905214e-005 -5.158003e-006 9.887220e-001 2.740065e-001 5.505671e-005 3.175702e-005 9.927576e-001 2.750874e-001
333915000 -4.012028e-005 2.299471e-005 9.950458e-001 2.346352e-001 4.509771e-005 1.575292e-005 1.000219e+000 2.356110e-001
334200000 -4.062819e-005 -4.777041e-005 1.001136e+000 1.951066e-001 5.573149e-005 -7.817696e-005 1.005091e+000 1.961371e-001
334485000 5.461761e-005 -4.568858e-006 1.004623e+000 1.556496e-001 -8.517479e-005 3.485162e-005 1.008884e+000 1.559866e-001
334770000 -1.291838e-004 -8.118479e-005 1.006429e+000 1.163347e-001 -5.860128e-005 1.827613e-007 1.010703e+000 1.170129e-001
335055000 -8.588131e-005 6.820291e-005 1.006700e+000 7.794030e-002 -3.637445e-005 9.890748e-005 1.010973e+000 7.798325e-002
335340000 -2.541369e-005 9.416856e-006 1.004535e+000 3.971925e-002 1.655669e-004 6.444184e-006 1.008758e+000 3.976492e-002
335625000 -4.509848e-006 -3.478739e-005 1.001034e+000 1.580754e-003 9.952271e-005 7.210055e-005 1.005499e+000 1.185625e-003
335910000 5.530858e-005 -7.418482e-005 9.954807e-001 -3.638171e-002 -4.427769e-005 4.718961e-005 9.996204e-001 -3.623000e-002
336195000 -1.318678e-005 -3.047696e-005 9.887014e-001 -7.272462e-002 1.137169e-005 3.628176e-005 9.930952e-001 -7.312252e-002
336480000 -7.098480e-005 -9.705963e-005 9.806197e-001 -1.084341e-001 -2.093505e-005 4.651714e-005 9.846242e-001 -1.098628e-001
336765000 3.622000e-005 -5.625105e-005 9.707529e-001 -1.429271e-001 1.852911e-006 6.883536e-005 9.751381e-001 -1.439722e-001
337050000 -7.437355e-005 -1.271055e-004 9.598891e-001 -1.778920e-001 -4.565280e-005 2.680196e-007 9.631799e-001 -1.785612e-001
337335000 3.299978e-005 2.807138e-005 9.469669e-001 -2.102325e-001 -7.152801e-007 -2.088892e-005 9.519962e-001 -2.118337e-001
337620000 -1.730832e-005 -6.894699e-005 9.335105e-001 -2.428056e-001 9.164494e-006 -7.525035e-006 9.377049e-001 -2.438959e-001
337905000 6.454359e-005 -2.704276e-005 9.191140e-001 -2.744828e-001 -1.304649e-007 -8.279493e-005 9.232604e-001 -2.754737e-001
338190000 1.050440e-004 -5.946541e-005 9.036346e-001 -3.043455e-001 -4.118724e-005 1.883440e-005 9.077312e-001 -3.054159e-001
338475000 9.470207e-005 2.163777e-005 8.871919e-001 -3.329129e-001 -2.948421e-005 3.582389e-005 8.910766e-001 -3.348816e-001
338760000 9.558173e-005 1.655011e-005 8.696496e-001 -3.616502e-001 -2.813207e-005 4.226094e-005 8.733642e-001 -3.628584e-001
339045000 8.975334e-006 1.082452e-004 8.515548e-001 -3.881334e-001 -1.005037e-004 7.311601e-005 8.553410e-001 -3.903877e-001
339330000 -6.035260e-005 8.563066e-005 8.333383e-001 -4.144800e-001 -7.659825e-005 2.938166e-005 8.360380e-001 -4.159965e-001
339615000 -1.136556e-004 3.889230e-005 8.135859e-001 -4.388427e-001 -1.061340e-004 -4.560874e-005 8.169106e-001 -4.408045e-001
339900000 -4.660315e-005 1.105495e-004 7.934653e-001 -4.629586e-001 -2.126133e-005 -7.831467e-005 7.970351e-001 -4.649325e-001
340185000 -1.161045e-004 5.197172e-007 7.733408e-001 -4.853846e-001 -5.611822e-005 2.784409e-005 7.764928e-001 -4.869878e-001
340470000 -4.434480e-005 -3.188932e-005 7.515215e-001 -5.071400e-001 2.480915e-005 -7.887853e-005 7.550484e-001 -5.092178e-001
340755000 -7.749192e-005 -3.464128e-005 7.311122e-001 -5.275186e-001 6.767953e-005 -1.203537e-004 7.338000e-001 -5.293629e-001
341040000 -7.643361e-005 -7.747870e-006 7.094432e-001 -5.467827e-001 -1.614354e-005 -5.968001e-005 7.119983e-001 -5.493500e-001
341325000 -5.524771e-005 -1.239748e-004 6.868985e-001 -5.656076e-001 3.408984e-005 5.812857e-005 6.899462e-001 -5.681767e-001
341610000 2.404915e-005 -1.448440e-004 6.651070e-001 -5.830479e-001 -4.582827e-005 -9.625752e-006 6.676493e-001 -5.858448e-001
341895000 -2.554729e-005 -1.453128e-004 6.427848e-001 -5.999938e-001 2.371795e-007 4.458301e-005 6.455737e-001 -6.022187e-001
342180000 6.345005e-005 -1.745682e-005 6.199955e-001 -6.159846e-001 4.562101e-005 -9.676354e-006 6.228648e-001 -6.187127e-001
342465000 -3.002691e-005 4.950016e-005 5.974201e-001 -6.305662e-001 -1.647712e-005 -4.815426e-005 6.002320e-001 -6.333005e-001
342750000 5.117929e-005 5.841026e-006 5.749973e-001 -6.451214e-001 -4.027378e-007 -1.752869e-005 5.769672e-001 -6.474968e-001
343035000 -6.189266e-005 8.549921e-005 5.521343e-001 -6.581768e-001 -6.251341e-005 2.490465e-005 5.545791e-001 -6.609126e-001
343320000 5.409119e-006 8.413347e-005 5.298933e-001 -6.702784e-001 -1.108681e-004 7.583284e-005 5.316373e-001 -6.730122e-001
343605000 3.731333e-005 1.256532e-004 5.071557e-001 -6.816535e-001 -1.435707e-005 3.669408e-005 5.085890e-001 -6.847902e-001
343890000 1.070047e-004 9.449966e-005 4.838254e-001 -6.927093e-001 -2.262595e-005 6.235130e-005 4.857204e-001 -6.953730e-001
