!Agilent Technologies,N5230C,SG49000117,A.08.50.07
!Agilent N5230C: A.08.50.07
!Date: Sunday, March 17, 2024 02:28:12
!Correction: S11(Off) 
!S21(Off) 
!S12(Off) 
!S22(Off) 
!S2P File: Measurements: S11, S21, S12, S22:
# Hz S  RI   R 50
300000000 1.049551e-005 -1.455204e-006 -6.585892e-001 -5.955002e-001 -7.146745e-005 -6.457276e-006 -6.611336e-001 -5.985577e-001
300285000 1.251791e-004 -2.723784e-005 -6.727884e-001 -5.724956e-001 9.645851e-005 6.231308e-008 -6.742271e-001 -5.744942e-001
300570000 9.370186e-006 -4.144401e-005 -6.849473e-001 -5.489303e-001 -1.758320e-005 4.230931e-005 -6.873980e-001 -5.502205e-001
300855000 -3.699995e-005 1.698652e-005 -6.966892e-001 -5.245458e-001 5.040555e-005 1.929344e-005 -6.989963e-001 -5.266640e-001
301140000 5.871091e-005 -1.551264e-005 -7.077057e-001 -5.012497e-001 6.368251e-005 6.206361e-005 -7.099633e-001 -5.032486e-001
301425000 1.792192e-005 2.293269e-005 -7.171797e-001 -4.764380e-001 -8.849800e-005 -1.927822e-005 -7.202242e-001 -4.793902e-001
301710000 7.805722e-005 1.422162e-005 -7.269661e-001 -4.536484e-001 1.643114e-005 3.025802e-005 -7.295519e-001 -4.556318e-001
301995000 1.927792e-005 6.681920e-005 -7.352311e-001 -4.298354e-001 1.301264e-005 9.612920e-005 -7.384293e-001 -4.319394e-001
302280000 7.064058e-005 3.786720e-005 -7.432283e-001 -4.065381e-001 -1.273479e-005 2.321573e-005 -7.461380e-001 -4.078711e-001
302565000 -2.298225e-005 5.501781e-005 -7.507079e-001 -3.832337e-001 -3.605524e-005 1.109103e-004 -7.535934e-001 -3.841796e-001
302850000 4.316146e-005 -1.319301e-006 -7.572766e-001 -3.593000e-001 -1.167827e-005 7.638559e-005 -7.600145e-001 -3.606227e-001
303135000 -5.151730e-005 7.218001e-005 -7.630550e-001 -3.366134e-001 -1.056101e-004 9.370033e-005 -7.658082e-001 -3.380012e-001
303420000 -5.001286e-005 8.191011e-005 -7.684001e-001 -3.135794e-001 -5.277714e-005 3.379517e-005 -7.707001e-001 -3.145247e-001
303705000 -8.405059e-005 -4.153959e-005 -7.731422e-001 -2.899722e-001 8.530247e-005 -1.539200e-004 -7.760390e-001 -2.916922e-001
303990000 1.637054e-004 1.180253e-004 -7.767631e-001 -2.677936e-001 5.391383e-005 -1.346666e-005 -7.804380e-001 -2.685990e-001
304275000 4.909992e-005 1.003156e-005 -7.805362e-001 -2.451406e-001 -3.652064e-006 -7.758918e-006 -7.835534e-001 -2.458930e-001
304560000 -6.874440e-005 -1.385051e-005 -7.837362e-001 -2.232105e-001 -5.428458e-008 -7.131127e-005 -7.864382e-001 -2.236770e-001
304845000 5.747110e-005 1.365068e-005 -7.861009e-001 -2.003427e-001 7.539571e-006 -1.256207e-004 -7.889802e-001 -2.008168e-001
305130000 1.137073e-004 5.074904e-008 -7.878852e-001 -1.780521e-001 1.269033e-004 1.911813e-005 -7.909899e-001 -1.788219e-001
305415000 5.117364e-005 -1.095334e-004 -7.892072e-001 -1.561290e-001 -9.814472e-006 -7.254252e-005 -7.923992e-001 -1.569633e-001
305700000 1.283901e-005 1.461055e-005 -7.899876e-001 -1.346563e-001 8.115009e-005 -1.210916e-005 -7.934522e-001 -1.348152e-001
305985000 1.330919e-005 5.157133e-005 -7.907581e-001 -1.126845e-001 7.035807e-005 -3.810556e-005 -7.938656e-001 -1.132480e-001
306270000 9.691763e-005 6.385228e-005 -7.909772e-001 -9.138253e-002 -1.168818e-005 -1.020017e-004 -7.939807e-001 -9.141831e-002
306555000 8.504131e-005 -7.338270e-005 -7.905629e-001 -6.983703e-002 -6.546223e-005 6.907385e-005 -7.933860e-001 -7.032656e-002
306840000 -1.100566e-005 5.827381e-005 -7.897207e-001 -4.881214e-002 4.696038e-005 2.179043e-005 -7.920727e-001 -4.918889e-002
307125000 5.958798e-005 1.264154e-004 -7.881464e-001 -2.800214e-002 -1.005854e-005 6.989649e-005 -7.914614e-001 -2.800036e-002
307410000 -3.911685e-005 6.212902e-005 -7.867984e-001 -6.864537e-003 -2.570658e-005 1.593030e-005 -7.899505e-001 -6.917931e-003
307695000 5.169449e-005 5.420146e-005 -7.848113e-001 1.393576e-002 -8.496821e-005 7.927027e-006 -7.874322e-001 1.416746e-002
307980000 -2.871930e-005 1.471044e-005 -7.820817e-001 3.419819e-002 -9.937819e-006 -1.190670e-004 -7.855346e-001 3.419387e-002
308265000 -5.075389e-005 3.083008e-006 -7.796082e-001 5.492688e-002 2.571833e-005 -1.059973e-005 -7.823512e-001 5.468274e-002
308550000 2.740577e-005 1.170240e-004 -7.758992e-001 7.469594e-002 1.895956e-005 -1.835509e-005 -7.794998e-001 7.554080e-002
308835000 -5.907676e-007 5.048232e-005 -7.728844e-001 9.505150e-002 4.343513e-005 -8.270482e-005 -7.751294e-001 9.498917e-002
309120000 1.914325e-005 2.349158e-005 -7.688289e-001 1.154366e-001 7.788027e-006 -6.365302e-006 -7.718076e-001 1.155352e-001
309405000 -4.400867e-005 -2.232773e-005 -7.648015e-001 1.355783e-001 3.363256e-005 -2.375533e-006 -7.675827e-001 1.351786e-001
309690000 5.989517e-006 -6.780989e-005 -7.603323e-001 1.552246e-001 -2.693078e-005 -2.516541e-005 -7.626340e-001 1.555969e-001
309975000 2.600199e-005 -2.075618e-004 -7.548795e-001 1.746514e-001 -9.739257e-005 1.322323e-005 -7.575349e-001 1.749085e-001
310260000 -7.755255e-005 -1.019502e-004 -7.495127e-001 1.939379e-001 5.998655e-005 6.660837e-005 -7.520607e-001 1.947508e-001
310545000 4.759499e-005 2.690540e-006 -7.438923e-001 2.137737e-001 -8.907306e-006 -5.208110e-005 -7.468411e-001 2.144282e-001
310830000 2.511786e-006 -2.056508e-005 -7.380396e-001 2.324137e-001 7.076929e-006 -7.427135e-005 -7.412605e-001 2.337631e-001
311115000 -1.340788e-005 3.994836e-005 -7.317021e-001 2.518201e-001 -6.389244e-005 -2.702556e-005 -7.339267e-001 2.527798e-001
311400000 5.737106e-006 -1.019924e-004 -7.245912e-001 2.707167e-001 2.435235e-005 -4.051299e-005 -7.276540e-001 2.718442e-001
311685000 6.011459e-005 3.637320e-005 -7.177224e-001 2.898465e-001 -9.901412e-005 1.213202e-005 -7.199089e-001 2.913424e-001
311970000 8.425903e-005 -2.693568e-005 -7.100348e-001 3.087904e-001 7.073458e-005 -6.702477e-005 -7.127695e-001 3.102744e-001
312255000 2.601967e-007 3.198496e-005 -7.027211e-001 3.280701e-001 -1.110470e-004 -1.135623e-005 -7.051669e-001 3.285769e-001
312540000 2.974694e-005 9.825536e-005 -6.939438e-001 3.459576e-001 1.727248e-005 4.662095e-005 -6.970944e-001 3.473954e-001
312825000 -7.775763e-005 -1.141076e-004 -6.850171e-001 3.647032e-001 7.732234e-005 5.739373e-005 -6.881629e-001 3.665562e-001
313110000 -7.767714e-005 7.678410e-005 -6.763215e-001 3.833351e-001 5.823305e-006 -4.705814e-005 -6.791030e-001 3.854843e-001
313395000 -3.362760e-005 -5.539323e-006 -6.668726e-001 4.013292e-001 -8.328527e-005 -8.341498e-005 -6.696191e-001 4.033135e-001
313680000 -2.012750e-004 -8.120241e-005 -6.570680e-001 4.199420e-001 2.916695e-005 2.598844e-005 -6.597908e-001 4.218122e-001
313965000 1.673540e-005 -5.735807e-005 -6.474278e-001 4.382985e-001 2.206685e-005 -2.914518e-005 -6.494566e-001 4.396127e-001
314250000 3.507847e-005 7.525077e-006 -6.366142e-001 4.563479e-001 -6.648953e-005 7.922466e-005 -6.385894e-001 4.586702e-001
314535000 7.502254e-005 7.950764e-005 -6.254944e-001 4.746010e-001 -2.292840e-005 1.457506e-005 -6.278921e-001 4.761523e-001
314820000 2.770610e-006 -8.411045e-005 -6.143601e-001 4.925369e-001 8.854953e-005 9.137885e-005 -6.161847e-001 4.939411e-001
315105000 2.767278e-005 -6.439839e-005 -6.020849e-001 5.103781e-001 -8.175631e-005 -5.002907e-005 -6.043454e-001 5.122306e-001
315390000 -6.452965e-005 -3.712940e-005 -5.898023e-001 5.277614e-001 -4.863112e-005 1.371136e-004 -5.925034e-001 5.301737e-001
315675000 5.884100e-005 1.751089e-005 -5.769076e-001 5.454462e-001 -6.012350e-005 -6.219216e-005 -5.791759e-001 5.472295e-001
315960000 1.312157e-004 -2.366722e-005 -5.634910e-001 5.628202e-001 -6.728324e-005 5.482366e-005 -5.658172e-001 5.648165e-001
316245000 1.226055e-004 1.236567e-004 -5.498063e-001 5.804950e-001 -3.570701e-005 1.996113e-005 -5.518603e-001 5.827259e-001
316530000 3.229818e-006 8.312324e-005 -5.351555e-001 5.977617e-001 4.580622e-006 9.783694e-006 -5.374388e-001 5.998657e-001
316815000 -5.636652e-005 -4.259930e-005 -5.207086e-001 6.148019e-001 -1.825139e-005 -6.802881e-006 -5.227922e-001 6.171938e-001
317100000 -5.441626e-006 -1.066930e-004 -5.048651e-001 6.321159e-001 7.457812e-006 2.311626e-005 -5.069439e-001 6.336892e-001
317385000 -9.424378e-005 9.790960e-005 -4.893264e-001 6.480653e-001 3.812610e-005 1.742195e-005 -4.912162e-001 6.507770e-001
317670000 2.202219e-005 -7.957156e-005 -4.728357e-001 6.648771e-001 -4.140331e-005 -1.466584e-006 -4.748318e-001 6.674122e-001
317955000 -1.361409e-004 -3.577464e-005 -4.557610e-001 6.812664e-001 -6.794779e-006 1.841585e-005 -4.570279e-001 6.837734e-001
318240000 -2.831484e-005 -4.400599e-005 -4.377210e-001 6.969640e-001 7.983321e-005 5.830351e-005 -4.393271e-001 7.004213e-001
318525000 -4.701531e-005 -1.849724e-005 -4.195236e-001 7.133486e-001 -5.527654e-005 3.821012e-005 -4.211070e-001 7.160193e-001
318810000 1.150257e-005 -8.369373e-005 -4.008803e-001 7.284359e-001 -1.381719e-004 2.094198e-005 -4.023790e-001 7.314191e-001
319095000 -6.336549e-005 -3.556993e-005 -3.808806e-001 7.438074e-001 -7.158455e-005 6.131975e-005 -3.831254e-001 7.468303e-001
319380000 1.387863e-004 -1.575387e-004 -3.605114e-001 7.590585e-001 7.246591e-005 7.849634e-005 -3.625848e-001 7.619717e-001
319665000 -4.116938e-005 1.188118e-004 -3.397206e-001 7.734420e-001 -7.112543e-005 7.069187e-005 -3.412037e-001 7.767756e-001
319950000 1.289858e-004 4.096417e-005 -3.181636e-001 7.877375e-001 -6.018149e-005 -5.301287e-005 -3.193783e-001 7.908089e-001
320235000 -1.025689e-005 -6.481936e-005 -2.953657e-001 8.015044e-001 2.512894e-006 -4.962052e-006 -2.971586e-001 8.050678e-001
320520000 1.999755e-006 6.100950e-005 -2.726722e-001 8.148301e-001 1.501842e-005 1.584923e-005 -2.739505e-001 8.180432e-001
320805000 -2.299752e-005 5.275283e-005 -2.493889e-001 8.282176e-001 -5.457394e-005 -1.283290e-005 -2.503573e-001 8.313968e-001
321090000 1.879544e-005 3.234913e-005 -2.247899e-001 8.398253e-001 -4.626730e-005 1.032561e-005 -2.260735e-001 8.433802e-001
321375000 4.982611e-005 5.302113e-005 -1.998350e-001 8.521719e-001 -5.589092e-005 -3.727570e-005 -2.008029e-001 8.554257e-001
321660000 4.764645e-006 -5.812381e-005 -1.737304e-001 8.633422e-001 3.953352e-005 -2.842956e-005 -1.739319e-001 8.667032e-001
321945000 -1.268932e-005 1.498822e-004 -1.471285e-001 8.740180e-001 -7.428261e-006 -7.888772e-005 -1.472467e-001 8.772193e-001
322230000 -2.523061e-005 2.304791e-005 -1.195600e-001 8.832133e-001 -1.990530e-004 -5.970952e-005 -1.203059e-001 8.874485e-001
322515000 -5.154999e-005 3.855472e-005 -9.163570e-002 8.929400e-001 -4.354252e-006 1.004203e-004 -9.206390e-002 8.966379e-001
322800000 -3.748596e-005 -1.814097e-005 -6.271964e-002 9.010708e-001 4.488547e-005 2.335256e-005 -6.237242e-002 9.049817e-001
323085000 -5.799263e-005 1.827756e-005 -3.288148e-002 9.079270e-001 1.404978e-004 -1.575533e-006 -3.337027e-002 9.124320e-001
323370000 -6.385329e-005 -6.311243e-005 -2.892415e-003 9.150211e-001 1.633864e-005 3.667393e-005 -2.621186e-003 9.189280e-001
323655000 -8.095234e-005 8.890850e-005 2.802918e-002 9.200758e-001 1.224390e-005 5.851752e-005 2.869350e-002 9.238694e-001
323940000 -1.157695e-005 3.792549e-005 5.966508e-002 9.243714e-001 5.651644e-006 1.081428e-004 6.027853e-002 9.283086e-001
324225000 -1.124527e-005 -2.091777e-005 9.193341e-002 9.279529e-001 -8.809833e-006 1.105212e-005 9.243221e-002 9.318496e-001
324510000 -6.932496e-006 -6.413723e-005 1.251047e-001 9.299562e-001 -1.557189e-004 -8.782661e-005 1.255255e-001 9.342888e-001
324795000 -1.221752e-005 2.836880e-005 1.579917e-001 9.308376e-001 -3.768506e-005 -7.311175e-005 1.589597e-001 9.350973e-001
325080000 4.038536e-005 -3.769726e-005 1.923309e-001 9.303189e-001 -4.045300e-005 -1.264585e-004 1.925863e-001 9.342763e-001
325365000 -6.166007e-005 -2.677124e-005 2.264222e-001 9.283515e-001 -2.332742e-005 -6.348332e-005 2.273001e-001 9.326061e-001
325650000 -3.829021e-005 -6.873882e-005 2.614414e-001 9.249855e-001 -1.467774e-005 -8.316703e-005 2.622908e-001 9.291368e-001
325935000 -5.154061e-005 -6.036792e-006 2.956621e-001 9.210192e-001 4.909626e-005 1.156250e-005 2.968058e-001 9.244379e-001
326220000 3.268580e-005 3.034736e-005 3.312639e-001 9.147145e-001 8.361321e-005 -2.282339e-005 3.327612e-001 9.180542e-001
326505000 -9.329553e-005 2.971636e-005 3.666919e-001 9.065536e-001 -1.040026e-004 4.697349e-005 3.679916e-001 9.107908e-001
326790000 -4.105055e-005 2.798513e-005 4.018582e-001 8.973902e-001 -5.484479e-005 -5.354717e-005 4.043353e-001 9.011346e-001
327075000 -3.353338e-006 1.299046e-005 4.376970e-001 8.864148e-001 -2.339061e-005 -8.254227e-005 4.396308e-001 8.894004e-001
327360000 -5.591978e-005 -4.540943e-005 4.730636e-001 8.733520e-001 -3.070898e-005 2.756175e-005 4.748682e-001 8.772159e-001
327645000 -2.552599e-005 -7.849601e-005 5.077230e-001 8.588232e-001 -3.576040e-005 3.099631e-005 5.095857e-001 8.627449e-001
327930000 3.000422e-005 -3.441975e-006 5.432426e-001 8.424460e-001 3.132990e-005 2.138416e-005 5.447621e-001 8.458950e-001
328215000 6.742721e-005 9.162976e-005 5.765994e-001 8.245666e-001 -3.262747e-005 2.949068e-005 5.790252e-001 8.282940e-001
328500000 -2.926537e-005 -1.930811e-005 6.104271e-001 8.047546e-001 -8.458489e-005 -6.203116e-005 6.133697e-001 8.082996e-001
328785000 -1.031442e-004 -4.511887e-005 6.438701e-001 7.833505e-001 -1.965367e-005 -1.071519e-004 6.468482e-001 7.862025e-001
329070000 9.239209e-005 4.476467e-005 6.759702e-001 7.606815e-001 -8.448717e-005 -5.849577e-005 6.787506e-001 7.630206e-001
329355000 -2.147266e-005 -3.364988e-005 7.068854e-001 7.346846e-001 2.908600e-005 -1.083273e-004 7.095433e-001 7.384563e-001
329640000 -1.616666e-004 8.766387e-005 7.373768e-001 7.081015e-001 -6.026977e-006 1.421284e-004 7.402124e-001 7.114062e-001
329925000 -4.924641e-005 2.785375e-005 7.662640e-001 6.800904e-001 5.093634e-005 6.162433e-005 7.691752e-001 6.833415e-001
330210000 9.018434e-006 8.756414e-007 7.941381e-001 6.512167e-001 8.044195e-005 -2.958824e-005 7.973931e-001 6.532444e-001
330495000 -1.232597e-004 -4.324934e-005 8.204620e-001 6.201903e-001 2.844209e-005 -6.755011e-005 8.235981e-001 6.222556e-001
330780000 2.173113e-006 4.398568e-005 8.457286e-001 5.872877e-001 -1.909545e-005 -4.702614e-005 8.488372e-001 5.896795e-001
331065000 9.981897e-006 3.586391e-005 8.686269e-001 5.535636e-001 2.789647e-006 8.614761e-005 8.719995e-001 5.564061e-001
331350000 -3.392692e-005 1.222837e-004 8.899464e-001 5.192302e-001 5.008683e-005 5.952611e-005 8.941739e-001 5.208598e-001
331635000 1.716297e-005 -9.990406e-005 9.102826e-001 4.833998e-001 2.043572e-006 -5.078646e-005 9.139812e-001 4.844846e-001
331920000 -2.637045e-005 -1.193864e-005 9.283122e-001 4.467499e-001 -4.587197e-005 4.556425e-005 9.324108e-001 4.484526e-001
332205000 -6.289048e-005 -4.318523e-005 9.443291e-001 4.091230e-001 -1.642371e-004 8.854582e-006 9.482754e-001 4.112857e-001
332490000 -5.167403e-005 -8.114534e-005 9.588830e-001 3.709349e-001 -2.245368e-005 9.813144e-006 9.621845e-001 3.725642e-001
332775000 3.531157e-005 -5.382969e-006 9.712523e-001 3.326022e-001 2.358494e-005 2.766988e-005 9.752869e-001 3.335953e-001
333060000 -7.972030e-005 -5.629247e-005 9.816198e-001 2.933768e-001 -1.002456e-004 -3.492837e-006 9.853336e-001 2.944182e-001
333345000 -1.894064e-005 3.939648e-005 9.906158e-001 2.539968e-001 -8.185303e-005 -7.603893e-008 9.940882e-001 2.547619e-001
333630000 9.712264e-005 -1.229935e-005 9.969055e-001 2.147656e-001 -7.921361e-005 -1.007951e-004 1.000674e+000 2.156472e-001
333915000 -9.686311e-005 -1.315961e-005 1.001522e+000 1.752000e-001 -1.586117e-004 -2.299201e-006 1.005951e+000 1.756989e-001
334200000 2.063787e-005 3.786272e-005 1.004267e+000 1.360968e-001 2.395630e-005 1.830135e-005 1.008527e+000 1.367410e-001
334485000 3.476937e-005 1.898239e-005 1.004923e+000 9.690515e-002 -1.324075e-005 2.773636e-005 1.009581e+000 9.729086e-002
334770000 6.182303e-005 -3.834255e-006 1.004013e+000 5.791409e-002 -1.080373e-004 2.651367e-005 1.008253e+000 5.837186e-002
335055000 5.270367e-006 3.210463e-005 1.001412e+000 1.974279e-002 -4.817932e-005 7.678792e-005 1.005737e+000 1.992395e-002
335340000 -2.586847e-005 -8.715021e-005 9.973531e-001 -1.811194e-002 1.128131e-005 7.269875e-006 1.001700e+000 -1.810553e-002
335625000 -8.412942e-005 2.015430e-005 9.907872e-001 -5.475695e-002 7.639349e-006 -1.190223e-005 9.954261e-001 -5.517744e-002
335910000 -1.504884e-005 -9.711162e-005 9.836738e-001 -9.121831e-002 -2.001399e-004 -1.121853e-004 9.879623e-001 -9.142001e-002
336195000 -2.441831e-005 1.224356e-005 9.746018e-001 -1.265689e-001 7.006938e-005 2.626613e-005 9.787490e-001 -1.269298e-001
336480000 -2.756301e-006 -1.056860e-004 9.641275e-001 -1.614201e-001 -8.303943e-005 -1.043661e-004 9.686112e-001 -1.620641e-001
336765000 1.050792e-004 2.448247e-005 9.525235e-001 -1.954229e-001 -6.512272e-005 2.733706e-005 9.561111e-001 -1.955682e-001
337050000 3.085436e-005 -3.897441e-005 9.393563e-001 -2.274162e-001 -1.137335e-005 -3.268947e-005 9.435677e-001 -2.290944e-001
337335000 2.035550e-005 2.741734e-005 9.249964e-001 -2.594723e-001 -1.503511e-005 -4.020924e-005 9.288256e-001 -2.604641e-001
337620000 -5.899302e-005 -5.791773e-006 9.102731e-001 -2.904182e-001 -5.922682e-005 -1.799565e-005 9.145077e-001 -2.917303e-001
337905000 7.981396e-005 -1.216441e-007 8.944706e-001 -3.200445e-001 -6.706727e-005 -8.003968e-005 8.981153e-001 -3.217116e-001
338190000 -3.306218e-005 -6.940787e-005 8.772136e-001 -3.487017e-001 -6.384606e-005 -5.890946e-005 8.808220e-001 -3.502437e-001
338475000 1.486612e-005 2.821980e-005 8.595598e-001 -3.761321e-001 2.622682e-005 -6.583190e-005 8.629939e-001 -3.783530e-001
338760000 1.813815e-005 -8.144267e-005 8.406250e-001 -4.031188e-001 7.535607e-005 -3.171076e-005 8.444644e-001 -4.045958e-001
339045000 2.060479e-005 1.262302e-005 8.219983e-001 -4.280396e-001 1.844766e-004 -5.581288e-005 8.248723e-001 -4.301801e-001
339330000 -1.582594e-005 1.956417e-006 8.013167e-001 -4.517804e-001 5.867082e-005 6.535673e-005 8.052144e-001 -4.543722e-001
339615000 4.888080e-005 -2.621383e-005 7.811527e-001 -4.755287e-001 -2.751402e-005 -5.176403e-005 7.848222e-001 -4.781524e-001
339900000 7.211341e-005 -4.599755e-005 7.612568e-001 -4.980497e-001 7.476582e-005 4.611793e-005 7.642613e-001 -5.000368e-001
340185000 -6.538788e-005 -2.288206e-006 7.393516e-001 -5.187032e-001 -8.715224e-005 5.693297e-005 7.426500e-001 -5.210203e-001
340470000 1.081663e-005 -2.887983e-005 7.179590e-001 -5.392160e-001 -1.129937e-004 3.605909e-005 7.207906e-001 -5.406372e-001
340755000 1.171465e-004 2.745765e-005 6.962505e-001 -5.582497e-001 -5.701142e-005 1.282034e-004 6.987249e-001 -5.606085e-001
341040000 5.496201e-005 9.994151e-005 6.737288e-001 -5.761182e-001 -5.751110e-005 8.636342e-006 6.766254e-001 -5.786988e-001
341325000 -7.844913e-005 -5.127663e-005 6.511115e-001 -5.932146e-001 -6.002122e-006 6.446342e-005 6.544735e-001 -5.959815e-001
341610000 2.335088e-005 -5.714665e-006 6.291798e-001 -6.092198e-001 -1.025089e-004 -6.137184e-005 6.314229e-001 -6.121238e-001
341895000 -2.053457e-005 9.276298e-007 6.065055e-001 -6.247365e-001 -2.234858e-005 1.846077e-005 6.091816e-001 -6.272941e-001
342180000 9.628922e-006 -6.742707e-005 5.836783e-001 -6.389425e-001 -1.361956e-004 -4.082777e-007 5.860723e-001 -6.415655e-001
342465000 -1.090452e-005 -5.048540e-005 5.610372e-001 -6.526995e-001 1.045284e-004 -8.624223e-005 5.632321e-001 -6.556178e-001
342750000 4.605255e-005 -6.661283e-005 5.379345e-001 -6.654924e-001 -1.194260e-005 -2.106720e-005 5.403146e-001 -6.679541e-001
343035000 7.356422e-006 -3.740499e-005 5.147608e-001 -6.769021e-001 1.123069e-004 -3.135833e-005 5.170668e-001 -6.802712e-001
343320000 2.998983e-005 8.210957e-005 4.923545e-001 -6.884089e-001 6.614291e-005 -1.608146e-004 4.942783e-001 -6.916103e-001
343605000 -3.130596e-005 2.661993e-005 4.695027e-001 -6.988502e-001 8.466549e-005 4.258060e-005 4.710400e-001 -7.018177e-001
343890000 -3.390343e-005 5.192101e-006 4.464727e-001 -7.086764e-001 -2.455611e-005 2.021481e-005 4.487225e-001 -7.111072e-001
