!Agilent Technologies,N5230C,SG49000117,A.08.50.07
!Agilent N5230C: A.08.50.07
!Date: Sunday, March 17, 2024 02:30:03
!Correction: S11(Off) 
!S21(Off) 
!S12(Off) 
!S22(Off) 
!S2P File: Measurements: S11, S21, S12, S22:
# Hz S  RI   R 50
300000000 5.348503e-005 1.058671e-004 -6.797807e-001 -5.618443e-001 -7.829269e-006 1.486668e-004 -6.821454e-001 -5.636639e-001
300285000 -4.057951e-005 -2.379982e-005 -6.913397e-001 -5.378036e-001 4.452564e-005 -1.601090e-005 -6.936776e-001 -5.397540e-001
300570000 7.537255e-005 1.056406e-004 -7.028532e-001 -5.142128e-001 3.252455e-005 2.700668e-005 -7.055033e-001 -5.162456e-001
300855000 -4.098925e-005 2.001869e-005 -7.131674e-001 -4.901852e-001 2.996137e-006 -7.465346e-005 -7.164767e-001 -4.920197e-001
301140000 -2.710360e-006 -4.453383e-005 -7.239348e-001 -4.656512e-001 -1.187130e-005 -6.136081e-005 -7.263122e-001 -4.678129e-001
301425000 -1.922487e-005 -6.020093e-005 -7.319523e-001 -4.427732e-001 -2.865371e-005 -8.731323e-005 -7.346660e-001 -4.442122e-001
301710000 -1.776206e-005 6.573520e-005 -7.406012e-001 -4.189414e-001 -9.778205e-006 2.686371e-006 -7.427289e-001 -4.201204e-001
301995000 -6.548529e-005 6.842743e-005 -7.479786e-001 -3.952651e-001 -6.030647e-005 6.427732e-005 -7.506152e-001 -3.966633e-001
302280000 1.236577e-005 2.891476e-005 -7.548052e-001 -3.712935e-001 -3.118354e-005 7.069729e-005 -7.575453e-001 -3.729393e-001
302565000 2.593230e-005 1.262265e-005 -7.611389e-001 -3.481361e-001 5.130831e-005 4.220635e-005 -7.639058e-001 -3.493510e-001
302850000 5.491428e-005 -4.916436e-005 -7.663189e-001 -3.248801e-001 3.572932e-005 -9.522613e-005 -7.696895e-001 -3.261082e-001
303135000 4.111142e-005 -5.692164e-005 -7.712123e-001 -3.018604e-001 1.294834e-004 -9.883485e-006 -7.742347e-001 -3.030123e-001
303420000 -1.750320e-005 2.607843e-005 -7.755254e-001 -2.785934e-001 1.048342e-004 2.887887e-005 -7.785789e-001 -2.801839e-001
303705000 -3.884069e-005 -1.044035e-004 -7.796102e-001 -2.558735e-001 -8.357411e-006 -4.888145e-005 -7.823417e-001 -2.570960e-001
303990000 -1.115987e-004 8.692026e-005 -7.828608e-001 -2.333317e-001 8.207557e-005 6.191533e-005 -7.856789e-001 -2.348792e-001
304275000 -1.150794e-005 3.244579e-005 -7.854857e-001 -2.110222e-001 -3.499916e-005 2.544431e-005 -7.884641e-001 -2.117278e-001
304560000 -5.282670e-005 4.677200e-007 -7.878684e-001 -1.888878e-001 7.715381e-005 -4.215200e-005 -7.906231e-001 -1.892905e-001
304845000 -6.147964e-005 -1.496063e-004 -7.891997e-001 -1.663164e-001 9.554767e-006 8.070945e-005 -7.917371e-001 -1.670057e-001
305130000 6.331650e-005 1.118212e-005 -7.904546e-001 -1.452662e-001 -7.500462e-005 -1.246391e-007 -7.933418e-001 -1.451120e-001
305415000 2.594930e-005 -5.172030e-005 -7.914278e-001 -1.228826e-001 2.882634e-005 9.231528e-005 -7.942461e-001 -1.232119e-001
305700000 1.096469e-004 6.947279e-005 -7.914312e-001 -1.011645e-001 2.951112e-005 5.854668e-005 -7.943759e-001 -1.015413e-001
305985000 6.812607e-005 5.700560e-006 -7.912229e-001 -7.950170e-002 3.601201e-005 1.770855e-006 -7.940809e-001 -7.999900e-002
306270000 -5.148380e-005 -1.834741e-005 -7.902315e-001 -5.848593e-002 -7.572312e-005 -4.432046e-005 -7.932905e-001 -5.874512e-002
306555000 -9.057495e-006 -1.020154e-004 -7.891412e-001 -3.701983e-002 4.174912e-005 -9.993913e-005 -7.924334e-001 -3.723888e-002
306840000 8.869173e-006 -3.785529e-005 -7.872895e-001 -1.601245e-002 8.992024e-005 -7.253368e-005 -7.906196e-001 -1.588308e-002
307125000 7.562601e-005 3.911286e-005 -7.858906e-001 5.210836e-003 7.710484e-005 -1.260650e-005 -7.890974e-001 4.669268e-003
307410000 7.348446e-005 -2.430500e-005 -7.831719e-001 2.517923e-002 -6.656408e-005 2.109435e-005 -7.864770e-001 2.525862e-002
307695000 -1.244385e-005 2.743937e-005 -7.808955e-001 4.610058e-002 1.744192e-005 6.717334e-005 -7.839515e-001 4.576398e-002
307980000 -9.600987e-005 3.341237e-005 -7.773980e-001 6.655626e-002 1.217705e-004 -5.785417e-005 -7.805363e-001 6.655805e-002
308265000 7.924570e-005 -3.946096e-005 -7.742888e-001 8.710179e-002 3.107484e-006 6.260240e-005 -7.772170e-001 8.693411e-002
308550000 1.617039e-006 9.706913e-005 -7.703628e-001 1.063336e-001 5.029994e-005 3.291540e-005 -7.735309e-001 1.068990e-001
308835000 -9.802604e-005 -2.858306e-005 -7.662652e-001 1.266761e-001 -5.343806e-005 1.623673e-005 -7.691430e-001 1.273803e-001
309120000 -1.685651e-005 1.006835e-004 -7.619302e-001 1.462866e-001 2.817922e-005 -4.503423e-005 -7.645107e-001 1.472680e-001
309405000 2.122893e-005 -2.219161e-005 -7.568710e-001 1.664062e-001 9.927472e-005 9.770636e-005 -7.596899e-001 1.667452e-001
309690000 7.075210e-005 6.314659e-005 -7.517503e-001 1.857126e-001 -1.541005e-005 -3.200956e-005 -7.543762e-001 1.862329e-001
309975000 5.400366e-005 -5.231447e-005 -7.460132e-001 2.053581e-001 -3.275902e-005 -9.857208e-005 -7.489894e-001 2.057842e-001
310260000 -3.680913e-005 -1.843362e-004 -7.398638e-001 2.246911e-001 -1.943391e-006 2.242954e-005 -7.429169e-001 2.257538e-001
310545000 1.742889e-005 -5.519624e-005 -7.338446e-001 2.438676e-001 4.616044e-005 -5.698047e-005 -7.368596e-001 2.444135e-001
310830000 6.452885e-005 -6.098301e-006 -7.267058e-001 2.628804e-001 7.843257e-005 -1.611262e-005 -7.299377e-001 2.637878e-001
311115000 4.958009e-005 -1.067725e-005 -7.200697e-001 2.815827e-001 5.010354e-005 -6.330743e-005 -7.225176e-001 2.829771e-001
311400000 5.610009e-005 -5.631711e-005 -7.125608e-001 3.008710e-001 1.154397e-004 3.412678e-005 -7.154915e-001 3.023070e-001
311685000 2.165452e-004 1.079457e-004 -7.047847e-001 3.196013e-001 -3.337681e-005 4.493828e-005 -7.074205e-001 3.206685e-001
311970000 -2.812446e-005 1.140994e-005 -6.966769e-001 3.383900e-001 3.792593e-005 1.233629e-005 -6.996621e-001 3.394548e-001
312255000 -4.210601e-005 2.149416e-005 -6.879354e-001 3.570421e-001 5.834869e-006 7.349560e-005 -6.908100e-001 3.582489e-001
312540000 -4.720288e-006 -7.930476e-005 -6.788762e-001 3.751967e-001 6.237662e-005 -8.778698e-006 -6.819149e-001 3.768025e-001
312825000 -7.504461e-005 -5.744353e-005 -6.695311e-001 3.940088e-001 -2.284783e-005 -1.071654e-004 -6.728658e-001 3.955340e-001
313110000 -7.119790e-005 7.602074e-005 -6.605259e-001 4.117481e-001 -2.168936e-005 1.003164e-004 -6.627874e-001 4.136708e-001
313395000 6.460020e-005 -9.349883e-006 -6.505748e-001 4.300804e-001 3.757770e-006 -7.692137e-005 -6.531550e-001 4.321836e-001
313680000 6.858887e-006 6.035836e-005 -6.397841e-001 4.481355e-001 -2.519133e-005 1.792067e-006 -6.425705e-001 4.499702e-001
313965000 -5.372761e-005 -6.121140e-005 -6.288968e-001 4.664840e-001 5.252661e-005 5.628439e-005 -6.310881e-001 4.687099e-001
314250000 5.081338e-007 -4.293109e-007 -6.169982e-001 4.842802e-001 -2.139761e-005 1.156868e-004 -6.196125e-001 4.863650e-001
314535000 9.770678e-005 -2.029554e-005 -6.059726e-001 5.021759e-001 6.919142e-005 -2.675283e-005 -6.079262e-001 5.040279e-001
314820000 2.521002e-005 5.599353e-005 -5.936312e-001 5.194948e-001 -2.707582e-005 1.648649e-005 -5.956897e-001 5.226988e-001
315105000 4.468249e-005 1.792196e-005 -5.807214e-001 5.375699e-001 -6.700092e-005 -5.987115e-005 -5.832858e-001 5.390252e-001
315390000 5.291017e-005 9.628830e-006 -5.676835e-001 5.547991e-001 -6.017226e-005 -2.252985e-005 -5.697827e-001 5.572953e-001
315675000 9.201893e-005 9.604255e-005 -5.540612e-001 5.719812e-001 -5.755322e-005 -7.352930e-005 -5.563852e-001 5.742605e-001
315960000 -1.077084e-004 2.676459e-005 -5.395170e-001 5.892335e-001 -1.890216e-005 6.644105e-005 -5.416487e-001 5.914848e-001
316245000 -2.608481e-006 1.188617e-005 -5.250628e-001 6.062576e-001 6.724374e-005 -7.441887e-005 -5.271513e-001 6.088672e-001
316530000 -8.548381e-005 4.856897e-005 -5.095522e-001 6.230804e-001 -2.118215e-005 -8.995360e-005 -5.122987e-001 6.256258e-001
316815000 -1.514734e-005 3.138167e-005 -4.944153e-001 6.395583e-001 9.264619e-005 -1.313477e-005 -4.964604e-001 6.422259e-001
317100000 -8.333857e-005 1.620123e-005 -4.782965e-001 6.562248e-001 3.294733e-005 1.947825e-005 -4.798777e-001 6.592620e-001
317385000 -1.345290e-004 -5.709132e-005 -4.608557e-001 6.728814e-001 -5.605877e-005 1.608974e-005 -4.632362e-001 6.758208e-001
317670000 -3.128258e-005 3.112021e-005 -4.436562e-001 6.887176e-001 5.161134e-005 5.247908e-005 -4.454053e-001 6.912522e-001
317955000 4.029591e-005 -6.178635e-006 -4.258809e-001 7.047753e-001 5.880747e-005 7.457021e-005 -4.271125e-001 7.078745e-001
318240000 5.973062e-005 -4.714275e-005 -4.070655e-001 7.200254e-001 -4.323411e-005 3.138332e-005 -4.086121e-001 7.234238e-001
318525000 9.881888e-005 2.019611e-005 -3.879884e-001 7.352264e-001 2.631227e-005 4.563590e-006 -3.894449e-001 7.386706e-001
318810000 -6.620076e-005 7.834693e-005 -3.679170e-001 7.505836e-001 4.154109e-005 -1.924255e-005 -3.695377e-001 7.536654e-001
319095000 -1.801973e-005 4.209515e-005 -3.472342e-001 7.653221e-001 -4.934713e-005 -8.541583e-005 -3.488126e-001 7.678152e-001
319380000 -2.791879e-005 1.357507e-005 -3.258311e-001 7.793561e-001 -1.126056e-004 -2.121563e-005 -3.270821e-001 7.821122e-001
319665000 -4.931192e-005 1.394085e-005 -3.040524e-001 7.936230e-001 -9.651042e-006 8.672103e-005 -3.054708e-001 7.966745e-001
319950000 1.173398e-004 3.236750e-005 -2.814582e-001 8.069732e-001 4.838312e-005 4.630643e-007 -2.820568e-001 8.103085e-001
320235000 -3.203484e-005 3.412728e-005 -2.584018e-001 8.195440e-001 7.365746e-006 -2.062025e-005 -2.588090e-001 8.234230e-001
320520000 -1.795401e-006 -6.858518e-005 -2.338806e-001 8.322147e-001 -1.218945e-005 -5.886775e-005 -2.347304e-001 8.350427e-001
320805000 7.450778e-006 1.629234e-005 -2.091166e-001 8.445684e-001 -6.337676e-005 2.380965e-005 -2.103925e-001 8.481263e-001
321090000 -2.084515e-005 9.790259e-005 -1.838018e-001 8.555947e-001 -4.727103e-005 9.000823e-006 -1.846135e-001 8.591566e-001
321375000 -2.763586e-005 1.610498e-005 -1.576945e-001 8.661657e-001 3.360853e-005 -1.023796e-005 -1.577547e-001 8.701355e-001
321660000 6.951179e-006 7.467333e-005 -1.304907e-001 8.767854e-001 5.380249e-006 -2.582534e-006 -1.312530e-001 8.794135e-001
321945000 -7.968874e-005 -3.258094e-005 -1.026065e-001 8.853831e-001 7.762821e-005 -1.095699e-005 -1.031608e-001 8.891572e-001
322230000 -4.948101e-006 -9.226924e-005 -7.426390e-002 8.939669e-001 6.074864e-005 -8.338184e-005 -7.469220e-002 8.978806e-001
322515000 -2.049382e-005 -2.274037e-005 -4.523068e-002 9.022489e-001 -7.148685e-005 4.820207e-006 -4.540379e-002 9.056314e-001
322800000 2.437436e-005 -7.316012e-005 -1.567659e-002 9.087678e-001 5.721771e-005 -3.817617e-005 -1.559087e-002 9.126947e-001
323085000 1.360149e-004 1.739367e-005 1.506434e-002 9.149521e-001 -2.753998e-006 -1.181381e-005 1.519594e-002 9.181011e-001
323370000 -7.141314e-006 -2.282769e-005 4.627645e-002 9.195090e-001 5.605666e-005 -6.760620e-005 4.650826e-002 9.229332e-001
323655000 1.140401e-005 9.981368e-005 7.811701e-002 9.228329e-001 5.708485e-005 1.986673e-005 7.817910e-002 9.269297e-001
323940000 1.405534e-004 2.901720e-005 1.105783e-001 9.258813e-001 1.664622e-005 -4.582741e-005 1.109230e-001 9.295608e-001
324225000 -7.305505e-005 1.011667e-005 1.434610e-001 9.275516e-001 -5.659869e-005 -4.012530e-005 1.438396e-001 9.314869e-001
324510000 -7.098804e-005 -2.778720e-006 1.765902e-001 9.277554e-001 -5.941421e-005 -8.293612e-005 1.776521e-001 9.311728e-001
324795000 -4.724877e-005 1.216681e-004 2.102819e-001 9.266192e-001 -1.280924e-005 3.775127e-005 2.122918e-001 9.304673e-001
325080000 -2.381649e-005 -1.160760e-005 2.446656e-001 9.238871e-001 -6.284923e-006 -2.632282e-005 2.464342e-001 9.274418e-001
325365000 -4.995503e-005 -8.212616e-005 2.801925e-001 9.199616e-001 -1.407586e-005 -8.864723e-005 2.806410e-001 9.237226e-001
325650000 -1.603761e-005 -1.226606e-005 3.144321e-001 9.143941e-001 -6.809086e-005 -7.274206e-005 3.166863e-001 9.182811e-001
325935000 1.911801e-005 2.784118e-005 3.499657e-001 9.072379e-001 4.791966e-005 -7.927816e-005 3.519469e-001 9.112023e-001
326220000 -6.107069e-005 -3.332820e-005 3.851725e-001 8.987844e-001 8.048425e-005 -5.509351e-005 3.867312e-001 9.024971e-001
326505000 2.267711e-005 -1.526293e-005 4.213196e-001 8.881190e-001 1.402260e-005 4.460906e-005 4.227208e-001 8.921544e-001
326790000 -1.416357e-005 -2.872178e-005 4.557495e-001 8.763903e-001 -5.890348e-005 6.955153e-005 4.580906e-001 8.801177e-001
327075000 1.638272e-005 -3.937511e-005 4.906796e-001 8.629376e-001 2.312310e-005 4.722431e-005 4.930021e-001 8.668671e-001
327360000 -1.740330e-005 -9.386933e-005 5.249317e-001 8.476129e-001 -1.429440e-005 1.060919e-004 5.273897e-001 8.512857e-001
327645000 -1.346499e-005 2.968194e-005 5.597937e-001 8.305669e-001 1.432663e-005 -2.399469e-005 5.621168e-001 8.333355e-001
327930000 -1.111078e-004 1.830107e-005 5.941088e-001 8.117664e-001 5.567702e-005 -3.289989e-005 5.960858e-001 8.151450e-001
328215000 3.892460e-005 1.360062e-004 6.270949e-001 7.903605e-001 -5.527634e-005 4.754281e-006 6.297433e-001 7.944837e-001
328500000 -3.224227e-006 1.439854e-005 6.597614e-001 7.686006e-001 5.470733e-005 -2.359752e-005 6.624604e-001 7.719816e-001
328785000 -1.246591e-004 8.720727e-005 6.913794e-001 7.440850e-001 2.843560e-005 6.563877e-005 6.944882e-001 7.468299e-001
329070000 1.531639e-005 -2.453180e-005 7.223392e-001 7.189977e-001 4.189981e-005 9.873300e-005 7.256547e-001 7.217432e-001
329355000 -1.013974e-006 7.840312e-006 7.508840e-001 6.915328e-001 -1.288563e-005 9.294639e-005 7.543694e-001 6.941609e-001
329640000 -2.620343e-005 -2.726620e-005 7.805555e-001 6.630725e-001 -2.508530e-005 -4.549592e-005 7.829473e-001 6.659601e-001
329925000 4.683494e-005 -1.431307e-005 8.072363e-001 6.325740e-001 7.752890e-005 -1.108633e-005 8.100263e-001 6.348950e-001
330210000 3.132061e-005 -5.047732e-006 8.319376e-001 6.007326e-001 2.829127e-005 4.192965e-005 8.361199e-001 6.033377e-001
330495000 4.178456e-005 -3.699305e-005 8.566276e-001 5.681169e-001 -1.413684e-005 -4.437964e-005 8.603178e-001 5.707819e-001
330780000 1.202351e-005 -7.724857e-005 8.788352e-001 5.334894e-001 3.361209e-005 -7.610554e-005 8.829895e-001 5.359048e-001
331065000 1.338581e-004 -5.889212e-005 8.992124e-001 4.979965e-001 1.032170e-005 -7.350730e-005 9.034104e-001 5.006164e-001
331350000 3.606522e-005 -4.444702e-005 9.186493e-001 4.625503e-001 -3.868470e-005 3.892365e-005 9.226592e-001 4.639849e-001
331635000 8.199642e-005 -1.485054e-005 9.352836e-001 4.257951e-001 -7.098335e-005 1.787449e-005 9.401082e-001 4.267692e-001
331920000 8.519553e-005 1.517311e-004 9.512308e-001 3.867282e-001 -8.547673e-005 7.334714e-005 9.551194e-001 3.891244e-001
332205000 3.489190e-005 5.412357e-005 9.649135e-001 3.487809e-001 -1.572524e-006 1.190936e-005 9.688610e-001 3.505261e-001
332490000 4.294512e-005 4.658681e-005 9.755216e-001 3.094574e-001 -1.289739e-004 -4.538428e-005 9.798839e-001 3.114122e-001
332775000 -3.464744e-005 9.783961e-006 9.857544e-001 2.704486e-001 -1.019570e-004 -1.294799e-004 9.896667e-001 2.723787e-001
333060000 -3.732045e-005 6.372009e-005 9.924685e-001 2.314786e-001 -4.048564e-005 -1.996851e-005 9.972777e-001 2.326878e-001
333345000 5.209806e-006 1.079798e-004 9.988732e-001 1.918580e-001 -1.790845e-005 -7.120558e-005 1.002803e+000 1.929373e-001
333630000 2.906737e-005 7.940749e-005 1.002187e+000 1.525174e-001 -2.032658e-005 -7.126736e-005 1.006113e+000 1.540723e-001
333915000 5.681413e-005 1.729323e-005 1.004340e+000 1.134619e-001 -8.420668e-005 -2.670530e-005 1.008623e+000 1.141903e-001
334200000 4.355652e-005 -6.391220e-005 1.003925e+000 7.396975e-002 -9.974888e-005 -4.504999e-005 1.008397e+000 7.424459e-002
334485000 -1.334159e-006 -5.769225e-005 1.001656e+000 3.606608e-002 -7.028370e-005 4.341392e-005 1.006604e+000 3.584618e-002
334770000 1.935230e-005 -3.575955e-006 9.986519e-001 -2.030293e-003 -1.061587e-004 -1.431769e-005 1.002618e+000 -2.097290e-003
335055000 3.611897e-005 5.625786e-005 9.931427e-001 -4.013672e-002 -3.558313e-005 -6.084650e-005 9.977853e-001 -4.026372e-002
335340000 -6.616421e-005 3.245885e-005 9.866752e-001 -7.666265e-002 8.748068e-005 2.738959e-005 9.915962e-001 -7.725585e-002
335625000 -3.174881e-005 8.294821e-005 9.787320e-001 -1.116061e-001 -3.976216e-005 8.926563e-005 9.829237e-001 -1.133432e-001
335910000 -3.969246e-005 4.969002e-005 9.685216e-001 -1.474180e-001 -1.279410e-004 -5.451049e-006 9.731879e-001 -1.479498e-001
336195000 -5.187542e-005 8.817086e-005 9.567913e-001 -1.818404e-001 -6.994293e-005 -3.158137e-005 9.610196e-001 -1.829484e-001
336480000 -2.181875e-005 8.923495e-005 9.447001e-001 -2.151780e-001 -2.631584e-005 -3.599179e-005 9.490914e-001 -2.162493e-001
336765000 5.069783e-006 8.256017e-005 9.311087e-001 -2.475964e-001 7.030168e-005 5.888368e-005 9.352700e-001 -2.483464e-001
337050000 -6.784732e-005 3.460314e-006 9.166669e-001 -2.787177e-001 1.693476e-005 -1.377489e-004 9.203794e-001 -2.801408e-001
337335000 -8.010674e-005 -4.131045e-005 9.002277e-001 -3.090814e-001 -2.375242e-005 2.258136e-005 9.046018e-001 -3.100120e-001
337620000 -7.306270e-005 5.779285e-006 8.840568e-001 -3.383247e-001 -5.138641e-005 -4.967847e-005 8.882346e-001 -3.397862e-001
337905000 -2.666945e-005 3.681564e-005 8.658988e-001 -3.661935e-001 -2.489168e-005 -8.943511e-005 8.702714e-001 -3.679637e-001
338190000 -4.264984e-005 2.998291e-005 8.481496e-001 -3.938429e-001 3.013940e-005 -9.493579e-005 8.520819e-001 -3.952887e-001
338475000 -4.691601e-005 -6.023657e-006 8.289608e-001 -4.189391e-001 -1.621813e-005 -1.661743e-005 8.325619e-001 -4.214115e-001
338760000 -6.876873e-005 6.013782e-005 8.090855e-001 -4.440365e-001 -1.469937e-004 -3.925599e-005 8.129674e-001 -4.467464e-001
339045000 8.746597e-007 -6.017010e-006 7.887169e-001 -4.678837e-001 -8.439869e-005 -5.415540e-005 7.923616e-001 -4.696633e-001
339330000 -5.566976e-007 -1.055289e-005 7.681625e-001 -4.904369e-001 1.626731e-005 -8.685330e-005 7.714478e-001 -4.926065e-001
339615000 -3.246505e-005 -1.229715e-004 7.465824e-001 -5.123370e-001 2.805590e-005 9.018477e-006 7.506002e-001 -5.141650e-001
339900000 -1.335180e-006 -6.534099e-005 7.257114e-001 -5.327814e-001 -5.027058e-005 -5.987577e-005 7.288831e-001 -5.353599e-001
340185000 4.470019e-005 1.109453e-004 7.034652e-001 -5.519233e-001 1.621862e-005 -1.453994e-006 7.066507e-001 -5.549436e-001
340470000 1.708433e-004 1.295553e-005 6.813710e-001 -5.703915e-001 2.194839e-006 2.099517e-005 6.842587e-001 -5.738994e-001
340755000 1.454107e-005 8.041920e-005 6.591558e-001 -5.882462e-001 -7.117122e-005 4.122742e-005 6.617944e-001 -5.909877e-001
341040000 2.386768e-005 8.844773e-005 6.365375e-001 -6.052442e-001 -2.526513e-007 8.400668e-007 6.394739e-001 -6.076280e-001
341325000 2.264121e-005 6.962794e-005 6.138628e-001 -6.204410e-001 8.789890e-005 2.151775e-005 6.165586e-001 -6.234624e-001
341610000 -8.575155e-005 6.528077e-007 5.910563e-001 -6.357676e-001 -5.598533e-005 -2.036746e-005 5.930552e-001 -6.380934e-001
341895000 -8.110546e-005 -4.568912e-007 5.678352e-001 -6.492684e-001 -4.247405e-005 -9.395622e-005 5.705407e-001 -6.514691e-001
342180000 -4.690398e-005 -1.945177e-005 5.449732e-001 -6.618466e-001 1.127093e-004 4.500252e-005 5.471606e-001 -6.647741e-001
342465000 3.583649e-005 -7.291896e-005 5.219502e-001 -6.742312e-001 9.012420e-005 -6.467794e-005 5.243873e-001 -6.770697e-001
342750000 -4.022610e-006 -2.027225e-005 4.986826e-001 -6.859193e-001 1.642223e-005 -9.582521e-005 5.013648e-001 -6.884284e-001
343035000 9.789177e-005 -7.368219e-005 4.760322e-001 -6.964149e-001 2.899415e-005 -4.448627e-005 4.778799e-001 -6.997881e-001
343320000 -3.350780e-005 2.757460e-005 4.530370e-001 -7.057598e-001 5.673642e-005 -7.202386e-005 4.549254e-001 -7.088131e-001
343605000 1.439219e-004 2.729323e-006 4.296473e-001 -7.151513e-001 6.051788e-005 -8.810847e-005 4.319579e-001 -7.178242e-001
343890000 -5.482557e-005 -6.597363e-005 4.071345e-001 -7.236958e-001 8.933578e-005 -3.371326e-005 4.089775e-001 -7.264667e-001
