!Agilent Technologies,N5230C,SG49000117,A.08.50.07
!Agilent N5230C: A.08.50.07
!Date: Monday, May 20, 2024 20:17:55
!Correction: S11(Full 2 Port(1,2)) 
!S21(Full 2 Port(1,2)) 
!S12(Full 2 Port(1,2)) 
!S22(Full 2 Port(1,2)) 
!S2P File: Measurements: S11, S21, S12, S22:
# Hz S  MA   R 50
1000000000 1.030167e+000 -1.623311e+001 2.154169e-003 7.750755e+001 3.587693e-003 6.388609e+001 1.062992e+000 -2.760242e+001
1000150000 1.030230e+000 -1.618085e+001 2.103318e-003 8.565879e+001 3.881344e-003 6.514681e+001 1.062509e+000 -2.755029e+001
1000300000 1.030776e+000 -1.620043e+001 2.115254e-003 7.401495e+001 3.726521e-003 7.454261e+001 1.063673e+000 -2.761357e+001
1000450000 1.032739e+000 -1.620529e+001 2.108448e-003 8.121391e+001 3.858085e-003 5.881710e+001 1.061805e+000 -2.762113e+001
1000600000 1.031044e+000 -1.620818e+001 1.922285e-003 7.764127e+001 3.755573e-003 6.165708e+001 1.061489e+000 -2.755583e+001
1000750000 1.030637e+000 -1.614679e+001 1.986504e-003 7.638466e+001 3.525808e-003 6.507205e+001 1.061857e+000 -2.761538e+001
1000900000 1.030744e+000 -1.617793e+001 2.143741e-003 7.191525e+001 3.564019e-003 6.127078e+001 1.062711e+000 -2.761298e+001
1001050000 1.031300e+000 -1.617433e+001 1.998948e-003 8.220707e+001 4.140588e-003 6.789017e+001 1.063390e+000 -2.753031e+001
1001200000 1.030482e+000 -1.623029e+001 1.939396e-003 8.527126e+001 3.914371e-003 7.345475e+001 1.063592e+000 -2.748035e+001
1001350000 1.030007e+000 -1.611570e+001 2.018761e-003 7.605273e+001 4.198633e-003 6.912070e+001 1.062367e+000 -2.753515e+001
1001500000 1.028955e+000 -1.615828e+001 2.086214e-003 8.062318e+001 3.995449e-003 7.165673e+001 1.064762e+000 -2.752958e+001
1001650000 1.029085e+000 -1.617986e+001 2.109012e-003 7.792658e+001 3.820625e-003 6.403955e+001 1.062059e+000 -2.749372e+001
1001800000 1.030164e+000 -1.615497e+001 2.106872e-003 8.134476e+001 3.403563e-003 5.513149e+001 1.061636e+000 -2.745627e+001
1001950000 1.028989e+000 -1.616000e+001 2.030111e-003 8.528465e+001 3.106243e-003 5.941849e+001 1.061195e+000 -2.762417e+001
1002100000 1.029652e+000 -1.622565e+001 2.037903e-003 7.998785e+001 3.161843e-003 6.202144e+001 1.062041e+000 -2.773992e+001
1002250000 1.028906e+000 -1.620368e+001 1.974509e-003 7.506190e+001 3.787752e-003 6.300023e+001 1.062529e+000 -2.768521e+001
1002400000 1.030009e+000 -1.622250e+001 1.909141e-003 7.818872e+001 4.042793e-003 6.112075e+001 1.060962e+000 -2.769984e+001
1002550000 1.028774e+000 -1.618497e+001 2.107525e-003 8.224844e+001 3.574314e-003 6.969498e+001 1.061592e+000 -2.764591e+001
1002700000 1.030781e+000 -1.619337e+001 2.038491e-003 7.183908e+001 4.047707e-003 6.600159e+001 1.061345e+000 -2.757389e+001
1002850000 1.031102e+000 -1.615968e+001 2.261593e-003 7.493133e+001 4.537335e-003 6.362872e+001 1.060652e+000 -2.763768e+001
1003000000 1.031426e+000 -1.617715e+001 2.099776e-003 7.822062e+001 4.006919e-003 6.837135e+001 1.060865e+000 -2.730551e+001
1003150000 1.031595e+000 -1.616445e+001 2.065048e-003 7.854678e+001 3.597633e-003 6.519676e+001 1.061964e+000 -2.753841e+001
1003300000 1.032067e+000 -1.615317e+001 2.083838e-003 7.851422e+001 3.741247e-003 5.982840e+001 1.062596e+000 -2.759304e+001
1003450000 1.032136e+000 -1.624116e+001 2.164520e-003 7.947958e+001 3.814427e-003 6.361689e+001 1.062560e+000 -2.764855e+001
1003600000 1.032397e+000 -1.616200e+001 2.208030e-003 7.328831e+001 3.717223e-003 7.020559e+001 1.061755e+000 -2.753367e+001
1003750000 1.031418e+000 -1.617975e+001 2.108826e-003 7.736568e+001 3.843819e-003 6.541942e+001 1.061454e+000 -2.771292e+001
1003900000 1.031620e+000 -1.625669e+001 2.049648e-003 7.951515e+001 4.260684e-003 6.928273e+001 1.061433e+000 -2.760042e+001
1004050000 1.030176e+000 -1.620322e+001 2.148844e-003 7.833688e+001 3.799690e-003 6.361357e+001 1.061979e+000 -2.752977e+001
1004200000 1.030386e+000 -1.610136e+001 2.212729e-003 7.644339e+001 3.877659e-003 6.643046e+001 1.061586e+000 -2.749298e+001
1004350000 1.030243e+000 -1.627962e+001 2.056435e-003 7.219948e+001 3.913006e-003 6.364885e+001 1.062171e+000 -2.752439e+001
1004500000 1.029914e+000 -1.630876e+001 2.278783e-003 6.934196e+001 3.661178e-003 7.199707e+001 1.059747e+000 -2.766898e+001
1004650000 1.029006e+000 -1.621363e+001 2.011356e-003 8.191837e+001 3.441789e-003 6.786035e+001 1.061496e+000 -2.761598e+001
1004800000 1.029153e+000 -1.619253e+001 1.955686e-003 8.223073e+001 3.604907e-003 6.756961e+001 1.062631e+000 -2.764839e+001
1004950000 1.030948e+000 -1.621832e+001 1.830042e-003 8.304589e+001 4.040582e-003 6.594173e+001 1.062059e+000 -2.768249e+001
1005100000 1.030483e+000 -1.626551e+001 1.946552e-003 7.826908e+001 4.223367e-003 6.952106e+001 1.063728e+000 -2.762388e+001
1005250000 1.031243e+000 -1.622324e+001 2.103098e-003 8.814185e+001 3.945895e-003 5.918813e+001 1.063904e+000 -2.756205e+001
1005400000 1.030784e+000 -1.624242e+001 1.990526e-003 7.582716e+001 4.312826e-003 6.809642e+001 1.063813e+000 -2.760438e+001
1005550000 1.031330e+000 -1.622982e+001 2.134860e-003 7.820463e+001 3.922265e-003 6.363611e+001 1.064509e+000 -2.757160e+001
1005700000 1.030843e+000 -1.622580e+001 2.208052e-003 7.285739e+001 4.047121e-003 6.220858e+001 1.062880e+000 -2.769097e+001
1005850000 1.032121e+000 -1.622483e+001 2.099870e-003 8.045297e+001 3.453918e-003 6.135286e+001 1.061972e+000 -2.762946e+001
1006000000 1.030038e+000 -1.625411e+001 2.136364e-003 7.177363e+001 3.835676e-003 7.087206e+001 1.062390e+000 -2.777223e+001
1006150000 1.030922e+000 -1.621093e+001 1.927574e-003 7.639713e+001 3.774538e-003 6.885545e+001 1.064955e+000 -2.769408e+001
1006300000 1.032265e+000 -1.625354e+001 2.091279e-003 7.596242e+001 3.852658e-003 6.476488e+001 1.063318e+000 -2.762598e+001
1006450000 1.031264e+000 -1.627528e+001 2.175279e-003 7.848907e+001 4.088064e-003 7.071333e+001 1.062764e+000 -2.765837e+001
1006600000 1.031908e+000 -1.625612e+001 2.170708e-003 7.413485e+001 3.908966e-003 7.286401e+001 1.063850e+000 -2.758413e+001
1006750000 1.030461e+000 -1.635340e+001 2.155152e-003 8.655714e+001 3.982364e-003 6.857034e+001 1.063814e+000 -2.754117e+001
1006900000 1.030860e+000 -1.629267e+001 2.415350e-003 8.197639e+001 4.019888e-003 6.137436e+001 1.062799e+000 -2.755755e+001
1007050000 1.031507e+000 -1.635082e+001 2.146991e-003 8.198936e+001 3.594507e-003 5.841631e+001 1.062921e+000 -2.762145e+001
1007200000 1.032063e+000 -1.626126e+001 1.930702e-003 7.284356e+001 3.026425e-003 5.836380e+001 1.062862e+000 -2.766769e+001
1007350000 1.030868e+000 -1.626206e+001 2.063493e-003 7.732860e+001 3.182958e-003 7.506863e+001 1.063933e+000 -2.772710e+001
1007500000 1.030522e+000 -1.629341e+001 2.238884e-003 7.674360e+001 4.097229e-003 6.611550e+001 1.063361e+000 -2.767191e+001
1007650000 1.030565e+000 -1.624152e+001 1.772805e-003 8.427481e+001 3.843761e-003 7.497073e+001 1.061277e+000 -2.775646e+001
1007800000 1.030661e+000 -1.631525e+001 1.879406e-003 8.107324e+001 4.291898e-003 7.328281e+001 1.063146e+000 -2.783247e+001
1007950000 1.028261e+000 -1.637155e+001 2.089426e-003 7.695165e+001 4.457406e-003 6.836155e+001 1.060744e+000 -2.771423e+001
1008100000 1.028427e+000 -1.630181e+001 2.170342e-003 8.044170e+001 4.080447e-003 6.806698e+001 1.061213e+000 -2.787952e+001
1008250000 1.030111e+000 -1.633906e+001 1.867536e-003 8.043704e+001 3.499844e-003 6.033715e+001 1.062324e+000 -2.792388e+001
1008400000 1.030082e+000 -1.633680e+001 1.895723e-003 7.427476e+001 3.837435e-003 6.494021e+001 1.062796e+000 -2.776209e+001
1008550000 1.030874e+000 -1.636629e+001 2.361784e-003 7.411256e+001 3.972169e-003 6.292517e+001 1.063019e+000 -2.776460e+001
1008700000 1.031418e+000 -1.629760e+001 2.388752e-003 8.057457e+001 3.821785e-003 6.581470e+001 1.064344e+000 -2.775008e+001
1008850000 1.031876e+000 -1.620300e+001 2.099459e-003 7.576122e+001 3.990617e-003 6.592814e+001 1.060489e+000 -2.790660e+001
1009000000 1.031458e+000 -1.623304e+001 2.033013e-003 7.261671e+001 3.385294e-003 7.053329e+001 1.063302e+000 -2.770393e+001
1009150000 1.030259e+000 -1.616536e+001 2.260138e-003 8.158558e+001 3.765660e-003 6.506042e+001 1.062819e+000 -2.774388e+001
1009300000 1.030616e+000 -1.632879e+001 1.960365e-003 8.156194e+001 4.280853e-003 7.269763e+001 1.060623e+000 -2.780988e+001
1009450000 1.031013e+000 -1.630696e+001 2.173453e-003 7.882613e+001 3.450767e-003 6.519388e+001 1.064508e+000 -2.779453e+001
1009600000 1.031761e+000 -1.629117e+001 2.018668e-003 7.723967e+001 4.117051e-003 6.681578e+001 1.062800e+000 -2.780141e+001
1009750000 1.030196e+000 -1.629013e+001 2.013778e-003 8.009468e+001 4.105876e-003 6.733311e+001 1.064498e+000 -2.796979e+001
1009900000 1.031121e+000 -1.636546e+001 1.952079e-003 7.420814e+001 3.972729e-003 6.474653e+001 1.063735e+000 -2.782917e+001
1010050000 1.029734e+000 -1.643338e+001 2.125407e-003 8.007858e+001 4.195408e-003 6.799480e+001 1.063742e+000 -2.781580e+001
1010200000 1.030833e+000 -1.640097e+001 2.181382e-003 7.184243e+001 3.806401e-003 6.838985e+001 1.063152e+000 -2.782711e+001
1010350000 1.031186e+000 -1.646262e+001 2.002745e-003 7.814291e+001 3.494210e-003 6.192630e+001 1.062964e+000 -2.780453e+001
1010500000 1.031009e+000 -1.642233e+001 2.317677e-003 7.289530e+001 3.487527e-003 6.177739e+001 1.063643e+000 -2.781103e+001
1010650000 1.030558e+000 -1.649256e+001 2.167794e-003 7.536731e+001 3.824112e-003 6.263242e+001 1.062711e+000 -2.782231e+001
1010800000 1.031101e+000 -1.638562e+001 2.366133e-003 8.226596e+001 3.934413e-003 6.231299e+001 1.062629e+000 -2.779017e+001
1010950000 1.030095e+000 -1.635418e+001 2.041591e-003 8.062403e+001 3.998082e-003 5.915903e+001 1.062424e+000 -2.783039e+001
1011100000 1.029189e+000 -1.639334e+001 1.996155e-003 7.539312e+001 3.899309e-003 6.173460e+001 1.062076e+000 -2.782991e+001
1011250000 1.031524e+000 -1.630431e+001 1.998672e-003 7.208260e+001 4.044740e-003 7.083323e+001 1.062292e+000 -2.768918e+001
1011400000 1.031335e+000 -1.633588e+001 2.121984e-003 7.978779e+001 3.659464e-003 6.016461e+001 1.060468e+000 -2.782567e+001
1011550000 1.030868e+000 -1.636703e+001 2.189474e-003 8.691531e+001 4.480539e-003 7.072501e+001 1.064014e+000 -2.776994e+001
1011700000 1.030200e+000 -1.632027e+001 2.051399e-003 6.825966e+001 3.689353e-003 5.824413e+001 1.061794e+000 -2.778837e+001
1011850000 1.029629e+000 -1.639902e+001 2.110630e-003 7.583415e+001 3.479999e-003 6.609847e+001 1.060131e+000 -2.788860e+001
1012000000 1.031090e+000 -1.649212e+001 2.351932e-003 8.145644e+001 3.478031e-003 7.089112e+001 1.062614e+000 -2.780571e+001
1012150000 1.031627e+000 -1.649312e+001 2.393048e-003 7.514287e+001 4.078256e-003 7.151926e+001 1.063257e+000 -2.768238e+001
1012300000 1.030780e+000 -1.639978e+001 2.263305e-003 7.202525e+001 4.078247e-003 6.563343e+001 1.064240e+000 -2.779111e+001
1012450000 1.031989e+000 -1.640622e+001 1.858714e-003 7.353934e+001 3.813127e-003 6.688342e+001 1.062615e+000 -2.782399e+001
1012600000 1.030477e+000 -1.640920e+001 2.081254e-003 8.130199e+001 3.636787e-003 6.738072e+001 1.065243e+000 -2.756138e+001
1012750000 1.031179e+000 -1.634692e+001 2.135551e-003 7.787314e+001 4.112349e-003 5.961280e+001 1.061637e+000 -2.775393e+001
1012900000 1.028568e+000 -1.640080e+001 1.870024e-003 7.285981e+001 3.611146e-003 7.485632e+001 1.064481e+000 -2.761793e+001
1013050000 1.030209e+000 -1.635929e+001 2.174929e-003 7.696204e+001 4.070980e-003 6.327277e+001 1.060897e+000 -2.767057e+001
1013200000 1.030517e+000 -1.645902e+001 2.212887e-003 7.924034e+001 3.343188e-003 6.002090e+001 1.063970e+000 -2.766062e+001
1013350000 1.030496e+000 -1.641178e+001 2.145605e-003 7.399957e+001 4.242947e-003 6.769073e+001 1.060573e+000 -2.785852e+001
1013500000 1.029698e+000 -1.645998e+001 2.162665e-003 6.385996e+001 3.651714e-003 6.127708e+001 1.061441e+000 -2.798487e+001
1013650000 1.030772e+000 -1.643943e+001 2.117347e-003 7.424406e+001 3.986586e-003 6.261642e+001 1.062141e+000 -2.793986e+001
1013800000 1.029801e+000 -1.646818e+001 1.898586e-003 7.701719e+001 3.946939e-003 6.744912e+001 1.063169e+000 -2.785153e+001
1013950000 1.030403e+000 -1.641852e+001 2.156810e-003 7.612329e+001 4.410358e-003 6.682336e+001 1.061768e+000 -2.794236e+001
1014100000 1.029584e+000 -1.646593e+001 1.792388e-003 7.822977e+001 4.197889e-003 6.785651e+001 1.061420e+000 -2.779096e+001
1014250000 1.030570e+000 -1.645258e+001 2.031190e-003 7.318353e+001 3.692003e-003 6.712754e+001 1.065459e+000 -2.792982e+001
1014400000 1.031420e+000 -1.644159e+001 1.952145e-003 7.819669e+001 4.406193e-003 6.875016e+001 1.063196e+000 -2.791864e+001
1014550000 1.030657e+000 -1.643714e+001 2.275930e-003 8.110174e+001 4.220635e-003 6.425732e+001 1.065744e+000 -2.794402e+001
1014700000 1.032446e+000 -1.646001e+001 2.138112e-003 7.800306e+001 3.915094e-003 6.118499e+001 1.064907e+000 -2.795799e+001
1014850000 1.031816e+000 -1.647382e+001 2.116534e-003 7.777457e+001 3.208481e-003 5.695483e+001 1.064901e+000 -2.773850e+001
1015000000 1.031962e+000 -1.646688e+001 2.220046e-003 7.995139e+001 4.211101e-003 4.880501e+001 1.064415e+000 -2.783605e+001
1015150000 1.031566e+000 -1.652972e+001 2.010119e-003 8.693533e+001 4.478679e-003 6.648995e+001 1.062614e+000 -2.801899e+001
1015300000 1.031479e+000 -1.645794e+001 1.820254e-003 8.192209e+001 3.962135e-003 6.655186e+001 1.063737e+000 -2.782685e+001
1015450000 1.030821e+000 -1.640744e+001 2.146466e-003 7.732729e+001 4.037390e-003 6.942538e+001 1.062907e+000 -2.783398e+001
1015600000 1.030324e+000 -1.645059e+001 2.269370e-003 7.863976e+001 4.216866e-003 5.988045e+001 1.063496e+000 -2.791121e+001
1015750000 1.030837e+000 -1.649701e+001 1.966795e-003 6.916400e+001 3.920698e-003 5.839673e+001 1.061912e+000 -2.806528e+001
1015900000 1.031743e+000 -1.643108e+001 2.094455e-003 7.455726e+001 3.636374e-003 5.477397e+001 1.060274e+000 -2.798458e+001
1016050000 1.031465e+000 -1.646467e+001 1.826185e-003 8.476041e+001 3.638453e-003 6.764307e+001 1.059880e+000 -2.797779e+001
1016200000 1.031709e+000 -1.640628e+001 2.351766e-003 7.666471e+001 3.898262e-003 7.275351e+001 1.058408e+000 -2.779901e+001
1016350000 1.032322e+000 -1.645254e+001 1.981921e-003 7.790111e+001 3.628101e-003 6.171006e+001 1.058915e+000 -2.788517e+001
1016500000 1.032498e+000 -1.649301e+001 1.915089e-003 7.739818e+001 3.570797e-003 6.931824e+001 1.060656e+000 -2.785816e+001
1016650000 1.032072e+000 -1.648049e+001 2.071447e-003 8.988306e+001 4.168885e-003 6.340784e+001 1.061059e+000 -2.782106e+001
1016800000 1.032330e+000 -1.652980e+001 2.106745e-003 7.062270e+001 3.314868e-003 6.800165e+001 1.062526e+000 -2.794606e+001
1016950000 1.032369e+000 -1.649609e+001 1.895456e-003 8.195259e+001 4.293694e-003 6.790656e+001 1.065236e+000 -2.796666e+001
1017100000 1.032473e+000 -1.651829e+001 2.130040e-003 7.735342e+001 3.877632e-003 6.379333e+001 1.065867e+000 -2.779855e+001
1017250000 1.033357e+000 -1.652627e+001 1.764392e-003 8.431709e+001 4.265201e-003 6.652975e+001 1.064811e+000 -2.791092e+001
1017400000 1.033705e+000 -1.652546e+001 2.185404e-003 7.201884e+001 4.071779e-003 6.369785e+001 1.063663e+000 -2.789858e+001
1017550000 1.030457e+000 -1.657785e+001 1.954473e-003 8.309595e+001 3.761533e-003 6.444123e+001 1.064684e+000 -2.785712e+001
1017700000 1.032202e+000 -1.654815e+001 2.056916e-003 7.374361e+001 3.383236e-003 5.801567e+001 1.063612e+000 -2.785561e+001
1017850000 1.030348e+000 -1.652787e+001 2.278497e-003 8.012331e+001 3.484735e-003 6.039432e+001 1.062912e+000 -2.786734e+001
1018000000 1.030136e+000 -1.651202e+001 2.039553e-003 8.456464e+001 4.226102e-003 6.064897e+001 1.063362e+000 -2.786405e+001
1018150000 1.029999e+000 -1.658356e+001 2.514477e-003 7.702157e+001 4.339049e-003 6.972794e+001 1.061642e+000 -2.785971e+001
1018300000 1.030265e+000 -1.656199e+001 1.922805e-003 7.437278e+001 3.760397e-003 6.051287e+001 1.060358e+000 -2.774261e+001
1018450000 1.030449e+000 -1.655369e+001 2.167465e-003 7.562540e+001 4.189915e-003 6.646444e+001 1.063915e+000 -2.805130e+001
1018600000 1.031932e+000 -1.654272e+001 2.036632e-003 8.388779e+001 3.432542e-003 6.130176e+001 1.063526e+000 -2.800715e+001
1018750000 1.031925e+000 -1.655160e+001 2.159077e-003 8.130802e+001 4.229255e-003 5.757491e+001 1.063555e+000 -2.799357e+001
1018900000 1.031052e+000 -1.652782e+001 2.169289e-003 7.064055e+001 3.922245e-003 6.120229e+001 1.064623e+000 -2.807984e+001
1019050000 1.032357e+000 -1.653030e+001 2.022246e-003 8.028914e+001 3.873296e-003 6.568026e+001 1.064618e+000 -2.793197e+001
1019200000 1.031251e+000 -1.661220e+001 2.326269e-003 7.313275e+001 4.080380e-003 6.204848e+001 1.064816e+000 -2.788339e+001
1019350000 1.031781e+000 -1.656893e+001 2.124236e-003 7.904583e+001 3.877757e-003 5.742360e+001 1.063501e+000 -2.808743e+001
1019500000 1.030786e+000 -1.667129e+001 2.103140e-003 7.263177e+001 4.020488e-003 5.915624e+001 1.066313e+000 -2.803336e+001
1019650000 1.031069e+000 -1.663237e+001 2.457230e-003 7.558963e+001 4.386778e-003 6.765231e+001 1.063184e+000 -2.810925e+001
1019800000 1.030417e+000 -1.678023e+001 2.104239e-003 7.417098e+001 4.057585e-003 6.773837e+001 1.059710e+000 -2.803355e+001
1019950000 1.030221e+000 -1.655951e+001 2.135339e-003 8.149570e+001 3.643687e-003 5.515017e+001 1.063271e+000 -2.812776e+001
1020100000 1.030351e+000 -1.664389e+001 2.109699e-003 7.669556e+001 4.662120e-003 6.137884e+001 1.061638e+000 -2.794450e+001
1020250000 1.033155e+000 -1.665915e+001 2.250526e-003 7.591788e+001 4.245092e-003 5.722326e+001 1.061558e+000 -2.812599e+001
1020400000 1.031348e+000 -1.663927e+001 1.839469e-003 7.721484e+001 4.258837e-003 6.251101e+001 1.064872e+000 -2.810360e+001
1020550000 1.031462e+000 -1.668171e+001 2.049427e-003 7.641392e+001 3.770550e-003 7.315711e+001 1.062983e+000 -2.811640e+001
1020700000 1.031561e+000 -1.659823e+001 2.043646e-003 7.791238e+001 4.099838e-003 6.085115e+001 1.069120e+000 -2.802743e+001
1020850000 1.032482e+000 -1.667152e+001 2.349720e-003 7.498483e+001 4.029845e-003 6.416483e+001 1.068404e+000 -2.814261e+001
1021000000 1.030385e+000 -1.662436e+001 2.101807e-003 7.078127e+001 3.845076e-003 6.114739e+001 1.069000e+000 -2.801391e+001
1021150000 1.030048e+000 -1.667946e+001 2.055751e-003 7.657203e+001 4.207449e-003 6.685411e+001 1.065010e+000 -2.814793e+001
1021300000 1.030678e+000 -1.664237e+001 1.913413e-003 7.703852e+001 4.672303e-003 7.437969e+001 1.062592e+000 -2.811743e+001
1021450000 1.030246e+000 -1.659994e+001 2.137492e-003 8.077518e+001 4.709728e-003 6.633675e+001 1.064999e+000 -2.802440e+001
1021600000 1.028933e+000 -1.662340e+001 1.906693e-003 7.428185e+001 3.491375e-003 7.114355e+001 1.063844e+000 -2.801899e+001
1021750000 1.029168e+000 -1.657941e+001 2.139126e-003 7.793281e+001 4.348808e-003 6.192135e+001 1.061431e+000 -2.819766e+001
1021900000 1.030522e+000 -1.665416e+001 1.994741e-003 8.356290e+001 4.005860e-003 6.218997e+001 1.061252e+000 -2.804173e+001
1022050000 1.029972e+000 -1.661142e+001 2.349652e-003 7.784106e+001 4.444607e-003 6.916329e+001 1.063694e+000 -2.804650e+001
1022200000 1.031409e+000 -1.660795e+001 2.005579e-003 7.564149e+001 4.454107e-003 6.533963e+001 1.063407e+000 -2.804080e+001
1022350000 1.030718e+000 -1.661996e+001 2.006933e-003 7.321943e+001 3.570541e-003 6.170851e+001 1.064091e+000 -2.809182e+001
1022500000 1.031281e+000 -1.653816e+001 2.232240e-003 7.232523e+001 4.167963e-003 6.118506e+001 1.064385e+000 -2.804964e+001
1022650000 1.031847e+000 -1.662667e+001 1.683893e-003 7.751220e+001 3.948069e-003 6.045855e+001 1.062242e+000 -2.807409e+001
1022800000 1.030364e+000 -1.670389e+001 2.075236e-003 7.764683e+001 4.464534e-003 6.788925e+001 1.061296e+000 -2.802963e+001
1022950000 1.031369e+000 -1.669253e+001 1.966700e-003 8.060671e+001 3.777358e-003 6.937167e+001 1.066187e+000 -2.802651e+001
1023100000 1.032349e+000 -1.668516e+001 2.036587e-003 7.514921e+001 2.960115e-003 7.061787e+001 1.065315e+000 -2.803403e+001
1023250000 1.031139e+000 -1.662695e+001 2.322497e-003 7.966044e+001 3.660213e-003 6.777852e+001 1.062434e+000 -2.794410e+001
