!Agilent Technologies,N5230C,SG49000117,A.08.50.07
!Agilent N5230C: A.08.50.07
!Date: Monday, May 20, 2024 19:54:29
!Correction: S11(Full 2 Port(1,2)) 
!S21(Full 2 Port(1,2)) 
!S12(Full 2 Port(1,2)) 
!S22(Full 2 Port(1,2)) 
!S2P File: Measurements: S11, S21, S12, S22:
# Hz S  MA   R 50
1000000000 1.030666e+000 -1.767808e+001 1.921389e-003 7.742606e+001 3.579039e-003 6.268827e+001 1.062563e+000 -3.028321e+001
1000150000 1.030659e+000 -1.768585e+001 1.999635e-003 7.727194e+001 3.637849e-003 6.468173e+001 1.061918e+000 -3.029177e+001
1000300000 1.030505e+000 -1.770154e+001 1.995603e-003 7.713658e+001 3.509999e-003 6.500704e+001 1.061581e+000 -3.030053e+001
1000450000 1.030735e+000 -1.770354e+001 1.997310e-003 7.676310e+001 3.611345e-003 6.501614e+001 1.061643e+000 -3.030388e+001
1000600000 1.030599e+000 -1.768669e+001 1.947257e-003 7.643192e+001 3.654362e-003 6.334304e+001 1.061362e+000 -3.032444e+001
1000750000 1.030480e+000 -1.770025e+001 1.999801e-003 7.703254e+001 3.546155e-003 6.490788e+001 1.061282e+000 -3.034204e+001
1000900000 1.030547e+000 -1.770468e+001 1.959882e-003 7.579003e+001 3.589652e-003 6.473531e+001 1.061572e+000 -3.031195e+001
1001050000 1.030454e+000 -1.768361e+001 1.970786e-003 7.651309e+001 3.584927e-003 6.506219e+001 1.062083e+000 -3.034272e+001
1001200000 1.030349e+000 -1.768806e+001 1.981981e-003 7.706306e+001 3.603269e-003 6.554524e+001 1.062092e+000 -3.027857e+001
1001350000 1.030056e+000 -1.768569e+001 1.989268e-003 7.726102e+001 3.663114e-003 6.335168e+001 1.062526e+000 -3.024907e+001
1001500000 1.029664e+000 -1.768743e+001 2.056709e-003 7.752039e+001 3.569136e-003 6.519505e+001 1.062596e+000 -3.023652e+001
1001650000 1.029760e+000 -1.770962e+001 1.977423e-003 7.832615e+001 3.606353e-003 6.507326e+001 1.062383e+000 -3.025926e+001
1001800000 1.029525e+000 -1.770903e+001 1.948186e-003 7.869318e+001 3.567030e-003 6.571929e+001 1.062104e+000 -3.030986e+001
1001950000 1.029219e+000 -1.772123e+001 1.946295e-003 7.691951e+001 3.559357e-003 6.543525e+001 1.061754e+000 -3.035701e+001
1002100000 1.029049e+000 -1.772636e+001 1.950862e-003 7.709434e+001 3.525718e-003 6.483189e+001 1.061668e+000 -3.037797e+001
1002250000 1.029242e+000 -1.773303e+001 2.021387e-003 7.822031e+001 3.632335e-003 6.558181e+001 1.061300e+000 -3.040086e+001
1002400000 1.029797e+000 -1.773248e+001 1.988992e-003 7.651053e+001 3.635011e-003 6.509274e+001 1.061519e+000 -3.039430e+001
1002550000 1.030227e+000 -1.773963e+001 1.985825e-003 7.656384e+001 3.654876e-003 6.496572e+001 1.061794e+000 -3.037148e+001
1002700000 1.030654e+000 -1.774306e+001 1.987036e-003 7.621236e+001 3.569097e-003 6.497298e+001 1.062250e+000 -3.036055e+001
1002850000 1.030664e+000 -1.774719e+001 2.029823e-003 7.762580e+001 3.568212e-003 6.525536e+001 1.062005e+000 -3.034719e+001
1003000000 1.031230e+000 -1.774040e+001 1.973090e-003 7.835629e+001 3.621871e-003 6.506487e+001 1.062119e+000 -3.032752e+001
1003150000 1.031509e+000 -1.774750e+001 2.001235e-003 7.797363e+001 3.591891e-003 6.455671e+001 1.061644e+000 -3.032887e+001
1003300000 1.031585e+000 -1.774263e+001 1.960585e-003 7.744873e+001 3.639104e-003 6.525058e+001 1.060834e+000 -3.034894e+001
1003450000 1.031600e+000 -1.772667e+001 1.984015e-003 7.720353e+001 3.637237e-003 6.477881e+001 1.060904e+000 -3.034552e+001
1003600000 1.031574e+000 -1.771688e+001 2.017286e-003 7.836443e+001 3.622646e-003 6.475296e+001 1.060630e+000 -3.034932e+001
1003750000 1.031526e+000 -1.771496e+001 2.003964e-003 7.814804e+001 3.619010e-003 6.502958e+001 1.061043e+000 -3.035405e+001
1003900000 1.030851e+000 -1.770489e+001 1.943841e-003 7.799945e+001 3.629948e-003 6.398866e+001 1.060831e+000 -3.034107e+001
1004050000 1.030641e+000 -1.772847e+001 1.970756e-003 7.830402e+001 3.640029e-003 6.434990e+001 1.061108e+000 -3.033239e+001
1004200000 1.030067e+000 -1.773558e+001 2.049549e-003 7.757813e+001 3.616436e-003 6.433274e+001 1.061144e+000 -3.032157e+001
1004350000 1.029814e+000 -1.774412e+001 1.996931e-003 7.685387e+001 3.613400e-003 6.426800e+001 1.061511e+000 -3.032630e+001
1004500000 1.029681e+000 -1.773759e+001 1.950309e-003 7.740590e+001 3.726720e-003 6.581952e+001 1.061498e+000 -3.032985e+001
1004650000 1.030123e+000 -1.775339e+001 2.013477e-003 7.669061e+001 3.675000e-003 6.466055e+001 1.061929e+000 -3.036033e+001
1004800000 1.030166e+000 -1.773751e+001 1.984411e-003 7.734348e+001 3.619367e-003 6.316844e+001 1.061824e+000 -3.036378e+001
1004950000 1.030578e+000 -1.774577e+001 1.984276e-003 7.703718e+001 3.614907e-003 6.289633e+001 1.061928e+000 -3.038008e+001
1005100000 1.030632e+000 -1.773733e+001 1.961861e-003 7.702434e+001 3.579957e-003 6.379188e+001 1.062156e+000 -3.039402e+001
1005250000 1.030776e+000 -1.773697e+001 1.975861e-003 7.790333e+001 3.635841e-003 6.550115e+001 1.062518e+000 -3.037448e+001
1005400000 1.030970e+000 -1.774388e+001 2.002364e-003 7.785558e+001 3.615247e-003 6.540542e+001 1.062501e+000 -3.040593e+001
1005550000 1.031074e+000 -1.774463e+001 1.987506e-003 7.674449e+001 3.644940e-003 6.563593e+001 1.063086e+000 -3.042855e+001
1005700000 1.031003e+000 -1.776788e+001 2.068553e-003 7.636896e+001 3.690805e-003 6.322639e+001 1.063072e+000 -3.045434e+001
1005850000 1.031098e+000 -1.777657e+001 1.992271e-003 7.655349e+001 3.691166e-003 6.265864e+001 1.062927e+000 -3.045490e+001
1006000000 1.031196e+000 -1.776941e+001 1.982646e-003 7.685881e+001 3.661269e-003 6.629588e+001 1.063659e+000 -3.048000e+001
1006150000 1.030917e+000 -1.778505e+001 2.027121e-003 7.770501e+001 3.765377e-003 6.414795e+001 1.063513e+000 -3.042296e+001
1006300000 1.030977e+000 -1.780838e+001 1.952340e-003 7.730346e+001 3.638933e-003 6.313433e+001 1.063216e+000 -3.041922e+001
1006450000 1.031168e+000 -1.782627e+001 2.050300e-003 7.694178e+001 3.672149e-003 6.483706e+001 1.063540e+000 -3.038273e+001
1006600000 1.031108e+000 -1.783445e+001 2.004819e-003 7.623909e+001 3.669970e-003 6.469297e+001 1.063002e+000 -3.035608e+001
1006750000 1.031092e+000 -1.784975e+001 2.005803e-003 7.664516e+001 3.713810e-003 6.557040e+001 1.062570e+000 -3.032178e+001
1006900000 1.031282e+000 -1.783528e+001 2.007494e-003 7.634270e+001 3.775947e-003 6.482248e+001 1.062380e+000 -3.033504e+001
1007050000 1.031209e+000 -1.784377e+001 1.956791e-003 7.776014e+001 3.686846e-003 6.478364e+001 1.062158e+000 -3.036944e+001
1007200000 1.031204e+000 -1.782757e+001 2.000332e-003 7.753222e+001 3.686907e-003 6.295890e+001 1.062012e+000 -3.039457e+001
1007350000 1.031184e+000 -1.779912e+001 2.050310e-003 7.572899e+001 3.635217e-003 6.371758e+001 1.061994e+000 -3.042167e+001
1007500000 1.031125e+000 -1.779590e+001 2.029697e-003 7.577693e+001 3.688060e-003 6.531448e+001 1.061879e+000 -3.042021e+001
1007650000 1.030681e+000 -1.779951e+001 2.032228e-003 7.641299e+001 3.683828e-003 6.403011e+001 1.061825e+000 -3.048212e+001
1007800000 1.030313e+000 -1.783056e+001 2.041195e-003 7.629543e+001 3.674149e-003 6.521491e+001 1.061605e+000 -3.053234e+001
1007950000 1.029887e+000 -1.784210e+001 2.005323e-003 7.668164e+001 3.694507e-003 6.506411e+001 1.061442e+000 -3.056569e+001
1008100000 1.029716e+000 -1.784904e+001 2.044621e-003 7.669413e+001 3.653246e-003 6.307829e+001 1.061346e+000 -3.059599e+001
1008250000 1.030027e+000 -1.785089e+001 2.012505e-003 7.713225e+001 3.712573e-003 6.391946e+001 1.061182e+000 -3.062546e+001
1008400000 1.030029e+000 -1.785041e+001 2.041844e-003 7.613129e+001 3.639529e-003 6.266301e+001 1.061200e+000 -3.059357e+001
1008550000 1.030728e+000 -1.785067e+001 1.986544e-003 7.861084e+001 3.728051e-003 6.369322e+001 1.061939e+000 -3.055095e+001
1008700000 1.031093e+000 -1.782651e+001 2.025206e-003 7.814545e+001 3.695959e-003 6.469826e+001 1.062051e+000 -3.056306e+001
1008850000 1.031287e+000 -1.780803e+001 2.059283e-003 7.699676e+001 3.615387e-003 6.347927e+001 1.062641e+000 -3.053655e+001
1009000000 1.031356e+000 -1.781660e+001 2.012024e-003 7.573677e+001 3.627655e-003 6.468832e+001 1.062896e+000 -3.053224e+001
1009150000 1.031039e+000 -1.782222e+001 1.986517e-003 7.816221e+001 3.729567e-003 6.349166e+001 1.062981e+000 -3.054803e+001
1009300000 1.030994e+000 -1.782597e+001 2.014748e-003 7.779144e+001 3.753212e-003 6.327629e+001 1.062326e+000 -3.056866e+001
1009450000 1.030925e+000 -1.784678e+001 2.050526e-003 7.705316e+001 3.727123e-003 6.152376e+001 1.062787e+000 -3.056099e+001
1009600000 1.030189e+000 -1.784259e+001 2.006713e-003 7.733127e+001 3.786498e-003 6.236339e+001 1.062943e+000 -3.056496e+001
1009750000 1.030348e+000 -1.786464e+001 2.045225e-003 7.744981e+001 3.591066e-003 6.281994e+001 1.063006e+000 -3.056327e+001
1009900000 1.030428e+000 -1.786537e+001 2.057212e-003 7.651279e+001 3.640512e-003 6.266385e+001 1.063415e+000 -3.056578e+001
1010050000 1.030618e+000 -1.790185e+001 1.976443e-003 7.711200e+001 3.627422e-003 6.443548e+001 1.063228e+000 -3.059371e+001
1010200000 1.030458e+000 -1.792686e+001 2.061644e-003 7.688456e+001 3.691963e-003 6.323444e+001 1.063431e+000 -3.061187e+001
1010350000 1.030368e+000 -1.796604e+001 2.007728e-003 7.558549e+001 3.684435e-003 6.418795e+001 1.063771e+000 -3.063160e+001
1010500000 1.030548e+000 -1.799692e+001 2.061498e-003 7.608470e+001 3.715686e-003 6.194892e+001 1.063588e+000 -3.062364e+001
1010650000 1.030469e+000 -1.795118e+001 2.027835e-003 7.616954e+001 3.590245e-003 6.286745e+001 1.062881e+000 -3.058966e+001
1010800000 1.030441e+000 -1.794423e+001 2.009940e-003 7.651067e+001 3.707345e-003 6.363232e+001 1.062234e+000 -3.055401e+001
1010950000 1.030447e+000 -1.791703e+001 2.013677e-003 7.773371e+001 3.723828e-003 6.249499e+001 1.061657e+000 -3.053968e+001
1011100000 1.030369e+000 -1.789378e+001 2.023412e-003 7.704869e+001 3.680868e-003 6.275993e+001 1.061280e+000 -3.050429e+001
1011250000 1.030426e+000 -1.787604e+001 2.009176e-003 7.684856e+001 3.587322e-003 6.338373e+001 1.061094e+000 -3.048792e+001
1011400000 1.030666e+000 -1.788156e+001 2.067168e-003 7.665483e+001 3.697120e-003 6.338050e+001 1.061003e+000 -3.051848e+001
1011550000 1.030543e+000 -1.789554e+001 2.068112e-003 7.449859e+001 3.673860e-003 6.493958e+001 1.060930e+000 -3.055543e+001
1011700000 1.030889e+000 -1.791345e+001 1.966552e-003 7.508768e+001 3.749094e-003 6.296063e+001 1.061179e+000 -3.059973e+001
1011850000 1.030792e+000 -1.793307e+001 2.005207e-003 7.786376e+001 3.816826e-003 6.358645e+001 1.061407e+000 -3.061977e+001
1012000000 1.030662e+000 -1.794460e+001 2.035945e-003 7.750655e+001 3.620498e-003 6.232700e+001 1.062092e+000 -3.063935e+001
1012150000 1.030763e+000 -1.794871e+001 2.019373e-003 7.681699e+001 3.703577e-003 6.310470e+001 1.062352e+000 -3.060777e+001
1012300000 1.030643e+000 -1.794470e+001 2.013580e-003 7.712785e+001 3.709635e-003 6.211642e+001 1.063006e+000 -3.056245e+001
1012450000 1.030461e+000 -1.794442e+001 1.998086e-003 7.623836e+001 3.703823e-003 6.156385e+001 1.063313e+000 -3.051288e+001
1012600000 1.030276e+000 -1.792917e+001 2.036853e-003 7.769633e+001 3.709328e-003 6.210768e+001 1.063665e+000 -3.046470e+001
1012750000 1.030227e+000 -1.792647e+001 1.980928e-003 7.452722e+001 3.744760e-003 6.278963e+001 1.063539e+000 -3.045592e+001
1012900000 1.029966e+000 -1.793175e+001 2.013487e-003 7.539441e+001 3.700064e-003 6.291456e+001 1.062963e+000 -3.048001e+001
1013050000 1.030017e+000 -1.793817e+001 2.011718e-003 7.593956e+001 3.654011e-003 6.439189e+001 1.061831e+000 -3.050229e+001
1013200000 1.029796e+000 -1.798138e+001 2.060100e-003 7.573758e+001 3.636147e-003 6.285822e+001 1.061733e+000 -3.055762e+001
1013350000 1.029858e+000 -1.799387e+001 2.014958e-003 7.621192e+001 3.645716e-003 6.431764e+001 1.061145e+000 -3.058570e+001
1013500000 1.030007e+000 -1.801680e+001 2.024922e-003 7.652290e+001 3.781746e-003 6.209602e+001 1.060926e+000 -3.063576e+001
1013650000 1.030202e+000 -1.799940e+001 2.059498e-003 7.613115e+001 3.772753e-003 6.340819e+001 1.060394e+000 -3.067521e+001
1013800000 1.030087e+000 -1.800612e+001 2.029917e-003 7.558855e+001 3.680101e-003 6.293688e+001 1.061274e+000 -3.067116e+001
1013950000 1.030401e+000 -1.801248e+001 2.048391e-003 7.544324e+001 3.727000e-003 6.207491e+001 1.061542e+000 -3.068520e+001
1014100000 1.030508e+000 -1.800109e+001 2.051832e-003 7.703204e+001 3.710387e-003 6.376449e+001 1.062132e+000 -3.066248e+001
1014250000 1.030849e+000 -1.800479e+001 2.045923e-003 7.654376e+001 3.666782e-003 6.418734e+001 1.062675e+000 -3.069807e+001
1014400000 1.031063e+000 -1.801722e+001 2.026934e-003 7.513558e+001 3.778315e-003 6.242331e+001 1.063190e+000 -3.068186e+001
1014550000 1.031536e+000 -1.802811e+001 2.041093e-003 7.618237e+001 3.650509e-003 6.452482e+001 1.063668e+000 -3.065561e+001
1014700000 1.031557e+000 -1.802979e+001 2.023119e-003 7.537415e+001 3.630483e-003 6.180657e+001 1.064040e+000 -3.064951e+001
1014850000 1.031744e+000 -1.803309e+001 2.028344e-003 7.508749e+001 3.635522e-003 6.258901e+001 1.063978e+000 -3.063668e+001
1015000000 1.031923e+000 -1.805239e+001 2.021177e-003 7.477626e+001 3.725257e-003 6.154570e+001 1.064134e+000 -3.065602e+001
1015150000 1.031546e+000 -1.805025e+001 2.042211e-003 7.523367e+001 3.600957e-003 6.477727e+001 1.063221e+000 -3.066017e+001
1015300000 1.031088e+000 -1.803032e+001 2.015554e-003 7.517582e+001 3.738325e-003 6.287041e+001 1.062501e+000 -3.067779e+001
1015450000 1.030649e+000 -1.803174e+001 1.973520e-003 7.660361e+001 3.707771e-003 6.216613e+001 1.061618e+000 -3.066854e+001
1015600000 1.030807e+000 -1.802709e+001 2.001129e-003 7.606735e+001 3.724842e-003 6.221800e+001 1.061112e+000 -3.070570e+001
1015750000 1.030261e+000 -1.802977e+001 2.035890e-003 7.524712e+001 3.708316e-003 6.307998e+001 1.060804e+000 -3.070001e+001
1015900000 1.030570e+000 -1.803703e+001 2.041524e-003 7.557277e+001 3.728819e-003 6.307969e+001 1.059969e+000 -3.069613e+001
1016050000 1.030900e+000 -1.803451e+001 2.009270e-003 7.436445e+001 3.749540e-003 6.301660e+001 1.060287e+000 -3.070058e+001
1016200000 1.031206e+000 -1.804193e+001 1.975194e-003 7.649442e+001 3.700316e-003 6.175705e+001 1.060358e+000 -3.067688e+001
1016350000 1.031443e+000 -1.802220e+001 2.091746e-003 7.607969e+001 3.708333e-003 6.332700e+001 1.060286e+000 -3.066033e+001
1016500000 1.031834e+000 -1.804412e+001 2.033729e-003 7.508707e+001 3.601394e-003 6.280915e+001 1.060655e+000 -3.067180e+001
1016650000 1.032224e+000 -1.804592e+001 2.024794e-003 7.554356e+001 3.726235e-003 6.192289e+001 1.061499e+000 -3.064591e+001
1016800000 1.032201e+000 -1.805949e+001 2.058547e-003 7.466092e+001 3.686900e-003 6.232553e+001 1.062762e+000 -3.065240e+001
1016950000 1.032459e+000 -1.806228e+001 2.063150e-003 7.616650e+001 3.763369e-003 6.199002e+001 1.063529e+000 -3.061985e+001
1017100000 1.032508e+000 -1.808388e+001 2.041896e-003 7.569695e+001 3.683503e-003 6.409313e+001 1.064655e+000 -3.062660e+001
1017250000 1.032390e+000 -1.808590e+001 2.017767e-003 7.546636e+001 3.736715e-003 6.187593e+001 1.065022e+000 -3.063145e+001
1017400000 1.031812e+000 -1.808344e+001 2.099897e-003 7.520992e+001 3.679510e-003 6.264788e+001 1.064587e+000 -3.064034e+001
1017550000 1.031275e+000 -1.806399e+001 2.029297e-003 7.619928e+001 3.762517e-003 6.418673e+001 1.063931e+000 -3.066313e+001
1017700000 1.030590e+000 -1.808361e+001 2.003822e-003 7.466906e+001 3.672810e-003 6.375078e+001 1.064017e+000 -3.066226e+001
1017850000 1.030369e+000 -1.808883e+001 2.071940e-003 7.389661e+001 3.691491e-003 6.190012e+001 1.063758e+000 -3.067679e+001
1018000000 1.029990e+000 -1.809968e+001 2.048901e-003 7.403679e+001 3.753100e-003 6.376530e+001 1.063147e+000 -3.070780e+001
1018150000 1.030310e+000 -1.811169e+001 2.029173e-003 7.668477e+001 3.765229e-003 6.213597e+001 1.062869e+000 -3.072196e+001
1018300000 1.030635e+000 -1.812452e+001 1.991423e-003 7.451770e+001 3.683481e-003 6.180890e+001 1.062419e+000 -3.073063e+001
1018450000 1.030859e+000 -1.810288e+001 2.035476e-003 7.563047e+001 3.665365e-003 6.258861e+001 1.062795e+000 -3.070872e+001
1018600000 1.031078e+000 -1.810074e+001 2.030628e-003 7.521780e+001 3.768640e-003 6.160452e+001 1.062587e+000 -3.071599e+001
1018750000 1.031227e+000 -1.810411e+001 2.031381e-003 7.521829e+001 3.694283e-003 6.279051e+001 1.062824e+000 -3.071114e+001
1018900000 1.031384e+000 -1.810659e+001 2.044176e-003 7.586063e+001 3.764367e-003 6.246246e+001 1.062913e+000 -3.073339e+001
1019050000 1.031271e+000 -1.811401e+001 2.054113e-003 7.500346e+001 3.852028e-003 6.189302e+001 1.063470e+000 -3.073280e+001
1019200000 1.031055e+000 -1.813378e+001 2.080391e-003 7.544912e+001 3.826192e-003 6.175810e+001 1.063958e+000 -3.077713e+001
1019350000 1.030823e+000 -1.814131e+001 2.053272e-003 7.496783e+001 3.680498e-003 6.171065e+001 1.064206e+000 -3.080445e+001
1019500000 1.030828e+000 -1.816169e+001 2.048394e-003 7.610603e+001 3.664770e-003 6.052234e+001 1.063604e+000 -3.083877e+001
1019650000 1.030659e+000 -1.817736e+001 2.066945e-003 7.336919e+001 3.726247e-003 6.222917e+001 1.062655e+000 -3.083187e+001
1019800000 1.030857e+000 -1.817235e+001 2.067447e-003 7.518682e+001 3.661547e-003 6.267902e+001 1.062478e+000 -3.083456e+001
1019950000 1.030820e+000 -1.819578e+001 2.035603e-003 7.403553e+001 3.694820e-003 6.046474e+001 1.061610e+000 -3.082368e+001
1020100000 1.031026e+000 -1.819410e+001 2.035918e-003 7.470551e+001 3.706910e-003 6.019318e+001 1.061329e+000 -3.084617e+001
1020250000 1.030994e+000 -1.820166e+001 2.025412e-003 7.441118e+001 3.570220e-003 6.205122e+001 1.061373e+000 -3.087210e+001
1020400000 1.031214e+000 -1.819994e+001 2.050121e-003 7.518996e+001 3.568030e-003 6.232853e+001 1.063282e+000 -3.087684e+001
1020550000 1.031193e+000 -1.820190e+001 2.035104e-003 7.483876e+001 3.640171e-003 6.299257e+001 1.064979e+000 -3.084276e+001
1020700000 1.031192e+000 -1.819919e+001 1.986150e-003 7.393003e+001 3.733496e-003 6.289035e+001 1.066931e+000 -3.083329e+001
1020850000 1.031152e+000 -1.821028e+001 2.047674e-003 7.537890e+001 3.851199e-003 6.189056e+001 1.067416e+000 -3.083081e+001
1021000000 1.030723e+000 -1.820983e+001 2.061714e-003 7.488245e+001 3.737611e-003 6.198159e+001 1.067956e+000 -3.081679e+001
1021150000 1.030385e+000 -1.819770e+001 2.068499e-003 7.478532e+001 3.726742e-003 6.126315e+001 1.066329e+000 -3.082413e+001
1021300000 1.030141e+000 -1.817578e+001 2.089211e-003 7.537335e+001 3.724417e-003 6.204773e+001 1.064937e+000 -3.086579e+001
1021450000 1.029367e+000 -1.815620e+001 2.042002e-003 7.500405e+001 3.643979e-003 6.321797e+001 1.063739e+000 -3.085614e+001
1021600000 1.029394e+000 -1.814163e+001 2.008438e-003 7.446971e+001 3.747250e-003 6.183081e+001 1.062649e+000 -3.088047e+001
1021750000 1.029278e+000 -1.814580e+001 2.014622e-003 7.609042e+001 3.641228e-003 6.220153e+001 1.062368e+000 -3.087062e+001
1021900000 1.029772e+000 -1.814158e+001 2.032758e-003 7.544624e+001 3.787403e-003 6.109837e+001 1.062249e+000 -3.087831e+001
1022050000 1.030319e+000 -1.815407e+001 2.059137e-003 7.541881e+001 3.686969e-003 6.338830e+001 1.062797e+000 -3.088028e+001
1022200000 1.030491e+000 -1.816602e+001 2.026052e-003 7.559058e+001 3.718469e-003 6.209763e+001 1.063156e+000 -3.088327e+001
1022350000 1.030833e+000 -1.818158e+001 2.038847e-003 7.514239e+001 3.715931e-003 6.240780e+001 1.063498e+000 -3.088013e+001
1022500000 1.031222e+000 -1.817494e+001 2.063191e-003 7.447417e+001 3.716808e-003 6.127835e+001 1.064055e+000 -3.087345e+001
1022650000 1.031210e+000 -1.820028e+001 2.029491e-003 7.577837e+001 3.702826e-003 6.289216e+001 1.063929e+000 -3.083013e+001
1022800000 1.031450e+000 -1.818977e+001 2.017548e-003 7.565385e+001 3.671292e-003 6.211035e+001 1.063196e+000 -3.085545e+001
1022950000 1.031036e+000 -1.820250e+001 2.073139e-003 7.409730e+001 3.594470e-003 6.366079e+001 1.063602e+000 -3.083885e+001
1023100000 1.031358e+000 -1.821037e+001 2.061771e-003 7.460478e+001 3.733958e-003 6.103372e+001 1.062797e+000 -3.082834e+001
1023250000 1.031178e+000 -1.820489e+001 2.011251e-003 7.602809e+001 3.753669e-003 6.277266e+001 1.063348e+000 -3.083561e+001
