!Agilent Technologies,N5230C,SG49000117,A.08.50.07
!Agilent N5230C: A.08.50.07
!Date: Monday, May 20, 2024 19:50:14
!Correction: S11(Full 2 Port(1,2)) 
!S21(Full 2 Port(1,2)) 
!S12(Full 2 Port(1,2)) 
!S22(Full 2 Port(1,2)) 
!S2P File: Measurements: S11, S21, S12, S22:
# Hz S  MA   R 50
1000000000 1.030782e+000 -1.909868e+001 2.289113e-003 7.651455e+001 4.122101e-003 6.261254e+001 1.063391e+000 -3.287899e+001
1000150000 1.030833e+000 -1.910225e+001 2.271618e-003 7.596987e+001 4.085037e-003 6.322626e+001 1.063150e+000 -3.288055e+001
1000300000 1.030868e+000 -1.911581e+001 2.275613e-003 7.567209e+001 4.021915e-003 6.216348e+001 1.062792e+000 -3.287933e+001
1000450000 1.031094e+000 -1.911257e+001 2.292459e-003 7.584231e+001 3.997318e-003 6.235310e+001 1.062757e+000 -3.289024e+001
1000600000 1.031029e+000 -1.910594e+001 2.249311e-003 7.599721e+001 4.013204e-003 6.299039e+001 1.062505e+000 -3.289924e+001
1000750000 1.030929e+000 -1.910981e+001 2.297696e-003 7.715684e+001 4.087238e-003 6.288623e+001 1.062218e+000 -3.294540e+001
1000900000 1.030967e+000 -1.911367e+001 2.285780e-003 7.662761e+001 4.079744e-003 6.316452e+001 1.062580e+000 -3.292192e+001
1001050000 1.030896e+000 -1.911347e+001 2.266809e-003 7.558470e+001 4.068174e-003 6.321241e+001 1.062903e+000 -3.291334e+001
1001200000 1.030519e+000 -1.910709e+001 2.256562e-003 7.671017e+001 4.161070e-003 6.393002e+001 1.062908e+000 -3.288410e+001
1001350000 1.030364e+000 -1.910407e+001 2.238912e-003 7.706013e+001 4.099206e-003 6.275416e+001 1.063544e+000 -3.285622e+001
1001500000 1.030393e+000 -1.911480e+001 2.309524e-003 7.519704e+001 4.235246e-003 6.286668e+001 1.063625e+000 -3.282565e+001
1001650000 1.030073e+000 -1.913405e+001 2.243313e-003 7.652133e+001 4.026554e-003 6.167217e+001 1.063415e+000 -3.285081e+001
1001800000 1.029741e+000 -1.913781e+001 2.278477e-003 7.695415e+001 4.104987e-003 6.313743e+001 1.062942e+000 -3.290284e+001
1001950000 1.029617e+000 -1.914274e+001 2.253837e-003 7.545277e+001 4.046819e-003 6.329912e+001 1.062771e+000 -3.292487e+001
1002100000 1.029398e+000 -1.915631e+001 2.264929e-003 7.683632e+001 4.192485e-003 6.260332e+001 1.062713e+000 -3.297340e+001
1002250000 1.029566e+000 -1.915243e+001 2.295657e-003 7.640063e+001 4.141172e-003 6.349016e+001 1.062194e+000 -3.299900e+001
1002400000 1.030068e+000 -1.916396e+001 2.279157e-003 7.583894e+001 4.162342e-003 6.232771e+001 1.062721e+000 -3.299213e+001
1002550000 1.030338e+000 -1.915641e+001 2.366861e-003 7.524008e+001 4.091681e-003 6.182460e+001 1.062842e+000 -3.297321e+001
1002700000 1.030712e+000 -1.916468e+001 2.302468e-003 7.605497e+001 4.040392e-003 6.318992e+001 1.062667e+000 -3.298485e+001
1002850000 1.031256e+000 -1.917455e+001 2.265410e-003 7.678316e+001 4.075964e-003 6.244744e+001 1.062890e+000 -3.294762e+001
1003000000 1.031457e+000 -1.917315e+001 2.260987e-003 7.770506e+001 4.101698e-003 6.252852e+001 1.062886e+000 -3.292142e+001
1003150000 1.031611e+000 -1.917316e+001 2.279372e-003 7.615193e+001 4.064308e-003 6.248872e+001 1.062387e+000 -3.292917e+001
1003300000 1.031976e+000 -1.916007e+001 2.260492e-003 7.627273e+001 4.220711e-003 6.258181e+001 1.062099e+000 -3.292798e+001
1003450000 1.031909e+000 -1.915726e+001 2.307480e-003 7.650422e+001 4.193278e-003 6.268452e+001 1.061749e+000 -3.293953e+001
1003600000 1.031912e+000 -1.915260e+001 2.286740e-003 7.597197e+001 4.220865e-003 6.238611e+001 1.061783e+000 -3.294651e+001
1003750000 1.031880e+000 -1.913030e+001 2.277493e-003 7.541247e+001 4.165975e-003 6.206425e+001 1.061810e+000 -3.293612e+001
1003900000 1.031147e+000 -1.912949e+001 2.273263e-003 7.682930e+001 4.145419e-003 6.209295e+001 1.061863e+000 -3.292794e+001
1004050000 1.030936e+000 -1.916300e+001 2.279214e-003 7.681927e+001 4.132621e-003 6.224610e+001 1.061861e+000 -3.293402e+001
1004200000 1.030427e+000 -1.915478e+001 2.280832e-003 7.675272e+001 4.104430e-003 6.280978e+001 1.062280e+000 -3.293262e+001
1004350000 1.030384e+000 -1.916983e+001 2.339405e-003 7.581546e+001 4.135741e-003 6.367145e+001 1.062662e+000 -3.294043e+001
1004500000 1.030044e+000 -1.917375e+001 2.320020e-003 7.598419e+001 4.130643e-003 6.290513e+001 1.062875e+000 -3.292091e+001
1004650000 1.030323e+000 -1.916993e+001 2.355074e-003 7.474974e+001 4.177481e-003 6.272808e+001 1.063036e+000 -3.294598e+001
1004800000 1.030724e+000 -1.917290e+001 2.314079e-003 7.624693e+001 4.183386e-003 6.194763e+001 1.063061e+000 -3.297108e+001
1004950000 1.030712e+000 -1.916674e+001 2.303660e-003 7.524484e+001 4.178624e-003 6.308180e+001 1.063254e+000 -3.296158e+001
1005100000 1.031124e+000 -1.915377e+001 2.312928e-003 7.602816e+001 4.164248e-003 6.124564e+001 1.063479e+000 -3.298753e+001
1005250000 1.030982e+000 -1.915211e+001 2.310576e-003 7.559236e+001 4.146304e-003 6.164372e+001 1.063491e+000 -3.299779e+001
1005400000 1.030928e+000 -1.917716e+001 2.304836e-003 7.681318e+001 4.169123e-003 6.239133e+001 1.063581e+000 -3.298204e+001
1005550000 1.030996e+000 -1.917851e+001 2.292556e-003 7.549938e+001 4.210443e-003 6.222673e+001 1.063733e+000 -3.302129e+001
1005700000 1.031386e+000 -1.918986e+001 2.280869e-003 7.584190e+001 4.133643e-003 6.210356e+001 1.063771e+000 -3.303757e+001
1005850000 1.031241e+000 -1.920093e+001 2.322981e-003 7.535858e+001 4.164285e-003 6.307082e+001 1.064277e+000 -3.303556e+001
1006000000 1.031358e+000 -1.920893e+001 2.276095e-003 7.652585e+001 4.275103e-003 6.187421e+001 1.064038e+000 -3.306641e+001
1006150000 1.031160e+000 -1.922573e+001 2.333682e-003 7.608785e+001 4.114569e-003 6.290337e+001 1.064165e+000 -3.305007e+001
1006300000 1.031398e+000 -1.923406e+001 2.325960e-003 7.594926e+001 4.244843e-003 6.241667e+001 1.064056e+000 -3.302480e+001
1006450000 1.031470e+000 -1.925658e+001 2.341944e-003 7.508942e+001 4.223790e-003 6.124001e+001 1.064177e+000 -3.299329e+001
1006600000 1.031558e+000 -1.927135e+001 2.296470e-003 7.574774e+001 4.263460e-003 6.193077e+001 1.064131e+000 -3.295768e+001
1006750000 1.031617e+000 -1.927801e+001 2.334779e-003 7.556303e+001 4.158640e-003 6.225431e+001 1.063918e+000 -3.294460e+001
1006900000 1.031791e+000 -1.927717e+001 2.332047e-003 7.629845e+001 4.166494e-003 6.114553e+001 1.063416e+000 -3.293390e+001
1007050000 1.031665e+000 -1.925146e+001 2.303808e-003 7.554377e+001 4.135558e-003 6.116583e+001 1.063325e+000 -3.297865e+001
1007200000 1.031604e+000 -1.926020e+001 2.311712e-003 7.506367e+001 4.144486e-003 6.185746e+001 1.063166e+000 -3.298716e+001
1007350000 1.031386e+000 -1.922972e+001 2.312389e-003 7.566097e+001 4.102792e-003 6.202694e+001 1.062804e+000 -3.301516e+001
1007500000 1.031355e+000 -1.922673e+001 2.335066e-003 7.616949e+001 4.234022e-003 6.272535e+001 1.063076e+000 -3.301135e+001
1007650000 1.030759e+000 -1.923591e+001 2.309595e-003 7.498862e+001 4.213585e-003 6.162682e+001 1.062464e+000 -3.306527e+001
1007800000 1.030619e+000 -1.923475e+001 2.316334e-003 7.474453e+001 4.207426e-003 6.278363e+001 1.062440e+000 -3.314246e+001
1007950000 1.030457e+000 -1.926566e+001 2.326545e-003 7.524437e+001 4.212579e-003 6.077632e+001 1.062258e+000 -3.318528e+001
1008100000 1.030038e+000 -1.927552e+001 2.326105e-003 7.511447e+001 4.158776e-003 6.131476e+001 1.062190e+000 -3.318230e+001
1008250000 1.030219e+000 -1.929792e+001 2.356016e-003 7.588633e+001 4.211622e-003 6.156992e+001 1.062076e+000 -3.320940e+001
1008400000 1.030317e+000 -1.927523e+001 2.328070e-003 7.497962e+001 4.303368e-003 6.133664e+001 1.062135e+000 -3.320193e+001
1008550000 1.031108e+000 -1.928151e+001 2.344590e-003 7.616745e+001 4.201869e-003 6.116861e+001 1.062819e+000 -3.315528e+001
1008700000 1.031085e+000 -1.927559e+001 2.302584e-003 7.590246e+001 4.192874e-003 6.234422e+001 1.063319e+000 -3.316506e+001
1008850000 1.031339e+000 -1.925286e+001 2.311161e-003 7.569086e+001 4.333970e-003 6.209441e+001 1.063280e+000 -3.314635e+001
1009000000 1.031519e+000 -1.925346e+001 2.324698e-003 7.462436e+001 4.206907e-003 6.069128e+001 1.064011e+000 -3.313591e+001
1009150000 1.031291e+000 -1.925185e+001 2.343562e-003 7.487503e+001 4.129984e-003 6.037826e+001 1.063906e+000 -3.315071e+001
1009300000 1.031234e+000 -1.926672e+001 2.320760e-003 7.539610e+001 4.238732e-003 6.197980e+001 1.063790e+000 -3.316463e+001
1009450000 1.030995e+000 -1.927556e+001 2.380223e-003 7.418304e+001 4.200540e-003 6.189022e+001 1.063786e+000 -3.318330e+001
1009600000 1.030661e+000 -1.928462e+001 2.352117e-003 7.514172e+001 4.169887e-003 6.270430e+001 1.063777e+000 -3.319069e+001
1009750000 1.030877e+000 -1.930246e+001 2.300183e-003 7.545344e+001 4.263658e-003 6.148014e+001 1.064108e+000 -3.316431e+001
1009900000 1.030825e+000 -1.931740e+001 2.330709e-003 7.517628e+001 4.221108e-003 6.065095e+001 1.063987e+000 -3.321122e+001
1010050000 1.030713e+000 -1.935068e+001 2.320460e-003 7.472405e+001 4.230809e-003 6.132777e+001 1.064355e+000 -3.321694e+001
1010200000 1.030787e+000 -1.935428e+001 2.346539e-003 7.502954e+001 4.209924e-003 6.111080e+001 1.064705e+000 -3.323838e+001
1010350000 1.030903e+000 -1.939533e+001 2.332985e-003 7.567131e+001 4.243354e-003 6.135998e+001 1.064638e+000 -3.323725e+001
1010500000 1.030679e+000 -1.941584e+001 2.331284e-003 7.332215e+001 4.212204e-003 6.203988e+001 1.064019e+000 -3.323412e+001
1010650000 1.030910e+000 -1.939936e+001 2.363986e-003 7.524084e+001 4.150258e-003 6.185630e+001 1.063586e+000 -3.319717e+001
1010800000 1.030498e+000 -1.937530e+001 2.339600e-003 7.479556e+001 4.183342e-003 6.019382e+001 1.063139e+000 -3.320268e+001
1010950000 1.030760e+000 -1.935475e+001 2.314470e-003 7.570041e+001 4.294548e-003 6.161622e+001 1.062608e+000 -3.315689e+001
1011100000 1.030790e+000 -1.933409e+001 2.348353e-003 7.447027e+001 4.270263e-003 6.121167e+001 1.062353e+000 -3.313213e+001
1011250000 1.030544e+000 -1.930848e+001 2.339826e-003 7.441774e+001 4.265246e-003 6.176059e+001 1.062049e+000 -3.308160e+001
1011400000 1.031020e+000 -1.932295e+001 2.389213e-003 7.460594e+001 4.208621e-003 6.142911e+001 1.061975e+000 -3.312870e+001
1011550000 1.030897e+000 -1.934014e+001 2.342553e-003 7.465908e+001 4.322282e-003 6.066450e+001 1.062392e+000 -3.316677e+001
1011700000 1.031135e+000 -1.934918e+001 2.356996e-003 7.487421e+001 4.269701e-003 6.025052e+001 1.062016e+000 -3.322363e+001
1011850000 1.031102e+000 -1.937890e+001 2.313636e-003 7.526416e+001 4.230184e-003 6.139182e+001 1.062864e+000 -3.323882e+001
1012000000 1.031023e+000 -1.938535e+001 2.341685e-003 7.478334e+001 4.186003e-003 6.065634e+001 1.062837e+000 -3.325581e+001
1012150000 1.030859e+000 -1.939507e+001 2.362626e-003 7.492407e+001 4.214474e-003 6.014669e+001 1.063473e+000 -3.319443e+001
1012300000 1.030597e+000 -1.937828e+001 2.350128e-003 7.508271e+001 4.204062e-003 6.048370e+001 1.063843e+000 -3.317901e+001
1012450000 1.030625e+000 -1.937147e+001 2.338681e-003 7.416840e+001 4.246130e-003 6.027059e+001 1.064530e+000 -3.313657e+001
1012600000 1.030577e+000 -1.935915e+001 2.329060e-003 7.493043e+001 4.273095e-003 6.188406e+001 1.064720e+000 -3.307560e+001
1012750000 1.030213e+000 -1.934841e+001 2.338397e-003 7.412824e+001 4.237278e-003 6.168641e+001 1.064500e+000 -3.304205e+001
1012900000 1.030636e+000 -1.937492e+001 2.346426e-003 7.532027e+001 4.283750e-003 6.063620e+001 1.063938e+000 -3.307442e+001
1013050000 1.030365e+000 -1.939102e+001 2.335105e-003 7.470068e+001 4.197466e-003 5.924196e+001 1.063018e+000 -3.313363e+001
1013200000 1.030276e+000 -1.942087e+001 2.388977e-003 7.499266e+001 4.230498e-003 5.901592e+001 1.062379e+000 -3.316844e+001
1013350000 1.030199e+000 -1.943150e+001 2.307081e-003 7.417484e+001 4.193745e-003 6.070089e+001 1.061802e+000 -3.321012e+001
1013500000 1.030117e+000 -1.944744e+001 2.354308e-003 7.452476e+001 4.227445e-003 6.158839e+001 1.061409e+000 -3.325947e+001
1013650000 1.030276e+000 -1.944832e+001 2.328346e-003 7.397134e+001 4.249146e-003 6.101634e+001 1.062121e+000 -3.326640e+001
1013800000 1.030495e+000 -1.944423e+001 2.366838e-003 7.454228e+001 4.173918e-003 6.070696e+001 1.062409e+000 -3.329720e+001
1013950000 1.030326e+000 -1.944918e+001 2.357833e-003 7.311998e+001 4.268478e-003 6.010964e+001 1.062555e+000 -3.327899e+001
1014100000 1.030810e+000 -1.944696e+001 2.341303e-003 7.451048e+001 4.235954e-003 6.054253e+001 1.062863e+000 -3.330380e+001
1014250000 1.030858e+000 -1.946140e+001 2.334122e-003 7.482850e+001 4.256099e-003 6.098157e+001 1.063672e+000 -3.331369e+001
1014400000 1.031217e+000 -1.946169e+001 2.371642e-003 7.381371e+001 4.311931e-003 6.094336e+001 1.063927e+000 -3.327786e+001
1014550000 1.031831e+000 -1.945944e+001 2.333901e-003 7.404498e+001 4.307575e-003 6.022851e+001 1.064228e+000 -3.328106e+001
1014700000 1.032004e+000 -1.946263e+001 2.333542e-003 7.384294e+001 4.153504e-003 6.031293e+001 1.065061e+000 -3.327339e+001
1014850000 1.032154e+000 -1.946969e+001 2.355914e-003 7.395344e+001 4.243487e-003 6.092742e+001 1.065163e+000 -3.329012e+001
1015000000 1.031995e+000 -1.948130e+001 2.340321e-003 7.296626e+001 4.281047e-003 6.087651e+001 1.065233e+000 -3.327185e+001
1015150000 1.031830e+000 -1.947295e+001 2.328649e-003 7.377129e+001 4.224824e-003 6.140323e+001 1.064489e+000 -3.327922e+001
1015300000 1.031443e+000 -1.946122e+001 2.364323e-003 7.446794e+001 4.187135e-003 6.074065e+001 1.063407e+000 -3.328070e+001
1015450000 1.031036e+000 -1.947598e+001 2.359839e-003 7.346497e+001 4.348330e-003 6.253344e+001 1.062657e+000 -3.329764e+001
1015600000 1.030841e+000 -1.946927e+001 2.311212e-003 7.427385e+001 4.272339e-003 6.064270e+001 1.061997e+000 -3.332848e+001
1015750000 1.030600e+000 -1.946708e+001 2.362591e-003 7.464891e+001 4.324847e-003 5.939412e+001 1.061333e+000 -3.333477e+001
1015900000 1.030764e+000 -1.947853e+001 2.336645e-003 7.476724e+001 4.169395e-003 6.060521e+001 1.061195e+000 -3.332822e+001
1016050000 1.031415e+000 -1.946989e+001 2.308939e-003 7.525587e+001 4.173324e-003 6.011077e+001 1.061128e+000 -3.330505e+001
1016200000 1.031702e+000 -1.948556e+001 2.302604e-003 7.462077e+001 4.193543e-003 6.050135e+001 1.061244e+000 -3.330912e+001
1016350000 1.031823e+000 -1.948882e+001 2.351152e-003 7.379887e+001 4.274752e-003 6.038374e+001 1.061357e+000 -3.329044e+001
1016500000 1.032062e+000 -1.948099e+001 2.347921e-003 7.449218e+001 4.354089e-003 5.972056e+001 1.061814e+000 -3.326573e+001
1016650000 1.032485e+000 -1.948451e+001 2.339373e-003 7.429763e+001 4.197539e-003 6.137325e+001 1.063137e+000 -3.325891e+001
1016800000 1.032785e+000 -1.951283e+001 2.379418e-003 7.504610e+001 4.189673e-003 6.017634e+001 1.063968e+000 -3.327201e+001
1016950000 1.032924e+000 -1.952094e+001 2.297748e-003 7.525599e+001 4.245867e-003 6.048527e+001 1.064758e+000 -3.326249e+001
1017100000 1.032593e+000 -1.951696e+001 2.382034e-003 7.402773e+001 4.354599e-003 6.146804e+001 1.065606e+000 -3.323048e+001
1017250000 1.032588e+000 -1.952266e+001 2.355749e-003 7.343842e+001 4.301263e-003 6.046630e+001 1.065987e+000 -3.323927e+001
1017400000 1.032205e+000 -1.952080e+001 2.392345e-003 7.379868e+001 4.272740e-003 6.044048e+001 1.065720e+000 -3.328674e+001
1017550000 1.031412e+000 -1.952755e+001 2.341515e-003 7.492393e+001 4.243411e-003 6.064307e+001 1.065447e+000 -3.330537e+001
1017700000 1.031258e+000 -1.952712e+001 2.299127e-003 7.406306e+001 4.364940e-003 6.032347e+001 1.064889e+000 -3.329411e+001
1017850000 1.030743e+000 -1.954746e+001 2.386623e-003 7.435870e+001 4.301552e-003 6.022912e+001 1.064366e+000 -3.330387e+001
1018000000 1.030480e+000 -1.956447e+001 2.341524e-003 7.320230e+001 4.284028e-003 5.919257e+001 1.064606e+000 -3.333677e+001
1018150000 1.030561e+000 -1.956679e+001 2.383435e-003 7.394616e+001 4.235807e-003 6.046796e+001 1.063568e+000 -3.334386e+001
1018300000 1.030791e+000 -1.956896e+001 2.344117e-003 7.372707e+001 4.270790e-003 6.131671e+001 1.063795e+000 -3.332360e+001
1018450000 1.031339e+000 -1.955360e+001 2.310825e-003 7.404485e+001 4.152921e-003 6.049486e+001 1.063832e+000 -3.335291e+001
1018600000 1.031560e+000 -1.955683e+001 2.341309e-003 7.396194e+001 4.178874e-003 5.951476e+001 1.063646e+000 -3.334705e+001
1018750000 1.031786e+000 -1.955309e+001 2.374980e-003 7.316998e+001 4.237921e-003 6.050348e+001 1.063629e+000 -3.337760e+001
1018900000 1.031544e+000 -1.955089e+001 2.324460e-003 7.386835e+001 4.288859e-003 5.991803e+001 1.063807e+000 -3.335618e+001
1019050000 1.031426e+000 -1.955552e+001 2.361024e-003 7.398302e+001 4.310791e-003 6.090251e+001 1.064473e+000 -3.338079e+001
1019200000 1.031323e+000 -1.957328e+001 2.373689e-003 7.352179e+001 4.289889e-003 6.049281e+001 1.065031e+000 -3.340881e+001
1019350000 1.031175e+000 -1.959787e+001 2.351572e-003 7.408440e+001 4.249087e-003 5.978384e+001 1.064836e+000 -3.342118e+001
1019500000 1.030867e+000 -1.961880e+001 2.411297e-003 7.387347e+001 4.361869e-003 5.926048e+001 1.065299e+000 -3.347232e+001
1019650000 1.030927e+000 -1.963260e+001 2.339961e-003 7.444261e+001 4.262864e-003 5.979983e+001 1.064132e+000 -3.344950e+001
1019800000 1.031214e+000 -1.964916e+001 2.388484e-003 7.264045e+001 4.173215e-003 6.042076e+001 1.062354e+000 -3.345420e+001
1019950000 1.031236e+000 -1.963710e+001 2.331673e-003 7.492543e+001 4.363997e-003 5.926233e+001 1.062557e+000 -3.346050e+001
1020100000 1.031278e+000 -1.964387e+001 2.353661e-003 7.527662e+001 4.272229e-003 5.917242e+001 1.062115e+000 -3.346294e+001
1020250000 1.031214e+000 -1.964048e+001 2.383243e-003 7.503406e+001 4.197292e-003 6.014023e+001 1.062197e+000 -3.349319e+001
1020400000 1.031490e+000 -1.965042e+001 2.371856e-003 7.370504e+001 4.304335e-003 5.941233e+001 1.064221e+000 -3.350046e+001
1020550000 1.031400e+000 -1.965084e+001 2.352902e-003 7.371986e+001 4.270438e-003 6.044733e+001 1.066027e+000 -3.347774e+001
1020700000 1.031501e+000 -1.966025e+001 2.399925e-003 7.402063e+001 4.277457e-003 6.024116e+001 1.067038e+000 -3.350089e+001
1020850000 1.031418e+000 -1.965746e+001 2.409970e-003 7.272267e+001 4.341429e-003 6.035771e+001 1.068478e+000 -3.349679e+001
1021000000 1.031262e+000 -1.966692e+001 2.375131e-003 7.314650e+001 4.227006e-003 5.939085e+001 1.068896e+000 -3.348654e+001
1021150000 1.030848e+000 -1.965533e+001 2.383936e-003 7.315542e+001 4.179781e-003 6.066539e+001 1.067855e+000 -3.346331e+001
1021300000 1.030259e+000 -1.962488e+001 2.341936e-003 7.442351e+001 4.381920e-003 5.979741e+001 1.066675e+000 -3.348738e+001
1021450000 1.030098e+000 -1.961264e+001 2.373654e-003 7.456795e+001 4.288681e-003 5.974973e+001 1.064897e+000 -3.350395e+001
1021600000 1.029390e+000 -1.959272e+001 2.353145e-003 7.343764e+001 4.294578e-003 5.955610e+001 1.063863e+000 -3.350661e+001
1021750000 1.029408e+000 -1.959300e+001 2.398848e-003 7.465572e+001 4.205987e-003 5.975370e+001 1.062517e+000 -3.354462e+001
1021900000 1.030016e+000 -1.960302e+001 2.366012e-003 7.366528e+001 4.284589e-003 5.903488e+001 1.063030e+000 -3.354092e+001
1022050000 1.030673e+000 -1.962114e+001 2.327006e-003 7.317921e+001 4.222708e-003 5.968441e+001 1.063761e+000 -3.349921e+001
1022200000 1.030782e+000 -1.962345e+001 2.349087e-003 7.382436e+001 4.313529e-003 6.094572e+001 1.064209e+000 -3.351717e+001
1022350000 1.031330e+000 -1.962836e+001 2.380920e-003 7.344057e+001 4.249731e-003 5.937391e+001 1.064445e+000 -3.351838e+001
1022500000 1.031662e+000 -1.964369e+001 2.378529e-003 7.384589e+001 4.334913e-003 5.967202e+001 1.064543e+000 -3.348126e+001
1022650000 1.031551e+000 -1.966062e+001 2.383719e-003 7.331055e+001 4.252226e-003 5.841324e+001 1.064771e+000 -3.349098e+001
1022800000 1.031312e+000 -1.965670e+001 2.351421e-003 7.433030e+001 4.326430e-003 6.005603e+001 1.064654e+000 -3.347675e+001
1022950000 1.031403e+000 -1.966341e+001 2.375705e-003 7.415451e+001 4.227305e-003 6.055339e+001 1.064450e+000 -3.347327e+001
1023100000 1.031497e+000 -1.967178e+001 2.402483e-003 7.376430e+001 4.306116e-003 6.016772e+001 1.064032e+000 -3.346124e+001
1023250000 1.031430e+000 -1.967043e+001 2.394572e-003 7.385266e+001 4.249949e-003 6.068419e+001 1.064356e+000 -3.348043e+001
