!Agilent Technologies,N5230C,SG49000117,A.08.50.07
!Agilent N5230C: A.08.50.07
!Date: Friday, May 17, 2024 22:48:31
!Correction: S11(Full 2 Port(1,2)) 
!S21(Full 2 Port(1,2)) 
!S12(Full 2 Port(1,2)) 
!S22(Full 2 Port(1,2)) 
!S2P File: Measurements: S11, S21, S12, S22:
# Hz S  MA   R 50
1000000000 1.026149e+000 -1.081419e+001 1.226743e-003 8.202828e+001 2.332198e-003 7.374500e+001 1.052639e+000 -1.943767e+001
1000150000 1.026265e+000 -1.081082e+001 1.275284e-003 8.323528e+001 2.386612e-003 7.278958e+001 1.052834e+000 -1.944493e+001
1000300000 1.026298e+000 -1.081023e+001 1.268608e-003 8.059121e+001 2.350749e-003 7.385931e+001 1.052645e+000 -1.943802e+001
1000450000 1.026268e+000 -1.080659e+001 1.274430e-003 8.317949e+001 2.224921e-003 7.437720e+001 1.052617e+000 -1.947028e+001
1000600000 1.026302e+000 -1.080900e+001 1.274001e-003 8.228419e+001 2.351908e-003 7.381083e+001 1.052340e+000 -1.948377e+001
1000750000 1.026283e+000 -1.081137e+001 1.237737e-003 8.206708e+001 2.373086e-003 7.492276e+001 1.052009e+000 -1.949442e+001
1000900000 1.026340e+000 -1.081319e+001 1.262809e-003 8.145994e+001 2.322941e-003 7.479807e+001 1.052623e+000 -1.947671e+001
1001050000 1.026196e+000 -1.080821e+001 1.197385e-003 8.208077e+001 2.267496e-003 7.511206e+001 1.052708e+000 -1.944178e+001
1001200000 1.026057e+000 -1.080641e+001 1.266561e-003 8.161782e+001 2.348877e-003 7.446331e+001 1.053252e+000 -1.942539e+001
1001350000 1.025938e+000 -1.080957e+001 1.257350e-003 8.303973e+001 2.298815e-003 7.601601e+001 1.052877e+000 -1.939273e+001
1001500000 1.025719e+000 -1.080238e+001 1.226441e-003 8.264596e+001 2.343219e-003 7.531353e+001 1.053305e+000 -1.936321e+001
1001650000 1.025201e+000 -1.081239e+001 1.242380e-003 8.192947e+001 2.313510e-003 7.371625e+001 1.052965e+000 -1.939207e+001
1001800000 1.024928e+000 -1.083489e+001 1.292319e-003 8.325172e+001 2.359801e-003 7.294735e+001 1.052739e+000 -1.942785e+001
1001950000 1.024963e+000 -1.083397e+001 1.216160e-003 8.059827e+001 2.377426e-003 7.359603e+001 1.052341e+000 -1.947646e+001
1002100000 1.024853e+000 -1.085213e+001 1.237811e-003 8.241543e+001 2.304771e-003 7.349382e+001 1.052447e+000 -1.950217e+001
1002250000 1.024996e+000 -1.084692e+001 1.264333e-003 8.293818e+001 2.350564e-003 7.392921e+001 1.052120e+000 -1.954711e+001
1002400000 1.025398e+000 -1.084702e+001 1.283011e-003 8.085605e+001 2.301858e-003 7.418787e+001 1.052141e+000 -1.954315e+001
1002550000 1.025814e+000 -1.084792e+001 1.282563e-003 8.291141e+001 2.333858e-003 7.523763e+001 1.052471e+000 -1.953400e+001
1002700000 1.026251e+000 -1.083615e+001 1.237881e-003 8.171026e+001 2.263884e-003 7.530079e+001 1.052582e+000 -1.951155e+001
1002850000 1.026239e+000 -1.083700e+001 1.232796e-003 8.139395e+001 2.294486e-003 7.398196e+001 1.052715e+000 -1.949591e+001
1003000000 1.026831e+000 -1.084004e+001 1.198297e-003 8.299731e+001 2.397572e-003 7.523260e+001 1.052508e+000 -1.946126e+001
1003150000 1.027015e+000 -1.084649e+001 1.226991e-003 8.068775e+001 2.284040e-003 7.438481e+001 1.052534e+000 -1.944813e+001
1003300000 1.027308e+000 -1.083314e+001 1.218007e-003 8.337065e+001 2.283463e-003 7.343960e+001 1.051945e+000 -1.948733e+001
1003450000 1.027143e+000 -1.082157e+001 1.241586e-003 8.163033e+001 2.217707e-003 7.212688e+001 1.051560e+000 -1.946941e+001
1003600000 1.027093e+000 -1.081030e+001 1.255544e-003 8.078656e+001 2.365630e-003 7.350880e+001 1.051060e+000 -1.947936e+001
1003750000 1.027076e+000 -1.079252e+001 1.235422e-003 8.339362e+001 2.314599e-003 7.361510e+001 1.050851e+000 -1.948172e+001
1003900000 1.026607e+000 -1.081020e+001 1.203648e-003 8.084402e+001 2.371866e-003 7.511015e+001 1.051486e+000 -1.947170e+001
1004050000 1.025961e+000 -1.082545e+001 1.214580e-003 8.236665e+001 2.282166e-003 7.534109e+001 1.051996e+000 -1.946871e+001
1004200000 1.025744e+000 -1.082753e+001 1.279112e-003 8.250423e+001 2.222980e-003 7.616553e+001 1.051747e+000 -1.948187e+001
1004350000 1.025314e+000 -1.084086e+001 1.235970e-003 8.163765e+001 2.293236e-003 7.572122e+001 1.052236e+000 -1.948187e+001
1004500000 1.025196e+000 -1.083233e+001 1.250152e-003 8.185446e+001 2.326928e-003 7.231912e+001 1.052536e+000 -1.946141e+001
1004650000 1.025379e+000 -1.082883e+001 1.271317e-003 8.190771e+001 2.335556e-003 7.359286e+001 1.052262e+000 -1.947230e+001
1004800000 1.025656e+000 -1.082213e+001 1.236395e-003 8.201569e+001 2.310731e-003 7.369756e+001 1.052323e+000 -1.949687e+001
1004950000 1.025963e+000 -1.081011e+001 1.213768e-003 8.203844e+001 2.285079e-003 7.501366e+001 1.052579e+000 -1.951774e+001
1005100000 1.026231e+000 -1.081287e+001 1.246933e-003 8.177535e+001 2.382349e-003 7.505089e+001 1.052803e+000 -1.950542e+001
1005250000 1.026357e+000 -1.080752e+001 1.271018e-003 8.124893e+001 2.348652e-003 7.482376e+001 1.052811e+000 -1.950648e+001
1005400000 1.026285e+000 -1.081818e+001 1.271949e-003 8.021086e+001 2.310326e-003 7.410931e+001 1.053080e+000 -1.951786e+001
1005550000 1.026387e+000 -1.081848e+001 1.233535e-003 8.190151e+001 2.310499e-003 7.484511e+001 1.053272e+000 -1.953980e+001
1005700000 1.026556e+000 -1.082564e+001 1.221282e-003 8.190942e+001 2.321166e-003 7.527238e+001 1.053220e+000 -1.955718e+001
1005850000 1.026470e+000 -1.084825e+001 1.236725e-003 8.279889e+001 2.259422e-003 7.378095e+001 1.053698e+000 -1.956481e+001
1006000000 1.026618e+000 -1.083272e+001 1.262479e-003 8.192859e+001 2.374374e-003 7.511931e+001 1.053684e+000 -1.958187e+001
1006150000 1.026630e+000 -1.087085e+001 1.222919e-003 8.194184e+001 2.329458e-003 7.176732e+001 1.053489e+000 -1.955198e+001
1006300000 1.026575e+000 -1.086824e+001 1.275212e-003 8.303566e+001 2.314348e-003 7.351395e+001 1.053244e+000 -1.954391e+001
1006450000 1.026561e+000 -1.086997e+001 1.235859e-003 8.171384e+001 2.352729e-003 7.445071e+001 1.053356e+000 -1.948824e+001
1006600000 1.026639e+000 -1.090304e+001 1.248463e-003 8.062692e+001 2.387594e-003 7.254907e+001 1.052953e+000 -1.947840e+001
1006750000 1.026697e+000 -1.090997e+001 1.232384e-003 8.159270e+001 2.368652e-003 7.319361e+001 1.053212e+000 -1.944878e+001
1006900000 1.026932e+000 -1.091282e+001 1.238212e-003 8.093659e+001 2.300602e-003 7.369106e+001 1.052807e+000 -1.945808e+001
1007050000 1.026906e+000 -1.088984e+001 1.243971e-003 8.237508e+001 2.270953e-003 7.464784e+001 1.052380e+000 -1.948313e+001
1007200000 1.026883e+000 -1.087849e+001 1.263013e-003 8.445928e+001 2.273520e-003 7.204239e+001 1.052395e+000 -1.949749e+001
1007350000 1.026483e+000 -1.086193e+001 1.232914e-003 8.268425e+001 2.311302e-003 7.240563e+001 1.052163e+000 -1.951530e+001
1007500000 1.026358e+000 -1.085859e+001 1.296183e-003 8.150096e+001 2.328637e-003 7.198677e+001 1.052091e+000 -1.951953e+001
1007650000 1.026038e+000 -1.086724e+001 1.249321e-003 8.261372e+001 2.392445e-003 7.406421e+001 1.051795e+000 -1.957189e+001
1007800000 1.025751e+000 -1.087525e+001 1.232107e-003 8.269501e+001 2.360157e-003 7.418875e+001 1.051751e+000 -1.963275e+001
1007950000 1.025355e+000 -1.088604e+001 1.218935e-003 8.160131e+001 2.417126e-003 7.374378e+001 1.051951e+000 -1.967217e+001
1008100000 1.025412e+000 -1.090961e+001 1.271870e-003 8.345879e+001 2.340472e-003 7.412393e+001 1.052035e+000 -1.970341e+001
1008250000 1.025189e+000 -1.092262e+001 1.238078e-003 8.062749e+001 2.415257e-003 7.357310e+001 1.051767e+000 -1.971066e+001
1008400000 1.025507e+000 -1.091183e+001 1.245817e-003 8.222936e+001 2.423239e-003 7.258124e+001 1.052256e+000 -1.969318e+001
1008550000 1.026070e+000 -1.087280e+001 1.267092e-003 8.071938e+001 2.375538e-003 7.198573e+001 1.052594e+000 -1.968673e+001
1008700000 1.026323e+000 -1.087749e+001 1.284500e-003 8.217033e+001 2.411396e-003 7.492902e+001 1.052575e+000 -1.967971e+001
1008850000 1.026633e+000 -1.085517e+001 1.252430e-003 8.152957e+001 2.405120e-003 7.384660e+001 1.052732e+000 -1.964375e+001
1009000000 1.026721e+000 -1.083822e+001 1.235574e-003 8.239270e+001 2.334857e-003 7.316840e+001 1.052824e+000 -1.963210e+001
1009150000 1.026539e+000 -1.083905e+001 1.304937e-003 8.144958e+001 2.411304e-003 7.113683e+001 1.052999e+000 -1.964751e+001
1009300000 1.026110e+000 -1.086232e+001 1.294175e-003 8.478920e+001 2.392362e-003 7.268613e+001 1.053104e+000 -1.966196e+001
1009450000 1.026008e+000 -1.087577e+001 1.269792e-003 8.169276e+001 2.309322e-003 7.552949e+001 1.053222e+000 -1.967671e+001
1009600000 1.025845e+000 -1.088882e+001 1.284686e-003 8.299281e+001 2.359534e-003 7.311652e+001 1.053080e+000 -1.967463e+001
1009750000 1.025913e+000 -1.089799e+001 1.274248e-003 8.175558e+001 2.293172e-003 7.380293e+001 1.053614e+000 -1.964952e+001
1009900000 1.025896e+000 -1.091065e+001 1.244062e-003 8.206049e+001 2.345910e-003 7.321310e+001 1.053617e+000 -1.967035e+001
1010050000 1.025863e+000 -1.094449e+001 1.251576e-003 8.108322e+001 2.346304e-003 7.268231e+001 1.053729e+000 -1.966763e+001
1010200000 1.025992e+000 -1.096026e+001 1.249497e-003 8.065128e+001 2.325912e-003 7.332094e+001 1.053818e+000 -1.968650e+001
1010350000 1.026111e+000 -1.098737e+001 1.224910e-003 8.194147e+001 2.454413e-003 7.508688e+001 1.053467e+000 -1.968554e+001
1010500000 1.025980e+000 -1.100727e+001 1.275727e-003 8.245524e+001 2.343263e-003 7.475363e+001 1.053330e+000 -1.971152e+001
1010650000 1.025909e+000 -1.099551e+001 1.249183e-003 8.096932e+001 2.417020e-003 7.340953e+001 1.053014e+000 -1.968795e+001
1010800000 1.025877e+000 -1.097071e+001 1.254920e-003 8.410498e+001 2.377986e-003 7.463614e+001 1.052464e+000 -1.967139e+001
1010950000 1.025923e+000 -1.094240e+001 1.289712e-003 8.374182e+001 2.339934e-003 7.379941e+001 1.051693e+000 -1.962996e+001
1011100000 1.025998e+000 -1.091076e+001 1.254757e-003 8.279774e+001 2.347001e-003 7.479145e+001 1.051637e+000 -1.960512e+001
1011250000 1.025922e+000 -1.088657e+001 1.267221e-003 8.203168e+001 2.332529e-003 7.331624e+001 1.051085e+000 -1.957565e+001
1011400000 1.026053e+000 -1.089372e+001 1.280336e-003 8.158424e+001 2.325309e-003 7.255763e+001 1.051882e+000 -1.961861e+001
1011550000 1.026187e+000 -1.091076e+001 1.257383e-003 8.370020e+001 2.284912e-003 7.342779e+001 1.051489e+000 -1.964696e+001
1011700000 1.026150e+000 -1.093399e+001 1.245281e-003 8.158141e+001 2.334028e-003 7.208822e+001 1.052311e+000 -1.970526e+001
1011850000 1.026307e+000 -1.095569e+001 1.256427e-003 8.240548e+001 2.331963e-003 7.401984e+001 1.052037e+000 -1.969603e+001
1012000000 1.026151e+000 -1.096540e+001 1.269618e-003 8.365615e+001 2.351211e-003 7.296780e+001 1.052362e+000 -1.972742e+001
1012150000 1.025834e+000 -1.096474e+001 1.241480e-003 8.498595e+001 2.326748e-003 7.515665e+001 1.053226e+000 -1.966894e+001
1012300000 1.025709e+000 -1.096410e+001 1.250986e-003 8.171387e+001 2.347581e-003 7.473550e+001 1.053526e+000 -1.964283e+001
1012450000 1.025934e+000 -1.093676e+001 1.260427e-003 8.234165e+001 2.369604e-003 7.519519e+001 1.053483e+000 -1.957462e+001
1012600000 1.025645e+000 -1.093673e+001 1.262786e-003 8.296926e+001 2.363164e-003 7.474675e+001 1.053874e+000 -1.952656e+001
1012750000 1.025564e+000 -1.093926e+001 1.274188e-003 7.981303e+001 2.422093e-003 7.393829e+001 1.053970e+000 -1.950691e+001
1012900000 1.025389e+000 -1.093939e+001 1.242105e-003 8.235112e+001 2.367357e-003 7.366977e+001 1.053182e+000 -1.953138e+001
1013050000 1.025558e+000 -1.096740e+001 1.252299e-003 8.229601e+001 2.419954e-003 7.222874e+001 1.052707e+000 -1.960135e+001
1013200000 1.025298e+000 -1.096055e+001 1.242184e-003 8.295451e+001 2.348827e-003 7.311201e+001 1.051874e+000 -1.963173e+001
1013350000 1.025107e+000 -1.099202e+001 1.296331e-003 8.368037e+001 2.398503e-003 7.338216e+001 1.051330e+000 -1.965636e+001
1013500000 1.025192e+000 -1.100752e+001 1.297965e-003 8.340708e+001 2.287945e-003 7.560986e+001 1.051340e+000 -1.969873e+001
1013650000 1.025357e+000 -1.101006e+001 1.276234e-003 8.023725e+001 2.349512e-003 7.186683e+001 1.051661e+000 -1.971398e+001
1013800000 1.025584e+000 -1.099541e+001 1.273574e-003 8.188445e+001 2.351204e-003 7.387189e+001 1.051719e+000 -1.973296e+001
1013950000 1.025748e+000 -1.099714e+001 1.317492e-003 8.129528e+001 2.385993e-003 7.611548e+001 1.052087e+000 -1.974377e+001
1014100000 1.025953e+000 -1.099679e+001 1.237184e-003 8.235642e+001 2.319666e-003 7.324146e+001 1.052409e+000 -1.975101e+001
1014250000 1.026086e+000 -1.100905e+001 1.254237e-003 8.173610e+001 2.341458e-003 7.517702e+001 1.052982e+000 -1.974615e+001
1014400000 1.026340e+000 -1.100971e+001 1.256727e-003 8.322681e+001 2.356096e-003 7.394753e+001 1.053339e+000 -1.972048e+001
1014550000 1.026839e+000 -1.100606e+001 1.269424e-003 8.259225e+001 2.386585e-003 7.314488e+001 1.054021e+000 -1.969388e+001
1014700000 1.026962e+000 -1.100912e+001 1.259864e-003 8.023624e+001 2.387503e-003 7.115199e+001 1.054365e+000 -1.970247e+001
1014850000 1.027087e+000 -1.101719e+001 1.304767e-003 8.207724e+001 2.352371e-003 7.357014e+001 1.054552e+000 -1.971232e+001
1015000000 1.027023e+000 -1.101226e+001 1.278545e-003 8.140108e+001 2.393033e-003 7.340973e+001 1.054714e+000 -1.970941e+001
1015150000 1.026783e+000 -1.100850e+001 1.261237e-003 8.279380e+001 2.400786e-003 7.215482e+001 1.053485e+000 -1.971312e+001
1015300000 1.026393e+000 -1.102132e+001 1.268125e-003 8.120946e+001 2.374499e-003 7.282840e+001 1.052538e+000 -1.972957e+001
1015450000 1.026070e+000 -1.100142e+001 1.261310e-003 8.246369e+001 2.367445e-003 7.150259e+001 1.051947e+000 -1.976060e+001
1015600000 1.025837e+000 -1.099948e+001 1.255411e-003 8.131540e+001 2.464308e-003 7.261812e+001 1.051058e+000 -1.978042e+001
1015750000 1.025882e+000 -1.100221e+001 1.280606e-003 7.953147e+001 2.333360e-003 7.353128e+001 1.051050e+000 -1.978707e+001
1015900000 1.025944e+000 -1.100735e+001 1.235740e-003 8.040795e+001 2.385352e-003 7.267201e+001 1.050812e+000 -1.978946e+001
1016050000 1.026291e+000 -1.100691e+001 1.273102e-003 8.047520e+001 2.390990e-003 7.182720e+001 1.050458e+000 -1.975738e+001
1016200000 1.026487e+000 -1.099916e+001 1.264085e-003 8.240341e+001 2.376474e-003 7.388731e+001 1.050217e+000 -1.975801e+001
1016350000 1.026634e+000 -1.098681e+001 1.289197e-003 8.188740e+001 2.445305e-003 7.479625e+001 1.050583e+000 -1.975114e+001
1016500000 1.027060e+000 -1.099827e+001 1.296694e-003 8.241566e+001 2.315684e-003 7.347211e+001 1.050543e+000 -1.974508e+001
1016650000 1.027295e+000 -1.100070e+001 1.248584e-003 8.138461e+001 2.415112e-003 7.334653e+001 1.051985e+000 -1.969776e+001
1016800000 1.027845e+000 -1.101572e+001 1.254671e-003 8.151096e+001 2.341486e-003 7.249313e+001 1.052651e+000 -1.968992e+001
1016950000 1.027849e+000 -1.102792e+001 1.244385e-003 8.298930e+001 2.444113e-003 7.254217e+001 1.053401e+000 -1.967181e+001
1017100000 1.027824e+000 -1.102276e+001 1.291662e-003 8.327129e+001 2.343969e-003 7.349532e+001 1.054333e+000 -1.963655e+001
1017250000 1.027633e+000 -1.102510e+001 1.266255e-003 8.143676e+001 2.450955e-003 7.358175e+001 1.054716e+000 -1.966630e+001
1017400000 1.027051e+000 -1.103106e+001 1.301534e-003 8.089388e+001 2.440437e-003 7.328160e+001 1.054769e+000 -1.965094e+001
1017550000 1.026505e+000 -1.102705e+001 1.248535e-003 8.161813e+001 2.379484e-003 7.394659e+001 1.054056e+000 -1.968391e+001
1017700000 1.025756e+000 -1.104035e+001 1.263012e-003 8.179224e+001 2.424320e-003 7.257890e+001 1.054141e+000 -1.970157e+001
1017850000 1.025682e+000 -1.105022e+001 1.302508e-003 8.139706e+001 2.338171e-003 7.216069e+001 1.053804e+000 -1.973466e+001
1018000000 1.025217e+000 -1.106621e+001 1.293461e-003 8.332995e+001 2.424691e-003 7.504013e+001 1.053318e+000 -1.973298e+001
1018150000 1.025616e+000 -1.104984e+001 1.346445e-003 8.287757e+001 2.387941e-003 7.274960e+001 1.053134e+000 -1.974707e+001
1018300000 1.025871e+000 -1.107254e+001 1.221644e-003 8.091908e+001 2.407578e-003 7.175516e+001 1.053264e+000 -1.974453e+001
1018450000 1.026256e+000 -1.105412e+001 1.299288e-003 8.147144e+001 2.385692e-003 7.261883e+001 1.052886e+000 -1.976946e+001
1018600000 1.026417e+000 -1.104344e+001 1.252163e-003 8.123304e+001 2.372455e-003 7.304211e+001 1.052844e+000 -1.972760e+001
1018750000 1.026462e+000 -1.103273e+001 1.270934e-003 7.965515e+001 2.310376e-003 7.294975e+001 1.052871e+000 -1.972305e+001
1018900000 1.026430e+000 -1.103425e+001 1.295233e-003 8.337276e+001 2.413263e-003 7.345678e+001 1.053302e+000 -1.976496e+001
1019050000 1.026440e+000 -1.105600e+001 1.252928e-003 8.091734e+001 2.408455e-003 7.468218e+001 1.053885e+000 -1.979120e+001
1019200000 1.026270e+000 -1.106180e+001 1.260431e-003 8.136405e+001 2.347500e-003 7.098087e+001 1.054086e+000 -1.980747e+001
1019350000 1.025919e+000 -1.108150e+001 1.269993e-003 8.255697e+001 2.426576e-003 7.282235e+001 1.054282e+000 -1.984015e+001
1019500000 1.025899e+000 -1.109059e+001 1.259401e-003 7.996396e+001 2.422251e-003 7.319106e+001 1.054564e+000 -1.983564e+001
1019650000 1.026041e+000 -1.111082e+001 1.298197e-003 8.122797e+001 2.417765e-003 7.130354e+001 1.053193e+000 -1.986322e+001
1019800000 1.026143e+000 -1.111156e+001 1.257193e-003 8.040689e+001 2.467922e-003 7.293327e+001 1.052541e+000 -1.984635e+001
1019950000 1.026039e+000 -1.111958e+001 1.312265e-003 8.251057e+001 2.424164e-003 7.321498e+001 1.052032e+000 -1.987314e+001
1020100000 1.026153e+000 -1.112294e+001 1.287701e-003 8.183851e+001 2.395928e-003 7.344498e+001 1.051787e+000 -1.987044e+001
1020250000 1.026152e+000 -1.112377e+001 1.266173e-003 8.306867e+001 2.412588e-003 7.403387e+001 1.051183e+000 -1.989209e+001
1020400000 1.026221e+000 -1.111755e+001 1.305875e-003 8.052549e+001 2.437441e-003 7.322182e+001 1.053399e+000 -1.987829e+001
1020550000 1.026393e+000 -1.112205e+001 1.284675e-003 8.146301e+001 2.489138e-003 7.434647e+001 1.055315e+000 -1.984727e+001
1020700000 1.026539e+000 -1.112432e+001 1.316661e-003 8.246399e+001 2.404907e-003 7.191515e+001 1.056735e+000 -1.982626e+001
1020850000 1.026337e+000 -1.111551e+001 1.304823e-003 7.962235e+001 2.437315e-003 7.425220e+001 1.057604e+000 -1.984313e+001
1021000000 1.026142e+000 -1.113282e+001 1.268567e-003 8.349535e+001 2.395841e-003 7.417678e+001 1.058378e+000 -1.982555e+001
1021150000 1.025738e+000 -1.111227e+001 1.326166e-003 8.169254e+001 2.446587e-003 7.360750e+001 1.056821e+000 -1.982181e+001
1021300000 1.025174e+000 -1.108836e+001 1.287156e-003 8.198309e+001 2.480682e-003 7.160181e+001 1.055273e+000 -1.984029e+001
1021450000 1.024789e+000 -1.108162e+001 1.312220e-003 8.271494e+001 2.462759e-003 7.161571e+001 1.054364e+000 -1.982137e+001
1021600000 1.024533e+000 -1.105649e+001 1.232943e-003 8.345755e+001 2.466986e-003 7.193838e+001 1.053150e+000 -1.985951e+001
1021750000 1.024290e+000 -1.104419e+001 1.274816e-003 7.970125e+001 2.403975e-003 7.303769e+001 1.052126e+000 -1.987494e+001
1021900000 1.024668e+000 -1.106320e+001 1.327686e-003 7.995293e+001 2.385920e-003 7.347334e+001 1.052857e+000 -1.986283e+001
1022050000 1.025304e+000 -1.106998e+001 1.317514e-003 8.037828e+001 2.395713e-003 7.377670e+001 1.053810e+000 -1.986463e+001
1022200000 1.025723e+000 -1.107682e+001 1.283878e-003 8.091476e+001 2.409776e-003 7.241444e+001 1.053879e+000 -1.984113e+001
1022350000 1.026050e+000 -1.109083e+001 1.284811e-003 8.179765e+001 2.398320e-003 7.494026e+001 1.054192e+000 -1.984545e+001
1022500000 1.026337e+000 -1.109005e+001 1.327466e-003 8.009060e+001 2.401734e-003 7.234909e+001 1.054494e+000 -1.980342e+001
1022650000 1.026489e+000 -1.109039e+001 1.280588e-003 8.216013e+001 2.429961e-003 7.309866e+001 1.054319e+000 -1.982751e+001
1022800000 1.026427e+000 -1.107582e+001 1.266622e-003 8.133611e+001 2.433629e-003 7.300967e+001 1.053721e+000 -1.982733e+001
1022950000 1.026700e+000 -1.110375e+001 1.267602e-003 8.144572e+001 2.491293e-003 7.146560e+001 1.053842e+000 -1.982204e+001
1023100000 1.026508e+000 -1.111657e+001 1.312003e-003 8.166529e+001 2.464597e-003 7.090811e+001 1.053676e+000 -1.978805e+001
1023250000 1.026186e+000 -1.110137e+001 1.257261e-003 8.093236e+001 2.467716e-003 7.242153e+001 1.053687e+000 -1.982005e+001
