!Agilent Technologies,N5230C,SG49000117,A.08.50.07
!Agilent N5230C: A.08.50.07
!Date: Friday, May 17, 2024 22:53:39
!Correction: S11(Full 2 Port(1,2)) 
!S21(Full 2 Port(1,2)) 
!S12(Full 2 Port(1,2)) 
!S22(Full 2 Port(1,2)) 
!S2P File: Measurements: S11, S21, S12, S22:
# Hz S  MA   R 50
1000000000 1.026048e+000 -1.153441e+001 1.321490e-003 8.130058e+001 2.481527e-003 7.187365e+001 1.051769e+000 -2.078273e+001
1000150000 1.026152e+000 -1.154245e+001 1.325861e-003 8.094423e+001 2.465509e-003 7.344476e+001 1.051726e+000 -2.076889e+001
1000300000 1.026335e+000 -1.153693e+001 1.324487e-003 8.060329e+001 2.447037e-003 7.418644e+001 1.051381e+000 -2.078106e+001
1000450000 1.026034e+000 -1.152087e+001 1.371968e-003 8.252232e+001 2.454451e-003 7.299078e+001 1.051340e+000 -2.078743e+001
1000600000 1.026189e+000 -1.153519e+001 1.352833e-003 8.193085e+001 2.473898e-003 7.355224e+001 1.051316e+000 -2.082086e+001
1000750000 1.026280e+000 -1.154018e+001 1.342175e-003 8.310519e+001 2.495181e-003 7.362772e+001 1.050823e+000 -2.082518e+001
1000900000 1.026123e+000 -1.154070e+001 1.347453e-003 8.168283e+001 2.513238e-003 7.340152e+001 1.051353e+000 -2.080968e+001
1001050000 1.026016e+000 -1.153690e+001 1.345588e-003 8.134924e+001 2.475838e-003 7.324863e+001 1.051643e+000 -2.078701e+001
1001200000 1.025879e+000 -1.151742e+001 1.351149e-003 8.046605e+001 2.477014e-003 7.166629e+001 1.051634e+000 -2.077046e+001
1001350000 1.025792e+000 -1.152727e+001 1.378134e-003 8.211666e+001 2.477740e-003 7.200666e+001 1.051813e+000 -2.073125e+001
1001500000 1.025602e+000 -1.152798e+001 1.356840e-003 8.284810e+001 2.508342e-003 7.330216e+001 1.051900e+000 -2.069616e+001
1001650000 1.024991e+000 -1.154195e+001 1.356964e-003 8.210035e+001 2.483993e-003 7.216922e+001 1.051769e+000 -2.073250e+001
1001800000 1.024950e+000 -1.155497e+001 1.336333e-003 8.237370e+001 2.531573e-003 7.219920e+001 1.051613e+000 -2.077315e+001
1001950000 1.024790e+000 -1.156570e+001 1.322024e-003 8.253863e+001 2.524771e-003 7.241632e+001 1.051290e+000 -2.081341e+001
1002100000 1.024746e+000 -1.157060e+001 1.402976e-003 8.184104e+001 2.489051e-003 7.272072e+001 1.051072e+000 -2.083932e+001
1002250000 1.024912e+000 -1.156562e+001 1.365834e-003 8.019932e+001 2.470603e-003 7.251818e+001 1.050918e+000 -2.087786e+001
1002400000 1.025157e+000 -1.156388e+001 1.338168e-003 8.094412e+001 2.488011e-003 7.332690e+001 1.051011e+000 -2.088564e+001
1002550000 1.025849e+000 -1.157078e+001 1.346804e-003 8.016572e+001 2.482875e-003 7.299988e+001 1.051274e+000 -2.085954e+001
1002700000 1.026059e+000 -1.155969e+001 1.351009e-003 8.034402e+001 2.389828e-003 7.071677e+001 1.051384e+000 -2.083066e+001
1002850000 1.026282e+000 -1.157468e+001 1.286704e-003 8.209254e+001 2.510918e-003 7.347109e+001 1.051876e+000 -2.080399e+001
1003000000 1.026752e+000 -1.156539e+001 1.335297e-003 8.161211e+001 2.517791e-003 7.143774e+001 1.051605e+000 -2.079069e+001
1003150000 1.026937e+000 -1.156503e+001 1.348101e-003 8.046876e+001 2.467459e-003 7.396311e+001 1.051076e+000 -2.080238e+001
1003300000 1.027034e+000 -1.155804e+001 1.323808e-003 8.368163e+001 2.509971e-003 7.151620e+001 1.050767e+000 -2.080478e+001
1003450000 1.027042e+000 -1.154603e+001 1.313037e-003 8.042095e+001 2.604316e-003 7.288752e+001 1.050425e+000 -2.081307e+001
1003600000 1.027068e+000 -1.153974e+001 1.351003e-003 8.319115e+001 2.486194e-003 7.280387e+001 1.049887e+000 -2.081518e+001
1003750000 1.026749e+000 -1.153101e+001 1.345279e-003 8.038935e+001 2.509326e-003 7.073270e+001 1.049834e+000 -2.081940e+001
1003900000 1.026483e+000 -1.154097e+001 1.339150e-003 8.239044e+001 2.494510e-003 7.227359e+001 1.050304e+000 -2.082303e+001
1004050000 1.025946e+000 -1.154616e+001 1.365896e-003 8.014559e+001 2.473091e-003 7.298107e+001 1.050440e+000 -2.082356e+001
1004200000 1.025564e+000 -1.155482e+001 1.349468e-003 8.069277e+001 2.467355e-003 7.174864e+001 1.050435e+000 -2.080151e+001
1004350000 1.025195e+000 -1.155799e+001 1.353949e-003 8.109560e+001 2.498072e-003 7.410125e+001 1.050828e+000 -2.080955e+001
1004500000 1.024995e+000 -1.155476e+001 1.328896e-003 8.196744e+001 2.468586e-003 7.201856e+001 1.051150e+000 -2.081267e+001
1004650000 1.025309e+000 -1.155719e+001 1.345783e-003 8.171229e+001 2.522292e-003 7.348960e+001 1.051170e+000 -2.080995e+001
1004800000 1.025475e+000 -1.154341e+001 1.343488e-003 8.232996e+001 2.563152e-003 7.248158e+001 1.051386e+000 -2.083206e+001
1004950000 1.025733e+000 -1.153552e+001 1.326339e-003 8.083094e+001 2.505731e-003 7.408193e+001 1.051524e+000 -2.084069e+001
1005100000 1.025990e+000 -1.153319e+001 1.347579e-003 8.168932e+001 2.594645e-003 7.393643e+001 1.051490e+000 -2.084775e+001
1005250000 1.026099e+000 -1.152835e+001 1.359035e-003 8.152497e+001 2.552259e-003 7.343484e+001 1.051658e+000 -2.085017e+001
1005400000 1.026230e+000 -1.154137e+001 1.302376e-003 8.032199e+001 2.576128e-003 7.404887e+001 1.051558e+000 -2.086824e+001
1005550000 1.026249e+000 -1.154813e+001 1.346352e-003 8.288643e+001 2.553716e-003 7.320542e+001 1.052130e+000 -2.087438e+001
1005700000 1.026280e+000 -1.155634e+001 1.368694e-003 8.201701e+001 2.482984e-003 7.262875e+001 1.052360e+000 -2.089459e+001
1005850000 1.026297e+000 -1.156518e+001 1.390168e-003 8.126073e+001 2.482651e-003 7.304509e+001 1.052570e+000 -2.091424e+001
1006000000 1.026451e+000 -1.156343e+001 1.353464e-003 8.125287e+001 2.488734e-003 7.188947e+001 1.052719e+000 -2.091378e+001
1006150000 1.026460e+000 -1.158038e+001 1.373469e-003 8.228902e+001 2.473650e-003 7.353114e+001 1.052323e+000 -2.089834e+001
1006300000 1.026580e+000 -1.159352e+001 1.340017e-003 8.250687e+001 2.526905e-003 7.299255e+001 1.052160e+000 -2.087949e+001
1006450000 1.026646e+000 -1.161002e+001 1.357421e-003 8.315306e+001 2.468169e-003 7.274752e+001 1.051998e+000 -2.086067e+001
1006600000 1.026641e+000 -1.161805e+001 1.309300e-003 8.253329e+001 2.592572e-003 7.245480e+001 1.051820e+000 -2.081229e+001
1006750000 1.026736e+000 -1.163193e+001 1.329403e-003 8.164064e+001 2.468650e-003 7.215326e+001 1.052139e+000 -2.079244e+001
1006900000 1.026832e+000 -1.162675e+001 1.336622e-003 8.108372e+001 2.540583e-003 7.332243e+001 1.051458e+000 -2.079098e+001
1007050000 1.026659e+000 -1.161673e+001 1.347330e-003 8.090195e+001 2.531501e-003 7.222066e+001 1.051102e+000 -2.082171e+001
1007200000 1.026775e+000 -1.159935e+001 1.376984e-003 8.254832e+001 2.550584e-003 7.334608e+001 1.051292e+000 -2.084800e+001
1007350000 1.026559e+000 -1.159378e+001 1.339953e-003 8.118543e+001 2.484621e-003 7.207671e+001 1.051000e+000 -2.084528e+001
1007500000 1.026361e+000 -1.158754e+001 1.357464e-003 8.240056e+001 2.565682e-003 7.190379e+001 1.051063e+000 -2.087562e+001
1007650000 1.025951e+000 -1.157565e+001 1.377280e-003 7.984207e+001 2.521090e-003 7.204502e+001 1.050820e+000 -2.091656e+001
1007800000 1.025515e+000 -1.160579e+001 1.342035e-003 8.096442e+001 2.540397e-003 7.211763e+001 1.050803e+000 -2.096504e+001
1007950000 1.025365e+000 -1.162127e+001 1.353343e-003 8.158659e+001 2.521826e-003 7.213235e+001 1.050586e+000 -2.102572e+001
1008100000 1.025134e+000 -1.163217e+001 1.335099e-003 7.979751e+001 2.502120e-003 7.302895e+001 1.050409e+000 -2.106159e+001
1008250000 1.025056e+000 -1.163865e+001 1.376388e-003 8.097513e+001 2.517732e-003 7.244943e+001 1.050591e+000 -2.105119e+001
1008400000 1.025519e+000 -1.162968e+001 1.322024e-003 8.173473e+001 2.460753e-003 7.277385e+001 1.051153e+000 -2.105972e+001
1008550000 1.025860e+000 -1.160703e+001 1.332719e-003 8.198537e+001 2.546218e-003 7.426139e+001 1.050936e+000 -2.102662e+001
1008700000 1.026271e+000 -1.160092e+001 1.364115e-003 7.928918e+001 2.480691e-003 7.301455e+001 1.051210e+000 -2.100326e+001
1008850000 1.026404e+000 -1.158089e+001 1.335655e-003 8.224422e+001 2.591448e-003 7.258265e+001 1.051707e+000 -2.099615e+001
1009000000 1.026640e+000 -1.157495e+001 1.317354e-003 8.185033e+001 2.525476e-003 7.272252e+001 1.051849e+000 -2.097826e+001
1009150000 1.026371e+000 -1.157027e+001 1.329188e-003 8.144102e+001 2.546608e-003 7.320815e+001 1.051769e+000 -2.099958e+001
1009300000 1.025804e+000 -1.157832e+001 1.362443e-003 8.188622e+001 2.523977e-003 7.230948e+001 1.051647e+000 -2.102615e+001
1009450000 1.025871e+000 -1.160014e+001 1.394816e-003 8.054166e+001 2.468878e-003 7.368950e+001 1.052096e+000 -2.102499e+001
1009600000 1.025859e+000 -1.161803e+001 1.349142e-003 8.205167e+001 2.575790e-003 7.314973e+001 1.052611e+000 -2.100796e+001
1009750000 1.025806e+000 -1.162039e+001 1.314394e-003 8.209546e+001 2.566581e-003 7.313535e+001 1.052018e+000 -2.101376e+001
1009900000 1.025979e+000 -1.164073e+001 1.372233e-003 8.122337e+001 2.503305e-003 7.298740e+001 1.052260e+000 -2.101085e+001
1010050000 1.025905e+000 -1.167211e+001 1.358030e-003 8.087323e+001 2.594681e-003 7.126710e+001 1.052399e+000 -2.101024e+001
1010200000 1.025923e+000 -1.168793e+001 1.365512e-003 8.114220e+001 2.478980e-003 7.211625e+001 1.052385e+000 -2.103571e+001
1010350000 1.025834e+000 -1.171741e+001 1.390806e-003 8.035728e+001 2.524787e-003 7.263891e+001 1.052316e+000 -2.102710e+001
1010500000 1.025784e+000 -1.173372e+001 1.377886e-003 8.037341e+001 2.571045e-003 7.260175e+001 1.051792e+000 -2.104813e+001
1010650000 1.025941e+000 -1.172202e+001 1.342966e-003 8.114570e+001 2.524041e-003 7.153453e+001 1.051668e+000 -2.103431e+001
1010800000 1.025909e+000 -1.169524e+001 1.360739e-003 7.956144e+001 2.484389e-003 7.241305e+001 1.051443e+000 -2.102139e+001
1010950000 1.025775e+000 -1.166958e+001 1.369567e-003 7.997015e+001 2.569807e-003 7.118320e+001 1.050753e+000 -2.096333e+001
1011100000 1.025670e+000 -1.163695e+001 1.374311e-003 8.023855e+001 2.526420e-003 7.061887e+001 1.050455e+000 -2.094407e+001
1011250000 1.025700e+000 -1.161272e+001 1.370789e-003 7.923135e+001 2.501327e-003 7.237074e+001 1.050100e+000 -2.092483e+001
1011400000 1.025851e+000 -1.161821e+001 1.385198e-003 8.185661e+001 2.540377e-003 7.280933e+001 1.050208e+000 -2.095150e+001
1011550000 1.025961e+000 -1.164309e+001 1.368499e-003 8.153557e+001 2.583067e-003 7.305544e+001 1.050407e+000 -2.099280e+001
1011700000 1.026099e+000 -1.165881e+001 1.320384e-003 8.061479e+001 2.506085e-003 7.167374e+001 1.050867e+000 -2.104184e+001
1011850000 1.025930e+000 -1.168001e+001 1.297217e-003 8.095237e+001 2.476512e-003 7.130549e+001 1.051037e+000 -2.106138e+001
1012000000 1.026144e+000 -1.169757e+001 1.360711e-003 8.055633e+001 2.530042e-003 7.088783e+001 1.051305e+000 -2.106351e+001
1012150000 1.025751e+000 -1.168489e+001 1.320995e-003 7.987722e+001 2.527457e-003 7.238586e+001 1.051567e+000 -2.103152e+001
1012300000 1.025904e+000 -1.168157e+001 1.371655e-003 8.117619e+001 2.591046e-003 7.134589e+001 1.052018e+000 -2.097028e+001
1012450000 1.025638e+000 -1.167430e+001 1.341127e-003 8.216889e+001 2.559505e-003 7.094990e+001 1.052422e+000 -2.092934e+001
1012600000 1.025380e+000 -1.166866e+001 1.375669e-003 8.145375e+001 2.584234e-003 7.306556e+001 1.052667e+000 -2.089540e+001
1012750000 1.025468e+000 -1.165707e+001 1.363572e-003 7.964017e+001 2.561732e-003 7.156109e+001 1.052565e+000 -2.087356e+001
1012900000 1.025363e+000 -1.166835e+001 1.366314e-003 8.087634e+001 2.578828e-003 7.100990e+001 1.051898e+000 -2.087397e+001
1013050000 1.025128e+000 -1.168826e+001 1.360974e-003 8.184013e+001 2.547026e-003 7.075903e+001 1.051199e+000 -2.093354e+001
1013200000 1.025023e+000 -1.170458e+001 1.363084e-003 7.974583e+001 2.554089e-003 7.117353e+001 1.050503e+000 -2.097398e+001
1013350000 1.025282e+000 -1.172077e+001 1.342615e-003 8.218746e+001 2.570109e-003 7.141903e+001 1.050076e+000 -2.104325e+001
1013500000 1.025162e+000 -1.173703e+001 1.356347e-003 8.122797e+001 2.512659e-003 7.089359e+001 1.049988e+000 -2.105663e+001
1013650000 1.025388e+000 -1.173542e+001 1.356118e-003 8.024611e+001 2.520258e-003 7.102765e+001 1.050079e+000 -2.107803e+001
1013800000 1.025342e+000 -1.173858e+001 1.360885e-003 8.159635e+001 2.501794e-003 7.165667e+001 1.050770e+000 -2.108950e+001
1013950000 1.025665e+000 -1.171666e+001 1.365391e-003 8.188308e+001 2.540688e-003 7.214664e+001 1.050765e+000 -2.111366e+001
1014100000 1.026039e+000 -1.172902e+001 1.328992e-003 7.996404e+001 2.470531e-003 7.094935e+001 1.051082e+000 -2.110102e+001
1014250000 1.025851e+000 -1.172524e+001 1.362346e-003 8.152309e+001 2.514322e-003 7.097999e+001 1.051795e+000 -2.110074e+001
1014400000 1.026367e+000 -1.173359e+001 1.333044e-003 8.136813e+001 2.492002e-003 7.277566e+001 1.052022e+000 -2.108288e+001
1014550000 1.026623e+000 -1.173909e+001 1.417307e-003 7.992530e+001 2.524511e-003 7.235236e+001 1.052491e+000 -2.106088e+001
1014700000 1.026914e+000 -1.174270e+001 1.378819e-003 8.045275e+001 2.533124e-003 7.133581e+001 1.052997e+000 -2.105733e+001
1014850000 1.026868e+000 -1.175929e+001 1.368665e-003 8.075966e+001 2.590032e-003 7.178307e+001 1.053123e+000 -2.106108e+001
1015000000 1.026992e+000 -1.173561e+001 1.369982e-003 7.980505e+001 2.524874e-003 7.100204e+001 1.053000e+000 -2.106168e+001
1015150000 1.026621e+000 -1.174125e+001 1.376467e-003 8.029761e+001 2.547371e-003 7.092485e+001 1.052228e+000 -2.109044e+001
1015300000 1.026198e+000 -1.173964e+001 1.363818e-003 7.954044e+001 2.558329e-003 7.096368e+001 1.051422e+000 -2.108519e+001
1015450000 1.026045e+000 -1.174113e+001 1.340677e-003 8.093224e+001 2.475469e-003 7.158355e+001 1.050661e+000 -2.111419e+001
1015600000 1.025684e+000 -1.172193e+001 1.354796e-003 7.970172e+001 2.559847e-003 7.422736e+001 1.050294e+000 -2.111348e+001
1015750000 1.025654e+000 -1.173841e+001 1.386561e-003 8.074413e+001 2.559105e-003 7.170011e+001 1.049299e+000 -2.111867e+001
1015900000 1.025676e+000 -1.172951e+001 1.343659e-003 8.114425e+001 2.527808e-003 7.319466e+001 1.049658e+000 -2.113459e+001
1016050000 1.026136e+000 -1.174662e+001 1.391113e-003 8.072907e+001 2.467546e-003 7.103278e+001 1.049174e+000 -2.111969e+001
1016200000 1.026288e+000 -1.172720e+001 1.357615e-003 8.089883e+001 2.540825e-003 7.331145e+001 1.049310e+000 -2.110699e+001
1016350000 1.026537e+000 -1.172685e+001 1.372896e-003 7.952264e+001 2.544421e-003 7.111079e+001 1.049121e+000 -2.110471e+001
1016500000 1.026695e+000 -1.172297e+001 1.358443e-003 8.064079e+001 2.534659e-003 7.074791e+001 1.049025e+000 -2.106301e+001
1016650000 1.027153e+000 -1.172822e+001 1.376443e-003 7.976216e+001 2.567862e-003 7.105144e+001 1.050366e+000 -2.105856e+001
1016800000 1.027446e+000 -1.173548e+001 1.374871e-003 8.027042e+001 2.558559e-003 7.230135e+001 1.051466e+000 -2.104881e+001
1016950000 1.027765e+000 -1.175135e+001 1.374819e-003 8.014560e+001 2.571966e-003 7.272148e+001 1.052423e+000 -2.103257e+001
1017100000 1.027796e+000 -1.175419e+001 1.365491e-003 8.124358e+001 2.510337e-003 7.082327e+001 1.053001e+000 -2.102149e+001
1017250000 1.027523e+000 -1.176008e+001 1.366735e-003 8.113979e+001 2.607408e-003 7.185016e+001 1.053585e+000 -2.099681e+001
1017400000 1.026959e+000 -1.175877e+001 1.398476e-003 8.029430e+001 2.651921e-003 7.106655e+001 1.053388e+000 -2.102782e+001
1017550000 1.026611e+000 -1.177075e+001 1.367252e-003 8.172818e+001 2.550280e-003 7.304170e+001 1.052683e+000 -2.104021e+001
1017700000 1.025701e+000 -1.177875e+001 1.365426e-003 8.161266e+001 2.620615e-003 7.118755e+001 1.052677e+000 -2.105213e+001
1017850000 1.025549e+000 -1.178215e+001 1.359515e-003 8.187090e+001 2.532228e-003 7.176163e+001 1.052242e+000 -2.107221e+001
1018000000 1.025202e+000 -1.178915e+001 1.382299e-003 8.041945e+001 2.558548e-003 7.341138e+001 1.052432e+000 -2.108632e+001
1018150000 1.025279e+000 -1.179163e+001 1.369353e-003 7.954986e+001 2.632155e-003 7.119686e+001 1.052187e+000 -2.109883e+001
1018300000 1.026001e+000 -1.178692e+001 1.390444e-003 7.868136e+001 2.598717e-003 7.177159e+001 1.051665e+000 -2.109941e+001
1018450000 1.026102e+000 -1.178481e+001 1.400658e-003 7.995371e+001 2.579633e-003 7.247793e+001 1.051936e+000 -2.109772e+001
1018600000 1.026418e+000 -1.177171e+001 1.364007e-003 7.977007e+001 2.442219e-003 7.140623e+001 1.051574e+000 -2.108934e+001
1018750000 1.026357e+000 -1.176577e+001 1.357017e-003 8.253009e+001 2.586268e-003 7.199742e+001 1.051759e+000 -2.110054e+001
1018900000 1.026306e+000 -1.176920e+001 1.380545e-003 8.121933e+001 2.511861e-003 7.133637e+001 1.052081e+000 -2.109965e+001
1019050000 1.026096e+000 -1.178689e+001 1.355597e-003 8.020670e+001 2.529042e-003 6.979224e+001 1.052396e+000 -2.113979e+001
1019200000 1.026000e+000 -1.179521e+001 1.411109e-003 8.024333e+001 2.455366e-003 7.098073e+001 1.052569e+000 -2.115682e+001
1019350000 1.025928e+000 -1.180836e+001 1.388738e-003 8.033338e+001 2.491546e-003 7.245027e+001 1.052696e+000 -2.117496e+001
1019500000 1.025861e+000 -1.182654e+001 1.341656e-003 7.931808e+001 2.508294e-003 7.148819e+001 1.052910e+000 -2.118708e+001
1019650000 1.025843e+000 -1.183683e+001 1.379267e-003 8.042309e+001 2.523364e-003 7.156833e+001 1.052122e+000 -2.119810e+001
1019800000 1.025869e+000 -1.183909e+001 1.373283e-003 7.928716e+001 2.551137e-003 7.105142e+001 1.051194e+000 -2.121421e+001
1019950000 1.026092e+000 -1.184519e+001 1.373671e-003 8.088818e+001 2.585620e-003 7.172390e+001 1.050472e+000 -2.121729e+001
1020100000 1.025880e+000 -1.185330e+001 1.334627e-003 8.061134e+001 2.557631e-003 7.043703e+001 1.050444e+000 -2.122563e+001
1020250000 1.025959e+000 -1.184212e+001 1.384161e-003 8.029274e+001 2.623883e-003 7.014584e+001 1.050644e+000 -2.122918e+001
1020400000 1.026093e+000 -1.184474e+001 1.366359e-003 7.970377e+001 2.548264e-003 7.126797e+001 1.052088e+000 -2.120706e+001
1020550000 1.026303e+000 -1.185245e+001 1.388907e-003 8.197530e+001 2.503976e-003 7.131425e+001 1.053663e+000 -2.119919e+001
1020700000 1.026141e+000 -1.185071e+001 1.361995e-003 8.100201e+001 2.605480e-003 7.221634e+001 1.054973e+000 -2.120396e+001
1020850000 1.026173e+000 -1.185030e+001 1.356792e-003 7.997830e+001 2.579997e-003 7.108216e+001 1.056429e+000 -2.117163e+001
1021000000 1.025939e+000 -1.185241e+001 1.348447e-003 8.062834e+001 2.560191e-003 7.146078e+001 1.056630e+000 -2.118527e+001
1021150000 1.025452e+000 -1.184490e+001 1.385098e-003 8.016301e+001 2.594412e-003 7.004171e+001 1.055328e+000 -2.119041e+001
1021300000 1.024980e+000 -1.181984e+001 1.350316e-003 8.020629e+001 2.558469e-003 7.209560e+001 1.054123e+000 -2.119250e+001
1021450000 1.024544e+000 -1.179957e+001 1.391148e-003 8.034517e+001 2.620430e-003 7.132796e+001 1.052646e+000 -2.121602e+001
1021600000 1.024287e+000 -1.179433e+001 1.391064e-003 7.960010e+001 2.566186e-003 7.209538e+001 1.051979e+000 -2.123709e+001
1021750000 1.024277e+000 -1.177940e+001 1.388761e-003 7.975419e+001 2.592372e-003 7.156907e+001 1.051395e+000 -2.122828e+001
1021900000 1.024492e+000 -1.178910e+001 1.365017e-003 7.971593e+001 2.528868e-003 7.062331e+001 1.051775e+000 -2.123538e+001
1022050000 1.025058e+000 -1.179595e+001 1.398208e-003 7.951619e+001 2.572143e-003 6.977383e+001 1.052061e+000 -2.121758e+001
1022200000 1.025558e+000 -1.180784e+001 1.380019e-003 8.086369e+001 2.528249e-003 7.118520e+001 1.052484e+000 -2.120645e+001
1022350000 1.025984e+000 -1.181182e+001 1.366388e-003 8.051320e+001 2.694288e-003 7.249321e+001 1.052750e+000 -2.120886e+001
1022500000 1.026189e+000 -1.182260e+001 1.381793e-003 8.124715e+001 2.534915e-003 7.194735e+001 1.052988e+000 -2.119943e+001
1022650000 1.026163e+000 -1.183216e+001 1.384208e-003 8.029473e+001 2.580494e-003 7.226490e+001 1.052769e+000 -2.118756e+001
1022800000 1.026085e+000 -1.182309e+001 1.398722e-003 7.920531e+001 2.597037e-003 7.165304e+001 1.052469e+000 -2.117026e+001
1022950000 1.026250e+000 -1.183167e+001 1.383394e-003 8.055824e+001 2.544684e-003 7.067899e+001 1.052461e+000 -2.116407e+001
1023100000 1.026206e+000 -1.183554e+001 1.392293e-003 7.939455e+001 2.577530e-003 7.154932e+001 1.052525e+000 -2.117122e+001
1023250000 1.026246e+000 -1.185015e+001 1.387308e-003 8.158203e+001 2.610945e-003 7.163715e+001 1.052368e+000 -2.117709e+001
