!Agilent Technologies,N5230C,SG49000117,A.08.50.07
!Agilent N5230C: A.08.50.07
!Date: Monday, May 20, 2024 20:12:06
!Correction: S11(Full 2 Port(1,2)) 
!S21(Full 2 Port(1,2)) 
!S12(Full 2 Port(1,2)) 
!S22(Full 2 Port(1,2)) 
!S2P File: Measurements: S11, S21, S12, S22:
# Hz S  MA   R 50
1000000000 1.029566e+000 -1.361777e+001 1.632976e-003 8.905495e+001 2.298683e-003 6.066437e+001 1.059091e+000 -2.295661e+001
1000150000 1.029591e+000 -1.356167e+001 1.361295e-003 7.864996e+001 2.844160e-003 6.934988e+001 1.060512e+000 -2.284268e+001
1000300000 1.029488e+000 -1.352531e+001 1.361538e-003 7.643155e+001 2.491005e-003 9.018668e+001 1.060783e+000 -2.287581e+001
1000450000 1.029141e+000 -1.353689e+001 1.211668e-003 8.233819e+001 2.915495e-003 7.445218e+001 1.058699e+000 -2.288396e+001
1000600000 1.029362e+000 -1.359004e+001 1.474423e-003 8.108404e+001 2.701357e-003 6.894701e+001 1.059902e+000 -2.292533e+001
1000750000 1.029723e+000 -1.352481e+001 1.540277e-003 8.157957e+001 2.780968e-003 6.759570e+001 1.058496e+000 -2.294369e+001
1000900000 1.031127e+000 -1.358490e+001 1.615059e-003 8.144197e+001 2.653572e-003 6.611642e+001 1.060198e+000 -2.304669e+001
1001050000 1.029397e+000 -1.348918e+001 1.530023e-003 8.491700e+001 2.762568e-003 6.976905e+001 1.060998e+000 -2.290324e+001
1001200000 1.028843e+000 -1.357779e+001 1.667417e-003 7.818082e+001 2.832862e-003 6.526548e+001 1.058800e+000 -2.292655e+001
1001350000 1.028824e+000 -1.357185e+001 1.308527e-003 8.084348e+001 2.387622e-003 6.849087e+001 1.060913e+000 -2.287185e+001
1001500000 1.028447e+000 -1.354005e+001 1.601791e-003 8.060060e+001 2.652933e-003 7.763361e+001 1.060792e+000 -2.279733e+001
1001650000 1.029208e+000 -1.353784e+001 1.724089e-003 8.635082e+001 2.959138e-003 6.494525e+001 1.059208e+000 -2.282534e+001
1001800000 1.028064e+000 -1.353249e+001 1.202161e-003 7.978254e+001 2.667213e-003 8.069762e+001 1.059510e+000 -2.286975e+001
1001950000 1.028718e+000 -1.355201e+001 1.764027e-003 7.948874e+001 2.599006e-003 7.157803e+001 1.061334e+000 -2.300717e+001
1002100000 1.028338e+000 -1.351406e+001 1.513809e-003 8.025798e+001 3.103578e-003 6.732114e+001 1.059649e+000 -2.299415e+001
1002250000 1.028227e+000 -1.355366e+001 1.464178e-003 6.954323e+001 2.766343e-003 6.573868e+001 1.058414e+000 -2.297525e+001
1002400000 1.027832e+000 -1.355131e+001 1.131547e-003 7.692181e+001 1.970093e-003 6.183138e+001 1.060148e+000 -2.301709e+001
1002550000 1.029128e+000 -1.357782e+001 1.209619e-003 8.446351e+001 2.430617e-003 5.324792e+001 1.059066e+000 -2.283300e+001
1002700000 1.028679e+000 -1.365690e+001 1.527135e-003 7.799760e+001 2.384212e-003 7.232926e+001 1.060109e+000 -2.298739e+001
1002850000 1.029187e+000 -1.366178e+001 1.453631e-003 8.102271e+001 2.431314e-003 6.671703e+001 1.061373e+000 -2.297202e+001
1003000000 1.030209e+000 -1.360794e+001 1.585214e-003 8.037651e+001 2.798932e-003 7.368669e+001 1.059178e+000 -2.294565e+001
1003150000 1.029421e+000 -1.357339e+001 1.655199e-003 7.976714e+001 3.044248e-003 7.660886e+001 1.059833e+000 -2.302115e+001
1003300000 1.030411e+000 -1.358848e+001 1.607024e-003 8.067910e+001 3.099815e-003 7.218060e+001 1.059748e+000 -2.304021e+001
1003450000 1.031471e+000 -1.357580e+001 1.377607e-003 7.286080e+001 3.344931e-003 6.855858e+001 1.058415e+000 -2.283662e+001
1003600000 1.030986e+000 -1.360469e+001 1.422123e-003 8.428609e+001 2.578868e-003 6.636798e+001 1.060264e+000 -2.292425e+001
1003750000 1.030734e+000 -1.349002e+001 1.675874e-003 7.796071e+001 3.103509e-003 7.854129e+001 1.057959e+000 -2.293389e+001
1003900000 1.030392e+000 -1.355528e+001 1.440687e-003 8.030481e+001 3.099528e-003 5.990131e+001 1.058424e+000 -2.281949e+001
1004050000 1.029637e+000 -1.356308e+001 1.382592e-003 8.534789e+001 2.028313e-003 7.734673e+001 1.060397e+000 -2.294717e+001
1004200000 1.029729e+000 -1.349543e+001 1.518616e-003 8.261633e+001 2.830883e-003 7.690976e+001 1.059191e+000 -2.292665e+001
1004350000 1.028866e+000 -1.357625e+001 1.335415e-003 7.672670e+001 2.808549e-003 7.909801e+001 1.061049e+000 -2.291126e+001
1004500000 1.028461e+000 -1.359279e+001 1.376639e-003 7.507980e+001 3.251642e-003 6.681980e+001 1.057783e+000 -2.283247e+001
1004650000 1.028846e+000 -1.357861e+001 1.604525e-003 7.812440e+001 2.417341e-003 7.172363e+001 1.061286e+000 -2.301558e+001
1004800000 1.030045e+000 -1.355170e+001 1.606795e-003 8.254977e+001 2.872610e-003 7.533664e+001 1.058891e+000 -2.297058e+001
1004950000 1.029409e+000 -1.357706e+001 1.780369e-003 7.659238e+001 2.521232e-003 6.605308e+001 1.061195e+000 -2.294125e+001
1005100000 1.030583e+000 -1.356726e+001 1.560932e-003 8.158925e+001 2.541418e-003 7.127003e+001 1.060294e+000 -2.300318e+001
1005250000 1.029907e+000 -1.353880e+001 1.565650e-003 8.844164e+001 2.269623e-003 7.038486e+001 1.059914e+000 -2.299857e+001
1005400000 1.030817e+000 -1.362125e+001 1.376839e-003 8.128335e+001 3.009837e-003 6.561360e+001 1.061604e+000 -2.289599e+001
1005550000 1.030652e+000 -1.364417e+001 1.370931e-003 6.924059e+001 2.486624e-003 6.579009e+001 1.062086e+000 -2.309818e+001
1005700000 1.029569e+000 -1.365211e+001 1.509159e-003 8.311123e+001 2.923288e-003 6.302475e+001 1.059582e+000 -2.298519e+001
1005850000 1.029593e+000 -1.358535e+001 1.512296e-003 7.776893e+001 3.010053e-003 6.902800e+001 1.061787e+000 -2.294248e+001
1006000000 1.030598e+000 -1.361811e+001 1.615009e-003 8.375922e+001 2.634719e-003 7.366630e+001 1.062932e+000 -2.304081e+001
1006150000 1.030068e+000 -1.369128e+001 1.253145e-003 8.332508e+001 3.324093e-003 7.155528e+001 1.062367e+000 -2.303122e+001
1006300000 1.029036e+000 -1.365847e+001 1.677860e-003 8.057487e+001 2.750757e-003 8.006901e+001 1.059944e+000 -2.295622e+001
1006450000 1.030717e+000 -1.362972e+001 1.557330e-003 8.406674e+001 2.950734e-003 6.938840e+001 1.060296e+000 -2.303622e+001
1006600000 1.029059e+000 -1.361180e+001 1.606388e-003 7.993176e+001 3.428924e-003 6.242169e+001 1.060620e+000 -2.297235e+001
1006750000 1.030529e+000 -1.361474e+001 1.374796e-003 8.180465e+001 2.627240e-003 5.363090e+001 1.058654e+000 -2.299066e+001
1006900000 1.030766e+000 -1.365652e+001 1.194870e-003 7.912334e+001 2.725564e-003 7.008213e+001 1.058471e+000 -2.286500e+001
1007050000 1.030765e+000 -1.369156e+001 1.639906e-003 8.160730e+001 2.675107e-003 7.707475e+001 1.062582e+000 -2.306182e+001
1007200000 1.029783e+000 -1.360622e+001 1.382230e-003 7.842642e+001 2.492016e-003 6.890208e+001 1.060479e+000 -2.288275e+001
1007350000 1.030717e+000 -1.358333e+001 1.591940e-003 7.553352e+001 2.518306e-003 6.560271e+001 1.058863e+000 -2.301936e+001
1007500000 1.029701e+000 -1.365978e+001 1.405565e-003 9.052463e+001 3.037747e-003 8.022397e+001 1.060319e+000 -2.293453e+001
1007650000 1.028841e+000 -1.358146e+001 1.279592e-003 9.333277e+001 2.820264e-003 6.631908e+001 1.059511e+000 -2.309590e+001
1007800000 1.029201e+000 -1.358463e+001 1.467782e-003 8.112062e+001 2.741081e-003 6.939430e+001 1.059212e+000 -2.317535e+001
1007950000 1.028740e+000 -1.367712e+001 1.686651e-003 7.987160e+001 3.045064e-003 6.735634e+001 1.058084e+000 -2.304683e+001
1008100000 1.029335e+000 -1.365909e+001 1.471439e-003 7.867137e+001 2.702667e-003 5.896574e+001 1.057041e+000 -2.317339e+001
1008250000 1.028400e+000 -1.371689e+001 1.404656e-003 7.652984e+001 3.107307e-003 5.458570e+001 1.058431e+000 -2.316618e+001
1008400000 1.030217e+000 -1.365547e+001 1.704044e-003 7.562109e+001 2.604706e-003 7.466730e+001 1.058155e+000 -2.320116e+001
1008550000 1.029896e+000 -1.364393e+001 1.707738e-003 8.627769e+001 2.830538e-003 6.996158e+001 1.060639e+000 -2.317614e+001
1008700000 1.029914e+000 -1.366788e+001 1.374919e-003 7.641548e+001 2.800609e-003 6.624212e+001 1.060237e+000 -2.312924e+001
1008850000 1.030941e+000 -1.370740e+001 1.338167e-003 8.539378e+001 2.821141e-003 7.444729e+001 1.061075e+000 -2.313419e+001
1009000000 1.029712e+000 -1.354216e+001 1.393667e-003 7.671131e+001 2.360505e-003 7.505310e+001 1.060709e+000 -2.300132e+001
1009150000 1.029183e+000 -1.371813e+001 1.415133e-003 6.439265e+001 3.050240e-003 7.794725e+001 1.060417e+000 -2.311867e+001
1009300000 1.030093e+000 -1.368960e+001 1.497679e-003 8.605831e+001 3.034938e-003 7.019118e+001 1.062094e+000 -2.306769e+001
1009450000 1.029958e+000 -1.363433e+001 1.568898e-003 8.952951e+001 3.239091e-003 7.391043e+001 1.060574e+000 -2.322258e+001
1009600000 1.029353e+000 -1.369507e+001 1.827965e-003 7.856908e+001 2.274134e-003 7.133388e+001 1.059647e+000 -2.317873e+001
1009750000 1.029280e+000 -1.366597e+001 1.434519e-003 7.230178e+001 2.649943e-003 6.211650e+001 1.061586e+000 -2.309902e+001
1009900000 1.028391e+000 -1.366464e+001 1.586566e-003 7.780920e+001 2.582181e-003 5.660323e+001 1.062606e+000 -2.315319e+001
1010050000 1.029538e+000 -1.377032e+001 1.513090e-003 7.512321e+001 2.387417e-003 6.575227e+001 1.060810e+000 -2.309668e+001
1010200000 1.028940e+000 -1.374044e+001 1.762135e-003 7.351413e+001 2.997805e-003 7.681318e+001 1.062218e+000 -2.330388e+001
1010350000 1.028700e+000 -1.371250e+001 1.373270e-003 8.091940e+001 2.179052e-003 6.652489e+001 1.061392e+000 -2.333795e+001
1010500000 1.030466e+000 -1.380946e+001 1.564304e-003 7.849340e+001 2.860378e-003 7.395725e+001 1.060845e+000 -2.321250e+001
1010650000 1.029900e+000 -1.374549e+001 1.418791e-003 8.240245e+001 2.737037e-003 7.663654e+001 1.060121e+000 -2.316121e+001
1010800000 1.028623e+000 -1.379634e+001 1.288509e-003 7.964761e+001 3.537175e-003 7.143371e+001 1.061073e+000 -2.320255e+001
1010950000 1.029429e+000 -1.370178e+001 1.477649e-003 7.201718e+001 2.710757e-003 8.098705e+001 1.058784e+000 -2.304494e+001
1011100000 1.029212e+000 -1.368891e+001 1.536883e-003 7.848799e+001 2.437775e-003 6.577303e+001 1.058534e+000 -2.313100e+001
1011250000 1.030061e+000 -1.375308e+001 1.498913e-003 6.916655e+001 2.221354e-003 7.821177e+001 1.060182e+000 -2.316323e+001
1011400000 1.028949e+000 -1.369930e+001 1.569731e-003 8.681681e+001 2.353381e-003 7.276236e+001 1.058927e+000 -2.305160e+001
1011550000 1.030331e+000 -1.373324e+001 1.214616e-003 5.812217e+001 2.431098e-003 7.414396e+001 1.060535e+000 -2.314238e+001
1011700000 1.030203e+000 -1.373026e+001 1.718532e-003 8.472810e+001 2.540726e-003 6.957381e+001 1.057033e+000 -2.318421e+001
1011850000 1.028466e+000 -1.369065e+001 1.454555e-003 7.117279e+001 3.048971e-003 5.755402e+001 1.059265e+000 -2.331881e+001
1012000000 1.029021e+000 -1.377118e+001 1.350675e-003 7.494877e+001 3.055506e-003 7.221605e+001 1.059364e+000 -2.307628e+001
1012150000 1.029353e+000 -1.374235e+001 1.629693e-003 6.993542e+001 2.788132e-003 5.836509e+001 1.062131e+000 -2.304552e+001
1012300000 1.029336e+000 -1.379874e+001 1.509711e-003 8.029407e+001 2.790699e-003 6.878922e+001 1.060486e+000 -2.325492e+001
1012450000 1.029163e+000 -1.371311e+001 1.462823e-003 9.292262e+001 2.989884e-003 5.489294e+001 1.060214e+000 -2.307983e+001
1012600000 1.029491e+000 -1.382649e+001 1.148886e-003 8.401987e+001 2.981424e-003 6.783173e+001 1.059834e+000 -2.295945e+001
1012750000 1.029966e+000 -1.375567e+001 1.559637e-003 7.474757e+001 2.144705e-003 6.739435e+001 1.061661e+000 -2.297774e+001
1012900000 1.029313e+000 -1.373883e+001 1.657236e-003 8.842343e+001 2.556927e-003 8.251168e+001 1.060579e+000 -2.307302e+001
1013050000 1.029192e+000 -1.378281e+001 1.550710e-003 8.279337e+001 3.072981e-003 8.017760e+001 1.060832e+000 -2.308063e+001
1013200000 1.028536e+000 -1.373412e+001 1.447411e-003 8.682012e+001 3.121442e-003 6.220075e+001 1.059367e+000 -2.321273e+001
1013350000 1.030828e+000 -1.390007e+001 1.478323e-003 7.394695e+001 3.230342e-003 6.662628e+001 1.058632e+000 -2.313158e+001
1013500000 1.029508e+000 -1.383074e+001 1.517022e-003 7.723260e+001 2.716994e-003 5.890066e+001 1.058158e+000 -2.325202e+001
1013650000 1.027735e+000 -1.379898e+001 1.803384e-003 7.497987e+001 2.575561e-003 6.308594e+001 1.057791e+000 -2.325547e+001
1013800000 1.028685e+000 -1.382791e+001 1.448187e-003 8.180013e+001 2.725125e-003 7.111548e+001 1.059502e+000 -2.326383e+001
1013950000 1.028603e+000 -1.377099e+001 1.441210e-003 7.851329e+001 2.458003e-003 6.574902e+001 1.056645e+000 -2.321565e+001
1014100000 1.028755e+000 -1.376478e+001 1.263860e-003 7.954475e+001 2.573153e-003 6.156550e+001 1.058991e+000 -2.319500e+001
1014250000 1.029033e+000 -1.374174e+001 1.210752e-003 7.922281e+001 2.125227e-003 6.901365e+001 1.060855e+000 -2.317707e+001
1014400000 1.029820e+000 -1.380130e+001 1.649277e-003 7.594755e+001 2.518171e-003 7.549606e+001 1.061110e+000 -2.327200e+001
1014550000 1.030802e+000 -1.383961e+001 1.498259e-003 8.103935e+001 3.147310e-003 7.051856e+001 1.061621e+000 -2.316824e+001
1014700000 1.031238e+000 -1.386279e+001 1.369107e-003 8.398950e+001 3.289791e-003 7.070041e+001 1.060103e+000 -2.315932e+001
1014850000 1.030535e+000 -1.380672e+001 1.285752e-003 7.943256e+001 2.555224e-003 7.779397e+001 1.061664e+000 -2.312037e+001
1015000000 1.030590e+000 -1.384813e+001 1.639316e-003 7.314235e+001 3.051677e-003 8.297058e+001 1.063111e+000 -2.324546e+001
1015150000 1.030776e+000 -1.379631e+001 1.387047e-003 8.213967e+001 2.912946e-003 7.209100e+001 1.060204e+000 -2.316750e+001
1015300000 1.031462e+000 -1.387795e+001 1.344707e-003 9.354193e+001 3.156970e-003 7.407260e+001 1.059175e+000 -2.329510e+001
1015450000 1.029912e+000 -1.385537e+001 1.275952e-003 7.431604e+001 2.976242e-003 7.512635e+001 1.061267e+000 -2.322316e+001
1015600000 1.029687e+000 -1.386644e+001 1.513883e-003 8.456908e+001 2.859637e-003 6.607784e+001 1.058562e+000 -2.331655e+001
1015750000 1.029436e+000 -1.381735e+001 1.467324e-003 7.737265e+001 2.663244e-003 7.127055e+001 1.060859e+000 -2.326465e+001
1015900000 1.029027e+000 -1.383974e+001 1.426980e-003 7.818965e+001 2.885590e-003 7.931252e+001 1.058456e+000 -2.325790e+001
1016050000 1.030090e+000 -1.390943e+001 1.539296e-003 7.501992e+001 3.119688e-003 6.771951e+001 1.061714e+000 -2.326979e+001
1016200000 1.031376e+000 -1.382695e+001 1.692518e-003 7.886212e+001 3.161299e-003 6.475539e+001 1.058163e+000 -2.325092e+001
1016350000 1.029865e+000 -1.382896e+001 1.448400e-003 8.073642e+001 2.588693e-003 6.934978e+001 1.058774e+000 -2.318348e+001
1016500000 1.029735e+000 -1.379298e+001 1.621442e-003 7.611707e+001 3.125004e-003 7.449131e+001 1.058420e+000 -2.324501e+001
1016650000 1.030779e+000 -1.380934e+001 1.436148e-003 8.262434e+001 2.774509e-003 6.352863e+001 1.057938e+000 -2.317548e+001
1016800000 1.031753e+000 -1.382551e+001 1.510475e-003 8.570927e+001 2.614074e-003 6.405309e+001 1.059729e+000 -2.311813e+001
1016950000 1.030676e+000 -1.394730e+001 1.420538e-003 8.114619e+001 2.404396e-003 6.718387e+001 1.063192e+000 -2.314810e+001
1017100000 1.032977e+000 -1.387298e+001 1.456836e-003 7.603557e+001 2.842088e-003 6.537429e+001 1.061599e+000 -2.314381e+001
1017250000 1.031924e+000 -1.384894e+001 1.818810e-003 7.828831e+001 2.746728e-003 6.546210e+001 1.062793e+000 -2.310229e+001
1017400000 1.032363e+000 -1.389911e+001 1.719940e-003 8.011690e+001 2.451427e-003 7.462741e+001 1.060703e+000 -2.327668e+001
1017550000 1.028260e+000 -1.383877e+001 1.342138e-003 7.379185e+001 3.345281e-003 7.646724e+001 1.060278e+000 -2.319544e+001
1017700000 1.030913e+000 -1.394144e+001 1.449499e-003 7.546767e+001 2.750310e-003 7.496188e+001 1.061871e+000 -2.318690e+001
1017850000 1.029697e+000 -1.394454e+001 1.477210e-003 7.593302e+001 2.897531e-003 6.900307e+001 1.059559e+000 -2.327868e+001
1018000000 1.029064e+000 -1.382354e+001 1.383607e-003 8.727316e+001 2.528969e-003 6.932833e+001 1.060845e+000 -2.331394e+001
1018150000 1.029847e+000 -1.386208e+001 1.466805e-003 7.578606e+001 2.847339e-003 7.112980e+001 1.060781e+000 -2.325141e+001
1018300000 1.027613e+000 -1.385397e+001 1.331850e-003 8.290182e+001 3.151332e-003 6.884315e+001 1.060560e+000 -2.321414e+001
1018450000 1.029454e+000 -1.388957e+001 1.267186e-003 8.234097e+001 2.938688e-003 7.039851e+001 1.062322e+000 -2.326725e+001
1018600000 1.029984e+000 -1.395446e+001 1.362765e-003 8.399730e+001 3.088963e-003 7.457273e+001 1.060294e+000 -2.320494e+001
1018750000 1.029939e+000 -1.386642e+001 1.510298e-003 7.939847e+001 3.139698e-003 5.657664e+001 1.062235e+000 -2.315565e+001
1018900000 1.027927e+000 -1.388187e+001 1.536669e-003 8.182111e+001 2.518602e-003 6.196850e+001 1.060005e+000 -2.328721e+001
1019050000 1.031272e+000 -1.389240e+001 1.690112e-003 8.566276e+001 2.578363e-003 6.315400e+001 1.062390e+000 -2.339458e+001
1019200000 1.031013e+000 -1.394821e+001 1.296053e-003 8.220219e+001 2.461273e-003 6.719793e+001 1.060145e+000 -2.343534e+001
1019350000 1.030779e+000 -1.395661e+001 1.599430e-003 8.635033e+001 2.713376e-003 7.204831e+001 1.061618e+000 -2.311468e+001
1019500000 1.029999e+000 -1.391175e+001 1.457997e-003 7.370231e+001 2.552171e-003 6.871953e+001 1.060407e+000 -2.333629e+001
1019650000 1.030062e+000 -1.397976e+001 1.482457e-003 7.154008e+001 2.492165e-003 7.144672e+001 1.061513e+000 -2.339098e+001
1019800000 1.029332e+000 -1.389777e+001 1.927939e-003 7.565524e+001 2.623601e-003 6.605241e+001 1.059163e+000 -2.341852e+001
1019950000 1.029784e+000 -1.398616e+001 1.681551e-003 8.834459e+001 2.987401e-003 7.066055e+001 1.058094e+000 -2.335347e+001
1020100000 1.029776e+000 -1.397939e+001 1.475583e-003 8.624305e+001 2.913572e-003 6.887847e+001 1.057061e+000 -2.338918e+001
1020250000 1.030380e+000 -1.393777e+001 1.335586e-003 7.629079e+001 3.165869e-003 7.425036e+001 1.058475e+000 -2.337279e+001
1020400000 1.030721e+000 -1.396465e+001 1.457268e-003 7.786369e+001 2.727265e-003 6.879498e+001 1.060872e+000 -2.341608e+001
1020550000 1.030120e+000 -1.393698e+001 1.754680e-003 6.822764e+001 2.812734e-003 7.059326e+001 1.063496e+000 -2.332426e+001
1020700000 1.030561e+000 -1.402645e+001 1.256281e-003 8.355581e+001 3.085807e-003 7.181371e+001 1.063105e+000 -2.351668e+001
1020850000 1.029282e+000 -1.403413e+001 1.902667e-003 7.723402e+001 2.654698e-003 6.120701e+001 1.066975e+000 -2.337493e+001
1021000000 1.030320e+000 -1.392674e+001 1.735728e-003 7.123719e+001 2.743065e-003 6.470325e+001 1.065207e+000 -2.332718e+001
1021150000 1.029120e+000 -1.394951e+001 1.547286e-003 8.444512e+001 2.158908e-003 5.365978e+001 1.066077e+000 -2.327456e+001
1021300000 1.029493e+000 -1.391727e+001 1.561958e-003 8.238849e+001 2.849116e-003 6.399597e+001 1.063013e+000 -2.332893e+001
1021450000 1.027585e+000 -1.387561e+001 1.732064e-003 8.241100e+001 2.497577e-003 6.185225e+001 1.063233e+000 -2.326326e+001
1021600000 1.029528e+000 -1.391323e+001 1.844288e-003 8.165752e+001 2.955422e-003 8.143328e+001 1.059868e+000 -2.343862e+001
1021750000 1.027767e+000 -1.392845e+001 1.479431e-003 7.033153e+001 2.872563e-003 7.123734e+001 1.060692e+000 -2.334886e+001
1021900000 1.028103e+000 -1.392088e+001 1.454795e-003 8.957040e+001 3.334360e-003 6.870926e+001 1.061529e+000 -2.341805e+001
1022050000 1.028569e+000 -1.393885e+001 1.534706e-003 7.732498e+001 2.864052e-003 6.958775e+001 1.061650e+000 -2.332831e+001
1022200000 1.029689e+000 -1.393067e+001 1.286263e-003 7.626007e+001 2.488392e-003 6.232409e+001 1.061573e+000 -2.318506e+001
1022350000 1.029840e+000 -1.395914e+001 1.644631e-003 8.312350e+001 2.743663e-003 6.761058e+001 1.063579e+000 -2.338034e+001
1022500000 1.029922e+000 -1.396561e+001 1.563121e-003 8.487886e+001 3.070309e-003 7.231552e+001 1.060801e+000 -2.326992e+001
1022650000 1.030440e+000 -1.397811e+001 1.461630e-003 8.720313e+001 3.131128e-003 6.819295e+001 1.062807e+000 -2.349838e+001
1022800000 1.030636e+000 -1.401244e+001 1.697118e-003 8.176134e+001 3.086689e-003 7.582744e+001 1.060305e+000 -2.328790e+001
1022950000 1.029550e+000 -1.393529e+001 1.313464e-003 7.545401e+001 3.708496e-003 7.216881e+001 1.062899e+000 -2.316870e+001
1023100000 1.030953e+000 -1.397886e+001 1.518932e-003 7.240231e+001 2.615319e-003 6.827876e+001 1.061510e+000 -2.333670e+001
1023250000 1.030973e+000 -1.395839e+001 1.342755e-003 7.919736e+001 2.978290e-003 5.230268e+001 1.063183e+000 -2.329172e+001
