!Agilent Technologies,N5230C,SG49000117,A.08.50.07
!Agilent N5230C: A.08.50.07
!Date: Monday, May 20, 2024 20:09:11
!Correction: S11(Full 2 Port(1,2)) 
!S21(Full 2 Port(1,2)) 
!S12(Full 2 Port(1,2)) 
!S22(Full 2 Port(1,2)) 
!S2P File: Measurements: S11, S21, S12, S22:
# Hz S  MA   R 50
1000000000 1.030603e+000 -1.500116e+001 1.662107e-003 7.105872e+001 2.742298e-003 6.732835e+001 1.061236e+000 -2.521071e+001
1000150000 1.030462e+000 -1.495970e+001 1.708027e-003 8.513432e+001 2.462196e-003 7.407009e+001 1.061579e+000 -2.519999e+001
1000300000 1.029565e+000 -1.500418e+001 1.603287e-003 7.788097e+001 3.102409e-003 6.937075e+001 1.060042e+000 -2.532353e+001
1000450000 1.031016e+000 -1.504354e+001 1.495782e-003 8.257872e+001 3.331898e-003 7.170004e+001 1.058187e+000 -2.523089e+001
1000600000 1.029484e+000 -1.499828e+001 1.666937e-003 6.777200e+001 3.103842e-003 7.600831e+001 1.060955e+000 -2.525926e+001
1000750000 1.029943e+000 -1.500191e+001 1.720340e-003 7.562219e+001 3.241605e-003 7.147840e+001 1.060984e+000 -2.529219e+001
1000900000 1.031175e+000 -1.504245e+001 1.428546e-003 8.209427e+001 3.070539e-003 6.694597e+001 1.060501e+000 -2.522853e+001
1001050000 1.028497e+000 -1.503548e+001 1.396787e-003 7.173724e+001 2.768351e-003 7.221371e+001 1.061235e+000 -2.528178e+001
1001200000 1.028906e+000 -1.496705e+001 1.774017e-003 8.105072e+001 3.268843e-003 6.230682e+001 1.061626e+000 -2.521952e+001
1001350000 1.030001e+000 -1.500236e+001 1.391640e-003 8.225005e+001 3.281618e-003 7.103244e+001 1.062516e+000 -2.514891e+001
1001500000 1.029680e+000 -1.502020e+001 1.632576e-003 8.553397e+001 2.263967e-003 7.732803e+001 1.061880e+000 -2.530662e+001
1001650000 1.028718e+000 -1.504711e+001 1.592070e-003 7.383109e+001 2.237099e-003 6.336524e+001 1.062654e+000 -2.517441e+001
1001800000 1.028931e+000 -1.501700e+001 1.628685e-003 8.403384e+001 3.050392e-003 7.660123e+001 1.061682e+000 -2.523008e+001
1001950000 1.027589e+000 -1.508489e+001 1.900477e-003 8.332349e+001 2.739762e-003 7.166595e+001 1.060870e+000 -2.525465e+001
1002100000 1.030277e+000 -1.510843e+001 1.388939e-003 7.589230e+001 3.115300e-003 7.118140e+001 1.060477e+000 -2.532271e+001
1002250000 1.029064e+000 -1.510375e+001 1.903876e-003 8.027863e+001 3.323928e-003 6.729413e+001 1.059693e+000 -2.544593e+001
1002400000 1.028032e+000 -1.504326e+001 1.584506e-003 8.101653e+001 3.024866e-003 6.653281e+001 1.061495e+000 -2.544095e+001
1002550000 1.030091e+000 -1.510098e+001 1.605188e-003 7.222768e+001 3.061659e-003 7.529569e+001 1.058615e+000 -2.526942e+001
1002700000 1.031504e+000 -1.505105e+001 1.280561e-003 8.416130e+001 2.874158e-003 6.748152e+001 1.062306e+000 -2.528761e+001
1002850000 1.030154e+000 -1.496355e+001 2.079529e-003 8.761275e+001 2.431717e-003 7.495080e+001 1.062254e+000 -2.528675e+001
1003000000 1.030086e+000 -1.511554e+001 1.494822e-003 8.299535e+001 2.787833e-003 7.594833e+001 1.058625e+000 -2.531174e+001
1003150000 1.029794e+000 -1.510609e+001 1.377065e-003 8.000813e+001 2.501028e-003 6.895927e+001 1.060786e+000 -2.533447e+001
1003300000 1.029870e+000 -1.508070e+001 1.601757e-003 8.224467e+001 2.493058e-003 8.056759e+001 1.060277e+000 -2.524334e+001
1003450000 1.029837e+000 -1.502229e+001 1.606106e-003 7.167797e+001 3.309037e-003 6.867063e+001 1.057874e+000 -2.537208e+001
1003600000 1.031608e+000 -1.503281e+001 1.641996e-003 7.181563e+001 2.896638e-003 7.840021e+001 1.057956e+000 -2.534111e+001
1003750000 1.030887e+000 -1.499122e+001 1.713825e-003 8.409472e+001 2.789138e-003 7.853294e+001 1.058798e+000 -2.521108e+001
1003900000 1.031262e+000 -1.502609e+001 1.454477e-003 7.409490e+001 3.014322e-003 7.441431e+001 1.059162e+000 -2.537268e+001
1004050000 1.031342e+000 -1.499735e+001 1.674836e-003 8.628343e+001 3.286510e-003 7.530569e+001 1.060024e+000 -2.520540e+001
1004200000 1.029594e+000 -1.506602e+001 1.432735e-003 8.870710e+001 3.129941e-003 6.837552e+001 1.060436e+000 -2.543033e+001
1004350000 1.028978e+000 -1.504341e+001 1.718760e-003 8.342613e+001 2.608784e-003 6.953951e+001 1.061121e+000 -2.534904e+001
1004500000 1.030421e+000 -1.514314e+001 1.499103e-003 8.874192e+001 2.961609e-003 6.641490e+001 1.061932e+000 -2.532392e+001
1004650000 1.028991e+000 -1.504818e+001 1.701042e-003 7.769601e+001 2.578414e-003 5.575911e+001 1.061477e+000 -2.531882e+001
1004800000 1.030370e+000 -1.506839e+001 1.661169e-003 7.813025e+001 3.163368e-003 7.252380e+001 1.058593e+000 -2.540486e+001
1004950000 1.029766e+000 -1.506436e+001 1.513251e-003 8.087929e+001 2.872110e-003 7.063520e+001 1.062715e+000 -2.530528e+001
1005100000 1.029414e+000 -1.508110e+001 1.506628e-003 7.332255e+001 3.191263e-003 7.481031e+001 1.062505e+000 -2.536213e+001
1005250000 1.031605e+000 -1.503789e+001 1.605400e-003 8.369257e+001 3.170415e-003 6.005217e+001 1.064383e+000 -2.533504e+001
1005400000 1.029881e+000 -1.507944e+001 1.788639e-003 8.111623e+001 3.039308e-003 6.629503e+001 1.061308e+000 -2.530864e+001
1005550000 1.030161e+000 -1.514803e+001 1.539511e-003 8.196094e+001 3.054909e-003 5.811365e+001 1.062684e+000 -2.541881e+001
1005700000 1.030508e+000 -1.509837e+001 1.362343e-003 6.719671e+001 2.864938e-003 6.605803e+001 1.062190e+000 -2.535874e+001
1005850000 1.030028e+000 -1.502918e+001 1.612236e-003 7.723554e+001 2.891320e-003 5.706650e+001 1.062721e+000 -2.540497e+001
1006000000 1.030174e+000 -1.501968e+001 1.375725e-003 6.664570e+001 3.169089e-003 6.492571e+001 1.061975e+000 -2.540025e+001
1006150000 1.030173e+000 -1.505220e+001 1.471899e-003 7.114178e+001 3.119335e-003 6.089198e+001 1.062705e+000 -2.542923e+001
1006300000 1.030818e+000 -1.512873e+001 1.497053e-003 6.950861e+001 3.057780e-003 6.390083e+001 1.062345e+000 -2.542634e+001
1006450000 1.030325e+000 -1.514583e+001 1.203116e-003 6.782497e+001 3.369152e-003 6.960120e+001 1.060990e+000 -2.537882e+001
1006600000 1.029778e+000 -1.513726e+001 1.737366e-003 7.372897e+001 3.106065e-003 6.230775e+001 1.061771e+000 -2.521692e+001
1006750000 1.030766e+000 -1.515024e+001 1.778876e-003 8.232618e+001 2.754540e-003 5.959880e+001 1.063120e+000 -2.540968e+001
1006900000 1.031050e+000 -1.515726e+001 1.739931e-003 7.254749e+001 2.770751e-003 6.782697e+001 1.061501e+000 -2.534927e+001
1007050000 1.029974e+000 -1.518755e+001 1.760541e-003 8.213455e+001 3.030578e-003 6.615609e+001 1.060869e+000 -2.535965e+001
1007200000 1.030461e+000 -1.511991e+001 1.291069e-003 8.416247e+001 2.940807e-003 5.338347e+001 1.059541e+000 -2.534529e+001
1007350000 1.029439e+000 -1.512748e+001 1.641585e-003 7.897133e+001 3.164744e-003 7.405814e+001 1.060723e+000 -2.535222e+001
1007500000 1.030281e+000 -1.514505e+001 1.722179e-003 8.344551e+001 2.760962e-003 7.016130e+001 1.059291e+000 -2.547083e+001
1007650000 1.030215e+000 -1.515849e+001 1.494156e-003 8.364223e+001 3.408358e-003 7.281236e+001 1.058480e+000 -2.540586e+001
1007800000 1.029626e+000 -1.515756e+001 1.675731e-003 7.020049e+001 2.982507e-003 7.165697e+001 1.060751e+000 -2.538495e+001
1007950000 1.029919e+000 -1.510889e+001 1.845008e-003 8.729323e+001 3.353705e-003 7.146246e+001 1.059543e+000 -2.561118e+001
1008100000 1.029319e+000 -1.517558e+001 1.597623e-003 7.558873e+001 3.203678e-003 6.293442e+001 1.059329e+000 -2.562833e+001
1008250000 1.029044e+000 -1.513694e+001 1.582182e-003 7.284283e+001 3.231583e-003 6.443455e+001 1.059209e+000 -2.557468e+001
1008400000 1.028772e+000 -1.515852e+001 1.721557e-003 7.447098e+001 3.041811e-003 6.398711e+001 1.062966e+000 -2.555501e+001
1008550000 1.029876e+000 -1.511201e+001 1.524375e-003 8.260526e+001 3.211345e-003 7.051682e+001 1.060607e+000 -2.537066e+001
1008700000 1.029515e+000 -1.507327e+001 1.798729e-003 7.987890e+001 2.874434e-003 6.056942e+001 1.059464e+000 -2.557055e+001
1008850000 1.029831e+000 -1.511383e+001 1.571027e-003 9.137595e+001 2.533637e-003 7.161964e+001 1.064015e+000 -2.545511e+001
1009000000 1.030686e+000 -1.512765e+001 1.615997e-003 7.942117e+001 3.058751e-003 6.962769e+001 1.063513e+000 -2.545772e+001
1009150000 1.032010e+000 -1.514918e+001 1.640839e-003 7.747165e+001 3.278003e-003 7.046027e+001 1.060279e+000 -2.550776e+001
1009300000 1.030939e+000 -1.507261e+001 1.614268e-003 7.235220e+001 3.385100e-003 6.984191e+001 1.060898e+000 -2.553311e+001
1009450000 1.030271e+000 -1.517336e+001 1.680401e-003 7.856576e+001 3.232992e-003 5.998408e+001 1.061717e+000 -2.555382e+001
1009600000 1.029412e+000 -1.517674e+001 1.729159e-003 8.173075e+001 3.083301e-003 6.891761e+001 1.062838e+000 -2.548897e+001
1009750000 1.029343e+000 -1.510438e+001 1.769425e-003 8.724514e+001 2.646307e-003 6.983912e+001 1.062691e+000 -2.539475e+001
1009900000 1.028962e+000 -1.520860e+001 1.688023e-003 7.968366e+001 3.140530e-003 6.664244e+001 1.061327e+000 -2.556273e+001
1010050000 1.030139e+000 -1.530733e+001 1.728464e-003 7.833434e+001 2.937336e-003 6.613910e+001 1.061911e+000 -2.549438e+001
1010200000 1.030661e+000 -1.522846e+001 1.660061e-003 8.358374e+001 3.273111e-003 7.090237e+001 1.062319e+000 -2.557229e+001
1010350000 1.030331e+000 -1.519558e+001 1.510033e-003 8.423728e+001 3.890424e-003 6.825120e+001 1.061962e+000 -2.549126e+001
1010500000 1.028949e+000 -1.524574e+001 1.710391e-003 7.456357e+001 2.836057e-003 6.350412e+001 1.061013e+000 -2.552066e+001
1010650000 1.030240e+000 -1.525226e+001 1.615267e-003 7.566619e+001 3.151039e-003 6.393868e+001 1.059245e+000 -2.559983e+001
1010800000 1.029724e+000 -1.530464e+001 1.484658e-003 6.887445e+001 2.821012e-003 6.589954e+001 1.059852e+000 -2.548403e+001
1010950000 1.028734e+000 -1.523669e+001 1.564190e-003 7.864141e+001 2.683471e-003 6.254889e+001 1.061232e+000 -2.546290e+001
1011100000 1.031188e+000 -1.518963e+001 1.923052e-003 7.686208e+001 3.394234e-003 6.372790e+001 1.060971e+000 -2.535177e+001
1011250000 1.030185e+000 -1.521258e+001 1.662347e-003 7.543227e+001 3.025073e-003 6.383874e+001 1.059147e+000 -2.546035e+001
1011400000 1.030037e+000 -1.519889e+001 1.369718e-003 7.309346e+001 3.409893e-003 5.912926e+001 1.059946e+000 -2.550535e+001
1011550000 1.030153e+000 -1.513313e+001 1.796024e-003 8.648687e+001 2.916798e-003 6.049588e+001 1.060316e+000 -2.546189e+001
1011700000 1.029320e+000 -1.524061e+001 1.427869e-003 7.366528e+001 2.925847e-003 6.663129e+001 1.060096e+000 -2.552978e+001
1011850000 1.029889e+000 -1.522468e+001 1.840996e-003 8.428611e+001 3.074407e-003 6.604974e+001 1.061111e+000 -2.550620e+001
1012000000 1.030685e+000 -1.523726e+001 1.381428e-003 7.979189e+001 2.796329e-003 7.501924e+001 1.060305e+000 -2.556205e+001
1012150000 1.030291e+000 -1.532964e+001 1.913220e-003 6.998152e+001 2.784481e-003 6.565781e+001 1.061196e+000 -2.550876e+001
1012300000 1.030023e+000 -1.520547e+001 1.464795e-003 7.565546e+001 3.688661e-003 7.994225e+001 1.062905e+000 -2.555031e+001
1012450000 1.030461e+000 -1.526086e+001 1.458614e-003 7.825109e+001 2.695331e-003 6.408531e+001 1.062192e+000 -2.547275e+001
1012600000 1.029355e+000 -1.524549e+001 1.432531e-003 7.661620e+001 3.455650e-003 6.166265e+001 1.063624e+000 -2.544499e+001
1012750000 1.030271e+000 -1.520053e+001 1.761664e-003 8.156725e+001 2.861829e-003 6.164582e+001 1.061949e+000 -2.533493e+001
1012900000 1.028664e+000 -1.523516e+001 1.607871e-003 7.807903e+001 3.413880e-003 5.991721e+001 1.061404e+000 -2.537130e+001
1013050000 1.027994e+000 -1.528769e+001 1.781411e-003 8.470673e+001 3.088399e-003 5.903115e+001 1.061464e+000 -2.545300e+001
1013200000 1.030295e+000 -1.524332e+001 1.606160e-003 7.721967e+001 3.044020e-003 5.953259e+001 1.059933e+000 -2.537623e+001
1013350000 1.028396e+000 -1.526295e+001 1.599009e-003 8.200415e+001 3.405331e-003 7.100481e+001 1.061148e+000 -2.553994e+001
1013500000 1.029020e+000 -1.528077e+001 1.509619e-003 8.086341e+001 2.566199e-003 5.946667e+001 1.059703e+000 -2.557987e+001
1013650000 1.028775e+000 -1.525486e+001 1.660364e-003 7.919289e+001 2.847921e-003 6.500235e+001 1.059692e+000 -2.565115e+001
1013800000 1.029548e+000 -1.541075e+001 1.833783e-003 7.019807e+001 2.751952e-003 6.707271e+001 1.060947e+000 -2.561094e+001
1013950000 1.028108e+000 -1.526803e+001 1.632544e-003 8.122747e+001 3.090438e-003 7.099226e+001 1.059591e+000 -2.563359e+001
1014100000 1.028717e+000 -1.536327e+001 1.736362e-003 7.789969e+001 3.273523e-003 5.410497e+001 1.062009e+000 -2.554487e+001
1014250000 1.029971e+000 -1.529609e+001 1.549494e-003 7.260322e+001 3.158453e-003 5.274728e+001 1.058462e+000 -2.562263e+001
1014400000 1.029268e+000 -1.528039e+001 1.500629e-003 8.936437e+001 3.120598e-003 6.581998e+001 1.062420e+000 -2.555515e+001
1014550000 1.031781e+000 -1.529186e+001 1.616271e-003 7.101994e+001 3.367532e-003 5.720065e+001 1.062322e+000 -2.558907e+001
1014700000 1.030521e+000 -1.527220e+001 1.650584e-003 8.604267e+001 3.202853e-003 5.563396e+001 1.063041e+000 -2.566191e+001
1014850000 1.030536e+000 -1.529386e+001 1.617523e-003 7.122123e+001 2.950641e-003 6.270000e+001 1.062857e+000 -2.566597e+001
1015000000 1.030125e+000 -1.531594e+001 1.717569e-003 7.865704e+001 2.840156e-003 6.693143e+001 1.063636e+000 -2.559971e+001
1015150000 1.031633e+000 -1.533410e+001 1.758698e-003 7.412071e+001 3.539430e-003 6.272000e+001 1.062882e+000 -2.564157e+001
1015300000 1.029690e+000 -1.534745e+001 1.533153e-003 9.102663e+001 3.108597e-003 6.905018e+001 1.063001e+000 -2.567169e+001
1015450000 1.030204e+000 -1.526937e+001 1.656273e-003 7.203320e+001 2.810937e-003 6.447157e+001 1.061705e+000 -2.567612e+001
1015600000 1.030128e+000 -1.527954e+001 1.612298e-003 8.109585e+001 2.894328e-003 7.383617e+001 1.058998e+000 -2.561735e+001
1015750000 1.029436e+000 -1.531599e+001 1.743229e-003 7.719437e+001 2.883603e-003 5.457045e+001 1.058667e+000 -2.576213e+001
1015900000 1.028926e+000 -1.530652e+001 1.523474e-003 8.491854e+001 2.696815e-003 5.380808e+001 1.057875e+000 -2.561692e+001
1016050000 1.029795e+000 -1.526050e+001 1.505787e-003 8.088174e+001 2.491754e-003 7.461700e+001 1.059146e+000 -2.558426e+001
1016200000 1.029804e+000 -1.530358e+001 1.690711e-003 9.149826e+001 2.397481e-003 7.015359e+001 1.057327e+000 -2.565583e+001
1016350000 1.032030e+000 -1.528773e+001 1.655878e-003 7.537285e+001 3.248394e-003 6.833826e+001 1.059282e+000 -2.554486e+001
1016500000 1.031267e+000 -1.535083e+001 1.074668e-003 8.886617e+001 2.563781e-003 6.724769e+001 1.059290e+000 -2.546372e+001
1016650000 1.029636e+000 -1.529026e+001 1.547643e-003 8.612068e+001 3.765012e-003 6.651546e+001 1.062102e+000 -2.549720e+001
1016800000 1.031366e+000 -1.532977e+001 1.474260e-003 8.563351e+001 3.115156e-003 7.919208e+001 1.060526e+000 -2.547968e+001
1016950000 1.031503e+000 -1.531321e+001 1.432089e-003 8.450269e+001 3.231230e-003 6.969918e+001 1.061332e+000 -2.551847e+001
1017100000 1.032282e+000 -1.538985e+001 1.644830e-003 8.037304e+001 2.985478e-003 7.371394e+001 1.064987e+000 -2.549136e+001
1017250000 1.032613e+000 -1.538209e+001 1.674004e-003 6.906284e+001 3.119412e-003 7.211716e+001 1.063785e+000 -2.551187e+001
1017400000 1.031343e+000 -1.536808e+001 1.415742e-003 9.470856e+001 2.726142e-003 6.983794e+001 1.067203e+000 -2.561204e+001
1017550000 1.029383e+000 -1.537660e+001 1.400849e-003 7.736552e+001 3.211800e-003 6.018926e+001 1.061357e+000 -2.556759e+001
1017700000 1.030675e+000 -1.530329e+001 1.791202e-003 8.286043e+001 2.786401e-003 6.693613e+001 1.063431e+000 -2.560053e+001
1017850000 1.028779e+000 -1.540518e+001 1.450169e-003 7.450833e+001 3.182623e-003 6.333194e+001 1.064639e+000 -2.563798e+001
1018000000 1.029727e+000 -1.535070e+001 1.813072e-003 6.570653e+001 3.015309e-003 7.533748e+001 1.064940e+000 -2.565535e+001
1018150000 1.029751e+000 -1.536145e+001 1.722117e-003 8.125086e+001 2.762662e-003 5.547765e+001 1.062249e+000 -2.569892e+001
1018300000 1.028880e+000 -1.541233e+001 1.875751e-003 7.977241e+001 3.577808e-003 7.132557e+001 1.060137e+000 -2.553664e+001
1018450000 1.030267e+000 -1.533562e+001 1.637881e-003 7.810294e+001 2.565532e-003 6.609657e+001 1.059985e+000 -2.563487e+001
1018600000 1.030646e+000 -1.532816e+001 1.530542e-003 7.349242e+001 2.718742e-003 5.874684e+001 1.059639e+000 -2.555496e+001
1018750000 1.030456e+000 -1.537961e+001 1.673769e-003 7.880478e+001 2.864907e-003 6.269754e+001 1.061799e+000 -2.548077e+001
1018900000 1.029951e+000 -1.536468e+001 1.398583e-003 8.192737e+001 2.936037e-003 6.076855e+001 1.060867e+000 -2.574715e+001
1019050000 1.030472e+000 -1.531710e+001 1.731406e-003 7.383603e+001 3.202848e-003 6.278162e+001 1.060390e+000 -2.569074e+001
1019200000 1.031266e+000 -1.538660e+001 1.675561e-003 6.719501e+001 3.156970e-003 6.552409e+001 1.062232e+000 -2.571457e+001
1019350000 1.030644e+000 -1.550700e+001 1.706455e-003 7.737413e+001 2.834392e-003 6.756859e+001 1.062905e+000 -2.573501e+001
1019500000 1.029603e+000 -1.543273e+001 1.395670e-003 8.187357e+001 3.374319e-003 7.014663e+001 1.062840e+000 -2.555505e+001
1019650000 1.029971e+000 -1.549729e+001 1.848282e-003 8.242217e+001 3.479181e-003 6.647389e+001 1.061360e+000 -2.574258e+001
1019800000 1.030527e+000 -1.542425e+001 1.178827e-003 7.409446e+001 3.018655e-003 7.324838e+001 1.060147e+000 -2.587745e+001
1019950000 1.029197e+000 -1.544555e+001 1.780272e-003 7.139120e+001 2.944315e-003 6.045648e+001 1.059432e+000 -2.567422e+001
1020100000 1.030217e+000 -1.545570e+001 1.556904e-003 8.163202e+001 3.556284e-003 5.597850e+001 1.060216e+000 -2.578452e+001
1020250000 1.030839e+000 -1.553341e+001 1.756465e-003 6.844743e+001 3.128594e-003 6.836358e+001 1.058505e+000 -2.576554e+001
1020400000 1.030253e+000 -1.551050e+001 1.629830e-003 7.595129e+001 3.023822e-003 6.990268e+001 1.060695e+000 -2.579951e+001
1020550000 1.030826e+000 -1.548319e+001 1.696882e-003 7.888965e+001 3.252340e-003 7.085089e+001 1.063907e+000 -2.571383e+001
1020700000 1.031005e+000 -1.548893e+001 1.464926e-003 6.739859e+001 2.875952e-003 6.527149e+001 1.065423e+000 -2.576387e+001
1020850000 1.030195e+000 -1.544850e+001 1.448038e-003 6.982301e+001 2.711456e-003 7.064819e+001 1.066867e+000 -2.568709e+001
1021000000 1.030159e+000 -1.545150e+001 1.637625e-003 8.453941e+001 2.452078e-003 7.518327e+001 1.066776e+000 -2.572560e+001
1021150000 1.029622e+000 -1.546569e+001 1.892717e-003 7.663559e+001 3.239143e-003 6.661520e+001 1.063602e+000 -2.574874e+001
1021300000 1.029428e+000 -1.542446e+001 1.935588e-003 7.415087e+001 3.401136e-003 7.252815e+001 1.063647e+000 -2.569096e+001
1021450000 1.029330e+000 -1.543570e+001 1.419152e-003 7.306688e+001 3.198516e-003 5.950293e+001 1.060855e+000 -2.586711e+001
1021600000 1.028500e+000 -1.540439e+001 1.446859e-003 7.766779e+001 3.692098e-003 6.422192e+001 1.060722e+000 -2.583822e+001
1021750000 1.029020e+000 -1.539019e+001 1.442954e-003 7.430442e+001 3.043273e-003 6.967308e+001 1.060742e+000 -2.579918e+001
1021900000 1.029321e+000 -1.543805e+001 1.600791e-003 7.393243e+001 2.518188e-003 6.126237e+001 1.061152e+000 -2.577434e+001
1022050000 1.030221e+000 -1.543807e+001 1.333951e-003 8.223077e+001 2.665119e-003 6.889635e+001 1.063148e+000 -2.588361e+001
1022200000 1.030206e+000 -1.547132e+001 1.611246e-003 7.563734e+001 2.856332e-003 6.908082e+001 1.061303e+000 -2.578148e+001
1022350000 1.030586e+000 -1.545327e+001 1.495580e-003 7.357466e+001 3.037734e-003 7.769876e+001 1.061944e+000 -2.566280e+001
1022500000 1.030204e+000 -1.545510e+001 1.705249e-003 7.498878e+001 2.845563e-003 6.328318e+001 1.063442e+000 -2.586023e+001
1022650000 1.031869e+000 -1.543550e+001 1.729882e-003 7.792963e+001 3.663918e-003 6.099535e+001 1.064240e+000 -2.567031e+001
1022800000 1.030808e+000 -1.548369e+001 1.746441e-003 8.659628e+001 3.165980e-003 5.968214e+001 1.062536e+000 -2.569255e+001
1022950000 1.030154e+000 -1.538677e+001 1.404659e-003 7.468824e+001 3.296691e-003 6.223660e+001 1.064741e+000 -2.565753e+001
1023100000 1.030174e+000 -1.545457e+001 1.676233e-003 8.209462e+001 2.910880e-003 5.709917e+001 1.062855e+000 -2.567775e+001
1023250000 1.030597e+000 -1.549649e+001 1.787011e-003 8.243761e+001 2.826781e-003 5.989380e+001 1.062736e+000 -2.565541e+001
