!Agilent Technologies,N5230C,SG49000117,A.08.50.07
!Agilent N5230C: A.08.50.07
!Date: Thursday, May 16, 2024 17:52:24
!Correction: S11(Full 2 Port(1,2)) 
!S21(Full 2 Port(1,2)) 
!S12(Full 2 Port(1,2)) 
!S22(Full 2 Port(1,2)) 
!S2P File: Measurements: S11, S21, S12, S22:
# Hz S  MA   R 50
300000 1.006679e+000 -5.413212e-001 1.287220e-004 -2.541109e+001 2.464878e-004 1.512735e+002 1.012690e+000 -9.175550e-001
599985 9.822718e-001 3.098180e-001 9.153449e-005 4.502918e+000 2.616089e-004 -1.720867e+002 9.650776e-001 3.149949e-001
899970 9.966094e-001 -1.087845e-001 1.129120e-004 -3.828885e+001 1.174934e-004 -4.863500e+001 9.843511e-001 -3.839608e-001
1199955 9.973757e-001 -6.812248e-002 8.144608e-005 -1.435273e+002 1.825240e-004 2.451560e+001 9.964616e-001 -1.619006e-001
1499940 9.935529e-001 1.176306e-001 8.848075e-005 1.627190e+002 7.552354e-005 1.420091e+002 9.927087e-001 6.171427e-002
1799925 9.917442e-001 2.144185e-001 7.590901e-005 6.955645e+001 1.188181e-004 -1.423856e+002 9.905185e-001 1.020171e-002
2099910 9.982895e-001 -4.024198e-003 4.218191e-005 -1.635849e+002 1.574291e-004 -2.385904e+001 9.974809e-001 9.165254e-002
2399895 9.990674e-001 -1.218508e-001 4.502413e-005 8.210376e+001 2.209732e-004 1.282764e+002 1.002944e+000 -4.604621e-003
2699880 9.990802e-001 -2.590097e-001 5.244305e-005 -8.733932e+001 6.889954e-005 8.787400e+001 9.960189e-001 -2.313747e-001
2999865 9.994473e-001 -1.487950e-001 2.372911e-005 -7.994703e+001 2.513807e-004 6.642078e+001 9.985778e-001 -1.515153e-001
3299850 1.000188e+000 -1.599549e-001 8.702971e-005 -1.657252e+002 1.780961e-004 1.726929e+001 9.985994e-001 -2.202812e-001
3599835 9.995668e-001 -1.304550e-001 8.138911e-005 1.538912e+002 9.230449e-005 1.003787e+002 9.982185e-001 -1.626158e-001
3899820 9.991416e-001 -1.664761e-001 4.137614e-005 1.644896e+002 7.918676e-005 -1.250645e+002 9.988999e-001 -1.569583e-001
4199805 9.998164e-001 -2.155595e-001 5.829572e-005 2.999790e+001 1.992289e-004 -4.245820e+001 1.000641e+000 -2.821673e-001
4499790 9.996338e-001 -1.567229e-001 6.647080e-005 1.579771e+002 3.318525e-005 2.654953e+001 9.991904e-001 -2.701174e-001
4799775 9.998501e-001 -1.585447e-001 7.256305e-005 -6.918383e+001 1.771942e-004 -8.029922e+001 1.000082e+000 -2.087291e-001
5099760 1.000788e+000 -1.466027e-001 2.791549e-005 1.301471e+002 1.596879e-004 -1.697481e+002 1.000746e+000 -1.842348e-001
5399745 1.000451e+000 -1.216392e-001 5.150466e-005 4.294170e+001 7.353030e-005 -1.776919e+002 1.001960e+000 -1.616361e-001
5699730 9.998240e-001 -1.232139e-001 1.191245e-004 -9.351062e+001 8.420912e-005 1.358367e+002 1.001641e+000 -1.552756e-001
5999715 9.994251e-001 -1.191642e-001 5.096056e-005 -1.182189e+002 4.508184e-005 1.701227e+001 1.000001e+000 -7.525118e-002
6299700 9.998378e-001 -1.561601e-001 3.338871e-005 1.319759e+002 1.790768e-004 -1.647913e+002 1.001072e+000 -1.628408e-001
6599685 9.995453e-001 -1.536095e-001 7.234466e-005 -1.421508e+002 2.438840e-004 -9.422346e+001 1.001560e+000 -2.125043e-001
6899670 9.992682e-001 -1.402435e-001 8.744767e-005 -7.943986e+001 6.841253e-005 1.554318e+002 1.001382e+000 -1.469869e-001
7199655 9.994013e-001 -1.867631e-001 6.478136e-005 1.445357e+002 5.187087e-005 -3.893201e+001 1.001264e+000 -2.578366e-001
7499640 9.997437e-001 -2.202998e-001 1.122517e-005 -8.389518e+001 2.367790e-004 -1.550987e+001 1.001100e+000 -2.839072e-001
7799625 9.995701e-001 -1.998411e-001 1.989764e-005 1.201081e+002 4.675147e-005 7.235339e+001 9.992599e-001 -2.150135e-001
8099610 9.998151e-001 -1.700374e-001 2.172037e-005 -6.164487e+001 1.071444e-004 1.125980e+002 9.989327e-001 -2.115991e-001
8399595 9.993095e-001 -1.700043e-001 2.223543e-005 4.033142e+001 1.112479e-004 -3.550262e+001 9.990793e-001 -2.729879e-001
8699580 9.996511e-001 -1.679097e-001 4.790617e-005 1.529524e+002 1.009092e-004 1.197728e+002 1.000283e+000 -3.127405e-001
8999565 9.992527e-001 -1.895806e-001 1.972836e-005 -1.344841e+002 1.893600e-004 -9.910704e+001 1.000543e+000 -2.554562e-001
9299550 9.998127e-001 -1.988148e-001 5.976181e-005 -1.677606e+002 6.365686e-005 1.232158e+002 9.989505e-001 -1.627385e-001
9599535 9.994549e-001 -2.317383e-001 7.915628e-005 -1.698224e+002 1.834575e-004 -3.088029e+001 9.980435e-001 -3.485378e-001
9899520 9.995502e-001 -2.988223e-001 7.764311e-005 1.073549e+002 1.820349e-004 -1.495131e+002 9.974367e-001 -4.311998e-001
10199505 9.989732e-001 -2.185402e-001 3.335313e-005 1.621443e+002 2.580570e-004 -4.394535e-001 9.981256e-001 -2.955046e-001
10499490 9.998037e-001 -1.716463e-001 6.049664e-005 -2.448533e+001 9.680298e-005 -5.541676e+001 1.000274e+000 -3.028089e-001
10799475 9.995902e-001 -1.686083e-001 3.672716e-005 -9.515110e+001 6.927845e-005 8.797741e+000 9.998825e-001 -2.734623e-001
11099460 9.995222e-001 -2.126244e-001 2.425053e-005 -1.310460e+002 1.980476e-004 6.155838e+001 9.998611e-001 -2.551381e-001
11399445 9.995455e-001 -2.046472e-001 5.727892e-005 1.644420e+001 1.227243e-004 3.099150e+001 9.999453e-001 -2.549106e-001
11699430 9.996895e-001 -1.752496e-001 7.367524e-005 -3.532202e+001 9.203456e-005 6.025936e+001 9.993088e-001 -2.049627e-001
11999415 9.995185e-001 -2.027400e-001 1.076409e-004 -4.716396e+001 1.864499e-005 -1.635406e+002 1.000295e+000 -1.986655e-001
12299400 9.995052e-001 -2.004691e-001 1.272019e-004 -1.701540e+002 1.401421e-004 9.912648e+001 1.001041e+000 -1.092181e-001
12599385 9.999744e-001 -2.180823e-001 7.835891e-005 -3.904982e+001 1.456932e-004 -1.660985e+002 1.000306e+000 -3.025595e-001
12899370 9.999952e-001 -2.480068e-001 8.357628e-005 3.641171e+001 1.067249e-004 8.932217e+001 1.000549e+000 -4.379120e-001
13199355 9.995818e-001 -2.337409e-001 5.808148e-005 4.638873e+001 1.339274e-004 -7.099027e+001 1.000687e+000 -2.618541e-001
13499340 9.994283e-001 -2.505774e-001 1.038354e-004 -1.297478e+002 2.389618e-004 1.199803e+002 9.989074e-001 -2.854850e-001
13799325 9.995483e-001 -2.587928e-001 6.168893e-005 -1.704266e+002 2.719154e-004 -1.130953e+002 9.990789e-001 -2.184379e-001
14099310 9.995791e-001 -2.726434e-001 5.033101e-005 -1.235991e+002 3.270906e-004 1.302841e+001 9.998978e-001 -2.232857e-001
14399295 1.000087e+000 -2.565439e-001 4.692657e-005 -7.213790e+001 5.616800e-005 -4.353101e+001 9.996288e-001 -2.501290e-001
14699280 9.998643e-001 -2.771972e-001 6.660924e-005 -1.095248e+002 7.394524e-005 6.736564e+000 1.000311e+000 -2.976286e-001
14999265 9.993121e-001 -2.758614e-001 7.028042e-005 1.768895e+002 1.868582e-004 1.533143e+002 1.000385e+000 -2.536114e-001
15299250 9.990659e-001 -2.308724e-001 4.516274e-005 -3.013483e+001 1.340075e-004 -4.239531e+001 1.001194e+000 -2.567635e-001
15599235 9.995366e-001 -2.332914e-001 1.075087e-004 7.856166e+001 2.362472e-004 1.364021e+002 1.000824e+000 -3.333736e-001
15899220 9.994536e-001 -2.511528e-001 4.200782e-005 -1.538109e+002 1.764661e-004 -3.180913e+001 1.000572e+000 -2.569299e-001
16199205 1.000033e+000 -2.715101e-001 6.297969e-005 -4.756676e+001 1.492885e-004 1.576823e+002 1.001733e+000 -3.180879e-001
16499190 9.996103e-001 -2.679083e-001 5.646590e-005 -1.694410e+002 1.645273e-004 -4.160463e+001 1.002624e+000 -2.881590e-001
16799175 9.995451e-001 -2.471373e-001 1.481986e-004 -1.309384e+002 2.600668e-004 1.465073e+002 1.001509e+000 -2.963598e-001
17099160 1.000012e+000 -3.219503e-001 6.841456e-005 1.253966e+002 1.455610e-004 -7.350195e+001 1.001142e+000 -2.994945e-001
17399145 9.994226e-001 -2.765649e-001 9.322171e-005 7.288983e+001 2.120235e-004 1.538038e+002 1.001355e+000 -3.206821e-001
17699130 9.996212e-001 -2.967427e-001 3.542725e-005 1.233517e+001 2.639289e-004 1.312177e+002 1.000512e+000 -2.371832e-001
17999115 9.990352e-001 -2.796858e-001 5.038781e-005 9.931068e+000 2.230688e-004 2.886325e+001 1.000263e+000 -3.252676e-001
18299100 9.995978e-001 -2.728737e-001 4.804504e-005 -4.787273e+001 2.046583e-004 -1.779057e+002 1.000650e+000 -3.488029e-001
18599085 9.993889e-001 -2.921689e-001 8.350928e-005 9.760410e+001 8.290823e-005 1.757164e+002 9.999402e-001 -3.222989e-001
18899070 9.993188e-001 -3.328382e-001 6.762224e-005 -1.543795e+002 2.499739e-004 1.410566e+002 9.994336e-001 -2.728035e-001
19199055 1.000165e+000 -3.199120e-001 3.393785e-005 9.706830e+001 2.279074e-004 -7.114239e+001 9.995037e-001 -2.830741e-001
19499040 9.996042e-001 -3.156072e-001 2.059234e-005 -1.476344e+002 1.954276e-004 8.481844e+001 1.000586e+000 -2.961711e-001
19799025 1.000870e+000 -3.010218e-001 5.719633e-005 -1.572850e+002 2.849342e-004 1.789124e+002 9.998000e-001 -3.170723e-001
20099010 9.993435e-001 -2.847545e-001 8.323081e-005 -1.127975e+002 1.242953e-004 6.439620e+000 9.995572e-001 -3.861114e-001
20398995 9.998273e-001 -3.304766e-001 2.362225e-005 1.796457e+002 1.930877e-004 1.560123e+002 1.000044e+000 -2.854760e-001
20698980 9.996716e-001 -3.399548e-001 4.377757e-006 -6.501395e+001 1.747939e-004 -1.795374e+001 9.994837e-001 -3.214862e-001
20998965 9.993198e-001 -2.977903e-001 7.621392e-005 -1.446619e+002 1.597514e-004 1.002504e+002 9.997635e-001 -3.524332e-001
21298950 9.993513e-001 -3.084054e-001 1.137498e-004 -1.604290e+002 7.654676e-005 -3.817646e+001 9.992957e-001 -3.108177e-001
21598935 9.991652e-001 -3.390859e-001 5.182521e-005 -1.173202e+002 7.806455e-005 1.262682e+002 1.000278e+000 -3.141099e-001
21898920 9.990591e-001 -3.743236e-001 5.027849e-005 -1.756703e+002 1.086221e-004 -2.404274e+001 9.992785e-001 -3.302057e-001
22198905 9.995825e-001 -3.565406e-001 6.735811e-005 2.393838e+001 2.452985e-004 3.487677e+001 9.986379e-001 -3.356996e-001
22498890 9.994990e-001 -3.506079e-001 3.805009e-005 1.928141e+001 1.462743e-004 1.667059e+002 1.000790e+000 -3.439639e-001
22798875 9.998237e-001 -3.069676e-001 9.969069e-006 -1.629541e+001 1.970611e-004 9.450772e+001 1.000003e+000 -4.127100e-001
23098860 9.995284e-001 -3.402877e-001 3.927894e-005 2.113464e+001 2.954610e-004 1.687820e+002 1.002537e+000 -3.608758e-001
23398845 9.995863e-001 -3.245512e-001 6.118599e-005 -1.135867e+002 1.345906e-004 -2.794137e+001 9.992623e-001 -3.618308e-001
23698830 9.999544e-001 -3.612160e-001 1.066140e-004 -2.414875e+001 3.946077e-005 1.246206e+002 9.997174e-001 -2.877516e-001
23998815 9.995047e-001 -3.707965e-001 4.654219e-005 8.017310e+001 2.477466e-004 -6.487231e+001 9.984667e-001 -3.616804e-001
24298800 9.995922e-001 -4.196629e-001 3.486803e-005 4.475755e+001 1.863092e-004 1.127751e+002 9.981538e-001 -4.020780e-001
24598785 9.996238e-001 -3.666926e-001 5.056131e-006 -4.432735e+001 8.723384e-005 -7.066280e+001 9.998094e-001 -3.678674e-001
24898770 9.991192e-001 -4.151805e-001 3.111688e-005 8.873897e+001 2.062526e-004 3.763159e+000 1.001153e+000 -4.054666e-001
25198755 9.997634e-001 -4.088169e-001 2.434046e-005 6.245519e+001 1.545073e-005 1.290265e+002 1.000615e+000 -3.833577e-001
25498740 9.995475e-001 -3.798034e-001 5.614512e-005 2.447409e+001 1.965881e-004 -6.423830e+001 9.993650e-001 -4.288211e-001
25798725 9.998628e-001 -4.231252e-001 1.321010e-004 1.147359e+002 3.322602e-004 1.071877e+002 1.000402e+000 -4.521303e-001
26098710 9.995634e-001 -3.692879e-001 6.407851e-005 6.715557e+001 2.396777e-004 -6.898448e+001 9.990648e-001 -4.068489e-001
26398695 1.000052e+000 -3.759146e-001 5.573165e-005 8.502788e+001 2.839303e-004 9.865968e+001 1.001268e+000 -4.523600e-001
26698680 1.000465e+000 -4.061088e-001 8.051698e-005 3.485511e+001 2.248482e-004 -6.132969e+001 1.001426e+000 -4.537311e-001
26998665 9.995377e-001 -3.783735e-001 5.046962e-005 1.089292e+002 1.245576e-004 1.182971e+002 9.998176e-001 -3.604656e-001
27298650 9.998949e-001 -3.898095e-001 7.704512e-005 -7.450653e+001 1.883329e-004 -8.812013e+001 9.996254e-001 -4.936862e-001
27598635 9.998794e-001 -3.667610e-001 1.067718e-004 1.171921e+002 1.784017e-004 9.425851e+001 1.000470e+000 -4.472042e-001
27898620 9.993028e-001 -3.912008e-001 9.862686e-005 6.350673e+001 2.711385e-004 -9.484357e+001 1.002059e+000 -4.085836e-001
28198605 9.999381e-001 -4.054673e-001 8.477138e-005 1.783084e+001 2.522455e-004 9.477452e+000 1.000747e+000 -4.485930e-001
28498590 9.992569e-001 -4.176871e-001 3.082532e-005 -6.390048e+001 2.863746e-004 1.606178e+002 1.000328e+000 -4.317470e-001
28798575 9.986787e-001 -4.564391e-001 9.768011e-005 -1.585085e+002 4.641774e-004 -7.862237e+001 9.998268e-001 -5.053779e-001
29098560 9.991238e-001 -4.446436e-001 8.005926e-005 1.265015e+002 1.464038e-004 5.752916e+001 9.998021e-001 -4.773729e-001
29398545 9.991198e-001 -4.169834e-001 4.360043e-005 -6.019262e+001 6.310374e-005 -6.589127e+001 1.000337e+000 -3.963455e-001
29698530 9.994914e-001 -3.991940e-001 3.694240e-005 7.397517e+001 1.924000e-004 1.135686e+002 1.001237e+000 -4.178505e-001
29998515 1.000049e+000 -4.172623e-001 9.300507e-005 -1.073280e+002 2.109462e-004 -1.157302e+002 1.001044e+000 -4.755343e-001
30298500 9.997892e-001 -4.182138e-001 7.302534e-005 -3.202734e+001 3.277815e-005 -4.333993e+001 1.001951e+000 -4.912284e-001
30598485 9.996732e-001 -4.265780e-001 1.239149e-004 7.713664e+001 4.707734e-005 -1.485966e+002 1.000263e+000 -4.506964e-001
30898470 9.997457e-001 -3.641758e-001 6.197242e-005 -1.001213e+002 2.485932e-004 -3.398774e+001 1.000258e+000 -5.742342e-001
31198455 1.000171e+000 -4.375783e-001 2.509569e-005 1.480807e+002 2.181919e-004 4.574732e+001 1.000570e+000 -5.020934e-001
31498440 1.000028e+000 -4.307336e-001 8.639372e-005 -7.689034e+001 1.592814e-004 -5.056895e+001 1.000933e+000 -4.351925e-001
31798425 9.999529e-001 -5.008290e-001 8.852946e-005 -1.313600e+002 1.736616e-004 3.723713e+001 1.001203e+000 -4.800547e-001
32098410 9.994093e-001 -4.514387e-001 5.077184e-005 -1.372999e+002 3.009388e-004 1.241105e+002 1.001943e+000 -3.803678e-001
32398395 1.000043e+000 -4.880404e-001 5.308880e-005 1.485925e+002 3.563806e-004 -2.144417e+001 1.001020e+000 -4.387747e-001
32698380 1.000289e+000 -4.818370e-001 1.150915e-004 -1.902551e+001 1.240659e-004 9.830064e+001 1.001518e+000 -4.688693e-001
32998365 1.000179e+000 -4.532820e-001 4.625830e-005 1.759200e+002 5.457267e-005 -3.419382e+001 9.998620e-001 -4.198280e-001
33298350 1.000276e+000 -4.747103e-001 1.294754e-004 -1.342483e+002 1.704300e-004 -1.315128e+002 1.000545e+000 -5.216141e-001
33598335 9.993107e-001 -4.919951e-001 1.626979e-005 -1.384624e+002 1.453418e-004 -1.072780e+002 9.998349e-001 -4.679595e-001
33898320 9.994357e-001 -4.813479e-001 9.271697e-005 1.741375e+002 3.171954e-004 1.157176e+002 1.001259e+000 -4.666861e-001
34198305 9.992236e-001 -5.092156e-001 6.812158e-005 2.145474e+001 2.504814e-004 -6.218443e+001 9.995401e-001 -4.572947e-001
34498290 9.993981e-001 -5.283223e-001 4.082721e-005 -8.575240e+001 1.771347e-004 7.095865e+001 9.995859e-001 -4.268338e-001
34798275 9.988837e-001 -4.907379e-001 3.831778e-005 -1.533386e+002 4.177805e-005 6.483730e+001 9.993052e-001 -5.285560e-001
35098260 9.991708e-001 -5.407437e-001 7.503166e-005 2.601006e+001 2.324882e-004 3.669462e+001 1.000152e+000 -4.532973e-001
35398245 9.998928e-001 -5.898362e-001 1.446235e-004 3.765897e+001 9.546339e-005 1.368770e+002 1.000868e+000 -5.273781e-001
35698230 1.000096e+000 -5.215649e-001 1.030175e-004 5.730897e+001 1.986978e-004 6.740872e+000 1.002104e+000 -5.069128e-001
35998215 9.992102e-001 -5.753323e-001 3.567971e-005 8.667772e+000 1.392047e-004 1.788233e+002 1.001213e+000 -5.180925e-001
36298200 9.995683e-001 -5.296374e-001 2.621561e-005 4.532393e+001 1.077589e-004 4.406940e+000 1.000788e+000 -5.439985e-001
36598185 1.000314e+000 -5.669810e-001 9.554400e-005 -1.654692e+002 3.719785e-005 -1.300005e+002 1.000504e+000 -5.597598e-001
36898170 9.999789e-001 -5.474910e-001 8.585824e-005 1.361218e+002 2.360614e-004 -4.315991e+001 9.998046e-001 -5.448620e-001
37198155 1.000382e+000 -5.469181e-001 9.164376e-005 3.821305e+001 1.282339e-004 -1.564137e+002 1.000367e+000 -5.447291e-001
37498140 1.000943e+000 -5.112007e-001 1.256614e-004 1.489509e+001 7.471148e-005 1.745979e+002 1.000398e+000 -5.635564e-001
37798125 9.991438e-001 -5.326357e-001 7.929249e-005 -2.388763e+001 4.053587e-005 6.329424e+001 1.000920e+000 -5.272551e-001
38098110 9.996385e-001 -5.502451e-001 6.382350e-005 8.403328e+001 1.385277e-004 -8.486763e+001 9.995754e-001 -5.483004e-001
38398095 9.991599e-001 -5.516239e-001 3.256337e-005 -7.145620e+000 1.206774e-004 9.373117e+001 9.996120e-001 -6.529632e-001
38698080 9.998124e-001 -5.519367e-001 5.525067e-005 -9.367975e+001 2.092364e-004 -1.047598e+002 9.995627e-001 -5.957655e-001
38998065 9.997996e-001 -5.462804e-001 1.100528e-004 1.502370e+002 2.474245e-004 3.226793e+000 9.998311e-001 -5.670989e-001
39298050 1.000022e+000 -5.459449e-001 6.742652e-005 8.879271e+001 2.519850e-004 1.760218e+002 1.000712e+000 -5.224311e-001
39598035 9.997642e-001 -5.271180e-001 2.404895e-005 1.427155e+002 1.016393e-004 4.872215e+001 1.000706e+000 -5.045594e-001
39898020 1.000623e+000 -5.549118e-001 1.136380e-004 -6.590967e+001 7.734658e-005 1.241377e+002 1.002481e+000 -4.706745e-001
40198005 1.000579e+000 -6.040569e-001 1.748030e-004 -1.117121e+002 1.274627e-004 3.941064e+001 1.000923e+000 -6.615254e-001
40497990 9.996071e-001 -5.615649e-001 6.343976e-005 5.509342e+001 1.660475e-004 9.632098e+001 1.002344e+000 -6.599315e-001
40797975 1.000047e+000 -6.053981e-001 9.541622e-005 1.154908e+002 2.237921e-004 1.564996e+002 1.001198e+000 -6.542953e-001
41097960 9.992272e-001 -5.532343e-001 2.001444e-004 1.443402e+002 1.177325e-004 4.242001e+001 1.001022e+000 -5.843703e-001
41397945 9.990114e-001 -5.172681e-001 1.592149e-004 1.466694e+002 1.586518e-004 2.899238e+001 1.001121e+000 -5.468355e-001
41697930 9.990537e-001 -5.592291e-001 8.408509e-005 -1.658186e+002 3.894215e-004 -5.466768e+001 1.002462e+000 -5.406077e-001
41997915 9.991503e-001 -5.114061e-001 1.431785e-004 -1.329973e+002 1.650320e-004 -3.043738e+001 1.001401e+000 -5.624208e-001
42297900 9.999591e-001 -5.773783e-001 8.061362e-005 -1.291122e+002 1.031983e-004 -1.649122e+002 1.000098e+000 -5.850589e-001
42597885 9.999712e-001 -5.675150e-001 2.091798e-005 -9.691994e+001 1.496362e-004 9.193475e+001 1.001402e+000 -5.702747e-001
42897870 9.990052e-001 -5.767322e-001 5.654807e-005 1.214214e+002 2.583812e-004 -1.348860e+001 1.001838e+000 -6.016656e-001
43197855 1.001559e+000 -5.606048e-001 1.098103e-004 1.666589e+002 2.724022e-004 1.131869e+002 1.000171e+000 -7.335907e-001
43497840 9.999136e-001 -5.815834e-001 1.185524e-004 1.368246e+002 2.524285e-004 1.290435e+002 1.001201e+000 -6.275260e-001
43797825 1.000079e+000 -5.598294e-001 1.352925e-004 1.674156e+002 1.550372e-004 1.843193e+001 1.000188e+000 -6.158858e-001
44097810 1.001384e+000 -6.132132e-001 1.550498e-004 -7.872449e+001 3.041704e-004 -1.027451e+002 1.000504e+000 -6.497836e-001
44397795 1.000377e+000 -6.206691e-001 9.067241e-005 -1.222930e+002 2.124758e-004 -1.321596e+002 1.001227e+000 -6.649257e-001
44697780 9.998870e-001 -6.611120e-001 1.183635e-004 -8.088345e+001 3.470294e-004 1.239747e+002 1.001390e+000 -6.969362e-001
44997765 1.001358e+000 -6.506956e-001 4.722115e-005 1.202576e+002 9.432771e-005 -1.151059e+002 1.002677e+000 -6.808150e-001
45297750 1.000705e+000 -6.675339e-001 7.377438e-005 1.530031e+002 2.833387e-004 1.723889e+002 1.003742e+000 -6.502115e-001
45597735 1.000998e+000 -6.824439e-001 1.384186e-004 -1.057645e+002 2.917240e-004 1.558704e+002 1.001730e+000 -6.785747e-001
45897720 1.000288e+000 -6.565922e-001 4.876483e-005 -1.059700e+002 3.497273e-005 -1.701427e+002 1.003558e+000 -7.146108e-001
46197705 1.000720e+000 -5.992040e-001 9.057135e-005 -7.290403e+001 2.362903e-004 4.719815e+001 1.003233e+000 -6.397286e-001
46497690 1.000799e+000 -6.168311e-001 7.682886e-005 -5.411860e+001 2.533003e-004 -1.494847e+002 1.002114e+000 -7.637284e-001
46797675 1.000559e+000 -6.291106e-001 1.541212e-004 1.439921e+002 1.156111e-004 -1.532959e+002 1.002550e+000 -6.218067e-001
47097660 1.000584e+000 -7.000630e-001 3.952501e-005 -1.268113e+002 2.527116e-004 -4.180705e+001 1.001146e+000 -8.171188e-001
47397645 1.000317e+000 -7.038707e-001 7.974561e-005 -1.047539e+002 2.105842e-004 1.656205e+002 1.000027e+000 -8.049545e-001
