!Agilent Technologies,N5230C,SG49000117,A.08.50.07
!Agilent N5230C: A.08.50.07
!Date: Thursday, May 16, 2024 17:46:01
!Correction: S11(Full 2 Port(1,2)) 
!S21(Full 2 Port(1,2)) 
!S12(Full 2 Port(1,2)) 
!S22(Full 2 Port(1,2)) 
!S2P File: Measurements: S11, S21, S12, S22:
# Hz S  MA   R 50
300000 1.007819e+000 -5.226724e-001 1.585748e-004 4.939325e+001 3.024517e-004 -4.977258e+001 1.010953e+000 -6.405329e-001
599985 9.829583e-001 2.896334e-001 4.922965e-005 7.726553e+001 2.923410e-004 -1.170619e+002 9.660175e-001 3.905608e-001
899970 9.962931e-001 -1.225750e-001 4.972119e-005 1.161020e+002 9.758688e-005 -1.154415e+002 9.853895e-001 -3.772613e-001
1199955 9.978482e-001 -7.971381e-002 5.647885e-005 1.267797e+002 2.402808e-004 9.868610e+001 9.959757e-001 -1.727521e-001
1499940 9.936938e-001 1.204915e-001 3.605612e-005 1.617480e+002 5.642941e-005 -7.856348e+001 9.935009e-001 7.472905e-002
1799925 9.913458e-001 1.867671e-001 6.401304e-005 -9.374361e+001 4.638554e-005 -1.601380e+002 9.901041e-001 4.233331e-002
2099910 9.989821e-001 -6.938726e-002 4.276168e-005 1.276005e+002 1.859155e-004 2.017016e+001 9.975538e-001 6.530122e-002
2399895 9.990488e-001 -1.952616e-001 1.500922e-004 9.623994e+001 2.439824e-004 8.730360e+001 1.003139e+000 -4.966390e-002
2699880 9.993569e-001 -2.941680e-001 5.316743e-005 9.198306e+000 2.518660e-004 -1.115464e+002 9.957530e-001 -2.041376e-001
2999865 9.999117e-001 -1.777420e-001 1.144882e-004 -1.180546e+002 9.869114e-005 -9.739362e+001 9.988258e-001 -1.946298e-001
3299850 9.997965e-001 -2.037922e-001 1.186854e-004 -1.620442e+002 6.273718e-005 -2.824142e-001 9.983893e-001 -2.231622e-001
3599835 9.999136e-001 -1.886420e-001 9.314581e-005 -1.299095e+002 1.216732e-004 8.157699e+001 9.985616e-001 -2.009194e-001
3899820 9.991671e-001 -2.025344e-001 5.523068e-005 -1.258719e+002 6.035788e-005 -1.438257e+002 9.998777e-001 -1.341229e-001
4199805 1.000242e+000 -2.505770e-001 1.114532e-004 -1.839380e+001 1.313539e-004 1.311813e+002 1.000586e+000 -2.324953e-001
4499790 1.000383e+000 -2.141969e-001 7.246584e-005 1.132626e+002 2.163945e-004 1.646572e+002 1.000310e+000 -1.957097e-001
4799775 9.997664e-001 -1.985188e-001 1.245745e-004 3.215659e+001 1.186403e-004 -1.318892e+002 1.000192e+000 -1.850140e-001
5099760 1.000447e+000 -2.013439e-001 3.234989e-005 -9.927616e+001 4.504390e-005 -1.585632e+002 1.001190e+000 -1.578380e-001
5399745 1.000293e+000 -2.028927e-001 1.438037e-004 1.085360e+002 9.851766e-005 -1.150728e+002 1.000993e+000 -6.166089e-002
5699730 9.998696e-001 -2.323936e-001 4.320374e-005 -1.349968e+002 2.587304e-004 7.697577e+001 1.000726e+000 -1.510952e-001
5999715 9.986923e-001 -1.709598e-001 3.718794e-005 -1.497555e+002 2.089756e-004 2.745964e+001 1.000436e+000 -1.460915e-001
6299700 9.989929e-001 -2.276653e-001 1.170191e-004 -7.876528e+001 5.096453e-005 -3.039201e+001 1.000018e+000 -2.264019e-001
6599685 9.993452e-001 -2.032103e-001 8.950687e-005 -1.558297e+001 7.513424e-005 -5.791275e+001 1.000168e+000 -1.699395e-001
6899670 9.996002e-001 -2.408713e-001 2.749676e-005 -8.864678e+001 2.604461e-004 1.789067e+002 1.000817e+000 -2.097875e-001
7199655 9.999346e-001 -2.504488e-001 5.116263e-005 1.673899e+001 6.951847e-005 1.697913e+002 1.000231e+000 -2.407318e-001
7499640 9.996514e-001 -2.914447e-001 6.224698e-005 9.203792e+001 2.901065e-004 1.380567e+002 1.000409e+000 -2.765404e-001
7799625 1.000011e+000 -2.509152e-001 5.865762e-005 -1.609231e+002 1.870301e-004 1.283447e+001 9.998864e-001 -2.095874e-001
8099610 1.000092e+000 -2.326276e-001 1.138081e-005 -6.660608e+001 1.033890e-004 -1.491311e+002 9.993332e-001 -2.608491e-001
8399595 9.994683e-001 -2.428209e-001 7.728693e-005 -1.261183e+002 1.404854e-004 1.498001e+002 9.996124e-001 -2.868215e-001
8699580 9.995307e-001 -2.864217e-001 4.133810e-005 3.853154e+001 9.243814e-005 -1.071765e+002 9.995716e-001 -2.502020e-001
8999565 1.000071e+000 -2.605119e-001 2.593575e-005 -4.396714e+001 1.049329e-004 1.712838e+002 1.000741e+000 -2.548278e-001
9299550 9.999889e-001 -2.451278e-001 2.689081e-005 -4.491263e+001 1.212765e-004 5.635778e+001 9.993833e-001 -1.966864e-001
9599535 9.995624e-001 -2.918498e-001 5.610715e-005 -9.578213e+001 1.865653e-004 -1.576551e+002 9.988701e-001 -3.466110e-001
9899520 1.000031e+000 -3.591455e-001 4.953035e-005 -1.241976e+002 2.135649e-005 -5.913842e+001 9.969274e-001 -4.996521e-001
10199505 9.997637e-001 -2.842160e-001 9.549987e-005 -1.779653e+002 8.538453e-005 -8.906264e+001 9.998115e-001 -2.925281e-001
10499490 1.000065e+000 -3.052646e-001 5.433370e-005 -5.391493e+001 1.863079e-004 -1.244096e+002 1.000241e+000 -2.136208e-001
10799475 9.995966e-001 -2.600472e-001 7.410884e-005 4.934059e+000 4.424951e-005 5.711033e+001 9.996275e-001 -2.175683e-001
11099460 9.992256e-001 -2.705330e-001 4.493972e-005 -6.568180e+001 2.103584e-004 1.412059e+001 9.992658e-001 -2.188535e-001
11399445 1.000299e+000 -3.087015e-001 7.244929e-005 1.806567e+001 2.167825e-004 -2.883610e+001 1.000067e+000 -2.115844e-001
11699430 9.994107e-001 -3.006407e-001 4.754727e-005 -7.975797e+001 1.057058e-004 -1.373253e+002 1.001025e+000 -2.286165e-001
11999415 9.999276e-001 -2.970919e-001 4.000953e-005 1.757484e+002 1.476694e-004 -4.113680e+001 1.001218e+000 -1.969045e-001
12299400 1.000140e+000 -2.998329e-001 5.126591e-005 -6.496397e+001 1.771144e-004 1.456121e+002 1.000015e+000 -1.320316e-001
12599385 9.997193e-001 -3.265446e-001 6.759736e-005 1.433190e+002 5.066816e-005 -1.564976e+001 1.000953e+000 -3.102427e-001
12899370 1.000346e+000 -3.667385e-001 9.744654e-005 1.508996e+002 1.398552e-004 1.353054e+002 9.996612e-001 -3.443331e-001
13199355 9.997367e-001 -3.786929e-001 1.229088e-004 8.301476e+001 2.442350e-004 1.311790e+002 9.992174e-001 -2.416776e-001
13499340 1.000204e+000 -3.676286e-001 6.058111e-005 1.766213e+002 2.334005e-004 1.002844e+002 9.997748e-001 -3.090309e-001
13799325 9.998476e-001 -3.845204e-001 1.186977e-004 -9.273986e+001 2.104408e-004 -1.386252e+002 9.993502e-001 -2.510701e-001
14099310 9.993940e-001 -3.963156e-001 1.158856e-004 -4.711585e+001 1.914916e-005 5.443681e+000 1.000011e+000 -2.351193e-001
14399295 1.000240e+000 -4.099937e-001 6.002084e-005 -1.346056e+002 1.852403e-004 1.479664e+002 1.000631e+000 -2.734221e-001
14699280 9.994619e-001 -3.800351e-001 1.993489e-004 -4.199581e+001 1.916422e-004 -1.215600e+001 1.000873e+000 -2.214639e-001
14999265 9.991199e-001 -4.129237e-001 1.514629e-004 -5.175117e+001 2.683547e-004 1.156604e+002 1.000027e+000 -2.883947e-001
15299250 9.995354e-001 -3.654094e-001 1.012288e-004 1.486770e+002 2.415278e-004 2.254570e+001 9.997199e-001 -2.890849e-001
15599235 1.000081e+000 -3.659236e-001 5.815213e-005 -7.045467e+001 1.751004e-004 9.649839e+001 1.000561e+000 -2.681760e-001
15899220 9.995135e-001 -3.866575e-001 8.504291e-005 -8.958976e+001 2.176448e-004 -7.974590e+001 1.001394e+000 -2.475796e-001
16199205 1.000197e+000 -3.997782e-001 9.135859e-005 1.693053e+002 1.756169e-004 5.705482e+001 1.000998e+000 -2.449431e-001
16499190 9.995356e-001 -4.056281e-001 7.412642e-005 -7.350683e+001 4.226809e-005 -1.568854e+002 1.002683e+000 -2.762350e-001
16799175 9.992461e-001 -4.288087e-001 5.719668e-005 -2.061682e+001 1.661480e-004 4.037132e+001 1.001773e+000 -3.189462e-001
17099160 1.000036e+000 -4.548657e-001 1.539748e-004 -1.249829e+002 2.884369e-004 1.652265e+002 1.001106e+000 -2.467296e-001
17399145 9.995823e-001 -4.661726e-001 3.128297e-005 1.284151e+001 2.346829e-004 -1.204183e+002 1.000823e+000 -3.752030e-001
17699130 1.000174e+000 -4.738540e-001 7.312685e-005 1.266409e+002 2.849422e-004 1.182982e+002 1.000571e+000 -3.153159e-001
17999115 9.992727e-001 -4.437484e-001 5.626453e-005 -6.162971e+001 1.417400e-004 3.499443e+001 9.994239e-001 -3.615374e-001
18299100 1.000270e+000 -4.390340e-001 1.343507e-004 -1.209711e+002 1.210193e-004 1.067978e+002 1.001065e+000 -3.621247e-001
18599085 9.996179e-001 -4.389142e-001 3.406847e-005 -1.374500e+002 5.390431e-005 -7.311804e+001 9.989007e-001 -3.617931e-001
18899070 1.000064e+000 -5.209953e-001 5.967516e-005 8.050834e+001 2.687511e-004 8.121210e-001 9.994937e-001 -2.433913e-001
19199055 9.993839e-001 -4.727852e-001 3.823818e-005 1.510098e+002 2.199788e-004 -9.134757e+001 1.000996e+000 -2.845880e-001
19499040 1.000167e+000 -4.706652e-001 9.269308e-005 1.187663e+002 7.195247e-005 -5.826136e+001 9.994370e-001 -3.084750e-001
19799025 9.996501e-001 -4.584771e-001 2.537777e-005 6.299554e+001 1.259912e-004 1.788829e+002 9.990201e-001 -3.114782e-001
20099010 9.999120e-001 -4.582696e-001 3.321271e-005 1.161429e+002 1.383676e-004 -9.577213e+001 9.995944e-001 -3.530566e-001
20398995 9.996016e-001 -4.819192e-001 8.847866e-005 -3.476747e+001 2.186570e-004 -9.777211e+001 9.996807e-001 -3.794386e-001
20698980 9.995440e-001 -4.826191e-001 4.023209e-005 2.403452e+001 2.166781e-004 4.696080e+001 9.994575e-001 -3.658866e-001
20998965 9.990512e-001 -5.139294e-001 8.490973e-005 -5.205765e+001 3.636692e-004 1.522627e+002 9.991332e-001 -2.368201e-001
21298950 9.991183e-001 -5.094939e-001 4.753637e-005 4.268853e+001 1.638297e-004 -4.764337e+001 1.001237e+000 -3.199498e-001
21598935 1.000212e+000 -5.363583e-001 4.088929e-005 4.414386e+001 1.696475e-004 1.450629e+002 9.996482e-001 -2.637192e-001
21898920 9.992869e-001 -5.619370e-001 1.649676e-004 -6.673867e+001 1.252785e-004 1.467253e+002 9.995192e-001 -3.675452e-001
22198905 9.989761e-001 -5.313941e-001 6.649797e-005 1.509402e+001 1.521219e-004 9.021097e+001 9.988954e-001 -3.114254e-001
22498890 9.999700e-001 -5.640041e-001 7.079491e-005 -5.408109e+001 5.151014e-004 1.188348e+002 1.000740e+000 -3.543907e-001
22798875 9.998413e-001 -5.329418e-001 3.963873e-005 -8.274458e+001 2.179148e-004 -6.031493e+001 1.000854e+000 -3.401601e-001
23098860 1.000104e+000 -5.480266e-001 6.374872e-005 4.018147e+001 2.624045e-004 1.113376e+002 1.000768e+000 -3.648015e-001
23398845 9.997695e-001 -5.798233e-001 8.683567e-005 1.776513e+002 1.829833e-004 1.668685e+002 1.000729e+000 -3.287771e-001
23698830 1.000169e+000 -5.636863e-001 2.575332e-005 -4.293438e+001 2.995730e-004 1.460067e+002 1.000472e+000 -3.631212e-001
23998815 9.992371e-001 -5.700877e-001 1.003318e-004 -7.640942e+001 2.335555e-004 -6.480277e+001 9.988559e-001 -3.938499e-001
24298800 9.996056e-001 -5.972436e-001 7.827242e-005 -1.354872e+002 4.177262e-005 -4.284035e+001 9.995402e-001 -3.501741e-001
24598785 9.992566e-001 -5.706851e-001 1.433416e-004 -5.318804e+001 2.222688e-004 -6.555419e+001 9.996429e-001 -3.698289e-001
24898770 9.988549e-001 -6.122280e-001 4.519343e-005 -1.626227e+002 2.850833e-004 5.347142e+001 1.000135e+000 -4.128686e-001
25198755 9.994500e-001 -6.051382e-001 9.432364e-005 -8.620199e+001 2.412568e-004 -1.688425e+002 1.000452e+000 -4.151901e-001
25498740 9.994581e-001 -6.126618e-001 1.531751e-004 6.272707e+000 1.048561e-004 1.696653e+001 9.991059e-001 -3.847298e-001
25798725 9.998043e-001 -6.105133e-001 5.900784e-005 1.560688e+002 2.456601e-004 -1.637386e+002 1.000293e+000 -4.938719e-001
26098710 9.993103e-001 -6.187860e-001 4.781897e-005 7.675314e+001 3.006207e-004 -3.054431e+001 1.000615e+000 -3.988951e-001
26398695 1.000798e+000 -6.257082e-001 1.115010e-004 -1.004186e+002 1.316284e-004 1.394519e+002 1.001363e+000 -4.496942e-001
26698680 1.000130e+000 -6.219211e-001 9.026720e-005 6.264864e+001 1.224564e-004 -8.389909e+001 1.002214e+000 -4.672071e-001
26998665 9.999504e-001 -6.212987e-001 1.098350e-005 2.301536e+001 1.442210e-004 1.232703e+002 9.995125e-001 -4.226401e-001
27298650 1.000017e+000 -5.890579e-001 2.427000e-005 9.266115e+000 2.016823e-004 -8.040132e+001 1.000727e+000 -3.852946e-001
27598635 9.992503e-001 -6.333897e-001 1.232695e-004 -1.519574e+002 1.915684e-004 7.548235e+001 1.000986e+000 -4.310417e-001
27898620 9.988315e-001 -6.179850e-001 1.157904e-004 3.884691e+001 2.089044e-004 -1.413039e+002 1.001822e+000 -4.221817e-001
28198605 9.991370e-001 -6.302574e-001 4.062715e-005 6.819025e+001 6.323662e-005 1.175202e+002 1.001142e+000 -4.652556e-001
28498590 9.997016e-001 -6.870568e-001 4.686089e-005 -1.008659e+002 2.573759e-004 -1.763004e+002 9.998012e-001 -4.636506e-001
28798575 9.989966e-001 -7.103885e-001 2.113859e-005 6.921824e+001 1.575873e-004 -2.284701e+001 9.996667e-001 -4.673212e-001
29098560 9.997919e-001 -7.029375e-001 4.639812e-005 -2.031526e+001 2.535270e-004 1.690124e+002 1.000920e+000 -4.645601e-001
29398545 9.997595e-001 -6.133295e-001 9.295841e-005 -8.796317e+001 1.739483e-004 -3.648775e+001 1.001774e+000 -4.749945e-001
29698530 9.997788e-001 -6.693435e-001 8.784188e-005 -8.756429e+001 1.040885e-004 -1.314156e+002 1.001261e+000 -4.139219e-001
29998515 9.992310e-001 -6.924571e-001 6.156508e-005 2.209510e+001 1.578692e-004 -3.920916e+001 1.001918e+000 -4.734603e-001
30298500 1.000020e+000 -6.779245e-001 1.501026e-004 -9.462231e+001 1.790330e-004 4.952922e+001 1.001861e+000 -5.369896e-001
30598485 1.000323e+000 -6.512233e-001 9.290566e-005 -3.762172e+001 4.732568e-005 1.709091e+002 1.001556e+000 -4.476627e-001
30898470 9.995876e-001 -6.589553e-001 6.876965e-005 -9.954788e+001 6.843276e-005 -2.210670e+001 9.994806e-001 -4.774373e-001
31198455 9.999726e-001 -7.196589e-001 2.741909e-005 -6.166834e+000 5.460582e-005 8.398779e+001 1.000942e+000 -4.852918e-001
31498440 1.000168e+000 -7.187806e-001 1.751210e-004 1.444868e+002 2.169557e-004 3.977206e+001 1.000298e+000 -4.498165e-001
31798425 9.999238e-001 -7.746233e-001 8.396086e-005 6.654338e+001 7.982598e-005 1.553207e+002 1.001339e+000 -4.329194e-001
32098410 1.000150e+000 -7.482191e-001 8.149063e-005 -1.557603e+002 1.741585e-004 -2.037723e+001 1.001502e+000 -3.977886e-001
32398395 1.000066e+000 -7.530472e-001 3.746145e-005 7.444683e+000 1.035203e-004 4.115363e+001 1.001323e+000 -4.501843e-001
32698380 1.001107e+000 -7.603253e-001 9.299580e-005 1.675489e+002 1.881952e-004 4.053661e+001 1.000744e+000 -4.079276e-001
32998365 9.999943e-001 -7.654105e-001 7.188859e-005 -9.390388e+000 9.163802e-005 6.234867e+001 1.001165e+000 -5.104633e-001
33298350 1.000378e+000 -7.413153e-001 1.305702e-004 1.578394e+002 1.941209e-004 1.720338e+001 1.001561e+000 -4.862243e-001
33598335 9.992290e-001 -7.436188e-001 5.085429e-005 -1.260347e+002 1.176682e-004 3.506815e+001 1.000920e+000 -4.644956e-001
33898320 9.999186e-001 -8.196275e-001 8.060008e-005 8.294616e+001 1.646057e-004 -8.311639e+001 1.000484e+000 -4.981039e-001
34198305 9.990852e-001 -7.865449e-001 7.173636e-005 2.752817e+001 1.333521e-004 7.648417e+001 9.999524e-001 -5.222383e-001
34498290 9.993575e-001 -8.387039e-001 1.039669e-004 -2.841603e+001 2.559065e-004 -3.486840e+001 9.997225e-001 -4.811845e-001
34798275 9.991173e-001 -8.018144e-001 1.435419e-004 -1.657094e+002 3.422257e-004 8.760014e+001 9.994154e-001 -5.216385e-001
35098260 9.989842e-001 -8.400162e-001 5.374738e-005 4.261571e+001 1.789513e-004 -1.198770e+002 9.999376e-001 -4.744000e-001
35398245 1.000573e+000 -8.372468e-001 1.107528e-004 1.424303e+001 1.979252e-004 -4.050932e+001 1.000672e+000 -4.687304e-001
35698230 9.990249e-001 -8.756248e-001 5.342209e-005 -1.716132e+002 6.972581e-005 1.150575e+002 1.001317e+000 -5.177771e-001
35998215 9.993132e-001 -8.535914e-001 1.471003e-004 1.190214e+002 7.695068e-005 -7.477345e+000 1.000314e+000 -5.338994e-001
36298200 9.991741e-001 -8.519011e-001 1.471349e-005 -1.247109e+002 1.118671e-004 2.744491e+001 1.000803e+000 -5.850965e-001
36598185 1.000178e+000 -8.866587e-001 5.914253e-005 5.284623e+001 1.244749e-004 -1.401090e+002 1.001025e+000 -5.511792e-001
36898170 1.000138e+000 -8.487883e-001 8.293815e-005 -1.535237e+002 2.525226e-004 9.321706e+001 9.996823e-001 -5.257709e-001
37198155 9.998628e-001 -8.483534e-001 7.403426e-005 1.992302e+000 1.173330e-004 -1.680553e+002 9.999911e-001 -5.379665e-001
37498140 9.995301e-001 -8.373501e-001 9.650743e-005 -1.249970e+002 8.965459e-005 -8.805511e+001 1.001239e+000 -5.197456e-001
37798125 9.991987e-001 -8.587118e-001 9.819934e-005 -1.320229e+002 1.479647e-005 3.791573e+001 1.000886e+000 -5.747811e-001
38098110 9.999086e-001 -8.412439e-001 9.806514e-005 1.612366e+002 1.497932e-004 3.069639e+001 1.001216e+000 -5.821635e-001
38398095 9.993944e-001 -8.687509e-001 1.961795e-005 -1.488671e+002 1.001318e-004 1.153351e+002 9.999497e-001 -6.535885e-001
38698080 9.996526e-001 -8.796895e-001 2.352363e-005 -1.105228e+002 1.175076e-004 1.094123e+002 9.999045e-001 -6.257213e-001
38998065 9.996713e-001 -8.576745e-001 7.485707e-005 -1.606147e+002 9.895194e-005 -2.800513e+000 1.000570e+000 -5.957004e-001
39298050 9.998166e-001 -8.684976e-001 5.184464e-005 5.937025e+001 1.664168e-004 -1.330459e+002 1.000413e+000 -5.727805e-001
39598035 1.000306e+000 -8.954892e-001 1.331686e-004 -1.095168e+002 2.577076e-004 6.879772e+001 1.001187e+000 -4.992096e-001
39898020 1.000695e+000 -8.328850e-001 6.937002e-005 1.157549e+002 9.316308e-005 -1.692902e+002 1.001792e+000 -4.534079e-001
40198005 9.998743e-001 -9.044057e-001 1.623102e-004 -9.244762e+001 2.844124e-004 7.503855e+001 1.002885e+000 -6.041415e-001
40497990 9.997436e-001 -9.261656e-001 1.605082e-004 -1.416604e+002 2.961392e-004 1.511350e+002 1.002487e+000 -6.575100e-001
40797975 1.000262e+000 -9.829445e-001 5.643397e-005 -2.186305e+001 3.059955e-004 3.240886e+001 1.001464e+000 -6.233702e-001
41097960 1.000144e+000 -9.481918e-001 1.203632e-004 -1.531978e+002 3.968362e-004 4.886157e+001 1.001513e+000 -6.454474e-001
41397945 9.996209e-001 -8.061216e-001 1.694090e-004 3.188467e+000 3.870853e-004 8.668088e+001 1.002618e+000 -5.596234e-001
41697930 9.996414e-001 -8.208598e-001 1.660336e-004 3.584412e+001 1.303850e-004 -1.553211e+002 1.001772e+000 -3.800885e-001
41997915 9.997740e-001 -9.487363e-001 3.492827e-004 -1.737463e+001 3.273557e-004 1.156166e+000 1.002600e+000 -5.309489e-001
42297900 9.997175e-001 -9.901755e-001 1.007478e-004 -5.319923e+001 5.724110e-005 1.787583e+002 1.001448e+000 -5.262647e-001
42597885 1.000372e+000 -9.415011e-001 1.085364e-004 -1.207500e+002 2.170481e-004 8.875132e+001 1.000749e+000 -6.474871e-001
42897870 1.000681e+000 -9.086607e-001 1.845407e-004 -1.634855e+002 2.949647e-004 -1.731654e+002 1.001683e+000 -5.683117e-001
43197855 1.000090e+000 -9.351021e-001 7.868804e-005 -3.535697e+001 3.479469e-004 -1.060700e+002 1.000861e+000 -6.090004e-001
43497840 9.997548e-001 -1.002474e+000 1.279046e-004 -1.033658e+002 1.983990e-004 -1.258415e+002 1.000031e+000 -7.126431e-001
43797825 9.997724e-001 -9.928793e-001 2.757443e-004 -1.318419e+001 1.828678e-004 3.953394e+001 1.001929e+000 -6.850435e-001
44097810 1.000795e+000 -9.905914e-001 1.045798e-004 -4.684298e+001 3.271582e-004 8.381297e+001 1.001324e+000 -6.944374e-001
44397795 1.001264e+000 -9.486531e-001 1.657444e-004 -3.907262e+001 6.957355e-005 9.160252e+001 1.002031e+000 -7.168136e-001
44697780 1.000901e+000 -9.618924e-001 1.166878e-004 1.316605e+002 1.192099e-004 4.921031e+001 1.003169e+000 -7.472134e-001
44997765 1.000318e+000 -1.053635e+000 2.118251e-004 1.701614e+002 1.718999e-004 2.679453e+001 1.001408e+000 -6.839942e-001
45297750 1.000901e+000 -1.106208e+000 9.572977e-005 1.658088e+002 1.317377e-004 -1.762259e+001 1.001909e+000 -7.498441e-001
45597735 1.001549e+000 -1.020404e+000 4.962779e-005 -7.635452e+001 4.392156e-004 3.229012e+001 1.002942e+000 -6.782207e-001
45897720 1.000112e+000 -1.146170e+000 7.627346e-005 1.733531e+002 4.141968e-004 -1.817456e+001 1.001340e+000 -6.394463e-001
46197705 1.001003e+000 -1.018321e+000 9.271350e-005 1.267343e+002 2.850078e-004 -1.783524e+002 1.002982e+000 -6.081548e-001
46497690 1.000729e+000 -1.061370e+000 8.187870e-005 1.637153e+002 2.619597e-004 -1.520931e+002 1.001819e+000 -7.227083e-001
46797675 1.000669e+000 -9.732623e-001 9.104791e-005 -2.510590e+001 3.276887e-005 -1.281889e+002 1.002105e+000 -6.851419e-001
47097660 1.000889e+000 -9.794053e-001 1.690024e-004 2.501301e+001 1.063857e-004 1.630773e+002 1.001488e+000 -8.382262e-001
