!Agilent Technologies,N5230C,SG49000117,A.08.50.07
!Agilent N5230C: A.08.50.07
!Date: Thursday, May 16, 2024 17:37:18
!Correction: S11(Full 2 Port(1,2)) 
!S21(Full 2 Port(1,2)) 
!S12(Full 2 Port(1,2)) 
!S22(Full 2 Port(1,2)) 
!S2P File: Measurements: S11, S21, S12, S22:
# Hz S  MA   R 50
300000 1.005867e+000 -6.512920e-001 7.779751e-005 -3.074876e+001 2.961424e-004 6.345693e+001 1.014913e+000 -7.492930e-001
599985 9.824844e-001 2.650535e-001 7.798346e-005 -1.294401e+002 6.931492e-005 1.116709e+002 9.656388e-001 4.260393e-001
899970 9.968238e-001 -1.437063e-001 2.075914e-005 -4.442870e+001 8.470818e-005 8.480220e+001 9.846754e-001 -3.953565e-001
1199955 9.973629e-001 -1.224173e-001 1.465689e-004 -1.107527e+002 8.207139e-005 1.769861e+002 9.947025e-001 -2.205398e-001
1499940 9.935524e-001 9.463499e-002 1.410036e-004 1.772115e+002 1.376596e-004 -8.783791e+000 9.927953e-001 5.716832e-002
1799925 9.915490e-001 1.852572e-001 5.688356e-005 8.223185e+001 1.458348e-004 -5.175903e+001 9.918264e-001 6.536706e-002
2099910 9.985664e-001 -4.974657e-002 3.637346e-005 -5.622611e+000 8.445657e-005 -6.720849e+001 9.985501e-001 3.322586e-002
2399895 9.985913e-001 -1.778663e-001 6.350075e-005 5.262515e+001 1.456906e-004 -1.474267e+002 1.002646e+000 -5.844440e-002
2699880 9.991033e-001 -2.773658e-001 7.458973e-005 -1.383807e+002 7.158230e-005 1.580381e+002 9.960857e-001 -2.483002e-001
2999865 9.998471e-001 -1.236639e-001 8.347158e-005 -2.882691e+001 7.623639e-005 5.080968e+001 9.988936e-001 -2.119095e-001
3299850 1.000095e+000 -1.455452e-001 1.098382e-005 1.535797e+001 2.358877e-004 1.630043e+002 9.982133e-001 -1.818997e-001
3599835 9.996808e-001 -1.636802e-001 8.507083e-005 1.664671e+002 7.605269e-005 -1.341927e+002 9.982293e-001 -1.775925e-001
3899820 9.992235e-001 -1.806715e-001 9.311191e-005 1.724176e+002 7.539587e-005 1.112984e+002 9.986209e-001 -1.464774e-001
4199805 1.000049e+000 -2.086797e-001 6.689574e-005 -6.952404e+001 2.252324e-004 3.472438e+001 1.000435e+000 -2.616620e-001
4499790 9.998350e-001 -1.760201e-001 6.259896e-005 -1.618301e+002 2.552339e-004 9.038979e+001 1.000188e+000 -2.063336e-001
4799775 1.000040e+000 -1.750026e-001 1.476498e-005 -1.084242e+002 1.555619e-004 7.107625e+001 1.000389e+000 -1.846040e-001
5099760 1.000141e+000 -2.036928e-001 3.333531e-005 1.344859e+002 1.645743e-004 -1.647343e+002 9.997611e-001 -1.607408e-001
5399745 9.999093e-001 -1.796849e-001 1.077007e-004 1.505330e+002 5.449985e-005 -5.915176e+000 9.999104e-001 -1.662575e-001
5699730 9.998985e-001 -1.600724e-001 5.402724e-005 1.307432e+002 2.255871e-005 -1.253936e+002 1.002146e+000 -1.424573e-001
5999715 9.989867e-001 -1.362732e-001 7.409247e-005 -1.701861e+002 3.978304e-005 1.746665e+002 1.001747e+000 -1.199076e-001
6299700 9.994101e-001 -1.886597e-001 3.098029e-005 -1.276989e+002 2.520842e-004 -1.246846e+002 1.001018e+000 -1.935126e-001
6599685 9.993320e-001 -1.582728e-001 8.398232e-005 -1.577157e+002 2.678721e-004 1.410174e+001 1.000520e+000 -2.032171e-001
6899670 9.991090e-001 -1.949003e-001 8.077491e-005 -9.570512e+001 1.056032e-004 -1.253179e+002 1.000685e+000 -2.180025e-001
7199655 9.992542e-001 -2.231570e-001 3.408957e-005 -1.215967e+002 1.555729e-004 7.169138e+001 9.995570e-001 -1.953846e-001
7499640 9.998087e-001 -2.344770e-001 2.236048e-005 3.311817e+001 5.428091e-005 -1.708574e+002 9.998310e-001 -2.902538e-001
7799625 9.995951e-001 -2.031852e-001 2.549800e-005 1.834326e+001 1.714373e-004 4.877028e+001 9.990012e-001 -2.043339e-001
8099610 9.993824e-001 -1.862100e-001 3.289180e-005 1.339354e+002 2.774795e-004 -1.373683e+002 1.000370e+000 -2.771160e-001
8399595 9.996940e-001 -1.889514e-001 1.028487e-004 -7.081305e+001 3.563740e-004 1.112104e+002 9.997015e-001 -3.290137e-001
8699580 9.992384e-001 -2.251885e-001 7.628025e-005 -1.596016e+002 1.403022e-004 3.853832e+001 1.000045e+000 -2.495641e-001
8999565 9.995306e-001 -2.197241e-001 2.732671e-005 -2.632629e+001 7.978672e-005 7.194860e+001 1.000151e+000 -2.479692e-001
9299550 9.996946e-001 -2.003522e-001 2.199980e-005 1.505590e+002 1.192200e-004 1.598555e+002 1.000766e+000 -2.343433e-001
9599535 9.993240e-001 -2.834827e-001 3.316339e-005 -1.406718e+002 1.129743e-004 4.749978e+001 9.982212e-001 -3.431662e-001
9899520 9.995472e-001 -3.210827e-001 7.255402e-005 1.471701e+002 1.437038e-004 -1.132256e+002 9.975488e-001 -4.737993e-001
10199505 1.000842e+000 -2.122797e-001 4.063477e-005 1.322549e+002 1.341841e-004 -1.670035e+002 1.001075e+000 -2.233363e-001
10499490 9.997014e-001 -1.826907e-001 1.327044e-004 -8.600596e+001 2.852179e-004 2.648590e+001 9.998450e-001 -1.907153e-001
10799475 9.996601e-001 -2.002558e-001 2.530059e-005 7.254844e+001 7.382083e-005 -9.108553e+001 9.998510e-001 -1.601624e-001
11099460 9.997327e-001 -2.077483e-001 1.561390e-005 9.526154e+001 2.107750e-004 5.264451e+001 1.000368e+000 -2.162089e-001
11399445 1.000136e+000 -2.025909e-001 8.971156e-005 -1.354907e+002 3.351137e-005 -5.247782e+001 9.992648e-001 -2.435824e-001
11699430 9.994310e-001 -2.358409e-001 3.392494e-005 -1.076048e+002 1.573298e-004 -2.473097e+001 9.997002e-001 -2.066316e-001
11999415 9.997941e-001 -2.330811e-001 5.814727e-005 3.687070e+001 1.023239e-004 -7.061375e+001 1.000252e+000 -2.247803e-001
12299400 9.995330e-001 -2.210354e-001 5.199223e-005 -1.301468e+002 6.815903e-005 1.152661e+002 1.000145e+000 -1.458473e-001
12599385 9.999751e-001 -2.643168e-001 4.996277e-005 -4.020517e+001 1.075487e-004 1.333385e+002 1.000609e+000 -2.788413e-001
12899370 1.000174e+000 -2.938164e-001 7.985649e-005 -1.142942e+002 3.272374e-005 -1.414989e+002 9.996473e-001 -3.589967e-001
13199355 9.991003e-001 -2.605223e-001 8.209380e-005 -1.250967e+002 2.517758e-004 -4.005768e+001 1.000139e+000 -2.801469e-001
13499340 9.996500e-001 -3.231487e-001 1.013455e-004 8.175011e+001 1.041328e-004 -3.242372e+001 9.971615e-001 -2.676933e-001
13799325 9.994538e-001 -2.883396e-001 3.688908e-005 -1.797602e+002 2.959819e-004 7.976006e+001 9.990054e-001 -2.191192e-001
14099310 9.999676e-001 -3.004068e-001 1.083207e-004 1.968929e+001 3.229589e-004 -1.046624e+002 9.999316e-001 -2.723762e-001
14399295 9.996798e-001 -2.890524e-001 2.018185e-005 -1.628803e+002 4.933449e-005 1.055215e+002 9.997182e-001 -2.709987e-001
14699280 9.995496e-001 -3.020304e-001 1.801588e-005 3.927688e+001 1.535903e-004 1.451431e+002 1.001572e+000 -3.112845e-001
14999265 9.998434e-001 -2.952086e-001 4.120997e-005 -1.187798e+002 1.375493e-004 9.712238e+001 9.999768e-001 -3.097250e-001
15299250 9.988517e-001 -3.144597e-001 9.719427e-005 4.993214e+001 2.219236e-004 -1.651256e+002 9.995989e-001 -2.646994e-001
15599235 9.996703e-001 -3.099851e-001 7.220004e-005 -6.426219e+001 2.860636e-004 -5.348869e+001 9.994098e-001 -3.081463e-001
15899220 9.998307e-001 -3.064594e-001 7.371357e-005 -1.346049e+002 1.875280e-004 -1.483826e+002 1.001063e+000 -2.386250e-001
16199205 9.999126e-001 -2.972839e-001 5.152336e-005 1.258433e+002 1.261354e-004 1.443761e+001 1.000816e+000 -2.462614e-001
16499190 9.998520e-001 -2.802254e-001 3.658056e-005 -9.899651e+001 4.047830e-004 1.348121e+002 1.001327e+000 -2.256744e-001
16799175 9.992784e-001 -2.625634e-001 3.161915e-005 2.850117e+001 2.332912e-004 -9.936642e+001 1.002115e+000 -2.953607e-001
17099160 9.993740e-001 -3.190409e-001 3.492014e-005 1.320576e+002 3.501187e-004 1.239822e+002 1.000211e+000 -3.303230e-001
17399145 1.000045e+000 -3.375020e-001 4.434779e-005 -8.748138e+001 2.778933e-004 -8.101015e+001 9.995519e-001 -3.376049e-001
17699130 1.000689e+000 -3.253534e-001 3.730346e-005 3.809245e+001 2.368544e-004 8.379137e+001 1.000214e+000 -3.100366e-001
17999115 9.998115e-001 -3.310263e-001 3.196327e-005 3.081722e-001 6.769761e-005 -4.355158e+001 1.001033e+000 -4.038286e-001
18299100 9.996641e-001 -2.970191e-001 1.134426e-004 6.635175e+001 6.083488e-005 -2.538707e+000 1.000511e+000 -3.790089e-001
18599085 9.993947e-001 -3.425700e-001 4.355723e-005 1.267986e+002 2.894926e-004 -1.596385e+002 1.000711e+000 -3.769731e-001
18899070 9.997333e-001 -3.300593e-001 1.065160e-004 1.080756e+002 5.680991e-005 1.269821e+002 9.985575e-001 -2.791401e-001
19199055 9.997132e-001 -3.276793e-001 1.112059e-004 -1.229940e+002 1.409776e-004 -1.564045e+002 9.987649e-001 -3.124324e-001
19499040 1.000400e+000 -3.397805e-001 5.964387e-005 4.075479e+001 1.711446e-004 -4.924089e+001 1.000179e+000 -2.627378e-001
19799025 9.998778e-001 -3.405527e-001 8.114718e-005 4.276913e+001 4.045125e-004 8.701881e+001 9.988812e-001 -3.341426e-001
20099010 9.994965e-001 -3.697564e-001 7.236539e-005 1.787172e+002 3.146812e-004 -9.514678e+001 1.000064e+000 -3.385869e-001
20398995 9.991626e-001 -3.452981e-001 7.690650e-005 6.884481e+001 2.098747e-004 6.738026e+001 9.989916e-001 -3.828633e-001
20698980 9.990919e-001 -3.549248e-001 5.937153e-005 6.180562e+001 9.199336e-005 -3.554400e+001 9.995422e-001 -4.097576e-001
20998965 9.988630e-001 -3.346870e-001 1.135218e-004 -1.552753e+002 1.784675e-004 9.964952e-001 9.992977e-001 -3.297537e-001
21298950 9.990679e-001 -3.418055e-001 4.189219e-005 -3.740450e+001 1.722041e-004 1.144387e+002 1.001269e+000 -2.829331e-001
21598935 9.989586e-001 -3.788993e-001 1.420939e-004 2.051488e+001 1.401193e-004 -4.885229e+001 9.990997e-001 -2.930675e-001
21898920 9.993090e-001 -3.526398e-001 5.293117e-005 -6.895451e+001 2.287274e-004 8.383513e+001 9.986578e-001 -3.292604e-001
22198905 9.993497e-001 -3.705720e-001 6.484797e-005 1.142173e+002 2.802503e-004 -1.497310e+002 9.975518e-001 -3.659071e-001
22498890 9.996613e-001 -3.686197e-001 6.692178e-005 2.999889e+001 3.529491e-004 -7.289454e+000 1.002168e+000 -3.789986e-001
22798875 9.990828e-001 -3.689752e-001 5.871461e-005 8.843829e+001 6.110187e-005 2.032590e+001 1.001719e+000 -3.616828e-001
23098860 1.000192e+000 -3.916634e-001 2.726958e-005 -8.442659e+001 1.884471e-004 -1.202309e+002 1.000565e+000 -3.550379e-001
23398845 9.997156e-001 -3.876552e-001 3.718104e-005 -1.124323e+002 3.026886e-004 6.820214e+001 1.000037e+000 -4.078563e-001
23698830 9.992315e-001 -3.941236e-001 5.194248e-005 -1.728720e+002 1.748916e-004 -1.094556e+002 9.996104e-001 -3.242754e-001
23998815 9.996021e-001 -4.204949e-001 4.507532e-005 -1.494552e+002 1.177387e-004 4.770626e+001 9.992778e-001 -3.874265e-001
24298800 9.995615e-001 -4.241500e-001 7.886322e-005 -5.615967e+001 2.437327e-004 1.750470e+002 9.985530e-001 -4.031430e-001
24598785 9.999902e-001 -4.574421e-001 1.146179e-004 1.095009e+002 1.593905e-004 4.631233e+001 1.000754e+000 -3.979509e-001
24898770 9.994748e-001 -4.414585e-001 4.874662e-005 1.065100e+002 3.257411e-004 -1.595162e+002 9.998423e-001 -3.832423e-001
25198755 9.994918e-001 -4.383900e-001 2.846328e-005 1.261324e+002 2.431645e-004 -1.071453e+002 9.998714e-001 -3.955756e-001
25498740 9.993965e-001 -4.311953e-001 1.158896e-004 2.086865e+001 3.319417e-004 9.728219e+001 9.992036e-001 -4.024626e-001
25798725 9.989593e-001 -4.577132e-001 1.024917e-004 -1.778992e+002 2.344152e-004 -5.617480e+001 9.998161e-001 -4.588832e-001
26098710 9.996733e-001 -4.326790e-001 7.893983e-005 -1.224416e+002 2.811002e-004 1.632025e+001 1.000713e+000 -4.675303e-001
26398695 1.000331e+000 -4.668490e-001 1.042548e-004 -8.415682e+001 3.598133e-004 1.796182e+002 1.001186e+000 -4.703830e-001
26698680 1.000426e+000 -4.329468e-001 7.793160e-005 -7.463235e+001 2.225371e-004 6.767542e+000 1.000751e+000 -4.647356e-001
26998665 9.998699e-001 -4.222154e-001 4.473693e-005 1.031870e+002 1.256986e-004 -1.317895e+002 9.992241e-001 -4.359586e-001
27298650 9.998516e-001 -4.953637e-001 8.256859e-005 1.098893e+002 1.952161e-004 -4.786580e+001 1.000253e+000 -4.433095e-001
27598635 9.993383e-001 -4.383309e-001 5.190276e-005 1.288784e+001 4.118291e-005 -1.427930e+002 1.000873e+000 -3.445771e-001
27898620 9.991614e-001 -4.746515e-001 3.205782e-006 -2.402211e+001 1.752843e-004 -6.603214e+001 1.001937e+000 -5.417532e-001
28198605 9.996542e-001 -4.887739e-001 7.433850e-005 4.210458e+001 4.940447e-005 -2.904619e+001 1.001693e+000 -4.537906e-001
28498590 9.989765e-001 -4.974220e-001 9.555936e-005 1.461659e+002 2.686312e-005 -3.332451e+001 1.000363e+000 -4.804710e-001
28798575 9.989359e-001 -5.253667e-001 1.106437e-004 -5.492639e+001 2.361140e-004 1.008772e+002 9.991910e-001 -5.910336e-001
29098560 9.991193e-001 -5.245841e-001 9.253621e-005 3.468330e+001 3.602397e-004 -6.753251e+001 9.997045e-001 -4.886692e-001
29398545 9.989926e-001 -4.500141e-001 6.721569e-005 -7.258850e+001 9.587481e-005 2.622073e+001 1.000988e+000 -4.463763e-001
29698530 9.991892e-001 -5.004946e-001 3.539980e-005 1.235365e+002 3.396663e-004 -1.527264e+002 1.000638e+000 -4.475549e-001
29998515 9.994255e-001 -4.838254e-001 3.788676e-005 8.906432e+001 2.836887e-004 8.580888e+001 1.002390e+000 -4.368156e-001
30298500 9.993813e-001 -4.641663e-001 4.834879e-005 7.755410e+001 2.775618e-005 1.584311e+002 1.002147e+000 -5.398611e-001
30598485 1.000262e+000 -4.610578e-001 7.282609e-005 -4.636381e+001 1.354929e-004 -6.983220e+001 1.001450e+000 -4.982810e-001
30898470 9.993126e-001 -4.786975e-001 1.529266e-004 -1.453253e+002 1.220304e-004 9.100677e+001 9.999483e-001 -4.880475e-001
31198455 9.995338e-001 -4.844203e-001 9.556285e-005 1.044511e+002 2.025778e-004 -1.466304e+002 1.000247e+000 -4.620551e-001
31498440 9.995097e-001 -4.944793e-001 1.160941e-004 6.458026e+001 3.183485e-004 4.678301e+001 1.002435e+000 -4.676920e-001
31798425 9.990488e-001 -5.349562e-001 5.401382e-005 -8.748599e+000 2.495203e-004 -1.771996e+002 1.001339e+000 -4.771520e-001
32098410 1.000105e+000 -5.531547e-001 8.298764e-005 -7.626737e+001 1.918254e-004 -3.140422e+001 1.001624e+000 -4.331878e-001
32398395 9.999173e-001 -5.183788e-001 2.262525e-004 1.379034e+002 3.346341e-004 1.572151e+002 1.000691e+000 -4.568819e-001
32698380 9.998390e-001 -4.973805e-001 9.481369e-005 1.556209e+002 2.166667e-004 -9.699100e+001 1.000284e+000 -4.414767e-001
32998365 1.000041e+000 -5.207947e-001 9.787075e-005 -2.926770e+001 1.131563e-004 1.051953e+002 1.001501e+000 -3.911206e-001
33298350 9.996783e-001 -5.350293e-001 3.233515e-005 -1.381475e+002 1.206441e-004 -1.649369e+002 1.000443e+000 -5.097030e-001
33598335 9.990761e-001 -5.245103e-001 1.470966e-004 -7.758094e+001 2.148680e-004 3.728456e+001 1.000150e+000 -5.285325e-001
33898320 9.994296e-001 -5.765592e-001 1.298272e-004 1.731829e+002 2.109860e-004 -6.419495e+001 1.000424e+000 -4.812353e-001
34198305 9.987146e-001 -5.935745e-001 5.784537e-005 -1.360772e+002 1.419376e-004 2.603069e+001 1.000147e+000 -5.119553e-001
34498290 9.989578e-001 -5.738869e-001 1.039378e-004 -4.197160e+001 1.407751e-004 2.799970e+001 9.997195e-001 -5.155249e-001
34798275 9.991421e-001 -6.030598e-001 1.318683e-004 6.689570e+001 1.708823e-004 -1.095344e+002 9.996698e-001 -4.923084e-001
35098260 9.996718e-001 -5.817443e-001 1.194090e-004 7.350132e+001 3.717313e-005 4.132294e+001 1.000606e+000 -5.005311e-001
35398245 9.993148e-001 -6.315857e-001 4.789227e-005 -7.347551e+001 9.913583e-005 -1.371544e+002 1.002093e+000 -4.860969e-001
35698230 9.998044e-001 -5.761013e-001 8.867375e-005 9.585628e+001 7.677569e-005 1.736235e+002 1.001226e+000 -5.110527e-001
35998215 9.990308e-001 -6.372099e-001 4.990914e-005 5.280967e+001 2.284964e-004 -1.748921e+002 1.001381e+000 -5.325013e-001
36298200 9.994671e-001 -6.263900e-001 9.357044e-005 -1.476542e+002 3.216892e-005 -5.360767e+001 1.000138e+000 -5.482010e-001
36598185 9.995174e-001 -6.317011e-001 7.821573e-005 5.623232e+001 2.307315e-004 1.253354e+002 1.001025e+000 -5.473239e-001
36898170 1.000257e+000 -6.364198e-001 4.235567e-005 -7.922997e+001 1.436183e-004 -5.552423e+001 1.000579e+000 -5.518336e-001
37198155 1.000256e+000 -6.230593e-001 1.342074e-004 1.419277e+002 1.583639e-004 1.206447e+001 1.000891e+000 -5.417960e-001
37498140 1.000086e+000 -5.968589e-001 5.172561e-005 1.099736e+002 1.789016e-004 -1.201407e+002 1.000743e+000 -5.284693e-001
37798125 9.992028e-001 -6.125138e-001 8.975049e-005 -1.386880e+002 9.260912e-005 -3.572683e+001 1.001728e+000 -5.134380e-001
38098110 9.995058e-001 -6.204994e-001 6.749379e-005 -3.080075e+001 1.700232e-004 1.454247e+002 9.996912e-001 -5.948113e-001
38398095 9.989657e-001 -6.404190e-001 5.761060e-005 -8.385249e+001 1.083736e-004 -5.073213e+000 1.000554e+000 -5.872260e-001
38698080 9.986820e-001 -6.499186e-001 2.267909e-005 -3.057970e+001 1.458314e-004 -1.636337e+002 9.992280e-001 -6.043819e-001
38998065 9.992386e-001 -6.492329e-001 5.961315e-005 2.903335e+001 2.130490e-004 -7.227232e+000 9.999542e-001 -5.719049e-001
39298050 9.996082e-001 -6.281298e-001 9.516000e-005 -1.139548e+002 7.436802e-005 7.066251e+001 1.000617e+000 -5.375679e-001
39598035 9.997329e-001 -6.400960e-001 3.574429e-005 -7.556604e+001 1.430717e-004 -7.590015e+001 1.001125e+000 -4.312257e-001
39898020 1.000868e+000 -6.015826e-001 7.630211e-005 -1.675150e+002 1.899749e-004 4.510654e+000 1.001992e+000 -4.225517e-001
40198005 9.985660e-001 -6.464787e-001 1.390405e-005 1.799716e+002 4.390119e-004 -8.955582e+001 1.002111e+000 -5.967792e-001
40497990 9.997575e-001 -6.934193e-001 1.744544e-004 -6.953012e+001 4.658608e-005 1.589000e+002 1.003073e+000 -6.973363e-001
40797975 9.993225e-001 -5.643730e-001 8.753551e-005 1.504935e+002 2.033132e-004 -1.541104e+002 1.002400e+000 -6.398588e-001
41097960 9.997947e-001 -6.008821e-001 2.629903e-005 1.199386e+002 3.423633e-004 1.092166e+002 1.000922e+000 -5.937396e-001
41397945 9.981080e-001 -6.382538e-001 1.261149e-004 9.942646e+001 3.382531e-004 -1.440292e+002 1.001800e+000 -5.130908e-001
41697930 1.000510e+000 -5.669446e-001 1.805136e-004 -6.300953e+001 5.023619e-004 1.194568e+002 9.999045e-001 -5.653448e-001
41997915 1.000290e+000 -6.147697e-001 1.045188e-004 -1.417523e+002 1.213744e-004 -1.111993e+002 1.002016e+000 -5.197493e-001
42297900 9.991773e-001 -6.273749e-001 2.429831e-004 1.416557e+002 3.638698e-004 4.091463e+001 1.000850e+000 -5.523816e-001
42597885 1.000265e+000 -5.690513e-001 7.737685e-005 -3.227549e+001 2.705064e-004 -4.183755e+001 1.001912e+000 -4.853266e-001
42897870 9.995446e-001 -6.582460e-001 1.139953e-004 1.431144e+002 3.035917e-004 -8.541321e+000 1.000112e+000 -6.040567e-001
43197855 1.000979e+000 -7.010278e-001 5.099093e-005 -1.774272e+002 3.436578e-004 7.950466e+000 1.002019e+000 -7.021411e-001
43497840 1.000152e+000 -6.905318e-001 9.705037e-005 7.100951e+001 2.863382e-004 -5.902527e+001 1.000480e+000 -7.401575e-001
43797825 9.999619e-001 -6.636078e-001 1.066915e-004 -4.015677e+001 2.249668e-004 -6.086485e+001 9.989202e-001 -7.475231e-001
44097810 9.998177e-001 -6.573105e-001 6.724186e-005 2.690936e+000 1.840167e-004 9.240845e+001 1.002646e+000 -7.355679e-001
44397795 1.000184e+000 -7.062320e-001 2.910464e-004 -8.254248e+001 1.114309e-004 -1.654341e+002 1.001827e+000 -6.336130e-001
44697780 9.998971e-001 -6.690134e-001 1.456398e-004 5.313598e+001 2.117124e-004 -9.896637e+001 1.001497e+000 -6.344438e-001
44997765 1.000371e+000 -7.260278e-001 3.558867e-005 -2.143958e+001 5.729089e-004 1.169433e+002 1.001983e+000 -6.623655e-001
45297750 1.000802e+000 -7.268974e-001 1.932725e-004 4.865947e+001 6.253320e-005 -1.063364e+002 1.000961e+000 -7.123141e-001
45597735 9.999775e-001 -7.076204e-001 1.528460e-004 4.806286e+001 2.105168e-004 -8.171323e+000 1.003104e+000 -6.645628e-001
45897720 9.992480e-001 -7.124925e-001 4.698099e-005 -1.122872e+002 5.393630e-005 1.129314e+002 1.002809e+000 -6.768886e-001
46197705 1.000077e+000 -7.034736e-001 3.412514e-005 3.323800e+001 2.094487e-004 -2.479082e+001 1.003673e+000 -7.341037e-001
46497690 1.001202e+000 -7.089881e-001 5.279469e-005 -1.430903e+002 3.166979e-004 -7.259863e+001 1.001523e+000 -7.271630e-001
46797675 1.000203e+000 -7.474712e-001 2.560410e-005 -7.611844e+001 3.409989e-004 -1.292976e+001 1.003287e+000 -7.150234e-001
47097660 1.000412e+000 -7.201517e-001 1.922269e-004 -1.265572e+002 1.683555e-004 -4.508389e+001 1.002177e+000 -7.976992e-001
