!Agilent Technologies,N5230C,SG49000117,A.08.50.07
!Agilent N5230C: A.08.50.07
!Date: Thursday, May 16, 2024 17:40:00
!Correction: S11(Full 2 Port(1,2)) 
!S21(Full 2 Port(1,2)) 
!S12(Full 2 Port(1,2)) 
!S22(Full 2 Port(1,2)) 
!S2P File: Measurements: S11, S21, S12, S22:
# Hz S  MA   R 50
300000 1.006316e+000 -5.204600e-001 8.846993e-005 -1.234353e+002 2.924666e-004 -9.201721e+001 1.013339e+000 -7.709355e-001
599985 9.827899e-001 2.499317e-001 1.177796e-004 -1.284929e+002 1.152347e-004 2.049213e+001 9.648968e-001 3.598101e-001
899970 9.973478e-001 -1.539275e-001 5.702228e-005 -1.570335e+002 9.935137e-005 5.469136e+001 9.858333e-001 -3.893065e-001
1199955 9.982782e-001 -1.134652e-001 4.699575e-005 8.164733e+001 5.354581e-005 -1.434160e+002 9.959309e-001 -1.722101e-001
1499940 9.939088e-001 1.175428e-001 6.561170e-005 1.534070e+002 1.808909e-004 6.716479e+001 9.932559e-001 7.283776e-002
1799925 9.917057e-001 1.667627e-001 5.847350e-005 -1.704811e+002 6.876023e-005 1.481625e+002 9.897883e-001 9.960745e-003
2099910 9.987433e-001 -4.177823e-002 1.053432e-004 2.641355e+001 1.162179e-004 9.276660e+001 9.986697e-001 5.570905e-002
2399895 9.994940e-001 -1.708039e-001 6.699815e-005 1.298077e+002 2.761960e-004 1.559033e+002 1.004325e+000 5.752209e-003
2699880 9.992920e-001 -2.611028e-001 9.632838e-005 -5.901394e+001 9.663642e-005 -1.015260e+002 9.952375e-001 -2.432152e-001
2999865 9.997126e-001 -1.764937e-001 8.021516e-005 -7.678443e+001 2.009203e-004 1.718937e+002 9.995480e-001 -1.869022e-001
3299850 1.000447e+000 -1.793883e-001 7.906965e-005 -6.370907e+001 1.067749e-004 1.284531e+002 9.982715e-001 -1.557815e-001
3599835 1.000177e+000 -1.674249e-001 3.726049e-005 -1.005200e+002 2.374935e-004 6.092304e+001 9.985945e-001 -2.493842e-001
3899820 9.996749e-001 -2.008571e-001 1.934905e-005 1.793501e+002 2.054680e-004 -2.924791e+001 9.985226e-001 -1.752738e-001
4199805 1.000031e+000 -2.186733e-001 8.486584e-005 -1.369030e+002 1.375558e-004 4.875885e+001 9.997007e-001 -2.347829e-001
4499790 9.998380e-001 -2.178151e-001 6.631198e-005 -1.513667e+002 7.015156e-005 1.464352e+002 9.999686e-001 -2.610234e-001
4799775 1.000185e+000 -2.041265e-001 4.347725e-005 -1.076123e+002 1.467246e-004 9.114982e+001 1.001030e+000 -1.569667e-001
5099760 1.000565e+000 -1.565598e-001 2.956485e-005 -7.476595e+001 6.254678e-005 6.880447e+001 1.001026e+000 -1.450920e-001
5399745 1.000105e+000 -1.442882e-001 1.099403e-004 1.618246e+002 2.052128e-004 -4.865550e+001 1.000364e+000 -1.310368e-001
5699730 9.998652e-001 -1.723667e-001 9.349505e-005 1.501181e+002 2.650158e-004 4.311970e+000 1.001600e+000 -1.039501e-001
5999715 9.990236e-001 -1.389119e-001 9.366534e-005 -6.616755e+001 1.315783e-004 -1.171887e+002 1.001100e+000 -1.260997e-001
6299700 9.999245e-001 -1.644230e-001 5.437744e-005 -3.761021e+001 7.004118e-005 1.383054e+002 1.000588e+000 -1.946958e-001
6599685 9.999615e-001 -1.752245e-001 3.484296e-005 -1.201831e+002 2.503623e-004 2.060820e+001 1.001722e+000 -2.069234e-001
6899670 9.999087e-001 -1.946092e-001 8.417388e-006 1.158988e+002 1.905392e-004 1.608163e+002 1.000150e+000 -1.371502e-001
7199655 9.992534e-001 -2.263188e-001 4.701726e-005 1.575490e+002 2.194251e-004 1.989108e+001 9.998658e-001 -2.130235e-001
7499640 9.995682e-001 -2.432100e-001 2.128758e-005 -1.330907e+002 1.999488e-004 9.084361e+001 1.000063e+000 -2.778345e-001
7799625 1.000183e+000 -1.969321e-001 2.721367e-005 -1.297872e+002 3.888515e-005 1.062450e+002 9.999944e-001 -2.335986e-001
8099610 1.000049e+000 -2.226347e-001 5.386196e-005 1.643915e+002 2.440504e-005 -1.679874e+002 9.998493e-001 -2.384954e-001
8399595 9.998727e-001 -2.144461e-001 7.305093e-005 -7.033983e+001 2.989235e-004 -1.491307e+002 1.000142e+000 -2.614772e-001
8699580 9.997373e-001 -2.079009e-001 5.052972e-005 -7.896553e+001 3.950681e-005 1.219501e+002 9.990716e-001 -2.982233e-001
8999565 9.999473e-001 -2.139250e-001 2.087451e-005 -1.532922e+002 2.343925e-004 1.075412e+002 1.000060e+000 -2.315948e-001
9299550 9.995565e-001 -2.366851e-001 7.311708e-005 1.393782e+002 1.309675e-004 2.481610e+001 9.996908e-001 -2.266522e-001
9599535 9.997309e-001 -2.877586e-001 1.794247e-005 -1.117886e+001 1.624863e-004 -1.588813e+002 9.984416e-001 -3.994299e-001
9899520 9.994910e-001 -3.074151e-001 5.098942e-005 1.522726e+002 2.175803e-005 6.931445e+001 9.979857e-001 -4.583650e-001
10199505 1.000228e+000 -2.279305e-001 7.676463e-005 1.477836e+002 4.010634e-005 -9.595249e+001 1.000068e+000 -2.062460e-001
10499490 1.000312e+000 -2.037666e-001 5.462972e-005 9.362857e+001 1.198419e-004 -7.506438e+001 9.997767e-001 -2.471146e-001
10799475 9.992394e-001 -2.142155e-001 9.617500e-005 -3.975372e+001 5.775314e-005 7.851990e+001 9.986092e-001 -2.506389e-001
11099460 9.995838e-001 -2.134368e-001 2.496006e-005 1.177982e+002 1.260417e-004 1.304705e+002 9.990692e-001 -2.070556e-001
11399445 9.997720e-001 -2.460257e-001 7.972826e-005 1.500506e+002 1.445753e-004 6.577930e+001 9.993511e-001 -2.299251e-001
11699430 1.000372e+000 -2.691103e-001 9.795893e-005 -1.723498e+002 1.400565e-004 1.602925e+002 9.998163e-001 -2.399147e-001
11999415 1.000353e+000 -2.450619e-001 2.335478e-005 1.315451e+002 1.021499e-004 -1.044318e+002 1.000148e+000 -2.458723e-001
12299400 9.999034e-001 -2.320002e-001 1.171451e-004 -1.238015e+002 3.043940e-004 -5.889241e+001 1.001276e+000 -2.532687e-001
12599385 9.997877e-001 -2.687268e-001 1.146894e-004 -1.036764e+002 3.309668e-004 -6.431365e+001 1.000127e+000 -2.809391e-001
12899370 1.000118e+000 -3.053971e-001 9.397988e-005 -9.212435e+001 3.646280e-004 -1.133129e+002 9.998996e-001 -3.945518e-001
13199355 9.996827e-001 -3.018877e-001 2.371254e-005 -2.753782e+001 1.953877e-004 1.799936e+002 9.998114e-001 -2.808750e-001
13499340 1.000105e+000 -2.999288e-001 2.309021e-005 4.721050e+001 1.677861e-004 9.647003e+001 9.988837e-001 -2.884680e-001
13799325 9.998921e-001 -3.129387e-001 5.210701e-005 -1.517538e+002 2.492490e-004 -1.765881e+002 9.981774e-001 -2.685063e-001
14099310 1.000399e+000 -3.386586e-001 3.856120e-005 -9.328684e+001 3.042970e-004 -5.669458e+001 1.000726e+000 -2.574604e-001
14399295 1.000052e+000 -3.188306e-001 5.146640e-005 -1.213381e+002 1.757813e-004 5.581855e+001 1.000348e+000 -2.450381e-001
14699280 1.000173e+000 -3.074981e-001 4.124703e-005 -6.721635e+001 1.419449e-004 1.391387e+001 9.990839e-001 -1.901757e-001
14999265 9.992325e-001 -3.244511e-001 2.038236e-005 -2.304712e+001 1.506875e-004 -7.249342e+000 9.998412e-001 -2.962433e-001
15299250 9.985802e-001 -2.911042e-001 8.766164e-005 1.590674e+002 6.008056e-005 1.609722e+002 9.993319e-001 -2.041511e-001
15599235 9.994298e-001 -3.006919e-001 5.518584e-005 6.775618e+000 1.946282e-004 2.781092e+001 1.000914e+000 -2.212766e-001
15899220 9.994170e-001 -2.760268e-001 1.056661e-004 1.498467e+002 1.108566e-004 -1.479989e+002 1.000793e+000 -2.790565e-001
16199205 1.000317e+000 -3.053258e-001 3.028645e-005 4.841351e+001 2.435536e-004 1.553245e+001 1.000989e+000 -3.228878e-001
16499190 9.998288e-001 -3.059607e-001 4.868757e-005 1.760871e+002 3.857769e-004 1.204174e+002 1.001297e+000 -2.559259e-001
16799175 9.999087e-001 -3.350971e-001 2.862733e-005 8.804340e+001 3.704346e-005 1.459947e+001 1.001495e+000 -2.823039e-001
17099160 9.991093e-001 -3.553369e-001 9.731615e-006 1.171901e+001 2.196673e-004 1.299238e+002 1.001941e+000 -2.356506e-001
17399145 1.000138e+000 -3.518528e-001 1.134678e-004 6.690874e+001 9.263584e-005 -1.476825e+002 1.001747e+000 -2.577681e-001
17699130 9.999042e-001 -3.738327e-001 1.065001e-004 6.793041e+001 1.934884e-004 3.450443e+001 1.000749e+000 -2.993805e-001
17999115 1.000072e+000 -3.430164e-001 7.905966e-005 1.435844e+002 3.400602e-004 1.553019e+002 1.001296e+000 -3.292449e-001
18299100 9.990097e-001 -3.811435e-001 3.318679e-005 1.703867e+002 2.208673e-004 8.841998e+001 9.997371e-001 -3.630055e-001
18599085 9.996457e-001 -3.305040e-001 6.337782e-005 7.631705e+001 1.612562e-004 1.787759e+002 9.993204e-001 -3.183831e-001
18899070 9.998673e-001 -3.633430e-001 5.559030e-005 4.958088e+000 2.098395e-004 -7.299822e+000 9.996220e-001 -3.167454e-001
19199055 1.000237e+000 -3.702038e-001 6.376352e-005 -4.734783e+001 1.204343e-004 -1.799264e+002 1.000135e+000 -3.151929e-001
19499040 9.999601e-001 -3.544298e-001 5.944418e-005 -1.163549e+002 2.605994e-004 -2.892563e+001 1.000450e+000 -2.193173e-001
19799025 1.000332e+000 -3.695431e-001 1.135370e-004 3.710260e+001 3.802659e-005 5.593513e+001 1.001267e+000 -3.113511e-001
20099010 9.997541e-001 -3.589852e-001 4.990743e-005 1.532338e+002 2.039548e-004 1.182113e+002 9.998234e-001 -2.906694e-001
20398995 9.993126e-001 -3.597361e-001 1.051632e-004 -8.352415e+001 2.172007e-004 6.435226e+001 9.998112e-001 -4.161323e-001
20698980 9.997481e-001 -3.794966e-001 5.510036e-005 -6.567268e+001 2.260527e-004 -1.785002e+002 9.998197e-001 -3.596627e-001
20998965 9.990770e-001 -3.467658e-001 3.237256e-005 -1.724167e+002 8.645269e-005 1.224358e+001 9.987493e-001 -2.137336e-001
21298950 9.993203e-001 -3.514747e-001 4.670292e-005 -1.595576e+002 3.493633e-004 1.754657e+002 9.996501e-001 -2.332382e-001
21598935 9.989535e-001 -3.880137e-001 6.724701e-005 1.031266e+001 2.686581e-004 -4.064674e+001 9.988189e-001 -3.261289e-001
21898920 9.995426e-001 -4.464113e-001 6.130862e-005 2.341664e+001 1.264573e-004 1.564802e+002 9.998307e-001 -3.047428e-001
22198905 9.999010e-001 -3.917894e-001 1.012757e-004 1.243542e+002 9.490325e-005 -8.023870e+001 9.998848e-001 -3.640025e-001
22498890 1.000027e+000 -4.277458e-001 1.565220e-005 -1.768715e+002 2.060256e-004 9.488766e+001 1.000472e+000 -3.732990e-001
22798875 1.000023e+000 -3.861968e-001 5.731573e-005 1.060451e+002 3.092137e-004 -9.144231e+001 1.001105e+000 -3.619720e-001
23098860 1.000158e+000 -4.406600e-001 4.646638e-005 -5.185959e+000 3.268926e-004 3.341503e+001 1.000438e+000 -3.614953e-001
23398845 9.999403e-001 -4.425904e-001 1.401825e-004 -6.330861e+001 1.437317e-004 4.600315e+001 1.001425e+000 -3.988315e-001
23698830 9.997993e-001 -4.375866e-001 2.979268e-005 -3.049490e+001 4.170249e-005 -1.502924e+001 9.994884e-001 -3.968332e-001
23998815 9.999321e-001 -4.654059e-001 1.979243e-005 7.176696e+001 8.359920e-005 2.877192e+001 9.987691e-001 -2.629970e-001
24298800 9.993066e-001 -4.457241e-001 4.821301e-005 5.887021e+001 5.171724e-005 -1.006712e+002 9.999856e-001 -3.648237e-001
24598785 9.997794e-001 -4.576262e-001 1.181462e-004 -3.974853e+001 5.410412e-005 6.519176e+001 9.996347e-001 -3.718447e-001
24898770 9.993801e-001 -4.289079e-001 6.980218e-005 5.693166e+001 9.617365e-005 9.604247e+001 1.000279e+000 -4.050619e-001
25198755 1.000082e+000 -5.138035e-001 1.232491e-004 -9.004916e+001 5.286506e-005 1.146969e+002 1.000897e+000 -3.795969e-001
25498740 9.992676e-001 -4.502756e-001 2.222129e-005 -7.053224e+001 1.715427e-004 1.174868e+002 1.000792e+000 -5.070496e-001
25798725 9.993685e-001 -4.813027e-001 1.060388e-004 -1.666183e-001 3.687695e-004 -1.254371e+002 1.000208e+000 -5.529657e-001
26098710 1.000335e+000 -4.750423e-001 2.173218e-005 1.580147e+002 1.542742e-004 -1.725474e+002 1.000188e+000 -3.999935e-001
26398695 1.000098e+000 -4.986860e-001 8.832504e-005 -5.554597e+001 2.702629e-004 -1.366335e+002 1.001442e+000 -4.369180e-001
26698680 9.999363e-001 -4.572736e-001 4.744652e-005 -9.511941e+001 2.277161e-004 1.890588e+001 1.000784e+000 -3.694621e-001
26998665 1.000296e+000 -4.787889e-001 8.301903e-005 8.571528e+001 5.028633e-005 1.065965e+002 1.000218e+000 -4.191092e-001
27298650 9.997441e-001 -4.589983e-001 3.114379e-005 -1.876346e+001 1.191720e-004 7.649739e+001 1.000442e+000 -4.319992e-001
27598635 9.997925e-001 -4.632200e-001 7.206918e-005 7.868204e+001 2.905987e-004 -8.756538e+001 1.001825e+000 -4.578047e-001
27898620 1.000030e+000 -4.664594e-001 8.103546e-005 -1.392946e+002 2.322142e-004 1.193686e+000 1.002343e+000 -4.649369e-001
28198605 9.998212e-001 -5.074040e-001 2.087348e-005 -1.175425e+002 1.563263e-004 1.111652e+002 1.001016e+000 -4.528110e-001
28498590 9.994166e-001 -5.058559e-001 9.729817e-005 -1.738347e+002 1.374507e-004 -6.392150e+001 1.000827e+000 -4.942519e-001
28798575 9.999180e-001 -5.255390e-001 5.300600e-005 -1.080072e+002 2.446732e-004 1.046873e+001 9.998276e-001 -5.446297e-001
29098560 9.996314e-001 -5.151137e-001 5.600961e-005 8.464178e+001 2.396635e-004 -1.316119e+002 9.997857e-001 -4.343217e-001
29398545 9.994021e-001 -4.780665e-001 1.352959e-004 -4.082849e+001 4.389060e-005 6.871778e+001 1.000643e+000 -4.692561e-001
29698530 1.000182e+000 -4.984638e-001 1.471210e-004 8.626334e+001 1.906970e-005 -4.006453e+000 1.001346e+000 -4.015031e-001
29998515 9.995723e-001 -5.081809e-001 1.290029e-004 1.587364e+002 2.264012e-004 -1.553372e+002 1.002056e+000 -4.750137e-001
30298500 9.995716e-001 -5.240417e-001 6.349052e-005 1.147196e+002 1.870861e-004 -5.654629e+001 1.000799e+000 -5.605999e-001
30598485 1.000060e+000 -5.266017e-001 1.067689e-004 -1.733158e+002 3.121688e-004 1.721662e+002 1.000665e+000 -5.065887e-001
30898470 9.997349e-001 -4.858553e-001 4.886972e-005 3.583786e+000 1.483124e-004 3.910893e+001 9.999707e-001 -5.112518e-001
31198455 9.994360e-001 -5.273135e-001 6.468674e-005 5.339776e+001 1.285029e-004 1.578847e+002 9.995900e-001 -4.604818e-001
31498440 1.000324e+000 -5.316333e-001 2.119455e-005 7.141920e+001 1.951615e-004 1.759560e+001 1.001468e+000 -4.297489e-001
31798425 1.000186e+000 -6.078051e-001 4.092346e-005 -1.648184e+002 2.323535e-004 1.451850e+002 1.000288e+000 -4.524148e-001
32098410 1.000737e+000 -5.967962e-001 3.759367e-005 -4.033115e+001 1.098797e-004 -1.161468e+002 1.000886e+000 -4.106732e-001
32398395 1.000234e+000 -5.478601e-001 5.369000e-005 -6.898185e+001 1.884541e-004 7.691350e+001 1.001393e+000 -4.856263e-001
32698380 1.000590e+000 -5.825851e-001 6.727414e-005 -9.984367e+001 9.459457e-005 -1.364712e+002 1.000658e+000 -4.358900e-001
32998365 9.995312e-001 -5.648977e-001 1.529607e-004 -1.247096e+002 2.414676e-004 1.163316e+001 1.001610e+000 -4.875707e-001
33298350 9.996874e-001 -5.672715e-001 1.058756e-004 -8.838259e+001 2.942757e-004 1.544741e+002 1.000703e+000 -4.920921e-001
33598335 9.998687e-001 -5.420734e-001 1.228612e-004 -1.106911e+002 6.319659e-005 -9.858167e+001 1.001245e+000 -4.651795e-001
33898320 9.992206e-001 -6.045029e-001 6.177124e-005 -1.490704e+002 2.136321e-004 -7.592323e+001 1.000277e+000 -5.388972e-001
34198305 9.995377e-001 -6.375604e-001 7.152019e-005 -6.802227e+001 1.412745e-004 -1.497401e+002 9.995641e-001 -5.225466e-001
34498290 9.991738e-001 -6.572300e-001 1.635258e-004 1.289039e+002 1.664543e-004 -8.604578e+001 9.993473e-001 -5.482988e-001
34798275 9.990885e-001 -6.282427e-001 1.807316e-004 -7.923287e+001 1.321921e-004 1.729068e+002 9.985868e-001 -4.528249e-001
35098260 1.000353e+000 -6.138488e-001 8.376026e-005 1.716565e+002 2.360133e-004 -1.158286e+002 1.000227e+000 -4.768753e-001
35398245 9.999655e-001 -6.739410e-001 7.786705e-005 1.459270e+002 9.163119e-005 4.216317e+001 1.002148e+000 -5.422713e-001
35698230 9.999999e-001 -6.535950e-001 6.988372e-005 -1.256664e+002 1.433265e-004 9.405271e+001 1.001331e+000 -5.126163e-001
35998215 9.999604e-001 -6.289729e-001 5.324739e-005 1.327923e+002 8.741242e-005 4.490273e+001 1.000728e+000 -4.956272e-001
36298200 9.995024e-001 -6.273644e-001 5.992930e-005 -9.031725e+001 2.377223e-004 1.376500e+002 1.000120e+000 -6.048072e-001
36598185 9.999400e-001 -6.336879e-001 1.481329e-004 -8.152248e+001 2.430388e-004 -8.585110e+001 1.000744e+000 -5.577844e-001
36898170 1.000622e+000 -6.387073e-001 8.475834e-005 1.119098e+002 2.529755e-004 1.558461e+002 1.000424e+000 -5.285159e-001
37198155 9.999881e-001 -5.998666e-001 2.584871e-005 -3.682698e+001 1.508360e-004 -5.925409e+001 9.999655e-001 -5.108376e-001
37498140 9.997686e-001 -6.309568e-001 4.485885e-005 8.444611e+001 2.380947e-004 9.887835e+001 1.000259e+000 -5.649366e-001
37798125 1.000030e+000 -6.459999e-001 7.962575e-005 -1.920721e+001 1.369554e-004 -1.463792e+001 1.000745e+000 -5.731992e-001
38098110 9.995528e-001 -6.343681e-001 1.321743e-004 -4.042209e+001 8.970966e-005 1.017159e+002 1.000848e+000 -5.792733e-001
38398095 1.000172e+000 -6.526656e-001 1.537393e-004 -1.511714e+002 1.898649e-004 -1.766512e+002 9.995546e-001 -5.892848e-001
38698080 9.994583e-001 -6.402087e-001 6.441878e-005 -1.454287e+002 1.172511e-004 3.775241e+001 9.995872e-001 -6.076066e-001
38998065 9.997537e-001 -6.754273e-001 3.424859e-005 5.317028e+001 1.149748e-004 1.441780e+002 9.994482e-001 -5.418445e-001
39298050 1.000000e+000 -6.504333e-001 6.433881e-005 -3.089835e+000 4.069041e-005 -9.943397e+001 1.000538e+000 -5.463226e-001
39598035 1.000096e+000 -6.496499e-001 1.076637e-005 -1.511341e+002 2.123518e-004 8.362395e+001 1.001367e+000 -4.937482e-001
39898020 1.000347e+000 -6.463848e-001 7.960715e-005 1.895951e+001 2.819139e-004 -3.371744e+001 1.001829e+000 -4.613713e-001
40198005 1.000432e+000 -6.988117e-001 1.390894e-004 -1.584592e+001 2.970228e-004 -2.876055e+000 1.003140e+000 -6.286986e-001
40497990 1.000506e+000 -6.882339e-001 4.418851e-005 -1.253898e+002 2.035955e-004 -1.310456e+001 1.002482e+000 -6.144256e-001
40797975 1.000456e+000 -7.312743e-001 1.111116e-004 -1.057650e+000 2.086669e-004 -6.528232e+001 1.000690e+000 -6.666922e-001
41097960 9.990637e-001 -6.504223e-001 6.638349e-005 8.691980e+001 6.076148e-005 1.028233e+002 1.001285e+000 -5.169520e-001
41397945 9.988747e-001 -6.622591e-001 1.923097e-004 9.971529e+001 9.656743e-005 -1.159292e+002 1.001769e+000 -6.041343e-001
41697930 9.991066e-001 -6.826946e-001 1.253651e-004 1.031654e+002 2.735026e-004 3.810335e+001 1.000244e+000 -4.929193e-001
41997915 9.999553e-001 -6.644413e-001 5.359045e-005 -1.427854e+002 1.374324e-004 8.459507e+001 1.001793e+000 -5.591748e-001
42297900 1.000214e+000 -6.789188e-001 1.011947e-004 3.919949e+001 1.788211e-004 -1.493303e+002 1.001336e+000 -5.681971e-001
42597885 1.000624e+000 -7.145749e-001 7.135535e-005 4.948536e+001 1.284722e-004 -4.701582e+001 1.001578e+000 -4.951425e-001
42897870 9.994237e-001 -7.038889e-001 2.271272e-004 7.643799e+001 3.052006e-004 1.747610e+002 1.001327e+000 -7.476758e-001
43197855 9.997572e-001 -7.277862e-001 1.287697e-005 -9.454286e+001 2.825442e-004 2.783581e+001 9.998723e-001 -7.052751e-001
43497840 9.993325e-001 -7.186161e-001 1.461927e-004 9.705135e+001 1.843978e-004 1.099377e+002 1.000063e+000 -5.967857e-001
43797825 1.000721e+000 -6.859676e-001 1.310406e-004 -1.359743e+002 1.442090e-004 7.822429e+001 1.001407e+000 -6.248729e-001
44097810 1.001113e+000 -7.520906e-001 1.905976e-004 6.396992e+001 1.911861e-004 -5.803629e+001 1.001848e+000 -8.005103e-001
44397795 9.996953e-001 -6.547179e-001 6.695522e-005 1.452021e+002 2.564755e-004 -1.448696e+002 1.001678e+000 -6.731997e-001
44697780 1.000896e+000 -6.975748e-001 2.120408e-004 -1.596922e+002 3.556948e-004 -5.547947e+001 1.003590e+000 -7.417520e-001
44997765 1.000755e+000 -7.962570e-001 2.551568e-004 -1.002930e+002 3.302479e-004 -5.935505e+001 1.002715e+000 -7.207547e-001
45297750 1.001124e+000 -7.728594e-001 1.663656e-004 1.660297e+002 3.093918e-004 1.757980e+002 1.002003e+000 -6.107174e-001
45597735 1.000008e+000 -7.114671e-001 8.096188e-005 1.156340e+002 2.396262e-004 -1.644575e+002 1.002957e+000 -7.290407e-001
45897720 1.000455e+000 -7.231654e-001 6.205303e-005 7.395772e+001 3.026157e-004 -1.218392e+002 1.004322e+000 -6.448352e-001
46197705 1.000169e+000 -7.847606e-001 2.218888e-004 -8.365775e+001 4.256605e-005 1.332098e+002 1.001405e+000 -7.252122e-001
46497690 1.001331e+000 -7.386153e-001 1.911333e-004 -5.155788e+001 9.315789e-005 3.354745e+001 1.002013e+000 -7.465576e-001
46797675 1.000671e+000 -7.627268e-001 1.404116e-004 -6.121760e+000 1.641565e-004 7.397491e+001 1.001868e+000 -6.890122e-001
47097660 1.001215e+000 -7.998679e-001 1.203305e-004 2.300362e+001 1.323516e-004 1.753566e+002 1.000666e+000 -7.053673e-001
47397645 1.000387e+000 -8.031154e-001 1.702103e-004 6.184166e+001 2.758408e-004 -3.693173e+001 1.000855e+000 -7.474175e-001
