!Agilent Technologies,N5230C,SG49000117,A.08.50.07
!Agilent N5230C: A.08.50.07
!Date: Thursday, May 16, 2024 17:41:46
!Correction: S11(Full 2 Port(1,2)) 
!S21(Full 2 Port(1,2)) 
!S12(Full 2 Port(1,2)) 
!S22(Full 2 Port(1,2)) 
!S2P File: Measurements: S11, S21, S12, S22:
# Hz S  MA   R 50
300000 1.007181e+000 -6.111308e-001 1.343145e-004 -1.130968e+002 5.177163e-004 1.720659e+002 1.018566e+000 -8.213140e-001
599985 9.834697e-001 2.579388e-001 9.776568e-005 -1.250703e+002 1.315561e-004 1.725121e+002 9.662481e-001 2.742404e-001
899970 9.974349e-001 -1.280799e-001 5.474257e-005 -1.197939e+002 4.513295e-005 -1.171552e+002 9.843931e-001 -2.888060e-001
1199955 9.974076e-001 -1.105040e-001 6.731908e-005 2.098406e+001 1.802452e-004 4.694941e+001 9.968793e-001 -2.088303e-001
1499940 9.936636e-001 9.958851e-002 4.987309e-005 1.040017e+002 3.035186e-004 1.542382e+002 9.933044e-001 3.772297e-002
1799925 9.916570e-001 1.718663e-001 5.750787e-005 8.970370e+001 1.750823e-004 7.054821e+000 9.914106e-001 3.050921e-002
2099910 9.985938e-001 -5.166407e-002 2.530992e-005 3.630518e+000 6.487261e-005 -8.592911e+001 9.985355e-001 2.569073e-002
2399895 9.989006e-001 -1.447752e-001 8.006227e-005 3.871337e+001 1.729218e-004 1.648549e+002 1.003518e+000 -2.018470e-002
2699880 9.990785e-001 -2.920626e-001 7.096115e-005 -1.509317e+002 2.349103e-004 -7.678397e+001 9.961825e-001 -1.815407e-001
2999865 9.996135e-001 -1.728564e-001 3.444420e-005 -1.409513e+002 1.465078e-004 -1.554931e+002 9.995117e-001 -1.359704e-001
3299850 1.000410e+000 -1.622952e-001 5.190768e-005 -4.791466e+001 9.623128e-005 1.757403e+002 9.978065e-001 -1.924825e-001
3599835 9.997551e-001 -1.552842e-001 6.251829e-005 7.928022e+001 1.655109e-004 1.580665e+002 9.987727e-001 -1.753309e-001
3899820 9.996441e-001 -1.832187e-001 3.207856e-005 1.292682e+002 3.608222e-005 -6.243431e+001 9.994570e-001 -1.518729e-001
4199805 1.000211e+000 -2.156361e-001 2.649975e-005 1.307099e+002 1.278270e-004 8.726958e+001 1.000455e+000 -2.433860e-001
4499790 1.000188e+000 -2.110322e-001 3.617554e-005 4.508286e+000 6.500413e-005 -7.897032e+001 9.997624e-001 -2.040133e-001
4799775 1.000031e+000 -1.989655e-001 1.863539e-005 -1.515885e+002 1.537988e-004 1.389006e+002 1.000572e+000 -2.256340e-001
5099760 1.000131e+000 -1.908249e-001 1.989134e-005 1.265160e+002 5.293927e-005 2.675280e+000 1.001462e+000 -2.316069e-001
5399745 1.000323e+000 -1.750602e-001 2.686266e-005 1.275723e+002 8.714656e-005 -1.618082e+002 1.000275e+000 -2.036441e-001
5699730 9.996489e-001 -1.823655e-001 6.967481e-005 -1.721980e+002 7.891729e-005 -1.359185e+002 1.001105e+000 -2.199969e-001
5999715 9.994427e-001 -1.463337e-001 4.957177e-005 -1.614791e+002 7.369697e-005 7.478778e+001 1.000420e+000 -1.135364e-001
6299700 1.000016e+000 -1.750654e-001 1.385463e-004 -1.617265e+002 6.137419e-005 1.363661e+002 1.001196e+000 -1.971305e-001
6599685 9.999790e-001 -2.085597e-001 4.572207e-005 1.113672e+002 1.326007e-004 3.239348e+001 1.000224e+000 -2.309175e-001
6899670 9.989784e-001 -1.674993e-001 1.936364e-005 -5.734507e+001 6.487488e-005 -1.650886e+002 1.000317e+000 -1.618388e-001
7199655 9.995469e-001 -2.316368e-001 6.755823e-005 1.408159e+002 9.486119e-005 1.220487e+002 9.997066e-001 -2.008593e-001
7499640 9.998245e-001 -2.500602e-001 1.309285e-005 1.216507e+002 1.976603e-004 1.406949e+002 1.000339e+000 -2.664402e-001
7799625 9.997333e-001 -2.229178e-001 2.630394e-005 -5.435404e+001 1.090798e-004 -6.257936e+000 9.985450e-001 -1.055146e-001
8099610 9.997669e-001 -2.295287e-001 2.245478e-005 -3.691918e+001 1.037103e-004 -3.162597e+001 1.000037e+000 -2.443303e-001
8399595 9.998328e-001 -2.089353e-001 5.820557e-006 2.560763e+001 6.728547e-005 -7.533932e+001 1.000166e+000 -3.005461e-001
8699580 9.996241e-001 -2.281624e-001 2.062502e-005 -1.639811e+002 4.811149e-005 1.364926e+002 1.000826e+000 -2.774033e-001
8999565 9.998144e-001 -2.327674e-001 5.449176e-005 -1.682932e+002 1.920323e-004 6.850594e+001 1.000752e+000 -2.804707e-001
9299550 9.994163e-001 -2.317984e-001 5.058668e-005 1.465084e+002 1.385335e-004 -1.100187e+002 9.998462e-001 -2.713539e-001
9599535 9.996935e-001 -2.898631e-001 6.527418e-005 1.581136e+002 6.777096e-005 9.537598e+001 9.989212e-001 -3.679037e-001
9899520 9.994242e-001 -3.347284e-001 3.312873e-005 -4.088613e+001 2.071802e-004 -1.357599e+002 9.981418e-001 -4.463720e-001
10199505 1.000375e+000 -2.589402e-001 5.394534e-005 1.080408e+002 2.601138e-004 -1.664288e+002 9.992641e-001 -2.896514e-001
10499490 9.999825e-001 -2.313807e-001 7.229009e-005 -1.542700e+002 1.394452e-004 1.093224e+002 9.998472e-001 -2.410303e-001
10799475 9.997042e-001 -2.219500e-001 3.961550e-005 -1.448587e+002 3.960861e-005 3.349087e+001 1.000313e+000 -1.984559e-001
11099460 9.996396e-001 -2.529255e-001 4.925271e-005 1.050141e+002 1.023061e-004 -1.828798e+001 9.995441e-001 -2.328102e-001
11399445 1.000035e+000 -2.222791e-001 1.785512e-005 -1.677082e+002 1.050218e-004 1.495658e+002 1.000223e+000 -2.545757e-001
11699430 9.998863e-001 -2.534819e-001 4.523018e-005 -8.270612e+001 2.645639e-004 5.892755e+001 9.998153e-001 -2.001238e-001
11999415 9.999231e-001 -2.318367e-001 3.976862e-005 -1.434001e+002 2.500314e-004 -4.584222e+001 1.001112e+000 -2.532032e-001
12299400 9.996164e-001 -2.412636e-001 8.076541e-005 -7.821510e+001 2.270388e-004 -1.732076e+002 1.000198e+000 -7.935213e-002
12599385 1.000325e+000 -2.902825e-001 6.850414e-005 1.739075e+002 1.528487e-004 1.421228e+001 1.000875e+000 -2.526022e-001
12899370 1.000300e+000 -3.615642e-001 3.154705e-005 -8.146017e+001 9.014244e-005 -4.975038e+001 1.000470e+000 -3.241553e-001
13199355 9.997128e-001 -3.235171e-001 5.732966e-005 -8.759255e+000 1.820460e-004 -8.271342e+001 9.993910e-001 -2.494779e-001
13499340 1.000168e+000 -3.106709e-001 5.127865e-005 1.728480e+002 2.593477e-004 -8.362173e+001 9.992626e-001 -3.148422e-001
13799325 9.998313e-001 -3.405042e-001 6.635239e-005 8.876105e+001 6.086565e-005 -5.219986e+001 9.998872e-001 -2.771356e-001
14099310 9.993783e-001 -3.494378e-001 1.833699e-005 -8.620940e+001 2.382443e-004 1.303623e+002 9.997771e-001 -2.422036e-001
14399295 1.000066e+000 -3.613181e-001 5.933354e-005 -8.811148e+000 1.808748e-004 1.753700e+002 1.000808e+000 -2.565977e-001
14699280 9.995579e-001 -2.974872e-001 9.151488e-005 -8.870443e+001 1.053011e-004 -3.229602e+000 9.998767e-001 -2.529262e-001
14999265 1.000100e+000 -3.301156e-001 1.290255e-004 1.676178e+002 6.305283e-005 1.420273e+001 1.000452e+000 -3.629605e-001
15299250 9.991245e-001 -3.202907e-001 5.479271e-005 9.096723e+000 1.658698e-004 -7.022666e+000 1.000016e+000 -3.215367e-001
15599235 9.998951e-001 -3.202845e-001 1.664458e-006 1.331183e+002 1.112478e-004 1.422957e+002 1.000415e+000 -2.545859e-001
15899220 9.991592e-001 -3.335083e-001 1.502793e-004 1.702311e+002 2.616056e-004 3.163336e+001 1.000079e+000 -2.325885e-001
16199205 9.998839e-001 -3.263815e-001 1.060049e-004 5.982645e+001 3.460609e-004 1.676535e+002 1.000715e+000 -3.083898e-001
16499190 9.993219e-001 -3.167193e-001 3.477615e-005 -1.047479e+002 2.476441e-004 2.256447e+001 1.002578e+000 -3.314654e-001
16799175 9.990380e-001 -3.373471e-001 1.658283e-004 -7.411884e+001 1.973518e-005 -1.451375e+002 1.000667e+000 -3.095970e-001
17099160 9.997629e-001 -3.476203e-001 6.398806e-005 1.322903e+002 2.854770e-004 -7.591627e+001 1.001230e+000 -2.725317e-001
17399145 9.994560e-001 -3.971598e-001 1.039827e-004 -9.117924e+001 1.590369e-004 -1.656078e+002 1.001031e+000 -2.209704e-001
17699130 1.000298e+000 -3.670287e-001 3.700931e-005 1.467013e+002 2.924607e-004 -4.062882e+000 1.000772e+000 -3.003722e-001
17999115 9.995410e-001 -3.913080e-001 6.727962e-005 5.655077e+001 2.566533e-004 -1.209146e+001 1.001100e+000 -2.822911e-001
18299100 9.997877e-001 -3.553142e-001 4.543064e-005 1.100071e+002 2.055672e-004 -1.717784e+002 1.001412e+000 -3.829203e-001
18599085 9.994292e-001 -4.198821e-001 1.058312e-004 -9.027164e+001 1.910563e-004 -1.980220e+001 9.996653e-001 -3.381651e-001
18899070 1.000118e+000 -4.006014e-001 2.181375e-005 1.755136e+002 1.273248e-004 7.561828e+001 1.000942e+000 -2.683231e-001
19199055 9.996458e-001 -4.112062e-001 1.261689e-005 4.191397e+001 1.868732e-004 2.621736e+000 9.997074e-001 -3.427955e-001
19499040 9.997075e-001 -3.680098e-001 5.049826e-005 -9.397291e+001 1.231075e-004 9.426752e+001 9.999845e-001 -2.696809e-001
19799025 9.996709e-001 -3.863088e-001 4.029451e-005 -8.082209e+001 2.005657e-004 -9.821009e+001 9.998339e-001 -2.765972e-001
20099010 9.996916e-001 -4.344219e-001 9.578326e-005 -6.174781e+000 1.844738e-004 1.244902e+002 9.987676e-001 -3.548914e-001
20398995 9.995544e-001 -3.993310e-001 6.728801e-005 -5.260973e+001 1.199570e-004 -9.601622e+001 9.991496e-001 -4.068300e-001
20698980 9.991673e-001 -4.283428e-001 9.224375e-005 1.071698e+002 2.503026e-004 1.668219e+002 1.000191e+000 -3.857048e-001
20998965 9.995264e-001 -4.301378e-001 5.394544e-005 1.304827e+002 9.967486e-005 -8.419210e+001 9.985182e-001 -3.261905e-001
21298950 9.986538e-001 -4.320770e-001 3.402950e-005 1.069414e+002 5.573111e-005 -1.551621e+002 9.999121e-001 -2.423721e-001
21598935 9.995559e-001 -4.420798e-001 4.709923e-005 5.230764e+001 1.644084e-004 -1.018756e+002 9.981866e-001 -2.775994e-001
21898920 9.991504e-001 -4.931024e-001 1.100688e-004 -1.524896e+002 1.361523e-004 1.190891e+002 9.997011e-001 -3.382727e-001
22198905 9.998544e-001 -4.346318e-001 7.618997e-005 -4.987079e-001 3.935457e-005 -1.204785e+002 9.994708e-001 -3.543596e-001
22498890 9.998680e-001 -4.037250e-001 8.864419e-005 1.620762e+002 3.042727e-004 1.000723e+002 1.000714e+000 -2.885025e-001
22798875 1.000316e+000 -4.202580e-001 7.585017e-005 1.294555e+002 3.171730e-004 -1.397560e+002 9.999867e-001 -4.085920e-001
23098860 1.000402e+000 -4.539390e-001 1.765525e-005 2.279296e+001 1.493355e-004 1.086136e+002 9.999281e-001 -3.022585e-001
23398845 1.000150e+000 -4.701954e-001 6.703517e-005 1.182826e+001 3.712396e-004 -1.101598e+002 1.000403e+000 -4.031059e-001
23698830 1.000422e+000 -4.669252e-001 7.586365e-005 -1.761349e+001 1.468375e-004 -1.840495e+001 9.982981e-001 -3.433966e-001
23998815 9.993412e-001 -4.790159e-001 7.611672e-005 9.703788e+000 2.617997e-004 1.309220e+002 9.977958e-001 -3.819845e-001
24298800 9.989973e-001 -5.007902e-001 1.570957e-004 9.959046e+001 1.388711e-004 8.282724e+001 9.989805e-001 -3.331891e-001
24598785 1.000238e+000 -4.631406e-001 7.691936e-005 1.228513e+002 2.643685e-004 -1.565873e+002 9.981000e-001 -3.441229e-001
24898770 9.999408e-001 -5.247277e-001 6.419307e-005 9.119561e+001 4.259762e-005 -6.682387e+001 1.001190e+000 -3.802452e-001
25198755 9.999328e-001 -5.166409e-001 3.906298e-005 -1.043464e+002 1.183071e-004 1.322754e+002 1.001248e+000 -4.444980e-001
25498740 9.996414e-001 -4.924546e-001 2.884514e-005 -1.386981e+002 1.376409e-004 -1.213999e+002 1.000174e+000 -4.033935e-001
25798725 9.991521e-001 -5.299076e-001 8.783838e-006 -1.237295e+002 2.577123e-004 3.805985e+001 1.000311e+000 -4.221259e-001
26098710 1.000310e+000 -4.956069e-001 6.707888e-005 -1.244563e+002 4.332969e-004 -1.715650e+002 1.000271e+000 -4.517367e-001
26398695 1.000435e+000 -5.559976e-001 1.153711e-004 -1.083754e+002 5.780192e-005 -1.074255e+002 1.000423e+000 -3.784971e-001
26698680 1.000518e+000 -4.994066e-001 1.455279e-004 -5.103828e+001 1.036600e-004 -1.247622e+002 1.000652e+000 -4.057034e-001
26998665 1.000165e+000 -5.137852e-001 7.277104e-005 -7.828858e+001 2.598433e-004 -4.574625e+001 1.000001e+000 -3.812557e-001
27298650 9.999641e-001 -5.035931e-001 7.809331e-005 -1.473279e+002 1.509084e-004 6.686540e+001 9.992061e-001 -4.264818e-001
27598635 9.997008e-001 -5.188043e-001 1.118720e-004 4.542651e+001 1.459328e-004 -1.368780e+002 1.001026e+000 -4.364411e-001
27898620 9.997790e-001 -5.169617e-001 8.313318e-005 -1.368213e+001 2.213640e-004 1.770153e+002 1.001150e+000 -4.083595e-001
28198605 9.993928e-001 -5.383216e-001 1.053058e-004 1.070349e+001 1.949993e-004 1.601999e+002 1.001869e+000 -4.580403e-001
28498590 9.991017e-001 -5.676112e-001 1.117291e-004 9.885886e+001 1.578067e-004 -2.722006e+001 9.998165e-001 -4.708088e-001
28798575 9.993755e-001 -5.767707e-001 1.657885e-005 8.248718e+000 4.967938e-005 -2.886892e+001 9.997700e-001 -5.469396e-001
29098560 9.991068e-001 -5.655245e-001 4.343228e-005 1.127087e+002 1.318291e-004 -1.241908e+002 1.000106e+000 -5.012913e-001
29398545 9.998167e-001 -5.036991e-001 1.198014e-004 1.065122e+002 1.023282e-004 1.484277e+002 1.001289e+000 -4.401603e-001
29698530 9.994905e-001 -5.423494e-001 1.585657e-004 -7.157253e+001 9.349949e-005 7.388678e+001 1.001062e+000 -4.191691e-001
29998515 9.994446e-001 -5.848171e-001 4.171708e-005 -1.468507e+002 2.205260e-004 3.911107e+001 1.002009e+000 -4.810032e-001
30298500 9.998430e-001 -5.640385e-001 1.130887e-004 -1.526461e+002 1.904474e-004 5.545901e+001 1.002169e+000 -5.634666e-001
30598485 9.990791e-001 -5.507529e-001 6.005229e-005 8.950831e+001 1.981985e-004 -8.245348e+001 1.001795e+000 -4.954580e-001
30898470 1.000012e+000 -5.493614e-001 1.530197e-004 -1.598689e+002 2.021612e-004 3.765785e+001 1.000586e+000 -4.912177e-001
31198455 9.999989e-001 -5.736408e-001 1.009315e-004 2.133060e+001 1.386401e-004 -1.784930e+002 1.000267e+000 -4.148190e-001
31498440 1.000260e+000 -6.080802e-001 6.063927e-005 6.129833e+001 2.018722e-004 -7.152104e+000 1.001173e+000 -4.622359e-001
31798425 9.998837e-001 -6.717260e-001 2.990113e-005 -4.481500e+001 1.603105e-004 1.704853e+002 1.001132e+000 -4.693094e-001
32098410 1.000022e+000 -6.637763e-001 5.306027e-005 3.498782e+001 1.609320e-004 -7.836701e+001 1.001367e+000 -4.472344e-001
32398395 1.000558e+000 -6.618323e-001 1.642471e-004 -8.794791e+001 3.050789e-004 1.514570e+002 1.000497e+000 -4.579919e-001
32698380 1.000415e+000 -6.468039e-001 8.944154e-005 -2.528917e+001 1.358577e-004 -5.453333e+001 1.001252e+000 -4.743997e-001
32998365 1.000547e+000 -6.549804e-001 5.480922e-005 -1.564589e+002 9.111829e-005 1.070144e+002 1.001132e+000 -4.080248e-001
33298350 9.998432e-001 -6.195218e-001 4.891278e-005 1.729133e+002 1.078605e-004 -9.393108e+001 1.000761e+000 -4.659618e-001
33598335 9.992875e-001 -6.190602e-001 6.375030e-005 8.532928e+001 6.741669e-005 1.036237e+002 1.000551e+000 -4.871141e-001
33898320 9.989240e-001 -6.613252e-001 5.619126e-005 7.952416e+001 2.309573e-004 1.684199e+002 1.001020e+000 -4.908880e-001
34198305 9.992081e-001 -6.808247e-001 5.656752e-005 4.665127e+001 2.092461e-004 -1.303446e+001 9.995307e-001 -5.289874e-001
34498290 9.992996e-001 -6.817795e-001 3.734327e-005 -5.540868e+001 1.360947e-004 6.266816e+001 9.998742e-001 -4.754356e-001
34798275 9.993051e-001 -6.985115e-001 1.028004e-004 1.356378e+002 8.640154e-005 -1.668701e+002 9.985753e-001 -5.176158e-001
35098260 9.996343e-001 -6.686433e-001 9.090388e-005 1.145237e+002 2.155423e-004 1.047048e+002 1.001107e+000 -4.572336e-001
35398245 9.997483e-001 -7.162851e-001 8.320811e-005 -1.389205e+002 1.186057e-004 -1.394609e+002 1.001269e+000 -4.383994e-001
35698230 9.995927e-001 -7.169300e-001 3.057413e-005 -9.256932e+000 1.038511e-004 -7.320118e+001 1.002258e+000 -5.370913e-001
35998215 9.996909e-001 -7.032672e-001 1.773207e-005 -1.354145e+002 1.591707e-004 -3.387434e+001 1.000831e+000 -5.357856e-001
36298200 1.000543e+000 -6.949368e-001 3.532730e-005 2.358673e+001 2.645866e-004 5.284627e+000 1.000683e+000 -5.437592e-001
36598185 9.993091e-001 -7.208277e-001 2.879880e-005 1.090063e+002 1.685051e-004 -1.327606e+002 1.000748e+000 -5.187468e-001
36898170 1.000474e+000 -7.003434e-001 1.188316e-004 7.122462e+001 1.283932e-004 5.311971e+001 9.999964e-001 -5.309995e-001
37198155 9.999964e-001 -6.920287e-001 4.446385e-005 3.908524e+001 1.184882e-004 -1.743824e+002 9.993896e-001 -5.438527e-001
37498140 1.000182e+000 -7.244319e-001 1.553330e-004 -8.093019e+001 3.341619e-004 3.583459e-001 1.001424e+000 -5.124049e-001
37798125 9.994682e-001 -7.083544e-001 1.624352e-004 1.734746e+002 1.377249e-004 -1.719986e+002 1.000415e+000 -5.284775e-001
38098110 9.993003e-001 -7.199877e-001 3.970867e-005 1.763972e+002 1.970936e-005 -4.077990e+001 1.000383e+000 -5.716045e-001
38398095 9.992705e-001 -7.269180e-001 6.884155e-005 -1.072353e+002 5.697745e-005 1.206067e+002 1.000111e+000 -6.243597e-001
38698080 9.993541e-001 -7.471206e-001 2.278712e-005 4.246849e+001 2.864910e-004 -9.070232e+001 9.997596e-001 -6.188293e-001
38998065 1.000094e+000 -7.267106e-001 6.279111e-005 1.737947e+002 1.528881e-004 3.204991e+001 1.000114e+000 -5.874583e-001
39298050 9.996170e-001 -7.657170e-001 5.055632e-005 -1.323086e+002 1.142604e-004 -1.316335e+002 1.000018e+000 -5.217773e-001
39598035 1.000388e+000 -7.169485e-001 6.154155e-005 1.178419e+002 1.645924e-004 2.616564e+001 1.002205e+000 -4.840586e-001
39898020 1.000239e+000 -7.042727e-001 3.798300e-005 -7.076093e+000 6.627134e-005 -1.743285e+002 1.002461e+000 -4.615006e-001
40198005 1.000111e+000 -7.174944e-001 5.169859e-005 1.024219e+001 2.001401e-004 -3.355946e+001 1.001149e+000 -6.226254e-001
40497990 1.001220e+000 -7.420855e-001 4.531803e-005 -1.005957e+002 1.691791e-004 -6.250367e+001 1.001658e+000 -6.591637e-001
40797975 1.000382e+000 -7.471873e-001 1.909214e-004 1.971287e+001 3.790736e-004 -1.564871e+001 1.002059e+000 -6.954085e-001
41097960 9.994473e-001 -7.919683e-001 1.173133e-004 5.729357e+001 2.050910e-004 1.170762e+002 1.002607e+000 -5.848992e-001
41397945 9.996045e-001 -7.435648e-001 1.560339e-004 -1.790998e+002 2.093539e-004 -9.206485e+001 1.002278e+000 -4.981842e-001
41697930 9.994420e-001 -7.195294e-001 2.351390e-004 1.770569e+002 2.754351e-004 1.631898e+002 1.001019e+000 -4.395299e-001
41997915 9.994077e-001 -7.605148e-001 1.639624e-004 1.546540e+002 1.833602e-004 6.072917e+001 1.001568e+000 -4.666894e-001
42297900 1.000101e+000 -7.153280e-001 1.130907e-004 -6.559960e+001 4.173245e-004 1.552440e+002 1.001194e+000 -6.016476e-001
42597885 9.996439e-001 -7.679731e-001 7.933114e-005 8.606593e+000 1.747709e-004 -4.441528e-001 1.001564e+000 -6.156115e-001
42897870 1.000705e+000 -7.240277e-001 1.568122e-004 -1.544820e+001 1.045314e-004 1.105008e+002 1.001350e+000 -6.475876e-001
43197855 9.997524e-001 -8.047104e-001 2.288472e-004 -1.699747e+002 7.019850e-005 8.255838e+001 1.001663e+000 -5.969588e-001
43497840 1.000531e+000 -8.510806e-001 2.054717e-004 1.394517e+002 2.534550e-004 3.293827e+001 1.001037e+000 -6.534569e-001
43797825 9.993197e-001 -7.039164e-001 1.198021e-004 -1.500512e+002 1.249110e-004 1.849975e+001 1.001819e+000 -6.517632e-001
44097810 1.000011e+000 -7.542537e-001 2.203069e-004 -7.925515e+001 2.940985e-004 1.340536e+001 9.993896e-001 -6.298545e-001
44397795 1.000247e+000 -8.168449e-001 1.431389e-004 1.367569e+002 1.108291e-004 -1.609836e+002 1.001338e+000 -7.033839e-001
44697780 1.000873e+000 -8.320113e-001 9.004308e-005 -8.204389e+001 4.188965e-004 -4.143715e+001 1.002123e+000 -7.063711e-001
44997765 1.000634e+000 -8.840613e-001 1.308449e-004 -1.271481e+002 1.229914e-004 -7.704869e+001 1.001040e+000 -6.906090e-001
45297750 1.001359e+000 -8.746219e-001 2.963880e-004 -1.535225e+002 1.324299e-004 -1.665275e+001 1.002077e+000 -6.250386e-001
45597735 1.001173e+000 -8.854703e-001 1.658849e-004 1.367566e+002 4.185509e-004 -1.697044e+002 1.003766e+000 -6.787138e-001
45897720 1.000556e+000 -8.034946e-001 1.176798e-004 -9.645098e-001 3.241564e-004 5.411007e+001 1.002923e+000 -6.823456e-001
46197705 1.001034e+000 -8.312722e-001 6.597454e-005 -1.688586e+002 9.872248e-005 7.701222e+001 1.003583e+000 -6.510735e-001
46497690 1.001777e+000 -8.824386e-001 1.856873e-004 1.218695e+002 2.740422e-004 1.345387e+002 1.001850e+000 -7.120774e-001
46797675 1.000633e+000 -9.153863e-001 7.146341e-005 9.920374e+001 5.354861e-004 7.917082e+001 1.001360e+000 -7.010838e-001
47097660 1.000458e+000 -8.993118e-001 4.840333e-005 1.023136e+002 2.532798e-004 1.959691e+001 1.001799e+000 -8.785999e-001
