!Agilent Technologies,N5230C,SG49000117,A.08.50.07
!Agilent N5230C: A.08.50.07
!Date: Thursday, May 16, 2024 17:42:58
!Correction: S11(Full 2 Port(1,2)) 
!S21(Full 2 Port(1,2)) 
!S12(Full 2 Port(1,2)) 
!S22(Full 2 Port(1,2)) 
!S2P File: Measurements: S11, S21, S12, S22:
# Hz S  MA   R 50
300000 1.005965e+000 -5.216635e-001 1.441203e-004 1.403024e+002 1.220759e-004 5.470492e+001 1.014249e+000 -6.269140e-001
599985 9.824767e-001 2.733316e-001 1.017678e-004 -5.410671e+001 2.334354e-004 -1.117064e+002 9.660293e-001 3.644581e-001
899970 9.962239e-001 -1.429382e-001 1.130871e-005 -6.015157e+000 1.806187e-005 3.698078e+001 9.837187e-001 -3.566324e-001
1199955 9.974467e-001 -9.860437e-002 1.160838e-004 1.162419e+002 2.433593e-004 -7.857061e+001 9.961472e-001 -1.824327e-001
1499940 9.935254e-001 9.983664e-002 5.509207e-005 1.069112e+002 2.122582e-004 -1.534178e+002 9.926701e-001 6.323036e-002
1799925 9.914401e-001 2.011564e-001 1.026861e-004 8.322250e+001 1.499421e-004 -1.098251e+001 9.908404e-001 6.307425e-002
2099910 9.978482e-001 -5.250099e-002 1.193618e-004 -7.132712e+001 3.760582e-004 5.252670e+001 9.977360e-001 2.737171e-002
2399895 9.989798e-001 -1.618652e-001 1.949837e-005 1.163374e+002 6.960775e-005 9.516827e+000 1.003600e+000 -6.856167e-003
2699880 9.988421e-001 -2.850172e-001 4.081443e-005 -6.399082e+001 1.819827e-004 -1.021605e+002 9.959388e-001 -1.618908e-001
2999865 9.988108e-001 -1.889065e-001 1.072330e-004 -1.197350e+002 1.141027e-004 -4.714173e+001 9.990159e-001 -1.644678e-001
3299850 9.998617e-001 -1.697217e-001 1.379637e-005 1.246055e+001 1.391179e-004 1.402353e+002 9.985842e-001 -1.948593e-001
3599835 9.998584e-001 -1.536179e-001 5.008444e-005 -1.190841e+002 2.067788e-004 1.673142e+002 9.987646e-001 -1.379681e-001
3899820 9.988331e-001 -1.798533e-001 1.327986e-005 -1.777837e+002 1.555842e-004 -8.613793e+000 9.983050e-001 -1.909436e-001
4199805 9.997203e-001 -2.246660e-001 1.121681e-005 7.591724e+001 2.754332e-004 -4.502034e+001 9.997578e-001 -2.333636e-001
4499790 9.994900e-001 -2.145817e-001 4.544412e-005 -1.771396e+002 6.416406e-005 1.368887e+002 1.000304e+000 -1.841949e-001
4799775 9.999865e-001 -2.070150e-001 8.672752e-005 1.500098e+002 2.525497e-004 1.341243e+002 1.000552e+000 -1.506170e-001
5099760 9.998990e-001 -1.676097e-001 1.149785e-004 -1.762143e+002 1.480626e-005 -3.631150e+001 1.000360e+000 -1.617289e-001
5399745 1.000079e+000 -1.928066e-001 1.183422e-004 1.742956e+002 8.179814e-005 9.886897e+001 1.000738e+000 -1.224033e-001
5699730 1.000023e+000 -1.864358e-001 6.787672e-005 -9.112229e+001 2.667597e-004 -7.058331e+001 1.001729e+000 -1.737564e-001
5999715 9.989247e-001 -1.634717e-001 2.079568e-005 -1.749594e+002 1.376878e-004 3.994970e+001 1.001512e+000 -1.194150e-001
6299700 9.992377e-001 -1.850577e-001 6.075340e-005 -8.982960e+000 8.210984e-005 4.106747e+001 1.000675e+000 -1.413955e-001
6599685 9.992595e-001 -2.066648e-001 8.500949e-005 -5.323182e+001 1.299825e-004 -2.880075e+001 1.000750e+000 -1.888591e-001
6899670 9.991029e-001 -1.814033e-001 5.078246e-005 5.085149e+001 2.381144e-005 1.019493e+002 9.998893e-001 -2.023297e-001
7199655 9.991796e-001 -2.041282e-001 1.414578e-004 -1.922723e+000 5.561836e-005 -1.675208e+002 9.997082e-001 -1.980194e-001
7499640 9.993027e-001 -2.441995e-001 6.242397e-005 -1.459576e+002 1.667774e-004 4.541133e+001 9.993003e-001 -2.417415e-001
7799625 9.999147e-001 -2.251476e-001 2.400451e-005 -4.846095e+001 9.045863e-005 1.206200e+002 9.994335e-001 -1.781053e-001
8099610 9.996377e-001 -2.130183e-001 1.522682e-004 9.150933e+001 9.975743e-005 1.672844e+002 9.992795e-001 -3.106658e-001
8399595 9.993105e-001 -2.259315e-001 2.038007e-005 1.782621e+002 1.074774e-004 1.634216e+002 9.991945e-001 -2.644226e-001
8699580 9.993774e-001 -2.284822e-001 1.982725e-005 -4.389724e+001 1.105400e-004 1.638129e+002 1.000458e+000 -2.506398e-001
8999565 9.986005e-001 -2.106472e-001 2.672672e-005 3.384169e+001 2.865954e-004 1.779815e+002 1.000067e+000 -2.949703e-001
9299550 9.994049e-001 -2.528626e-001 7.852996e-005 -6.797452e+001 1.693490e-004 -8.282974e+001 9.996633e-001 -2.350413e-001
9599535 9.993042e-001 -3.121598e-001 1.023408e-004 1.448349e+002 2.124137e-004 2.671402e+001 9.978890e-001 -3.555750e-001
9899520 9.989731e-001 -3.508059e-001 4.488360e-005 -1.237209e+002 1.853027e-004 -1.026454e+002 9.980983e-001 -5.331961e-001
10199505 1.000028e+000 -2.483692e-001 5.698670e-005 -1.488318e+002 5.742451e-005 1.467594e+002 1.000334e+000 -2.162574e-001
10499490 9.990040e-001 -2.676462e-001 5.239683e-005 3.194783e+001 1.837734e-004 1.536911e+002 9.992569e-001 -2.339971e-001
10799475 9.992799e-001 -2.410069e-001 1.176606e-004 -1.682290e+002 2.964856e-004 -3.316118e+001 1.000443e+000 -2.195998e-001
11099460 9.992071e-001 -2.522341e-001 2.905060e-005 5.303565e+001 1.474648e-004 1.497051e+002 9.997720e-001 -2.334429e-001
11399445 9.994761e-001 -2.723386e-001 8.838853e-005 1.169147e+002 1.290688e-004 1.673263e+001 9.998621e-001 -2.585572e-001
11699430 9.999720e-001 -2.480124e-001 7.633656e-006 1.397424e+002 8.230747e-005 -5.772245e+001 9.993764e-001 -1.657177e-001
11999415 9.989300e-001 -3.102492e-001 3.178054e-005 -6.305150e+001 9.485297e-005 1.130618e+002 9.995422e-001 -2.266386e-001
12299400 9.995783e-001 -2.809666e-001 4.146845e-005 8.055361e+001 1.144033e-004 4.442840e+001 1.001563e+000 -1.452470e-001
12599385 9.993477e-001 -3.179076e-001 4.687930e-005 -7.105443e+001 6.030758e-005 -2.811645e+001 1.000494e+000 -3.207346e-001
12899370 9.994335e-001 -3.069169e-001 4.971712e-005 -7.325941e+001 1.481021e-004 -1.687294e+002 1.000507e+000 -4.082579e-001
13199355 9.992406e-001 -3.430722e-001 9.705815e-006 1.427701e+002 1.889643e-004 -1.512263e+002 9.990132e-001 -2.847011e-001
13499340 9.991711e-001 -3.389512e-001 5.066345e-005 3.051637e+001 2.413166e-004 1.420486e+002 9.984442e-001 -2.047119e-001
13799325 9.991268e-001 -3.554227e-001 2.716585e-005 5.432462e+001 3.370548e-004 -6.320354e+001 9.993154e-001 -1.756747e-001
14099310 9.994074e-001 -3.340698e-001 6.595743e-005 4.280858e+001 2.379435e-004 6.804773e+001 1.000543e+000 -2.721252e-001
14399295 1.000154e+000 -3.432387e-001 4.075044e-005 -7.085184e+001 1.059898e-004 -8.705236e+001 1.000411e+000 -2.500138e-001
14699280 9.995813e-001 -3.155010e-001 1.050145e-004 1.223056e+002 4.552836e-005 7.929659e+001 1.000334e+000 -2.726672e-001
14999265 9.996212e-001 -3.388554e-001 4.061155e-005 -1.270190e+002 2.392631e-004 1.408460e+002 9.989112e-001 -3.228638e-001
15299250 9.989464e-001 -2.897897e-001 4.130980e-005 8.544608e+001 2.302539e-004 -6.134370e+001 1.000075e+000 -2.280060e-001
15599235 9.992352e-001 -3.513071e-001 4.896919e-005 1.542413e+002 1.508994e-004 1.276557e+002 9.996301e-001 -2.760696e-001
15899220 9.997744e-001 -3.067757e-001 1.780074e-005 -8.406952e+001 1.906482e-004 -3.114137e+001 1.000376e+000 -1.978050e-001
16199205 9.993567e-001 -3.644243e-001 4.064186e-005 3.314114e+001 2.138885e-004 1.268753e+002 1.000124e+000 -3.146941e-001
16499190 9.989278e-001 -3.380713e-001 1.196584e-004 -1.452296e+002 2.629529e-004 -6.069838e+001 1.000450e+000 -2.999815e-001
16799175 9.993434e-001 -3.512979e-001 1.065883e-004 -7.011898e+000 1.240002e-004 8.629548e+001 1.001563e+000 -2.825674e-001
17099160 9.993954e-001 -3.848910e-001 5.115556e-005 8.081772e+000 2.631350e-004 -1.416349e+002 1.001844e+000 -2.620373e-001
17399145 9.996270e-001 -3.721191e-001 5.229554e-005 -4.196560e+001 4.082778e-004 2.118164e+001 1.001313e+000 -2.312198e-001
17699130 9.992542e-001 -3.975533e-001 9.668450e-005 -1.785078e+002 2.276256e-004 6.469411e+001 1.000904e+000 -2.460169e-001
17999115 9.995938e-001 -3.630690e-001 6.317866e-005 1.067983e+002 3.328118e-004 -1.911411e+001 1.001009e+000 -3.238816e-001
18299100 9.993017e-001 -4.082802e-001 1.820449e-005 -1.300091e+002 3.025696e-004 1.943936e+001 1.001206e+000 -3.306971e-001
18599085 9.990696e-001 -4.134685e-001 2.709808e-005 -1.665246e+002 2.333662e-004 -2.080513e+001 9.997216e-001 -2.908607e-001
18899070 9.997157e-001 -4.225737e-001 5.171983e-005 -5.209039e+001 8.238367e-005 4.975010e+001 1.000323e+000 -2.525769e-001
19199055 9.995224e-001 -4.079553e-001 6.939418e-005 -9.085436e+001 1.773722e-004 -1.031147e+002 1.000335e+000 -3.378167e-001
19499040 9.998853e-001 -3.931995e-001 7.784322e-005 1.167364e+002 6.993132e-005 4.859282e+000 1.000176e+000 -2.921495e-001
19799025 1.000076e+000 -4.189809e-001 1.287610e-004 -1.676889e+002 2.940588e-004 1.737781e+002 9.995720e-001 -3.147460e-001
20099010 9.992562e-001 -4.097858e-001 3.553267e-005 -1.877324e+001 6.684200e-005 1.727838e+002 9.996833e-001 -3.243970e-001
20398995 9.987456e-001 -4.250463e-001 1.109521e-004 -7.363503e+001 3.124965e-004 -1.418018e+002 1.001255e+000 -4.535520e-001
20698980 9.987521e-001 -3.940807e-001 1.169028e-004 4.291692e+001 2.297039e-004 -1.040333e+002 9.992127e-001 -3.083601e-001
20998965 9.979901e-001 -4.153059e-001 3.392761e-005 -5.742814e+000 1.150480e-004 -1.597134e+002 9.991753e-001 -3.019615e-001
21298950 9.987353e-001 -4.223262e-001 9.984941e-005 1.430030e+002 6.122168e-005 -5.745476e+001 9.998213e-001 -3.563467e-001
21598935 9.984871e-001 -4.458005e-001 1.160194e-004 -4.352460e+001 1.945202e-004 1.246239e+002 9.992297e-001 -2.912476e-001
21898920 9.989047e-001 -4.730437e-001 6.197725e-005 1.486508e+002 5.650429e-005 -1.631213e+002 9.990373e-001 -3.113264e-001
22198905 9.997421e-001 -4.685196e-001 2.309153e-005 -1.671651e+002 1.920922e-004 7.702011e+001 9.992222e-001 -3.611472e-001
22498890 9.992762e-001 -4.651447e-001 2.086029e-005 1.345204e+002 1.786136e-004 -9.665289e+001 9.996250e-001 -3.107458e-001
22798875 9.994373e-001 -4.489042e-001 9.342884e-005 -1.060917e+002 2.366799e-004 -5.295266e+001 1.001186e+000 -3.573142e-001
23098860 9.998428e-001 -4.711095e-001 1.874815e-005 -1.446622e+002 1.324495e-004 6.747455e+001 9.994508e-001 -3.087045e-001
23398845 9.994654e-001 -4.923887e-001 5.221196e-005 -5.136449e+001 1.114519e-005 1.233449e+002 1.000284e+000 -3.741557e-001
23698830 9.993060e-001 -5.063105e-001 9.880674e-005 -1.201916e+002 2.627540e-004 1.682574e+002 9.998177e-001 -3.619941e-001
23998815 9.992320e-001 -5.028315e-001 8.097132e-005 -2.374994e+001 1.390861e-004 1.173017e+002 9.984469e-001 -3.451373e-001
24298800 9.988952e-001 -4.982007e-001 6.996704e-005 1.359005e+002 2.651213e-005 1.613040e+002 9.989186e-001 -3.811546e-001
24598785 9.998512e-001 -4.860516e-001 4.918710e-005 -1.225716e+002 1.751474e-004 -1.533529e+002 9.988892e-001 -3.328850e-001
24898770 9.993425e-001 -5.310305e-001 7.034113e-005 7.457614e+001 2.757075e-004 7.810641e+001 9.993611e-001 -3.855447e-001
25198755 9.993137e-001 -5.319015e-001 1.140674e-004 1.409805e+002 2.606337e-004 3.565155e+000 9.999446e-001 -3.976288e-001
25498740 9.994765e-001 -5.483377e-001 4.638087e-005 1.469411e+002 4.016061e-005 -2.642113e+001 9.999635e-001 -4.349278e-001
25798725 9.992297e-001 -5.368636e-001 3.438091e-005 1.117381e+002 1.455425e-004 -9.956786e+001 1.001051e+000 -4.631273e-001
26098710 9.998602e-001 -4.956817e-001 1.199269e-004 -1.189894e+002 2.107140e-004 -3.876523e+001 1.002460e+000 -4.177332e-001
26398695 9.996309e-001 -5.462747e-001 1.546071e-004 -1.769943e+002 2.641152e-004 6.906677e+001 1.000603e+000 -4.357531e-001
26698680 1.000402e+000 -5.539927e-001 7.931323e-005 -7.162436e+001 1.677239e-004 -1.714843e+002 1.000399e+000 -4.470619e-001
26998665 1.000473e+000 -5.350106e-001 1.182192e-004 -1.653821e+002 1.694821e-004 7.043344e+001 1.000864e+000 -3.645330e-001
27298650 9.991859e-001 -5.090687e-001 9.079536e-005 -7.725825e+001 1.298143e-004 -4.023826e+001 1.001116e+000 -4.449832e-001
27598635 9.990968e-001 -5.410651e-001 7.717607e-005 -3.518821e+001 2.550838e-004 1.923024e+001 1.001376e+000 -4.402464e-001
27898620 9.991677e-001 -5.092968e-001 1.278072e-004 -1.140686e+002 1.762272e-004 1.361540e+002 1.001862e+000 -4.203556e-001
28198605 1.000927e+000 -5.562806e-001 4.405286e-005 -1.247906e+002 2.563208e-004 9.195747e+000 1.001220e+000 -4.572165e-001
28498590 9.987797e-001 -5.789761e-001 7.262247e-005 2.234645e+001 1.599827e-004 1.354284e+002 9.998924e-001 -3.774692e-001
28798575 9.993525e-001 -6.170818e-001 1.444438e-004 -1.674368e+002 2.224559e-004 -1.609411e+002 1.000097e+000 -5.186948e-001
29098560 9.987906e-001 -5.842991e-001 1.260481e-004 -3.897456e+001 1.525651e-004 9.528473e+000 1.000356e+000 -4.378815e-001
29398545 9.990778e-001 -5.617459e-001 2.274419e-005 -7.837906e+001 5.556779e-005 -9.743974e+001 1.000246e+000 -3.979084e-001
29698530 9.989602e-001 -5.946238e-001 1.059878e-004 8.991718e+000 9.296006e-005 -3.321283e-001 1.000734e+000 -4.456967e-001
29998515 9.988700e-001 -5.694612e-001 1.631023e-004 1.713856e+002 9.480137e-005 6.555264e+001 1.002820e+000 -4.284708e-001
30298500 9.994420e-001 -5.943233e-001 7.584295e-005 1.173948e+002 1.079648e-004 -1.210986e+000 1.001293e+000 -5.442423e-001
30598485 9.990810e-001 -5.852908e-001 6.300990e-005 -2.749771e+001 9.041022e-005 1.300764e+002 1.001209e+000 -4.812045e-001
30898470 9.996862e-001 -5.573317e-001 6.762070e-005 1.269614e+002 1.504346e-004 -5.772657e+001 9.988971e-001 -4.378435e-001
31198455 9.996477e-001 -5.497297e-001 1.118972e-004 -6.013600e+001 2.752661e-004 9.323629e+001 1.000639e+000 -5.053898e-001
31498440 9.997813e-001 -6.518028e-001 5.532585e-005 -3.594933e+001 3.212171e-004 1.733838e+002 9.996603e-001 -4.304102e-001
31798425 1.000060e+000 -6.728017e-001 6.626935e-005 -2.360745e+001 1.548644e-004 3.439271e+001 1.000616e+000 -4.686892e-001
32098410 1.000165e+000 -6.739448e-001 6.453589e-005 -1.004414e+002 2.764784e-004 -6.112159e+001 1.001787e+000 -3.941665e-001
32398395 1.000197e+000 -6.126693e-001 8.858521e-005 1.154124e+001 2.318907e-004 2.120239e+001 1.001468e+000 -4.238233e-001
32698380 1.000091e+000 -6.481822e-001 4.788122e-005 -1.589192e+001 1.898633e-004 1.525789e+002 1.001187e+000 -4.712565e-001
32998365 1.000539e+000 -6.341721e-001 8.600673e-005 1.479422e+002 2.765989e-004 3.462608e+001 1.000488e+000 -4.857817e-001
33298350 9.996345e-001 -6.603768e-001 6.763318e-005 4.654789e+001 6.961887e-005 -1.678125e+001 1.000031e+000 -5.124624e-001
33598335 9.991046e-001 -6.849219e-001 1.309740e-004 -1.720184e+002 5.241624e-005 4.887050e-001 9.999930e-001 -4.711624e-001
33898320 9.989859e-001 -7.038581e-001 1.017956e-005 6.136130e+001 1.233349e-004 -1.759048e+002 1.000966e+000 -5.121852e-001
34198305 9.991090e-001 -6.896908e-001 7.458360e-006 8.467757e+001 2.475784e-005 1.085847e+002 9.998771e-001 -5.236490e-001
34498290 9.983650e-001 -7.000929e-001 6.023079e-005 -1.515154e+002 2.001411e-004 1.547589e+002 9.997250e-001 -4.824978e-001
34798275 9.994583e-001 -6.647660e-001 9.431496e-006 -9.087391e+001 1.317581e-004 -7.609629e+001 9.991676e-001 -5.701147e-001
35098260 9.999053e-001 -6.860573e-001 1.224996e-004 1.446397e+002 1.944836e-004 4.082427e+001 1.001084e+000 -4.617585e-001
35398245 9.990799e-001 -7.703071e-001 3.295858e-005 1.304276e+002 1.056273e-004 1.745859e+002 1.001571e+000 -4.744806e-001
35698230 9.987357e-001 -7.604885e-001 1.402321e-004 -1.230761e+002 3.361612e-004 5.695728e+001 1.001206e+000 -4.787854e-001
35998215 9.987487e-001 -7.600190e-001 2.051646e-004 2.453855e+001 1.086206e-004 1.274000e+002 1.000509e+000 -5.523660e-001
36298200 9.995755e-001 -7.017272e-001 6.573623e-005 -1.673727e+002 9.277688e-005 -4.765366e+001 1.000872e+000 -5.899477e-001
36598185 9.999369e-001 -7.208881e-001 5.512802e-005 -1.193811e+002 2.413690e-004 -1.348831e+002 1.000514e+000 -5.285900e-001
36898170 9.998596e-001 -7.398227e-001 1.970223e-005 1.395597e+002 2.393584e-004 5.038855e+001 1.000572e+000 -5.196822e-001
37198155 9.993382e-001 -7.074890e-001 7.949901e-005 -4.174884e+001 1.260072e-005 9.076058e+001 1.000419e+000 -5.558468e-001
37498140 9.991775e-001 -7.450452e-001 9.477524e-005 -1.646384e+002 1.278194e-004 -1.630242e+002 1.000261e+000 -5.150279e-001
37798125 9.991409e-001 -7.582698e-001 1.221800e-004 -1.628212e+001 1.091831e-004 9.917642e+001 1.000943e+000 -5.733977e-001
38098110 9.992053e-001 -7.449974e-001 9.039050e-005 -4.481707e+001 1.864500e-004 -1.210319e+002 9.998161e-001 -5.331298e-001
38398095 9.988737e-001 -7.677761e-001 4.864200e-005 -2.657067e+001 1.868021e-004 -6.373326e+000 9.998847e-001 -6.107780e-001
38698080 9.997014e-001 -7.357372e-001 7.241226e-006 -5.602033e+001 1.715037e-004 -1.795697e+002 1.000794e+000 -6.211750e-001
38998065 9.993918e-001 -7.478846e-001 6.295421e-005 -1.088451e+002 1.134511e-004 1.223451e+001 9.998986e-001 -5.803797e-001
39298050 9.994064e-001 -7.813039e-001 6.359373e-005 4.319738e+001 1.938962e-004 1.694587e+002 1.000550e+000 -4.737971e-001
39598035 1.000183e+000 -7.543297e-001 9.736361e-005 -1.511471e+002 1.671229e-004 -7.110385e+001 1.001574e+000 -4.881196e-001
39898020 9.998371e-001 -7.332970e-001 3.698457e-005 3.988057e+000 9.567843e-005 9.965443e+001 1.001740e+000 -4.151715e-001
40198005 9.991657e-001 -7.595121e-001 1.131096e-004 -6.183060e+001 6.319259e-005 -3.612668e+001 1.001139e+000 -6.784502e-001
40497990 1.000426e+000 -8.104017e-001 1.060102e-004 -5.653627e+001 2.347529e-004 1.139513e+002 1.002297e+000 -6.419816e-001
40797975 9.996046e-001 -8.045689e-001 1.572267e-004 -1.102742e+002 1.308935e-004 1.204978e+002 1.001094e+000 -6.251007e-001
41097960 9.995161e-001 -8.226873e-001 1.013042e-004 -7.934628e+001 2.740861e-004 1.610821e+002 9.996548e-001 -6.182911e-001
41397945 9.989720e-001 -7.109144e-001 1.168232e-004 5.410111e+001 1.710372e-004 -1.608846e+001 1.000188e+000 -4.916634e-001
41697930 9.978917e-001 -7.741654e-001 1.863101e-005 8.932140e+001 2.198951e-004 4.017725e+001 1.000625e+000 -5.409669e-001
41997915 9.986135e-001 -7.783679e-001 2.521102e-004 -1.475525e+002 2.221136e-004 1.268543e+002 1.001802e+000 -5.451393e-001
42297900 9.999423e-001 -7.792460e-001 1.735716e-004 1.253544e+002 1.770413e-004 1.516451e+002 1.002316e+000 -4.735318e-001
42597885 9.994118e-001 -7.866589e-001 2.602177e-004 -1.493971e+002 3.357277e-004 1.566680e+001 1.002289e+000 -5.365468e-001
42897870 9.997762e-001 -7.823501e-001 1.255510e-004 -8.278996e+001 1.038845e-004 6.979724e+001 1.001235e+000 -5.629134e-001
43197855 9.995219e-001 -8.413386e-001 7.931197e-005 3.676782e+001 5.437552e-004 -6.775994e+001 1.001497e+000 -6.208175e-001
43497840 9.997426e-001 -7.741871e-001 3.412559e-005 7.200555e+001 2.893372e-004 1.559781e+002 1.000644e+000 -6.694029e-001
43797825 9.984614e-001 -8.808015e-001 1.605142e-004 -1.578933e+002 2.705623e-004 -1.567632e+002 1.000677e+000 -6.166793e-001
44097810 1.000314e+000 -7.876735e-001 1.127407e-004 -6.409792e+001 1.848910e-004 -1.668475e+002 9.998499e-001 -7.158269e-001
44397795 1.000297e+000 -8.359150e-001 1.241594e-004 -1.103822e+002 2.387494e-004 -1.711400e+002 1.002188e+000 -6.874576e-001
44697780 1.000553e+000 -8.640550e-001 1.765121e-004 -8.270377e+001 2.644827e-004 1.453031e+002 1.001466e+000 -6.887236e-001
44997765 9.996323e-001 -8.846895e-001 2.069068e-005 -7.660072e+001 1.286188e-004 -1.702289e+002 1.001760e+000 -6.805547e-001
45297750 1.000170e+000 -9.334086e-001 1.387744e-004 -5.866007e+001 2.239367e-004 2.873065e+001 1.003109e+000 -6.258400e-001
45597735 1.000104e+000 -8.572805e-001 1.364535e-004 -1.689324e+002 3.116181e-004 -7.575644e+001 1.003250e+000 -7.700532e-001
45897720 1.001350e+000 -8.140131e-001 1.497616e-004 -1.221182e+002 1.360657e-004 1.197979e+002 1.003130e+000 -7.044458e-001
46197705 1.000684e+000 -9.576478e-001 1.126042e-004 -2.652130e+001 1.213747e-004 -1.363875e+002 1.002015e+000 -6.712240e-001
46497690 1.000484e+000 -8.361999e-001 1.581299e-004 -1.683633e+002 1.045238e-004 -5.541153e+001 1.002782e+000 -7.607275e-001
46797675 1.000432e+000 -8.871168e-001 1.273013e-004 -1.440286e+002 2.627477e-004 -3.471442e+001 1.000872e+000 -6.759394e-001
47097660 9.992779e-001 -9.279459e-001 7.305334e-005 1.551042e+002 3.618444e-004 -1.679525e+002 1.001301e+000 -5.810885e-001
