!Agilent Technologies,N5230C,SG49000117,A.08.50.07
!Agilent N5230C: A.08.50.07
!Date: Thursday, December 07, 2023 05:03:17
!Correction: S11(Full 2 Port(1,2)) 
!S21(Full 2 Port(1,2)) 
!S12(Full 2 Port(1,2)) 
!S22(Full 2 Port(1,2)) 
!S2P File: Measurements: S11, S21, S12, S22:
# Hz S  RI   R 50
300000 1.018398e+000 -8.991118e-003 1.030459e-004 8.685623e-005 -2.429011e-004 -7.643091e-004 1.036871e+000 -1.969456e-002
374985 9.982453e-001 -5.174913e-003 1.401085e-004 -1.302619e-005 2.656875e-005 -3.074220e-004 9.829449e-001 -1.614516e-002
449970 9.890190e-001 1.126156e-004 -1.758192e-004 7.699660e-005 -1.071272e-004 9.137342e-005 9.602951e-001 -1.416499e-002
524955 9.779745e-001 5.599263e-003 -2.237789e-005 4.740493e-005 -1.145323e-004 -1.129394e-004 9.290203e-001 -2.150163e-003
599940 9.797030e-001 4.315987e-003 -1.450001e-004 -4.399511e-005 1.363569e-004 -1.017021e-004 9.434286e-001 3.840676e-003
674925 9.787633e-001 4.407382e-003 2.676801e-005 -7.440869e-005 -1.308236e-004 1.885726e-005 9.347259e-001 -1.433729e-002
749910 9.793247e-001 5.830186e-003 2.278090e-005 3.740864e-005 1.429854e-004 1.323954e-004 9.325888e-001 -9.011641e-003
824895 9.836578e-001 3.150478e-003 -4.960875e-005 -1.553074e-006 1.017042e-004 -1.676177e-004 9.372337e-001 -8.821354e-003
899880 9.870238e-001 1.217999e-003 2.320105e-005 -5.695664e-005 2.984035e-004 -3.811761e-005 9.444253e-001 -1.185101e-002
974865 9.887141e-001 -8.487966e-004 -9.396115e-005 5.565804e-005 2.742022e-004 -3.485097e-006 9.486670e-001 -1.263817e-002
1049850 9.942829e-001 -3.680540e-003 6.472188e-005 7.154046e-005 1.313985e-004 -2.089583e-005 9.585576e-001 -1.111418e-002
1124835 9.980572e-001 -5.999839e-003 5.973813e-005 -1.209516e-004 1.342484e-004 7.749000e-005 9.683431e-001 -1.125600e-002
1199820 1.003398e+000 -8.982601e-003 -2.351099e-005 2.917650e-005 -1.274391e-004 -3.367115e-004 9.768785e-001 -1.114395e-002
1274805 1.007870e+000 -1.347400e-002 -7.114148e-005 -1.106217e-004 -4.197859e-005 -6.154007e-005 9.882223e-001 -7.086576e-003
1349790 1.000112e+000 -5.042718e-003 9.972979e-005 1.178612e-005 2.253874e-004 -1.560272e-004 1.003962e+000 -1.035452e-002
1424775 9.997604e-001 -6.138212e-003 1.169278e-004 5.895097e-005 2.606000e-005 8.520269e-005 1.003783e+000 -1.037744e-002
1499760 9.986606e-001 -4.619285e-003 -7.623043e-005 5.835634e-005 3.792031e-004 -3.343454e-005 1.004620e+000 -7.744271e-003
1574745 9.987248e-001 -3.343421e-003 4.684487e-006 -2.536250e-005 -2.292100e-004 5.602807e-004 1.001771e+000 -1.005389e-002
1649730 9.983124e-001 -4.253549e-003 2.210546e-005 -2.139197e-005 2.435037e-004 4.528186e-005 1.000833e+000 -1.043280e-002
1724715 9.974965e-001 -4.266284e-003 3.199272e-005 4.648122e-005 -1.033984e-004 -1.652872e-004 1.003153e+000 -1.330119e-002
1799700 9.960563e-001 -4.764283e-003 1.667568e-004 2.100934e-005 4.132858e-005 -1.062756e-005 1.006441e+000 -1.096798e-002
1874685 9.960170e-001 -3.577600e-003 -4.423746e-005 -8.295143e-005 2.454256e-004 4.031750e-004 1.001269e+000 -9.540152e-003
1949670 9.960824e-001 -2.581932e-003 1.639397e-004 -1.469816e-004 -2.697894e-004 -7.346415e-005 1.002734e+000 -8.405797e-003
2024655 9.949751e-001 -2.590641e-003 -1.646767e-004 -4.270933e-005 1.282406e-004 1.375475e-004 1.000457e+000 -7.081991e-003
2099640 9.950260e-001 -2.599841e-003 8.965078e-005 -4.096164e-005 -1.688486e-004 -2.886357e-004 9.995334e-001 -5.352454e-003
2174625 9.948803e-001 -2.990975e-003 2.754415e-005 3.965115e-005 1.770602e-004 2.006904e-004 9.997309e-001 -7.927734e-003
2249610 9.957084e-001 -3.355678e-003 1.772345e-005 -3.556424e-005 2.306096e-005 2.051850e-004 1.001683e+000 -6.372496e-003
2324595 1.001347e+000 -4.504079e-003 -7.981655e-005 2.895797e-005 3.983917e-005 3.225047e-004 1.002373e+000 -5.999959e-003
2399580 9.999048e-001 -3.775177e-003 7.542699e-005 4.559355e-005 -9.131751e-005 -5.686846e-005 1.001939e+000 -5.309299e-003
2474565 9.995560e-001 -1.136509e-003 -7.185509e-005 2.006450e-005 -2.433213e-004 2.878148e-004 1.001460e+000 -5.682051e-003
2549550 1.001119e+000 -3.466241e-003 -1.598424e-004 4.245100e-005 2.392997e-005 -9.312933e-005 9.977354e-001 -6.110884e-003
2624535 1.001653e+000 -2.560931e-003 -1.233821e-004 -6.913966e-005 6.948833e-005 -2.464353e-004 9.991347e-001 -5.005012e-003
2699520 9.999660e-001 -3.643694e-003 -6.695581e-005 3.542345e-005 2.459603e-004 6.588396e-005 9.956695e-001 -6.404641e-003
2774505 9.998626e-001 -1.865097e-003 -8.933756e-005 -8.408738e-005 -1.239411e-004 1.660294e-004 1.000245e+000 -7.891178e-003
2849490 1.001570e+000 -2.965776e-003 2.943950e-005 8.498476e-005 1.585700e-006 1.838106e-004 9.971413e-001 -4.583805e-003
2924475 1.001668e+000 -2.818641e-003 -1.519612e-004 -9.615387e-006 -1.164954e-004 7.215894e-005 1.003253e+000 -6.052221e-003
2999460 1.000601e+000 -2.942002e-003 3.257716e-005 4.142586e-005 1.619923e-004 1.675938e-005 1.001312e+000 -6.457214e-003
3074445 1.000360e+000 -2.573509e-003 7.207742e-005 -8.374913e-006 4.061261e-005 5.424720e-005 9.990777e-001 -4.652883e-003
3149430 1.000698e+000 -2.733505e-003 -4.903412e-005 -8.475227e-005 1.301361e-004 -5.215943e-005 9.993332e-001 -5.186188e-003
3224415 1.001471e+000 -2.977685e-003 -1.122563e-004 -7.329220e-005 -1.327372e-004 2.091160e-005 9.999678e-001 -5.231292e-003
3299400 1.001690e+000 -2.814561e-003 2.680252e-005 -3.635635e-005 8.237676e-006 -1.245912e-004 1.000751e+000 -7.796854e-003
3374385 1.000649e+000 -2.934234e-003 1.131334e-004 -2.149902e-005 -1.255529e-004 -8.126809e-005 9.991574e-001 -4.881307e-003
3449370 1.000600e+000 -2.935014e-003 -4.808820e-005 2.312538e-005 1.475480e-004 -5.832745e-005 9.992444e-001 -4.903990e-003
3524355 1.000967e+000 -1.586816e-003 -1.560604e-004 -7.646463e-005 -1.829483e-004 -1.515095e-005 9.992656e-001 -4.074974e-003
3599340 1.001363e+000 -2.367199e-003 3.499754e-005 -1.041138e-005 2.054826e-004 -1.929242e-005 1.000064e+000 -5.746154e-003
3674325 1.000511e+000 -1.936049e-003 8.492052e-005 7.382650e-005 7.872354e-005 7.903163e-005 9.982557e-001 -5.948839e-003
3749310 1.000715e+000 -2.325236e-003 -1.378811e-004 1.214822e-004 -1.705032e-005 -4.237164e-005 9.995387e-001 -5.303850e-003
3824295 1.001309e+000 -2.682207e-003 -4.838871e-005 5.125030e-005 -4.413265e-005 -4.534753e-005 9.990025e-001 -6.110637e-003
3899280 1.000628e+000 -3.893883e-003 7.226691e-005 -5.174120e-005 3.308299e-005 1.635763e-004 9.997535e-001 -6.837519e-003
3974265 1.001264e+000 -3.308290e-003 5.406954e-005 -1.017798e-005 5.923393e-006 1.598705e-005 1.000712e+000 -6.375918e-003
4049250 1.001356e+000 -3.028478e-003 -1.431729e-004 -1.750259e-005 1.682238e-004 6.537002e-005 1.000757e+000 -6.321535e-003
4124235 1.001280e+000 -3.119802e-003 -3.670588e-005 -3.053836e-005 -7.582991e-005 -2.097819e-004 9.987220e-001 -6.445844e-003
4199220 1.000638e+000 -4.077832e-003 -1.335422e-004 5.768666e-005 -1.355782e-004 -1.787151e-004 9.998788e-001 -6.725616e-003
4274205 1.000601e+000 -3.257500e-003 -6.730128e-005 -9.053689e-005 9.429637e-005 1.940065e-004 9.991679e-001 -6.234530e-003
4349190 1.000962e+000 -3.615792e-003 1.478732e-005 1.460976e-005 -3.617133e-004 -2.594373e-005 9.981092e-001 -5.376510e-003
4424175 1.000391e+000 -2.862222e-003 -8.269459e-006 -2.330519e-006 -3.197087e-005 -1.684590e-004 9.994829e-001 -6.286249e-003
4499160 1.000446e+000 -2.776572e-003 1.385649e-004 -4.470576e-006 -1.861110e-004 6.122926e-005 9.984013e-001 -4.851729e-003
4574145 1.001412e+000 -3.040098e-003 -6.537728e-006 -6.436973e-005 5.393942e-005 -3.698874e-005 9.995003e-001 -5.168194e-003
4649130 1.001039e+000 -3.246291e-003 -1.026253e-004 6.610534e-005 -1.029187e-006 1.590947e-004 9.994743e-001 -5.478586e-003
4724115 1.000239e+000 -3.627700e-003 3.404609e-005 4.998143e-005 4.057561e-005 3.591166e-005 9.992081e-001 -4.676536e-003
4799100 1.000515e+000 -3.384853e-003 -4.897949e-005 7.073142e-005 1.817098e-005 1.096905e-004 9.986170e-001 -4.592166e-003
4874085 1.000909e+000 -3.032651e-003 3.698589e-005 -4.548668e-005 1.488464e-004 9.266848e-005 9.999629e-001 -5.268577e-003
4949070 1.000377e+000 -3.351588e-003 -4.046611e-005 -1.851436e-005 1.270697e-004 2.232177e-004 9.983704e-001 -5.486935e-003
5024055 1.001016e+000 -2.851136e-003 9.978718e-005 -3.742051e-005 2.732500e-004 8.282971e-005 1.000691e+000 -4.168139e-003
5099040 1.001508e+000 -3.211217e-003 2.451000e-005 1.030934e-004 6.715365e-005 -2.535382e-004 9.997352e-001 -4.568704e-003
5174025 1.001176e+000 -3.158415e-003 -7.189735e-007 1.954539e-005 2.067888e-004 -3.254727e-004 1.000518e+000 -4.482701e-003
5249010 1.001210e+000 -3.058244e-003 -5.318998e-005 -6.121093e-005 -6.191616e-006 1.615952e-004 1.000912e+000 -4.634892e-003
5323995 1.000664e+000 -3.136089e-003 5.232324e-005 -1.266833e-004 -1.174593e-004 4.025374e-005 9.992574e-001 -5.399861e-003
5398980 1.000117e+000 -2.989312e-003 3.432129e-007 8.452190e-005 8.382463e-005 -8.644543e-005 9.999554e-001 -4.911395e-003
5473965 1.000988e+000 -2.684563e-003 3.190526e-005 -9.262914e-005 2.778531e-005 1.623429e-004 1.000134e+000 -4.519795e-003
5548950 1.000953e+000 -3.125319e-003 -8.058958e-005 6.601362e-005 -4.629348e-005 -6.200803e-006 9.995450e-001 -5.436915e-003
5623935 1.000643e+000 -3.084815e-003 4.432444e-005 1.357211e-005 1.741243e-004 -2.259341e-004 9.996707e-001 -4.419260e-003
5698920 1.001594e+000 -3.126811e-003 -2.451582e-005 9.173497e-005 2.266391e-005 -1.303491e-004 9.997943e-001 -5.564551e-003
5773905 1.001012e+000 -3.308526e-003 -1.013252e-005 3.439972e-005 2.297421e-004 2.534622e-004 9.996253e-001 -5.992762e-003
5848890 1.000986e+000 -3.943529e-003 -4.051952e-005 -7.353132e-005 1.541993e-004 -9.019038e-005 1.001177e+000 -6.842601e-003
5923875 1.001186e+000 -3.479452e-003 -1.605087e-004 -2.983539e-005 -5.317068e-005 -1.358043e-004 1.000126e+000 -6.024414e-003
5998860 1.000509e+000 -4.010644e-003 3.720025e-006 6.451906e-006 -1.214178e-004 -3.063285e-005 1.000304e+000 -6.842205e-003
6073845 1.000325e+000 -3.891226e-003 -1.177793e-005 3.136483e-005 -9.352173e-005 -1.947799e-004 1.001327e+000 -6.723606e-003
6148830 1.000603e+000 -3.452986e-003 1.230201e-004 -1.854567e-005 1.958510e-004 -2.122903e-005 1.001347e+000 -6.480843e-003
6223815 1.000731e+000 -3.437668e-003 5.393842e-005 7.066487e-005 -3.791800e-005 -4.612116e-005 9.995651e-001 -4.815734e-003
6298800 1.000395e+000 -3.029404e-003 -2.560428e-005 -9.364171e-005 1.491110e-004 3.347072e-004 9.996237e-001 -5.481220e-003
6373785 1.001044e+000 -3.863623e-003 -4.737298e-005 1.732300e-005 -2.208963e-004 -9.115021e-005 1.000512e+000 -5.959260e-003
6448770 1.000750e+000 -3.288670e-003 5.087131e-005 -6.893458e-005 -3.987047e-005 4.062212e-005 1.001900e+000 -7.390706e-003
6523755 1.000500e+000 -3.325325e-003 9.533226e-005 2.078529e-006 -2.965502e-005 1.610523e-005 9.999828e-001 -6.196055e-003
6598740 1.000065e+000 -3.290392e-003 -8.302573e-005 2.741251e-005 -4.323030e-005 1.072958e-004 9.990151e-001 -6.659848e-003
6673725 1.000927e+000 -3.635952e-003 -1.646461e-005 -2.552272e-005 -2.723332e-005 -2.428633e-004 1.000604e+000 -7.374788e-003
6748710 1.000250e+000 -4.016344e-003 5.164232e-006 1.694713e-005 -7.153865e-006 -5.458657e-005 9.995370e-001 -9.956755e-003
6823695 1.000625e+000 -3.464621e-003 -1.544001e-004 -8.490901e-005 -4.878109e-005 9.121782e-005 1.001821e+000 -7.750112e-003
6898680 1.000898e+000 -4.133939e-003 2.199993e-005 1.877528e-004 -9.015098e-005 6.410271e-005 9.988184e-001 -8.621659e-003
6973665 1.000799e+000 -3.529063e-003 -5.561477e-005 7.328358e-005 -3.758006e-004 -1.149696e-004 1.001506e+000 -8.764337e-003
7048650 1.001000e+000 -3.639421e-003 -8.245300e-005 -5.545385e-005 1.342485e-004 -3.130661e-005 1.000098e+000 -9.048786e-003
7123635 1.000936e+000 -3.939992e-003 -1.494403e-005 -6.159208e-005 -6.089671e-005 3.821318e-004 1.000194e+000 -9.341968e-003
7198620 1.000724e+000 -3.758775e-003 7.841917e-005 2.535518e-005 8.655936e-005 4.284766e-005 9.997849e-001 -8.125429e-003
7273605 1.000716e+000 -4.101626e-003 2.515027e-006 -6.431626e-005 1.767178e-005 -2.848395e-004 1.000983e+000 -9.708869e-003
7348590 1.000386e+000 -3.577323e-003 2.386761e-005 6.047929e-006 6.089164e-005 1.578235e-004 1.001370e+000 -6.729567e-003
7423575 1.000139e+000 -3.672254e-003 5.052114e-006 -5.549023e-005 -6.781134e-005 3.904589e-005 1.000122e+000 -8.886322e-003
7498560 1.000327e+000 -3.801842e-003 -2.688065e-005 -2.336165e-005 -2.653609e-005 1.438388e-004 1.000485e+000 -8.706538e-003
7573545 1.000581e+000 -4.286069e-003 9.826270e-005 1.637024e-004 1.089860e-004 -6.478327e-005 1.001021e+000 -9.061940e-003
7648530 9.997677e-001 -3.733626e-003 -9.910551e-005 5.118254e-005 -1.473994e-004 -1.234494e-005 1.001772e+000 -9.010825e-003
7723515 1.001261e+000 -3.925059e-003 -8.742842e-005 -6.148117e-005 3.461336e-005 1.714013e-004 1.001347e+000 -9.295206e-003
7798500 1.001070e+000 -3.312717e-003 7.142961e-005 5.862840e-007 -1.271869e-004 -7.535583e-005 9.998833e-001 -7.905515e-003
7873485 1.001159e+000 -3.733524e-003 1.294747e-005 5.903114e-005 -1.398734e-004 6.435646e-006 1.000167e+000 -9.161357e-003
7948470 1.001068e+000 -4.768481e-003 6.815590e-005 -7.213907e-005 1.811167e-004 -2.539353e-004 9.998976e-001 -8.502712e-003
8023455 1.000526e+000 -4.143356e-003 -2.463258e-005 8.542157e-006 1.650040e-004 -1.068320e-004 1.000203e+000 -8.202844e-003
8098440 1.000686e+000 -3.864937e-003 -8.248161e-006 -4.320031e-005 -1.248544e-004 8.735263e-006 1.000471e+000 -7.554032e-003
8173425 1.000549e+000 -4.364714e-003 -3.082762e-005 7.063327e-005 -3.626584e-005 1.550514e-005 1.000151e+000 -8.404282e-003
8248410 1.000841e+000 -4.069918e-003 2.453288e-005 1.615046e-005 1.389804e-004 -1.886239e-004 1.000094e+000 -7.454444e-003
8323395 1.000758e+000 -4.371011e-003 2.874087e-005 -6.129645e-005 9.819926e-005 1.228814e-004 9.997544e-001 -6.904816e-003
8398380 1.000839e+000 -4.207080e-003 2.488641e-005 4.296918e-005 4.076155e-005 3.326594e-006 9.992983e-001 -8.691791e-003
8473365 1.001648e+000 -4.215111e-003 3.495127e-006 6.510567e-005 1.219157e-004 9.940658e-005 1.000139e+000 -7.474559e-003
8548350 1.000293e+000 -4.278616e-003 1.143889e-004 5.837042e-005 -1.106106e-004 -6.358403e-005 1.000815e+000 -7.721913e-003
8623335 1.000574e+000 -5.261972e-003 8.370587e-005 -7.194432e-006 8.712548e-005 1.790307e-004 9.999074e-001 -8.664406e-003
8698320 1.000254e+000 -5.194078e-003 3.761692e-005 2.849072e-005 8.739370e-005 1.280701e-004 9.997784e-001 -9.483971e-003
8773305 1.000728e+000 -4.934260e-003 1.174730e-005 -5.831944e-005 -1.183195e-004 5.961222e-006 1.000860e+000 -9.178987e-003
8848290 1.000653e+000 -4.645904e-003 8.385423e-005 5.884327e-005 -3.884011e-004 1.484152e-004 1.000660e+000 -8.101072e-003
8923275 1.000645e+000 -4.849859e-003 -3.400773e-006 -6.468967e-005 -2.177588e-004 7.871946e-005 1.000384e+000 -9.367723e-003
8998260 1.001027e+000 -5.194846e-003 -7.536980e-005 -1.871762e-006 -3.246459e-005 -5.073260e-005 1.000388e+000 -9.706619e-003
9073245 1.000266e+000 -4.787972e-003 -1.227742e-004 -1.519447e-005 1.408255e-004 -8.228439e-005 1.000013e+000 -9.643989e-003
9148230 1.000100e+000 -5.825885e-003 7.384217e-005 -2.700850e-005 -1.068331e-004 -7.120550e-005 1.002077e+000 -1.066993e-002
9223215 1.000255e+000 -5.451592e-003 -2.129010e-005 6.533440e-005 1.887198e-005 5.264342e-005 1.000713e+000 -8.548277e-003
9298200 1.000343e+000 -4.960622e-003 4.201664e-005 4.510047e-005 -2.023507e-004 4.586550e-005 1.000679e+000 -9.270864e-003
9373185 1.001090e+000 -5.811252e-003 -3.551717e-005 -5.090887e-005 -1.694425e-004 3.874311e-004 1.000481e+000 -1.017496e-002
9448170 1.000778e+000 -5.393593e-003 -4.950421e-005 1.373080e-006 1.772415e-005 6.375701e-005 1.000998e+000 -1.039369e-002
9523155 1.000894e+000 -5.743146e-003 -1.225842e-005 -1.343841e-004 -7.207921e-006 -5.466642e-005 1.000629e+000 -1.110066e-002
9598140 1.000523e+000 -5.835358e-003 6.583484e-005 5.067151e-005 1.669982e-004 9.761564e-005 9.999503e-001 -1.018789e-002
9673125 1.000908e+000 -6.234645e-003 1.360301e-004 -2.244115e-005 3.872209e-004 2.360617e-004 1.000877e+000 -1.113143e-002
9748110 1.000657e+000 -6.563763e-003 -1.164736e-004 3.287414e-005 7.832005e-005 -2.862423e-004 1.000662e+000 -1.120900e-002
9823095 1.000575e+000 -5.817221e-003 3.515506e-006 -5.538788e-005 -3.996281e-004 -7.462553e-005 1.000664e+000 -1.086610e-002
9898080 1.000938e+000 -6.187640e-003 -6.118772e-005 -1.275880e-004 1.066535e-004 1.656778e-004 1.001225e+000 -1.289294e-002
9973065 1.001090e+000 -6.540155e-003 -1.867695e-005 -1.599187e-005 4.845719e-005 7.295277e-005 1.000540e+000 -1.149186e-002
10048050 1.000284e+000 -6.695064e-003 8.800223e-006 5.897140e-005 3.273092e-005 -5.366200e-005 1.001484e+000 -1.268132e-002
10123035 1.000627e+000 -7.733262e-003 -4.655079e-005 -5.754680e-005 1.507932e-004 -1.057342e-004 1.002849e+000 -1.349942e-002
10198020 1.000603e+000 -7.038306e-003 -2.354144e-005 7.495710e-005 -1.253399e-004 -4.298952e-005 1.002143e+000 -1.243897e-002
10273005 1.000527e+000 -7.519272e-003 7.389753e-005 -7.816619e-005 8.394148e-005 1.866451e-004 1.001710e+000 -1.365822e-002
10347990 1.000838e+000 -7.324571e-003 -1.108764e-004 -1.432297e-005 1.400707e-004 -4.321201e-005 1.000702e+000 -1.260989e-002
10422975 1.000324e+000 -7.339853e-003 -7.097304e-005 7.461789e-006 -1.140238e-004 2.436953e-004 1.001916e+000 -1.312854e-002
10497960 1.000551e+000 -7.339106e-003 9.511658e-005 -2.050659e-005 -1.615751e-004 -9.455888e-005 1.001989e+000 -1.458187e-002
10572945 1.000717e+000 -7.366066e-003 3.054220e-005 -1.635645e-004 -1.096456e-004 -1.314128e-004 1.002942e+000 -1.292689e-002
10647930 1.000507e+000 -7.922297e-003 -8.919059e-005 5.487217e-005 3.485785e-005 4.859803e-005 9.998810e-001 -1.437153e-002
10722915 1.000589e+000 -7.186004e-003 4.069839e-005 8.216402e-006 4.179127e-005 -2.856637e-005 1.001790e+000 -1.744705e-002
10797900 1.000768e+000 -7.402369e-003 -1.596981e-005 -3.945125e-005 -3.818955e-004 -7.315040e-005 1.002301e+000 -1.694055e-002
10872885 1.000110e+000 -7.280717e-003 5.636483e-005 -5.340840e-005 1.295226e-004 -1.622648e-005 1.002604e+000 -1.700985e-002
10947870 1.000310e+000 -8.532544e-003 -6.453251e-005 -1.097325e-004 9.614808e-005 -6.082276e-005 1.001821e+000 -1.745778e-002
11022855 1.000707e+000 -8.321058e-003 8.433066e-005 -1.642100e-004 1.361982e-004 2.786424e-006 1.001518e+000 -1.668558e-002
11097840 9.997312e-001 -7.675954e-003 8.480442e-005 4.018957e-005 -4.660508e-005 -3.044111e-004 1.002161e+000 -1.626927e-002
11172825 1.000215e+000 -7.465286e-003 5.050962e-005 9.439917e-005 -1.454710e-004 1.242987e-004 9.996373e-001 -1.630092e-002
11247810 1.000386e+000 -7.373378e-003 -3.411580e-005 4.921240e-005 2.460429e-004 -5.040835e-005 1.000983e+000 -1.614473e-002
11322795 1.000875e+000 -7.606991e-003 7.891329e-005 -3.264363e-005 -5.143651e-005 -2.172646e-004 1.001742e+000 -1.499791e-002
11397780 1.000684e+000 -7.648899e-003 1.239099e-004 2.126733e-006 -1.186175e-004 -1.706351e-004 1.000509e+000 -1.614751e-002
11472765 1.000120e+000 -7.550605e-003 1.701792e-005 -1.104890e-004 -4.241540e-005 1.173011e-004 1.001135e+000 -1.591125e-002
11547750 9.997954e-001 -8.456981e-003 -1.018500e-004 1.058566e-004 1.617306e-004 2.455805e-005 1.000350e+000 -1.638498e-002
11622735 1.000398e+000 -8.611016e-003 -1.106445e-005 5.727185e-005 -2.996256e-004 1.903702e-004 1.001404e+000 -1.678369e-002
11697720 9.999663e-001 -8.437769e-003 1.039898e-004 7.448176e-005 -6.115477e-006 -5.494483e-005 1.002707e+000 -1.667658e-002
11772705 9.993151e-001 -8.277602e-003 4.540902e-007 1.231817e-004 2.691826e-004 -7.882223e-005 1.002138e+000 -1.598105e-002
11847690 9.999338e-001 -7.614260e-003 -2.119337e-005 -8.117503e-005 6.701541e-005 1.040399e-004 1.001935e+000 -1.537025e-002
11922675 1.000055e+000 -8.047101e-003 -5.421937e-005 1.034244e-004 -4.741548e-005 2.941162e-004 1.001141e+000 -1.431846e-002
11997660 9.998835e-001 -8.125240e-003 2.492093e-005 1.667719e-004 4.171784e-004 1.035608e-004 1.001642e+000 -1.620436e-002
