!Agilent Technologies,N5230C,SG49000117,A.08.50.07
!Agilent N5230C: A.08.50.07
!Date: Thursday, December 07, 2023 05:22:33
!Correction: S11(Full 2 Port(1,2)) 
!S21(Full 2 Port(1,2)) 
!S12(Full 2 Port(1,2)) 
!S22(Full 2 Port(1,2)) 
!S2P File: Measurements: S11, S21, S12, S22:
# Hz S  RI   R 50
300000 1.015828e+000 -1.090629e-002 1.294708e-005 -2.920775e-004 -6.708007e-005 2.437592e-004 1.029706e+000 -1.947201e-002
374985 9.968234e-001 -3.595104e-003 -7.879745e-005 2.332651e-005 -1.442275e-004 -5.378571e-004 9.845607e-001 -1.391262e-002
449970 9.887713e-001 -1.817701e-004 -2.531300e-004 -5.864183e-005 -3.711859e-004 2.601621e-004 9.593965e-001 -1.367618e-002
524955 9.789437e-001 4.422462e-003 -2.727099e-005 8.389522e-005 2.687823e-004 -1.667684e-006 9.303036e-001 -2.726558e-003
599940 9.796152e-001 5.036997e-003 -3.274453e-005 -1.102510e-004 2.914963e-005 -1.585491e-004 9.433366e-001 3.966406e-003
674925 9.776995e-001 4.823207e-003 1.533873e-004 -6.404523e-005 -6.009936e-005 2.350733e-004 9.372588e-001 -1.453968e-002
749910 9.780023e-001 5.825737e-003 4.484681e-005 -4.868797e-005 -5.710991e-006 -1.127846e-004 9.332890e-001 -8.789816e-003
824895 9.840973e-001 3.328227e-003 6.835757e-005 9.613561e-006 1.315571e-004 -8.408114e-005 9.382447e-001 -9.755246e-003
899880 9.872614e-001 8.407228e-004 5.179819e-005 -4.175807e-005 8.564448e-005 1.008363e-004 9.444512e-001 -1.065210e-002
974865 9.908767e-001 2.437831e-004 2.490171e-005 1.223395e-004 7.230663e-005 1.397053e-005 9.495163e-001 -9.964271e-003
1049850 9.933016e-001 -2.600219e-003 5.298634e-005 -4.995671e-005 -3.142488e-004 8.962792e-005 9.598585e-001 -1.180845e-002
1124835 9.982280e-001 -5.830528e-003 -4.165018e-005 -4.655540e-005 2.552866e-004 -1.483099e-004 9.681610e-001 -1.217391e-002
1199820 1.003013e+000 -8.275331e-003 -1.616843e-005 -5.197099e-005 4.705275e-005 -9.370997e-005 9.774535e-001 -1.010747e-002
1274805 1.007522e+000 -1.302040e-002 -4.201904e-005 -1.234022e-004 -2.950640e-005 -7.050928e-005 9.895507e-001 -7.962379e-003
1349790 1.000842e+000 -5.641687e-003 1.979934e-005 -6.921979e-005 1.807490e-004 -2.795218e-004 1.002787e+000 -1.101963e-002
1424775 9.991285e-001 -4.616161e-003 -1.536338e-004 -9.693202e-005 -1.235551e-004 -2.300268e-004 1.004106e+000 -1.195721e-002
1499760 9.984751e-001 -4.654183e-003 4.031058e-005 1.048140e-004 1.100906e-004 2.640607e-004 1.005934e+000 -9.048466e-003
1574745 9.986309e-001 -4.325177e-003 -1.311174e-004 -1.582942e-005 -5.525523e-005 2.188299e-004 1.001052e+000 -9.115302e-003
1649730 9.982784e-001 -4.102882e-003 5.423016e-005 -1.159871e-004 8.476381e-005 -2.330651e-004 1.003306e+000 -1.159850e-002
1724715 9.974414e-001 -4.731533e-003 -1.360471e-004 -1.057206e-005 -5.443686e-005 1.799511e-005 1.003387e+000 -1.020869e-002
1799700 9.961225e-001 -5.702205e-003 1.168153e-004 -4.229238e-005 1.455008e-004 5.037578e-005 1.004584e+000 -1.127707e-002
1874685 9.960403e-001 -3.638864e-003 9.960045e-005 1.168293e-005 -1.662359e-004 2.037686e-004 1.001843e+000 -8.021432e-003
1949670 9.950725e-001 -3.169562e-003 7.001060e-005 -9.860344e-005 7.390933e-005 -9.207544e-005 1.001703e+000 -6.084447e-003
2024655 9.950992e-001 -2.304035e-003 1.949158e-004 -1.359738e-004 -1.070151e-004 -4.045136e-004 1.004276e+000 -5.771224e-003
2099640 9.943002e-001 -2.058855e-003 2.626635e-005 -2.515735e-005 2.369764e-004 -2.647662e-004 1.001428e+000 -4.872897e-003
2174625 9.945435e-001 -2.356277e-003 8.109750e-005 6.600342e-005 -1.417828e-005 3.169565e-004 1.001911e+000 -6.849331e-003
2249610 9.956543e-001 -3.879677e-003 3.959133e-005 1.235253e-004 9.882140e-005 -2.627302e-005 1.001249e+000 -4.894454e-003
2324595 1.000898e+000 -3.627754e-003 1.257260e-004 2.119031e-005 7.532112e-005 -7.927522e-006 1.001815e+000 -7.329335e-003
2399580 1.000155e+000 -3.698591e-003 1.609691e-004 1.745304e-005 -8.010321e-005 -7.352165e-005 1.003306e+000 -5.143833e-003
2474565 9.999465e-001 -6.087667e-004 -4.055969e-005 -7.333674e-005 -9.489286e-005 -1.032879e-004 1.000515e+000 -6.767704e-003
2549550 1.000710e+000 -2.372321e-003 8.787018e-005 -1.058668e-004 -5.955817e-005 -2.325066e-005 9.984752e-001 -6.818855e-003
2624535 1.000843e+000 -2.118575e-003 4.680729e-005 -6.707467e-005 1.228384e-004 8.050701e-005 1.000190e+000 -6.875726e-003
2699520 1.000778e+000 -4.612132e-003 3.966360e-005 4.143887e-005 1.089246e-004 -1.101186e-004 9.973763e-001 -6.456521e-003
2774505 9.994893e-001 -2.529579e-003 1.063579e-004 3.467693e-005 9.366434e-005 1.094322e-004 9.993300e-001 -9.961998e-003
2849490 1.000952e+000 -2.306134e-003 -7.921184e-005 -2.222575e-005 2.070894e-004 1.593956e-004 9.971129e-001 -2.853481e-003
2924475 1.001121e+000 -2.653612e-003 -1.240502e-005 -7.980892e-005 -1.785778e-005 8.451974e-005 1.001170e+000 -5.465302e-003
2999460 1.001393e+000 -2.996263e-003 -4.466537e-005 1.252374e-004 1.237755e-004 1.142989e-004 9.992851e-001 -5.542404e-003
3074445 1.001258e+000 -2.374253e-003 8.231718e-006 1.192052e-005 6.982544e-005 1.727196e-004 9.975041e-001 -5.412754e-003
3149430 1.001039e+000 -2.918882e-003 -3.433550e-006 1.076864e-005 1.989581e-004 4.161520e-005 9.990696e-001 -5.139272e-003
3224415 1.000521e+000 -3.152295e-003 3.769295e-005 -5.810155e-006 9.512580e-005 -1.258017e-004 9.995420e-001 -6.230054e-003
3299400 1.000930e+000 -2.955929e-003 -2.868851e-005 -3.704238e-005 -2.897337e-005 1.975538e-004 1.000098e+000 -6.585923e-003
3374385 1.000298e+000 -2.469678e-003 -4.573919e-005 1.634389e-005 -3.707972e-005 -2.506712e-005 9.999508e-001 -5.901840e-003
3449370 1.000294e+000 -2.226145e-003 9.921044e-005 -8.740150e-005 -3.754196e-005 5.282158e-005 9.992448e-001 -6.811867e-003
3524355 1.000881e+000 -1.342836e-003 5.433008e-006 2.867211e-005 -4.208831e-006 -1.456054e-004 1.001019e+000 -3.245327e-003
3599340 1.001281e+000 -1.641692e-003 -6.752794e-006 1.986677e-005 7.813828e-005 -5.000908e-005 9.982473e-001 -6.593800e-003
3674325 1.000958e+000 -2.100755e-003 1.371761e-006 5.034833e-005 1.612622e-004 1.967211e-004 9.998029e-001 -5.779782e-003
3749310 1.000658e+000 -2.363960e-003 -2.910679e-005 3.841053e-005 1.926614e-004 -1.436100e-004 9.997157e-001 -4.408760e-003
3824295 1.001488e+000 -2.225091e-003 6.549335e-006 2.785175e-005 -1.713109e-004 -1.691044e-004 9.998788e-001 -6.255201e-003
3899280 1.000304e+000 -3.382836e-003 7.731096e-005 5.225608e-005 -3.682150e-005 -5.812852e-005 9.993537e-001 -7.119259e-003
3974265 1.001629e+000 -3.363566e-003 1.018295e-006 -7.518827e-005 -7.353500e-005 1.350699e-004 9.989927e-001 -6.290223e-003
4049250 1.001289e+000 -3.773739e-003 1.048321e-004 5.378976e-005 -6.251962e-005 -1.776098e-004 1.000401e+000 -8.015576e-003
4124235 1.001037e+000 -3.746743e-003 -3.248863e-005 -4.206945e-005 1.889545e-004 5.636152e-005 9.988310e-001 -8.695662e-003
4199220 1.001303e+000 -3.779143e-003 1.068579e-004 3.532637e-005 1.893971e-005 -8.818077e-005 1.001702e+000 -6.689454e-003
4274205 1.000468e+000 -3.272797e-003 -6.459399e-005 -1.714720e-005 6.560180e-005 7.978382e-005 9.995681e-001 -6.230306e-003
4349190 1.001322e+000 -3.217338e-003 4.477455e-005 -1.203235e-004 4.475345e-005 2.741227e-004 9.999789e-001 -5.423052e-003
4424175 1.001318e+000 -3.038134e-003 -3.360333e-006 -3.675484e-005 -7.987164e-005 2.011443e-004 1.000491e+000 -4.731418e-003
4499160 1.001120e+000 -3.632717e-003 -3.927292e-005 3.991822e-005 -2.391996e-004 4.147263e-005 1.000233e+000 -3.953042e-003
4574145 1.001608e+000 -3.638341e-003 -6.082445e-006 6.490217e-005 -1.826156e-004 -3.943778e-005 1.000430e+000 -4.233255e-003
4649130 1.001219e+000 -2.865369e-003 3.528072e-005 -8.088499e-005 -3.393356e-004 -1.490597e-004 1.000595e+000 -7.023830e-003
4724115 1.000592e+000 -2.875140e-003 -6.994864e-005 1.206761e-004 -1.216603e-004 -1.952704e-004 9.984745e-001 -5.847604e-003
4799100 1.000685e+000 -3.103644e-003 9.312751e-006 8.245177e-005 -7.918227e-006 3.026902e-005 9.995584e-001 -6.214628e-003
4874085 1.000313e+000 -3.651692e-003 -2.193111e-005 -5.568608e-005 1.567770e-004 5.739890e-005 9.995007e-001 -4.883857e-003
4949070 1.000278e+000 -2.947397e-003 -1.073421e-004 2.858554e-005 9.270233e-005 1.352975e-004 1.000472e+000 -4.459469e-003
5024055 1.001220e+000 -3.318712e-003 -1.538203e-005 -2.816912e-005 -3.701947e-005 -1.589353e-004 1.000354e+000 -5.298596e-003
5099040 1.001576e+000 -3.388851e-003 -7.089049e-005 1.381594e-005 8.538484e-005 6.091148e-005 9.992149e-001 -6.515044e-003
5174025 1.000731e+000 -2.964404e-003 4.752618e-005 -7.777489e-005 1.114908e-004 1.165380e-004 9.994716e-001 -4.776981e-003
5249010 1.002274e+000 -3.556581e-003 3.779193e-006 -1.498574e-005 -1.790622e-006 -6.016428e-005 9.994012e-001 -3.766916e-003
5323995 1.000790e+000 -2.883818e-003 2.391569e-005 1.526767e-005 -6.853566e-005 -1.837359e-004 9.985127e-001 -5.022338e-003
5398980 1.001250e+000 -3.017391e-003 7.575985e-005 -1.440625e-005 -1.339642e-004 8.771585e-005 9.995950e-001 -3.709742e-003
5473965 1.001499e+000 -3.683865e-003 7.228573e-006 -1.090184e-005 1.806453e-004 -1.161342e-004 1.001627e+000 -3.142630e-003
5548950 1.000990e+000 -3.287519e-003 2.078377e-005 5.274114e-005 1.292282e-004 6.064064e-005 9.996937e-001 -6.239766e-003
5623935 1.000038e+000 -3.237434e-003 1.097596e-004 -3.955937e-005 -1.101897e-004 3.534192e-005 9.999854e-001 -4.314638e-003
5698920 1.000842e+000 -3.092992e-003 6.099375e-005 7.118282e-006 -1.417036e-004 -1.108168e-004 1.002554e+000 -5.679655e-003
5773905 1.000859e+000 -3.746950e-003 -8.068375e-007 2.220987e-005 2.085263e-005 -8.839864e-006 1.000010e+000 -5.645125e-003
5848890 1.000654e+000 -3.469711e-003 -4.171856e-005 4.228670e-006 7.440207e-005 8.601222e-006 1.001264e+000 -6.002693e-003
5923875 1.000539e+000 -3.869983e-003 4.813519e-005 4.470126e-006 3.856036e-006 -3.570606e-005 1.000223e+000 -6.710776e-003
5998860 1.000469e+000 -3.299156e-003 2.346907e-005 4.889111e-005 -1.260130e-004 -1.932253e-004 1.000243e+000 -5.333072e-003
6073845 1.000720e+000 -3.085074e-003 5.138253e-005 -1.107780e-004 -2.343295e-004 4.020737e-005 1.001594e+000 -6.068841e-003
6148830 1.000989e+000 -3.691026e-003 -2.921716e-005 -1.956349e-005 9.341030e-005 -1.068357e-004 9.999300e-001 -6.971012e-003
6223815 1.001340e+000 -3.310179e-003 -7.498320e-005 -2.554296e-005 1.093082e-004 -9.171745e-005 9.987369e-001 -6.942215e-003
6298800 1.000589e+000 -2.961627e-003 -4.069532e-006 -4.851118e-005 -9.936114e-006 1.212752e-004 9.992272e-001 -5.652720e-003
6373785 1.000934e+000 -3.704247e-003 -4.416608e-005 1.484723e-005 -2.831549e-005 1.651211e-005 1.000386e+000 -5.324205e-003
6448770 1.001382e+000 -2.901401e-003 -8.421552e-005 8.445988e-005 -1.779960e-004 -1.454721e-004 1.000826e+000 -7.615338e-003
6523755 1.000941e+000 -2.734293e-003 -6.950391e-005 -9.723220e-005 -3.534659e-004 -1.173857e-004 1.000820e+000 -8.331844e-003
6598740 1.000160e+000 -3.281953e-003 -1.824891e-005 8.081942e-005 -2.331075e-005 -2.521775e-004 9.990562e-001 -6.618246e-003
6673725 1.000628e+000 -3.256606e-003 -1.053584e-004 -7.882831e-005 7.437605e-005 -1.121415e-004 1.000816e+000 -8.690283e-003
6748710 1.000543e+000 -3.840602e-003 1.467114e-004 4.297549e-005 -5.879187e-005 -1.124843e-004 9.995744e-001 -8.343307e-003
6823695 1.000996e+000 -3.569445e-003 3.394530e-005 3.873958e-005 -2.839845e-004 -3.856600e-005 1.000994e+000 -8.655831e-003
6898680 1.000046e+000 -3.340796e-003 -1.546521e-005 -6.957257e-006 2.560862e-004 2.388150e-004 1.000217e+000 -9.170248e-003
6973665 1.000295e+000 -3.224364e-003 -2.539692e-005 4.379546e-005 1.960969e-004 -1.709036e-004 1.000393e+000 -7.615536e-003
7048650 1.000876e+000 -4.048568e-003 5.150789e-005 -5.285488e-005 -9.001931e-005 -2.538029e-004 1.001183e+000 -8.642078e-003
7123635 1.000762e+000 -4.133266e-003 -5.578010e-006 1.025461e-004 7.024041e-005 -8.440488e-005 9.999684e-001 -8.310227e-003
7198620 1.001096e+000 -3.101308e-003 1.821772e-005 9.840126e-005 -1.844741e-004 -1.171106e-005 1.001762e+000 -7.878837e-003
7273605 1.000980e+000 -3.669814e-003 -9.121893e-005 5.052188e-005 -4.125735e-005 -1.151149e-004 9.995279e-001 -9.341444e-003
7348590 1.001454e+000 -3.565043e-003 3.687369e-005 -1.247385e-004 -6.386850e-005 8.411127e-005 1.000242e+000 -8.795915e-003
7423575 1.000305e+000 -3.314070e-003 1.490405e-004 1.155388e-005 -1.468608e-004 2.569567e-005 9.986935e-001 -7.307474e-003
7498560 1.000776e+000 -3.826372e-003 1.122741e-004 -1.042621e-004 -4.941129e-005 -2.156907e-005 1.000085e+000 -6.598204e-003
7573545 1.000174e+000 -3.689797e-003 2.507604e-005 -7.351597e-006 2.541574e-004 -4.562601e-005 1.001627e+000 -8.515218e-003
7648530 1.000160e+000 -4.385298e-003 -8.065240e-006 -6.032288e-005 -2.521309e-004 2.479264e-005 1.001178e+000 -8.179790e-003
7723515 1.001276e+000 -4.069546e-003 -5.555003e-005 5.655285e-005 2.879117e-004 5.766140e-005 9.987652e-001 -8.776553e-003
7798500 1.000579e+000 -4.289301e-003 2.409971e-005 7.435364e-007 -1.518971e-004 2.065894e-004 9.994172e-001 -8.636258e-003
7873485 1.000459e+000 -4.162921e-003 3.866721e-005 9.941273e-005 -1.250423e-004 -1.353574e-004 9.979634e-001 -8.425011e-003
7948470 1.000930e+000 -4.201724e-003 5.085700e-005 1.363463e-004 1.178181e-004 -1.878090e-004 1.000186e+000 -8.972501e-003
8023455 1.000926e+000 -4.642629e-003 -3.196422e-007 2.637143e-005 -7.480819e-005 1.951225e-004 1.000138e+000 -7.295419e-003
8098440 1.000424e+000 -4.323522e-003 4.019215e-005 -6.581160e-005 3.938713e-005 3.109142e-004 1.000640e+000 -7.830113e-003
8173425 1.000714e+000 -4.024552e-003 1.135601e-005 2.680008e-005 3.720463e-005 -7.822405e-005 1.000424e+000 -7.337837e-003
8248410 1.000561e+000 -3.752779e-003 -2.004742e-005 -4.809757e-005 -5.699664e-005 2.091996e-004 1.001158e+000 -6.186726e-003
8323395 1.000953e+000 -3.575158e-003 -7.944099e-005 -9.849399e-005 -6.023965e-005 1.036026e-004 1.000505e+000 -6.267245e-003
8398380 1.000152e+000 -3.974816e-003 2.635016e-005 5.142846e-005 -1.132614e-004 4.348474e-005 1.000072e+000 -7.920617e-003
8473365 1.001173e+000 -4.415016e-003 -2.674882e-005 1.809484e-005 -9.875924e-005 2.120121e-004 1.000988e+000 -6.235893e-003
8548350 1.000665e+000 -4.649439e-003 7.034770e-005 2.340230e-005 4.244979e-005 -4.064012e-005 9.998343e-001 -6.465744e-003
8623335 1.000480e+000 -4.436760e-003 -2.301498e-005 -6.922072e-005 7.146462e-005 8.497390e-005 1.000054e+000 -8.498874e-003
8698320 1.000949e+000 -5.010983e-003 -1.101913e-005 -3.112599e-005 -1.088731e-004 1.027927e-004 1.000621e+000 -9.987280e-003
8773305 1.000441e+000 -5.008426e-003 -8.711272e-005 1.274402e-006 -1.640122e-004 1.075176e-004 1.000533e+000 -8.534728e-003
8848290 1.000416e+000 -5.359490e-003 -7.484815e-005 -1.407051e-005 6.517953e-005 -1.696622e-004 1.000093e+000 -9.643886e-003
8923275 1.001322e+000 -5.187214e-003 1.423654e-005 -3.939445e-005 -8.497287e-006 8.745717e-006 9.995275e-001 -9.324052e-003
8998260 1.000171e+000 -4.950739e-003 9.914169e-007 6.990295e-005 -6.862320e-005 4.743827e-005 1.000774e+000 -8.789011e-003
9073245 1.000715e+000 -5.017510e-003 4.882855e-005 2.078458e-005 1.156864e-004 5.680235e-005 1.001486e+000 -8.859911e-003
9148230 1.001213e+000 -5.236238e-003 3.162530e-005 7.284932e-005 -1.233242e-004 -7.685330e-005 1.000405e+000 -9.519285e-003
9223215 1.000063e+000 -6.027804e-003 2.431408e-005 -4.870800e-005 -3.425134e-004 -1.732101e-005 9.998348e-001 -1.013067e-002
9298200 1.000411e+000 -5.596992e-003 -1.107230e-006 -1.844156e-005 -1.282383e-004 -6.304872e-007 9.995096e-001 -8.854625e-003
9373185 1.000805e+000 -5.531570e-003 1.733216e-005 6.769303e-006 1.187096e-004 1.398096e-004 1.000258e+000 -8.258668e-003
9448170 1.000988e+000 -5.907704e-003 -1.581825e-004 3.315775e-005 -9.406844e-005 1.337534e-004 1.000275e+000 -1.063673e-002
9523155 1.000962e+000 -5.168720e-003 2.309102e-005 4.455867e-005 -3.017898e-004 2.648054e-004 1.001082e+000 -1.159906e-002
9598140 1.000607e+000 -6.197506e-003 -8.471280e-005 -6.558605e-005 -3.137884e-005 8.325697e-005 1.000737e+000 -1.104568e-002
9673125 1.001255e+000 -5.461794e-003 4.533756e-006 -2.270771e-005 -2.248754e-004 -8.075503e-005 1.001203e+000 -1.153898e-002
9748110 1.000339e+000 -5.797899e-003 -2.025558e-007 6.287083e-005 -4.080748e-005 1.050596e-004 1.000088e+000 -1.049276e-002
9823095 1.000474e+000 -6.681470e-003 -6.507172e-005 2.686839e-005 -7.178637e-006 -8.399684e-005 1.000520e+000 -1.178997e-002
9898080 1.000806e+000 -6.271070e-003 -7.311492e-005 7.354932e-005 1.300892e-004 -1.117517e-004 1.001145e+000 -1.148955e-002
9973065 1.000612e+000 -6.631743e-003 9.062757e-005 -5.297516e-005 2.485814e-005 6.842849e-005 1.000511e+000 -1.233884e-002
10048050 1.000772e+000 -6.998926e-003 9.972876e-005 -1.259183e-004 -1.530191e-004 6.654112e-005 1.001732e+000 -1.393216e-002
10123035 1.001119e+000 -7.099614e-003 8.930259e-005 -1.991991e-005 -2.811151e-005 -1.965426e-004 1.001214e+000 -1.315461e-002
10198020 1.000765e+000 -7.513404e-003 1.956359e-005 3.702424e-005 -1.538933e-004 1.673365e-004 1.001473e+000 -1.339293e-002
10273005 1.000463e+000 -7.168700e-003 9.103667e-005 6.671957e-005 -2.026887e-004 2.673652e-004 1.001829e+000 -1.290214e-002
10347990 1.000479e+000 -7.762084e-003 -6.513573e-005 6.399798e-005 6.938909e-005 1.327271e-004 1.000417e+000 -1.427822e-002
10422975 1.000937e+000 -7.234758e-003 -7.361396e-005 1.363070e-004 -2.539949e-004 -3.011832e-005 1.002119e+000 -1.409527e-002
10497960 1.000842e+000 -7.052539e-003 -3.721243e-005 -4.212883e-005 1.603711e-004 -7.090389e-005 1.001329e+000 -1.394707e-002
10572945 1.000343e+000 -7.288091e-003 6.588679e-005 -1.968804e-005 -4.042997e-006 1.866964e-004 1.003401e+000 -1.405084e-002
10647930 1.000142e+000 -7.007523e-003 -2.958710e-005 4.050040e-005 -8.294676e-005 -5.216408e-005 1.002992e+000 -1.684753e-002
10722915 1.000376e+000 -7.086010e-003 1.000401e-004 8.964698e-006 -1.121190e-004 3.978500e-004 1.002266e+000 -1.674703e-002
10797900 1.000676e+000 -7.472312e-003 -1.051701e-004 8.006074e-005 -6.180561e-005 -2.718296e-005 1.001475e+000 -1.508721e-002
10872885 1.000354e+000 -7.791152e-003 -1.434648e-005 -4.036741e-005 4.518520e-005 2.810030e-004 1.001446e+000 -1.658400e-002
10947870 9.999729e-001 -7.836732e-003 -5.121525e-005 -3.949738e-005 3.056753e-005 5.013806e-006 1.001431e+000 -1.488513e-002
11022855 1.000239e+000 -7.339975e-003 4.423599e-005 4.475175e-005 -3.453402e-004 -1.105166e-004 1.002911e+000 -1.663899e-002
11097840 1.000334e+000 -7.373272e-003 2.220214e-005 -1.082314e-005 -2.982985e-005 2.416069e-004 1.000916e+000 -1.684192e-002
11172825 1.000086e+000 -7.857279e-003 -4.071764e-005 -5.041343e-005 5.882176e-005 7.134857e-005 1.001983e+000 -1.775103e-002
11247810 1.000298e+000 -7.178419e-003 1.372013e-004 4.524033e-005 7.220232e-005 -1.083079e-004 1.001985e+000 -1.487790e-002
11322795 9.999507e-001 -7.675129e-003 -2.089615e-005 -4.176254e-005 -9.358486e-005 -1.012207e-004 1.000066e+000 -1.501591e-002
11397780 1.000138e+000 -7.692068e-003 -1.295153e-005 6.449315e-005 1.343804e-004 -5.357793e-005 1.001607e+000 -1.643661e-002
11472765 1.000510e+000 -8.023513e-003 -9.148094e-006 7.859964e-005 -1.853192e-004 2.693022e-004 1.001921e+000 -1.633031e-002
11547750 1.000065e+000 -7.896520e-003 -5.363727e-005 -1.162305e-005 7.162450e-005 -1.183207e-004 1.001560e+000 -1.545231e-002
11622735 9.999602e-001 -8.564231e-003 4.840164e-005 -7.477791e-006 5.683230e-005 8.586596e-005 1.002024e+000 -1.680825e-002
11697720 1.000217e+000 -8.565999e-003 7.446912e-005 -4.720618e-005 -2.690334e-005 -2.576070e-004 1.001468e+000 -1.483924e-002
11772705 9.998543e-001 -9.002562e-003 -9.449048e-005 -1.536770e-005 -2.627655e-004 5.719217e-005 1.001711e+000 -1.506574e-002
11847690 1.000327e+000 -7.619881e-003 6.689890e-005 7.321955e-005 -2.085368e-004 2.128290e-005 1.000455e+000 -1.756345e-002
11922675 9.997346e-001 -8.736790e-003 -5.606177e-005 -7.348350e-005 -2.088968e-004 -2.418888e-004 1.000449e+000 -1.578582e-002
11997660 1.000487e+000 -8.421345e-003 -3.881794e-005 1.553424e-004 -1.974188e-004 1.235836e-004 1.002355e+000 -1.516808e-002
