!Agilent Technologies,N5230C,SG49000117,A.08.50.07
!Agilent N5230C: A.08.50.07
!Date: Thursday, December 07, 2023 05:26:38
!Correction: S11(Full 2 Port(1,2)) 
!S21(Full 2 Port(1,2)) 
!S12(Full 2 Port(1,2)) 
!S22(Full 2 Port(1,2)) 
!S2P File: Measurements: S11, S21, S12, S22:
# Hz S  RI   R 50
300000 1.019233e+000 -9.219369e-003 -3.287802e-004 -1.237171e-004 2.703144e-004 -4.995238e-004 1.035962e+000 -1.159280e-002
374985 9.985654e-001 -5.074821e-003 2.166471e-005 -1.910297e-004 2.106163e-004 3.487690e-004 9.803486e-001 -1.736673e-002
449970 9.872110e-001 7.569679e-004 8.875284e-005 -2.014848e-005 -2.954136e-004 -8.378807e-005 9.552599e-001 -1.315127e-002
524955 9.783403e-001 4.757469e-003 1.939223e-005 2.667388e-005 -1.474558e-004 3.357530e-005 9.296907e-001 -2.771631e-003
599940 9.808719e-001 5.515850e-003 -8.866811e-005 -5.165772e-005 9.274988e-005 -3.577708e-004 9.441630e-001 2.388992e-003
674925 9.780408e-001 4.752049e-003 -6.237353e-005 -6.136792e-005 1.182857e-004 1.033059e-004 9.352920e-001 -1.469355e-002
749910 9.780589e-001 5.592099e-003 1.323237e-004 7.601229e-005 -3.178820e-004 -1.820628e-004 9.325867e-001 -8.804194e-003
824895 9.853226e-001 3.327594e-003 1.095089e-004 2.183284e-005 9.666158e-005 1.210783e-005 9.378105e-001 -7.762884e-003
899880 9.876182e-001 1.585263e-003 5.252434e-005 9.933091e-005 3.026939e-005 -5.004502e-005 9.440064e-001 -1.225753e-002
974865 9.877790e-001 7.290102e-004 -1.792118e-005 3.444385e-006 -1.086227e-004 -4.995038e-005 9.505751e-001 -1.022469e-002
1049850 9.945180e-001 -2.381733e-003 -1.405778e-004 5.519853e-005 -2.464220e-004 1.738948e-004 9.578752e-001 -9.485013e-003
1124835 9.973400e-001 -5.709959e-003 1.731242e-006 -4.203206e-005 -3.716170e-005 7.837847e-005 9.677641e-001 -9.949474e-003
1199820 1.003276e+000 -9.291098e-003 -2.269684e-006 -1.869986e-005 1.491682e-004 1.769400e-004 9.777734e-001 -9.405962e-003
1274805 1.007033e+000 -1.290581e-002 5.293987e-005 7.320205e-006 -1.632378e-004 -1.384632e-004 9.898902e-001 -7.116320e-003
1349790 1.000914e+000 -5.442816e-003 3.070586e-005 -4.286360e-005 -1.949686e-004 1.247170e-004 1.003289e+000 -1.048019e-002
1424775 9.990197e-001 -5.463487e-003 -1.593094e-004 -4.328116e-005 4.532138e-004 -1.340692e-005 1.004205e+000 -1.192962e-002
1499760 9.992629e-001 -4.928338e-003 -1.277882e-005 1.426806e-004 4.136623e-004 3.177897e-004 1.005420e+000 -8.145951e-003
1574745 9.981949e-001 -2.928258e-003 -1.683242e-004 -6.463719e-005 1.895687e-005 1.507796e-004 1.000249e+000 -9.327542e-003
1649730 9.980668e-001 -4.012078e-003 2.363852e-005 3.999789e-005 -2.528681e-004 8.891233e-005 1.002925e+000 -1.029890e-002
1724715 9.965266e-001 -4.780507e-003 1.029020e-004 -5.954188e-005 1.949043e-005 2.479957e-004 1.004377e+000 -1.116846e-002
1799700 9.957396e-001 -4.775345e-003 1.352159e-004 -1.692512e-005 -1.718568e-004 -3.441971e-004 1.003127e+000 -1.102260e-002
1874685 9.963029e-001 -3.092982e-003 -4.964656e-005 -8.400138e-005 1.594957e-004 -9.647100e-005 1.002731e+000 -9.779381e-003
1949670 9.957926e-001 -2.063619e-003 8.170420e-005 9.703395e-005 1.621395e-004 2.651461e-004 1.002572e+000 -7.081792e-003
2024655 9.945452e-001 -1.043491e-003 -1.454947e-004 1.150226e-005 -3.501284e-004 2.887603e-004 9.998145e-001 -7.231782e-003
2099640 9.943275e-001 -2.221736e-003 1.227293e-004 -4.732989e-005 -1.301031e-004 -1.259502e-004 9.999099e-001 -4.131251e-003
2174625 9.947372e-001 -2.703207e-003 1.092060e-005 -5.614405e-005 5.411333e-005 6.409568e-005 1.001138e+000 -6.641821e-003
2249610 9.952357e-001 -3.299781e-003 -1.266872e-004 1.136952e-004 -1.169845e-004 1.306479e-004 1.000722e+000 -7.414141e-003
2324595 1.000630e+000 -3.968249e-003 1.538406e-005 7.351064e-005 -2.838255e-004 1.350225e-004 1.001625e+000 -8.070016e-003
2399580 1.000965e+000 -3.743073e-003 1.916224e-004 1.711086e-005 -1.633659e-004 -4.575818e-005 1.002134e+000 -5.180723e-003
2474565 9.990149e-001 -1.187821e-003 -3.644801e-005 -1.000284e-004 1.049149e-004 -1.831265e-004 9.993076e-001 -4.039764e-003
2549550 1.000297e+000 -2.320960e-003 -5.926904e-005 -1.120599e-004 -8.185315e-005 3.112558e-004 9.974029e-001 -7.279238e-003
2624535 1.001759e+000 -2.817548e-003 -4.495439e-006 -3.531628e-005 -2.206194e-005 -1.872730e-004 9.988966e-001 -6.696892e-003
2699520 1.000570e+000 -4.193725e-003 5.836150e-005 4.637643e-005 2.318463e-004 -1.012216e-004 9.985053e-001 -4.230165e-003
2774505 1.000034e+000 -2.964599e-003 -8.099146e-005 5.131869e-006 1.031671e-004 -1.818738e-004 1.000106e+000 -8.006119e-003
2849490 1.000554e+000 -2.470229e-003 -8.580200e-005 1.581831e-005 4.346492e-005 -2.543702e-005 9.972847e-001 -4.293974e-003
2924475 1.001160e+000 -2.886327e-003 -9.214597e-005 -3.449518e-005 5.984784e-005 -3.424304e-005 1.001749e+000 -5.539051e-003
2999460 1.001054e+000 -3.441398e-003 2.408455e-005 -1.071054e-004 -1.886731e-004 2.336938e-004 9.996243e-001 -7.711395e-003
3074445 1.000438e+000 -2.358928e-003 4.668069e-005 -4.809871e-005 -1.751513e-004 4.234589e-005 9.989543e-001 -5.102257e-003
3149430 1.001365e+000 -2.490215e-003 9.015165e-005 6.433827e-005 1.110240e-004 1.251442e-004 9.991964e-001 -4.470734e-003
3224415 1.000650e+000 -2.297141e-003 8.576806e-005 1.074033e-004 6.752590e-006 1.071716e-004 9.987669e-001 -5.663130e-003
3299400 1.001193e+000 -3.289592e-003 -6.260243e-005 -6.172810e-005 3.746247e-005 2.143129e-004 9.998006e-001 -6.410265e-003
3374385 1.000570e+000 -3.182545e-003 -8.632884e-005 -5.349553e-005 -6.665362e-005 4.184608e-005 9.984918e-001 -5.777359e-003
3449370 1.000434e+000 -2.400732e-003 2.624745e-005 9.722109e-005 6.644726e-006 -1.956620e-005 9.992015e-001 -4.987952e-003
3524355 1.001423e+000 -1.946163e-003 -1.027605e-005 3.800788e-005 -1.675845e-004 -1.894770e-004 1.000272e+000 -4.176239e-003
3599340 1.001015e+000 -2.037936e-003 -1.810103e-005 3.728794e-005 -7.612900e-005 -2.596021e-006 9.981099e-001 -6.423396e-003
3674325 1.001313e+000 -2.364117e-003 -6.651142e-006 2.725570e-005 4.702945e-005 -9.496749e-005 9.980310e-001 -6.560728e-003
3749310 1.001861e+000 -3.046524e-003 -8.917904e-005 6.697443e-005 1.080646e-004 -3.451833e-005 9.994784e-001 -6.945847e-003
3824295 1.001240e+000 -3.020339e-003 1.602849e-005 6.177239e-005 -1.610197e-004 -6.641838e-005 9.986430e-001 -5.547820e-003
3899280 1.001440e+000 -3.112225e-003 5.415772e-005 1.007179e-004 -1.916257e-004 7.360055e-005 1.000100e+000 -8.084574e-003
3974265 1.001410e+000 -3.853219e-003 1.848954e-005 1.049811e-005 -1.823167e-004 1.292801e-005 1.000540e+000 -8.446177e-003
4049250 1.000661e+000 -3.826964e-003 -2.438699e-005 -5.658837e-005 1.383274e-004 -9.561312e-005 1.000818e+000 -6.803454e-003
4124235 1.001666e+000 -2.846015e-003 -2.467057e-006 -5.103289e-005 1.683099e-004 -7.469180e-005 9.994297e-001 -6.631618e-003
4199220 1.000667e+000 -2.910040e-003 7.267432e-005 -6.226463e-005 2.261991e-004 2.560721e-004 1.000349e+000 -6.019438e-003
4274205 1.000842e+000 -3.671735e-003 4.880686e-005 -3.773191e-005 -5.219658e-005 -3.831033e-005 9.998707e-001 -5.986382e-003
4349190 1.000573e+000 -3.427285e-003 -2.891811e-007 -8.234602e-005 -2.534389e-005 -3.826925e-005 9.999413e-001 -5.311409e-003
4424175 1.000500e+000 -3.005103e-003 5.015360e-005 -1.577898e-005 9.980525e-006 -3.531210e-005 9.991776e-001 -4.342229e-003
4499160 1.001055e+000 -3.291270e-003 -5.444334e-005 -1.159031e-004 6.736031e-005 1.991461e-004 9.989167e-001 -6.286974e-003
4574145 1.001075e+000 -3.584061e-003 -1.615186e-004 1.113654e-004 3.158830e-005 2.146164e-004 1.000880e+000 -5.891693e-003
4649130 1.001045e+000 -3.083551e-003 -1.842485e-005 -3.282164e-005 -1.209930e-004 9.039741e-005 9.982436e-001 -5.442756e-003
4724115 1.000830e+000 -3.434515e-003 3.796155e-005 5.415973e-005 1.832061e-004 2.352036e-004 9.987378e-001 -4.258191e-003
4799100 1.000516e+000 -2.689694e-003 -3.253779e-005 4.974954e-005 -2.741707e-004 1.471327e-004 9.992545e-001 -5.314848e-003
4874085 1.000961e+000 -3.653469e-003 1.179273e-005 -2.179186e-005 -7.827982e-005 7.769497e-005 1.000410e+000 -5.271711e-003
4949070 1.000929e+000 -3.400262e-003 5.088656e-005 -3.879734e-005 1.568741e-004 -1.955165e-004 9.988136e-001 -6.067269e-003
5024055 1.001409e+000 -3.345655e-003 -4.943128e-005 9.722386e-005 -6.212602e-005 1.728941e-004 9.990706e-001 -4.575668e-003
5099040 1.001120e+000 -3.218963e-003 -1.242220e-005 8.129486e-005 -1.426569e-004 -1.450006e-004 1.000007e+000 -4.229816e-003
5174025 1.000849e+000 -2.564267e-003 5.553838e-005 9.033590e-005 -1.872150e-004 -1.226229e-004 1.000060e+000 -4.399630e-003
5249010 1.001253e+000 -3.266991e-003 8.591980e-005 -2.154891e-005 4.090772e-006 -3.445107e-004 1.000986e+000 -3.523865e-003
5323995 1.000485e+000 -3.463093e-003 -5.656600e-005 -6.090421e-005 -2.310351e-004 3.417677e-005 9.995323e-001 -5.676218e-003
5398980 1.000850e+000 -2.939310e-003 -9.390420e-006 -3.126683e-005 -9.942221e-005 2.432342e-005 9.988019e-001 -4.655998e-003
5473965 1.000978e+000 -3.191764e-003 -4.412093e-005 2.820329e-005 -3.863716e-004 4.512295e-005 1.001093e+000 -5.202787e-003
5548950 1.000487e+000 -3.924847e-003 1.926036e-005 6.772522e-005 2.512123e-004 9.082633e-005 9.992592e-001 -5.371217e-003
5623935 1.000565e+000 -3.737047e-003 -5.608934e-005 6.752716e-005 8.788399e-005 1.212887e-004 1.000835e+000 -3.970141e-003
5698920 1.000653e+000 -3.074186e-003 -8.885834e-006 3.077485e-005 1.146115e-004 1.165470e-004 9.996014e-001 -3.903381e-003
5773905 1.000626e+000 -4.089621e-003 2.135217e-005 2.375478e-005 -1.246250e-004 4.577319e-005 1.000352e+000 -6.663482e-003
5848890 1.001376e+000 -3.492172e-003 -6.670862e-006 -2.000247e-005 -8.684224e-005 -1.656197e-004 9.999295e-001 -5.961803e-003
5923875 1.001477e+000 -3.217919e-003 3.293566e-005 -2.676517e-006 -6.909255e-005 -1.363988e-004 1.000336e+000 -5.623283e-003
5998860 1.001204e+000 -3.858189e-003 -5.179702e-006 -1.824212e-005 -8.989879e-005 -9.012273e-005 1.001028e+000 -7.210185e-003
6073845 1.000850e+000 -3.941851e-003 5.435816e-006 -6.164705e-005 -1.208442e-004 -1.004428e-004 1.001441e+000 -7.650146e-003
6148830 1.000622e+000 -3.720595e-003 -4.810301e-005 3.907157e-005 3.737825e-006 -1.409290e-004 1.000425e+000 -5.512558e-003
6223815 1.001222e+000 -4.058037e-003 7.758912e-005 -9.857727e-005 -5.984825e-005 -1.905963e-004 9.992242e-001 -5.365569e-003
6298800 1.001047e+000 -3.021916e-003 -6.758343e-005 1.084482e-004 3.267690e-005 2.718841e-004 9.992290e-001 -5.555626e-003
6373785 1.001307e+000 -3.647879e-003 -6.802379e-005 5.597007e-005 -1.765497e-004 1.507352e-004 9.991397e-001 -6.755566e-003
6448770 1.000557e+000 -4.031797e-003 6.030736e-005 -5.361842e-005 7.878140e-005 -2.228928e-005 1.002947e+000 -5.827280e-003
6523755 1.000831e+000 -3.195918e-003 6.054145e-005 7.895433e-005 6.749492e-006 1.561734e-004 1.000314e+000 -7.468795e-003
6598740 1.000231e+000 -3.169470e-003 9.647359e-005 -7.908116e-006 7.282043e-005 1.899394e-004 1.000795e+000 -7.786379e-003
6673725 1.000983e+000 -3.112108e-003 -2.091170e-005 -5.982944e-005 9.998376e-005 6.932045e-005 9.995142e-001 -6.452692e-003
6748710 1.000023e+000 -3.543447e-003 6.519543e-005 8.815173e-006 -2.216625e-004 1.551925e-004 1.000172e+000 -6.583636e-003
6823695 1.001128e+000 -4.102730e-003 1.198938e-004 -3.187991e-005 8.371232e-005 7.011100e-005 1.000018e+000 -6.379756e-003
6898680 1.000132e+000 -3.849834e-003 1.441954e-005 5.149599e-005 5.262790e-005 -5.026671e-005 1.001260e+000 -8.086112e-003
6973665 1.001245e+000 -3.417159e-003 -5.169100e-005 6.159492e-005 3.140515e-005 1.099138e-004 1.000394e+000 -7.979250e-003
7048650 1.000465e+000 -3.410500e-003 7.723184e-006 9.503712e-005 -3.131182e-004 1.093430e-004 1.000634e+000 -8.094372e-003
7123635 1.000711e+000 -4.127067e-003 -1.488010e-004 8.678575e-005 1.318310e-004 5.936503e-005 9.996207e-001 -9.049355e-003
7198620 1.001171e+000 -3.417993e-003 2.090430e-005 8.342771e-005 7.586615e-005 2.050525e-004 9.995748e-001 -7.576597e-003
7273605 1.000259e+000 -3.762956e-003 -2.191417e-004 -1.129515e-004 2.851422e-005 -1.863330e-004 9.995408e-001 -8.213434e-003
7348590 1.000678e+000 -4.036178e-003 -7.499268e-005 -8.656927e-005 1.530376e-004 2.109982e-004 1.000858e+000 -7.769031e-003
7423575 1.001348e+000 -3.680024e-003 1.373733e-004 1.891758e-006 4.102958e-004 7.560028e-005 1.000856e+000 -8.344288e-003
7498560 1.000727e+000 -3.822070e-003 2.572760e-005 -5.497433e-005 5.132387e-005 3.793120e-005 9.998972e-001 -8.404504e-003
7573545 1.000820e+000 -3.867876e-003 7.787416e-005 5.874086e-005 1.222713e-004 -1.892135e-004 1.001114e+000 -7.201483e-003
7648530 1.000697e+000 -4.111143e-003 2.021098e-005 -1.861999e-004 1.237988e-006 1.887249e-004 1.000152e+000 -8.499833e-003
7723515 1.001450e+000 -4.226529e-003 1.022339e-004 1.987871e-005 2.071559e-005 1.475706e-006 9.989159e-001 -6.641515e-003
7798500 1.001438e+000 -4.134025e-003 -1.722199e-005 1.022060e-005 -9.284818e-005 -6.406310e-005 9.998374e-001 -8.102608e-003
7873485 1.001512e+000 -4.511913e-003 4.123835e-005 3.415653e-005 1.249749e-004 3.196023e-005 9.990815e-001 -7.302525e-003
7948470 1.000537e+000 -4.151687e-003 1.720064e-005 -3.249739e-005 2.014433e-004 -2.110359e-004 9.989509e-001 -7.914484e-003
8023455 9.999893e-001 -4.023065e-003 5.769227e-005 -6.257683e-005 2.575558e-004 -1.594055e-005 1.000557e+000 -7.350106e-003
8098440 9.999979e-001 -4.030634e-003 -9.521594e-006 -5.898071e-005 1.319545e-004 2.478946e-004 9.988382e-001 -7.511291e-003
8173425 9.997206e-001 -4.823451e-003 -1.020421e-004 -4.337998e-005 4.571359e-005 -1.447850e-004 9.991859e-001 -6.109240e-003
8248410 1.000173e+000 -4.753859e-003 6.368577e-005 9.073702e-006 -1.039901e-004 6.648862e-005 9.999385e-001 -5.904870e-003
8323395 1.000675e+000 -4.349717e-003 -4.229313e-005 4.117041e-005 -7.003982e-005 7.986571e-005 9.989471e-001 -6.167856e-003
8398380 1.000628e+000 -4.233358e-003 9.093511e-005 4.587729e-006 1.797355e-004 5.249002e-005 1.000267e+000 -7.889181e-003
8473365 9.998999e-001 -4.193002e-003 1.071174e-004 2.268774e-005 3.592409e-005 5.979327e-006 9.999610e-001 -8.813737e-003
8548350 1.000642e+000 -4.624992e-003 1.956921e-005 9.626640e-005 -1.996309e-004 -2.381341e-005 9.998660e-001 -7.886113e-003
8623335 1.000735e+000 -4.512138e-003 7.135439e-005 -6.836462e-005 -1.516137e-004 -1.467612e-004 9.997542e-001 -9.357174e-003
8698320 1.000852e+000 -4.690646e-003 -2.552481e-005 1.937538e-005 -3.560013e-004 -9.504424e-005 1.000797e+000 -7.762542e-003
8773305 1.000469e+000 -4.523594e-003 9.222219e-008 -5.221581e-005 -2.506712e-005 -2.687892e-004 9.991783e-001 -8.420276e-003
8848290 1.000404e+000 -4.541721e-003 1.769784e-005 4.248638e-005 5.973503e-005 -9.951187e-005 9.994243e-001 -8.681621e-003
8923275 1.000778e+000 -4.977162e-003 -1.230448e-004 2.298047e-005 1.384448e-004 5.472039e-005 1.000466e+000 -8.996374e-003
8998260 1.000813e+000 -5.036258e-003 -5.757349e-005 6.651930e-006 2.117990e-004 1.920765e-004 9.998813e-001 -9.168018e-003
9073245 1.001039e+000 -5.059964e-003 9.156372e-005 -8.317619e-005 -5.887782e-005 7.331526e-005 1.000104e+000 -9.733961e-003
9148230 1.001106e+000 -5.602503e-003 1.527766e-004 -2.898770e-005 -1.890993e-004 -1.920804e-004 1.002577e+000 -9.888525e-003
9223215 9.999640e-001 -4.994675e-003 1.276524e-005 -1.202601e-004 1.845108e-004 7.261928e-006 1.000656e+000 -8.149292e-003
9298200 9.997915e-001 -5.522263e-003 3.884952e-005 -5.436348e-005 -1.487620e-004 -1.146712e-004 9.993058e-001 -9.031890e-003
9373185 1.000340e+000 -5.279117e-003 1.224849e-004 2.979505e-005 3.165367e-006 2.722400e-004 9.993715e-001 -8.906277e-003
9448170 1.000057e+000 -5.878646e-003 6.775073e-005 -1.095061e-005 1.496610e-004 -5.936256e-005 1.000501e+000 -9.120983e-003
9523155 1.000909e+000 -5.556537e-003 -4.380422e-005 2.298023e-005 -3.698005e-005 -5.014482e-005 1.000046e+000 -1.001687e-002
9598140 1.001180e+000 -6.004564e-003 -2.227792e-005 -5.293576e-005 -1.045424e-004 4.154081e-005 1.000510e+000 -1.087969e-002
9673125 1.000983e+000 -6.010630e-003 -1.793760e-004 -4.242136e-005 -4.927964e-005 1.075952e-004 9.993203e-001 -1.014423e-002
9748110 1.000152e+000 -5.852242e-003 -4.043951e-005 1.059687e-005 1.532343e-004 1.324663e-006 1.001320e+000 -1.086734e-002
9823095 1.000104e+000 -5.971351e-003 -7.287675e-005 3.541454e-005 -5.561880e-005 -6.468134e-005 9.998966e-001 -1.087818e-002
9898080 1.000487e+000 -6.551942e-003 3.892839e-005 8.833696e-005 -1.433595e-005 -7.473284e-005 1.000559e+000 -1.221580e-002
9973065 1.001505e+000 -6.371481e-003 -2.497690e-005 4.290451e-005 -9.416674e-006 1.311520e-004 1.000239e+000 -1.213916e-002
10048050 1.000831e+000 -7.847046e-003 8.894318e-005 7.457774e-005 -1.080840e-004 -9.737132e-005 1.001855e+000 -1.356310e-002
10123035 1.000422e+000 -7.143364e-003 -1.294081e-004 1.355628e-005 -2.398388e-004 -2.676445e-004 1.001272e+000 -1.308840e-002
10198020 1.000762e+000 -7.642093e-003 1.529614e-005 4.028479e-005 1.269552e-004 -1.189122e-004 1.002979e+000 -1.281243e-002
10273005 9.998184e-001 -6.665549e-003 -5.075208e-005 2.182593e-005 -1.070677e-004 2.435902e-005 1.000897e+000 -1.175008e-002
10347990 1.000890e+000 -7.970927e-003 -9.369409e-005 2.526686e-005 4.660351e-005 -1.782105e-004 1.001408e+000 -1.259481e-002
10422975 1.000694e+000 -7.186771e-003 -4.492837e-005 -9.747493e-005 1.514670e-004 -6.366605e-005 1.000588e+000 -1.370813e-002
10497960 1.000090e+000 -7.113643e-003 -5.588356e-005 -6.996128e-005 3.834898e-004 3.752020e-004 1.001367e+000 -1.260659e-002
10572945 1.000162e+000 -7.961693e-003 -2.562238e-005 4.637554e-006 1.860595e-004 1.434401e-004 1.001042e+000 -1.520570e-002
10647930 1.000656e+000 -7.634033e-003 -5.335280e-005 -6.934286e-005 2.709037e-005 1.040409e-004 1.002618e+000 -1.542522e-002
10722915 1.000192e+000 -7.097447e-003 8.459845e-005 9.822766e-005 9.318606e-005 4.638497e-005 1.000478e+000 -1.468629e-002
10797900 1.000252e+000 -7.876706e-003 6.553463e-006 3.972707e-005 2.191506e-004 2.302981e-005 1.001483e+000 -1.601285e-002
10872885 1.000097e+000 -7.827554e-003 3.529309e-005 1.194605e-004 2.487224e-004 -2.024747e-005 1.001911e+000 -1.554427e-002
10947870 1.000268e+000 -7.594314e-003 1.216325e-004 1.211394e-005 -1.422943e-004 3.203268e-005 1.001267e+000 -1.675945e-002
11022855 1.001089e+000 -7.591743e-003 -6.471090e-005 2.069880e-005 2.117431e-004 6.587496e-005 1.001739e+000 -1.607428e-002
11097840 1.000201e+000 -7.531630e-003 -1.093117e-005 3.794372e-005 -7.352597e-006 -5.481555e-005 1.001302e+000 -1.765010e-002
11172825 9.998081e-001 -6.999082e-003 9.559144e-005 1.078504e-005 2.558818e-004 2.521846e-004 1.001896e+000 -1.607868e-002
11247810 1.000587e+000 -6.748085e-003 1.994753e-005 -7.862735e-005 8.224565e-005 -7.703675e-005 1.001423e+000 -1.697986e-002
11322795 1.000010e+000 -7.364870e-003 9.138631e-005 2.835266e-005 2.081818e-004 -5.028485e-005 1.000782e+000 -1.593120e-002
11397780 9.999726e-001 -7.496097e-003 3.068758e-005 -5.831698e-005 4.993369e-005 1.481009e-004 1.001939e+000 -1.497781e-002
11472765 1.000455e+000 -7.769939e-003 7.388101e-006 -6.103542e-005 -6.376582e-005 2.253199e-004 1.001871e+000 -1.711458e-002
11547750 9.999312e-001 -7.833631e-003 -1.899518e-005 -4.661794e-006 2.357066e-004 4.682764e-005 1.001798e+000 -1.442967e-002
11622735 1.000405e+000 -7.730647e-003 3.365584e-005 -3.698354e-005 -1.369131e-004 1.117149e-005 1.001927e+000 -1.622786e-002
11697720 1.000203e+000 -7.397233e-003 -5.251904e-005 4.665711e-005 -1.886399e-004 -5.296882e-005 1.001685e+000 -1.675454e-002
11772705 1.000712e+000 -7.872528e-003 5.458063e-005 1.068031e-005 -3.479854e-004 -1.144152e-004 1.003400e+000 -1.532494e-002
11847690 9.998776e-001 -7.832839e-003 4.517045e-006 -1.322623e-006 1.351819e-004 -4.970562e-005 1.002637e+000 -1.675787e-002
11922675 1.000095e+000 -7.274587e-003 -2.695543e-005 3.541184e-005 -1.287802e-005 -1.356162e-004 1.001456e+000 -1.526386e-002
11997660 1.000101e+000 -8.028843e-003 1.193509e-005 -4.753728e-005 -2.026063e-004 8.531072e-005 1.002025e+000 -1.585804e-002
