!Agilent Technologies,N5230C,SG49000117,A.08.50.07
!Agilent N5230C: A.08.50.07
!Date: Thursday, December 07, 2023 05:30:33
!Correction: S11(Full 2 Port(1,2)) 
!S21(Full 2 Port(1,2)) 
!S12(Full 2 Port(1,2)) 
!S22(Full 2 Port(1,2)) 
!S2P File: Measurements: S11, S21, S12, S22:
# Hz S  RI   R 50
300000 1.018591e+000 -8.217039e-003 -1.214138e-004 -7.354247e-005 2.681736e-004 -2.774162e-004 1.032210e+000 -1.101573e-002
374985 9.997288e-001 -2.598828e-003 1.432372e-004 1.592175e-004 1.713926e-004 -1.821176e-004 9.858932e-001 -1.773546e-002
449970 9.885423e-001 4.879151e-004 -4.029022e-005 -1.205774e-004 -4.432918e-005 -4.499169e-005 9.576142e-001 -1.303900e-002
524955 9.778180e-001 5.185611e-003 -5.432830e-005 -7.755069e-005 1.363461e-005 6.586876e-005 9.318654e-001 -3.454175e-003
599940 9.808900e-001 4.253472e-003 5.309485e-005 5.302250e-005 2.666071e-006 -2.332487e-004 9.447862e-001 4.000876e-003
674925 9.785177e-001 4.133842e-003 -2.574020e-005 -1.238264e-004 -2.565359e-004 -1.726132e-005 9.361712e-001 -1.530503e-002
749910 9.787866e-001 4.641618e-003 -5.637716e-005 -1.290581e-004 1.560572e-004 -3.621028e-004 9.321043e-001 -9.793290e-003
824895 9.838895e-001 3.005471e-003 -3.492651e-005 -1.043670e-005 7.008915e-005 -9.959899e-005 9.366951e-001 -9.255888e-003
899880 9.871890e-001 7.054618e-004 -6.459659e-005 7.589300e-005 7.302533e-005 -1.433343e-004 9.448643e-001 -1.098719e-002
974865 9.902509e-001 -6.016826e-004 -1.493995e-005 6.934574e-005 3.706414e-005 6.640857e-005 9.482288e-001 -1.052928e-002
1049850 9.949683e-001 -2.227752e-003 -1.226169e-005 -4.728943e-006 -3.903384e-005 -1.457326e-004 9.570920e-001 -1.064347e-002
1124835 9.975249e-001 -5.809098e-003 -2.384653e-005 1.005381e-004 1.474897e-005 -8.981301e-005 9.686747e-001 -1.119770e-002
1199820 1.002805e+000 -8.994562e-003 1.803548e-005 7.253877e-005 -2.314820e-005 9.580096e-005 9.774191e-001 -8.239930e-003
1274805 1.007626e+000 -1.216994e-002 4.049106e-005 2.744188e-005 2.526521e-004 -2.261981e-004 9.890947e-001 -8.252081e-003
1349790 1.000520e+000 -5.830343e-003 -8.114482e-005 -1.253818e-004 -6.618794e-005 -3.247913e-005 1.003701e+000 -1.206380e-002
1424775 9.994531e-001 -5.229934e-003 8.910730e-005 -9.900051e-005 -1.166902e-004 1.909940e-004 1.005351e+000 -1.191799e-002
1499760 9.985873e-001 -4.067317e-003 6.369949e-006 2.124636e-004 -2.117056e-005 6.264255e-005 1.005440e+000 -8.948689e-003
1574745 9.979571e-001 -3.987399e-003 -2.078464e-004 4.412545e-005 -6.504047e-006 2.305852e-004 1.000390e+000 -8.641114e-003
1649730 9.976922e-001 -4.161415e-003 -6.317562e-006 7.415871e-005 4.941848e-005 1.151554e-004 1.002829e+000 -1.180142e-002
1724715 9.968507e-001 -4.516380e-003 -7.895007e-005 -5.997360e-005 1.032796e-004 2.495752e-004 1.003823e+000 -1.176873e-002
1799700 9.963038e-001 -5.444663e-003 1.197985e-005 1.236528e-004 1.841341e-004 3.307537e-004 1.005617e+000 -1.174574e-002
1874685 9.962969e-001 -3.836278e-003 7.393465e-005 -2.214253e-005 -7.410481e-005 -1.884571e-004 1.003101e+000 -7.221149e-003
1949670 9.962261e-001 -3.703910e-003 9.148128e-005 -1.079978e-004 5.947354e-005 -1.952066e-004 1.001323e+000 -4.981931e-003
2024655 9.951403e-001 -1.899889e-003 5.151757e-006 1.536538e-004 1.627341e-004 -4.690966e-005 9.995016e-001 -5.331254e-003
2099640 9.949741e-001 -2.344179e-003 1.350788e-004 -9.703672e-005 4.755063e-005 3.138946e-004 9.997382e-001 -3.543780e-003
2174625 9.942008e-001 -2.922898e-003 7.186591e-005 3.929782e-005 1.007205e-004 -9.620043e-005 9.995120e-001 -6.285267e-003
2249610 9.957429e-001 -3.115671e-003 1.402513e-005 6.303479e-005 3.614992e-005 2.161659e-004 1.000335e+000 -7.530582e-003
2324595 1.000518e+000 -3.861352e-003 5.115713e-005 -5.526529e-005 2.751481e-005 -7.935037e-005 1.002029e+000 -8.214929e-003
2399580 9.999585e-001 -3.669865e-003 2.065335e-005 2.870496e-005 2.892381e-004 4.501088e-006 1.003675e+000 -6.472789e-003
2474565 9.988990e-001 -1.265110e-003 -2.262056e-005 -2.373575e-005 -4.310348e-005 -8.839456e-005 9.998134e-001 -5.081611e-003
2549550 1.000942e+000 -2.354453e-003 -1.146450e-004 -1.220321e-004 -2.214249e-005 -7.957817e-005 9.976287e-001 -6.754807e-003
2624535 1.000470e+000 -3.060257e-003 -7.454911e-005 7.665295e-005 -8.844849e-007 -2.268842e-005 1.001580e+000 -5.920093e-003
2699520 9.995118e-001 -4.389062e-003 1.867051e-005 -3.098865e-005 -1.056959e-004 -2.309710e-005 9.943556e-001 -5.339693e-003
2774505 9.999248e-001 -1.825280e-003 1.232836e-005 2.228408e-005 -2.494501e-004 -5.462601e-006 9.995916e-001 -8.747513e-003
2849490 1.000782e+000 -2.179653e-003 1.216544e-004 7.052795e-005 -1.739004e-005 -3.576926e-005 9.974349e-001 -3.340767e-003
2924475 1.001178e+000 -2.729104e-003 6.497411e-005 -1.290431e-005 -9.476479e-005 4.848271e-005 1.001657e+000 -5.207854e-003
2999460 1.000852e+000 -2.001681e-003 7.118604e-006 -2.308047e-006 -1.509984e-004 -1.737580e-006 1.000031e+000 -5.524330e-003
3074445 1.001431e+000 -2.581558e-003 3.896811e-005 2.363100e-005 -1.337487e-005 6.404583e-005 1.001654e+000 -6.524932e-003
3149430 1.000620e+000 -2.711730e-003 -7.132974e-005 5.608402e-005 2.672164e-004 -1.106965e-004 9.996385e-001 -4.710021e-003
3224415 1.000808e+000 -2.525443e-003 3.296575e-005 3.499477e-005 -2.406505e-004 -1.745788e-005 9.990463e-001 -4.889037e-003
3299400 1.000879e+000 -3.144533e-003 -3.023640e-005 -4.114979e-005 -2.860792e-004 1.094480e-004 1.000527e+000 -5.971421e-003
3374385 1.000113e+000 -3.565714e-003 4.997647e-005 4.849794e-006 -3.137220e-004 -1.670498e-004 9.983634e-001 -7.426214e-003
3449370 1.000194e+000 -2.278435e-003 -1.389047e-005 1.709855e-005 1.286326e-004 2.927987e-005 9.998462e-001 -5.153161e-003
3524355 1.001597e+000 -1.777653e-003 1.098078e-005 -3.696796e-006 7.506679e-005 -1.066208e-004 1.000355e+000 -4.786353e-003
3599340 1.001277e+000 -2.426949e-003 1.111313e-004 -5.444768e-005 8.029626e-005 2.184330e-004 9.985548e-001 -5.545666e-003
3674325 1.000927e+000 -2.427200e-003 8.204779e-005 9.911434e-006 -1.984382e-004 -6.771665e-005 1.000360e+000 -6.777613e-003
3749310 1.000992e+000 -2.607383e-003 1.053472e-005 -5.780397e-005 4.305939e-005 1.265528e-007 9.995583e-001 -6.001714e-003
3824295 1.001094e+000 -3.071760e-003 -1.077844e-004 -3.284250e-005 5.836719e-005 -1.172950e-004 9.990439e-001 -5.325054e-003
3899280 1.001471e+000 -3.621729e-003 -4.946420e-005 -7.222324e-005 3.452740e-005 -3.194332e-005 9.996675e-001 -6.707291e-003
3974265 1.000794e+000 -3.561888e-003 -5.637433e-005 6.114629e-005 3.303076e-005 1.615782e-004 9.997425e-001 -7.545855e-003
4049250 1.001128e+000 -3.093224e-003 -1.996944e-005 -7.635839e-006 5.047577e-005 3.258700e-005 1.000317e+000 -6.760221e-003
4124235 1.001017e+000 -3.858521e-003 2.020756e-005 1.371124e-006 4.076837e-005 -7.770074e-005 1.000353e+000 -7.177024e-003
4199220 1.000721e+000 -3.774441e-003 -5.166213e-005 1.511432e-004 2.552775e-005 -8.482338e-005 9.998358e-001 -5.738521e-003
4274205 1.000312e+000 -3.482119e-003 -1.335722e-005 1.895747e-005 -1.592255e-004 1.579894e-004 9.989625e-001 -4.647166e-003
4349190 1.001106e+000 -3.227239e-003 4.113740e-005 -9.693429e-005 -7.205770e-005 -9.343282e-005 1.000693e+000 -6.856462e-003
4424175 1.000339e+000 -3.109128e-003 -9.378960e-005 8.200650e-005 6.018359e-005 2.702372e-005 9.985994e-001 -6.694469e-003
4499160 1.000620e+000 -3.501214e-003 -3.644466e-006 -1.087268e-004 3.744706e-005 -2.239286e-004 9.994817e-001 -5.001459e-003
4574145 1.000538e+000 -3.680642e-003 -3.379897e-005 4.348114e-005 1.520393e-004 -1.749888e-004 9.991385e-001 -6.074851e-003
4649130 1.000715e+000 -3.438002e-003 -2.408352e-006 -3.440168e-005 1.052807e-004 4.889615e-005 1.000983e+000 -5.107936e-003
4724115 1.000584e+000 -3.246186e-003 5.106782e-005 5.321925e-005 6.327971e-005 2.498407e-004 1.000079e+000 -6.985031e-003
4799100 1.000517e+000 -2.923855e-003 -1.170465e-004 8.161021e-006 6.152601e-005 5.101037e-005 9.977823e-001 -4.763003e-003
4874085 1.000836e+000 -2.787522e-003 -3.009795e-005 3.481059e-005 1.985679e-004 -7.206341e-005 9.997546e-001 -5.042370e-003
4949070 1.000686e+000 -2.869869e-003 8.046146e-006 -5.230727e-005 3.405137e-005 2.108975e-004 9.996437e-001 -5.352652e-003
5024055 1.001159e+000 -3.520457e-003 3.842592e-005 5.828166e-005 -2.281633e-004 -4.693531e-007 9.996330e-001 -6.218356e-003
5099040 1.000986e+000 -3.279096e-003 -2.589178e-005 9.346798e-005 -2.361063e-004 -9.450425e-007 1.000930e+000 -4.637645e-003
5174025 1.000840e+000 -2.674441e-003 1.514235e-004 -7.903899e-006 -5.161601e-005 -4.494164e-005 9.975117e-001 -4.018085e-003
5249010 1.001985e+000 -3.403610e-003 1.144837e-004 3.699797e-005 1.930761e-004 -7.243136e-005 1.001138e+000 -4.399619e-003
5323995 1.001664e+000 -2.541660e-003 -6.270036e-005 -1.769292e-005 -3.443684e-005 7.874092e-005 9.982322e-001 -5.889777e-003
5398980 1.000586e+000 -3.441605e-003 -2.120864e-005 -3.225681e-005 -2.326237e-004 8.078515e-005 9.992729e-001 -5.401454e-003
5473965 1.001825e+000 -2.847018e-003 8.996538e-005 -6.136624e-005 -1.744843e-006 2.078938e-004 9.992750e-001 -4.344884e-003
5548950 1.000859e+000 -3.261623e-003 1.603970e-005 5.216332e-005 -8.767519e-005 8.975155e-005 9.996303e-001 -5.103005e-003
5623935 1.001412e+000 -3.520497e-003 2.930208e-005 -3.840958e-005 1.836245e-004 -1.164634e-004 1.001048e+000 -4.232488e-003
5698920 1.000578e+000 -2.924253e-003 8.801951e-006 -5.627727e-005 -2.135780e-004 -1.504185e-004 1.000519e+000 -3.222252e-003
5773905 1.001241e+000 -3.107714e-003 -6.667168e-005 -4.039627e-006 1.006570e-004 -2.993090e-005 1.000655e+000 -6.232910e-003
5848890 1.000606e+000 -4.108520e-003 -5.523691e-005 -3.937589e-005 5.012053e-006 -2.235678e-004 1.001252e+000 -5.801587e-003
5923875 1.001207e+000 -3.816316e-003 -9.345100e-005 8.297314e-005 -2.471675e-005 -6.444481e-005 9.995070e-001 -6.080701e-003
5998860 1.000937e+000 -4.319823e-003 2.687013e-006 8.456212e-006 3.874564e-004 2.093643e-004 1.001285e+000 -6.326467e-003
6073845 1.000396e+000 -3.990510e-003 1.295632e-004 -4.698501e-005 9.674948e-006 1.282482e-004 9.999480e-001 -5.081689e-003
6148830 1.000781e+000 -3.874879e-003 9.667757e-007 7.716257e-005 -3.385096e-005 -9.110714e-006 1.000801e+000 -6.841167e-003
6223815 1.000652e+000 -3.226531e-003 -1.879860e-005 1.351836e-005 4.050049e-005 1.367183e-004 9.989729e-001 -6.985427e-003
6298800 1.000186e+000 -3.635364e-003 1.747942e-005 5.599744e-005 -3.626581e-004 7.806837e-005 9.993362e-001 -5.856459e-003
6373785 1.000746e+000 -3.206355e-003 -6.814778e-005 1.196871e-004 2.967908e-004 -6.573504e-005 1.000058e+000 -5.478040e-003
6448770 1.000813e+000 -2.510025e-003 -1.975123e-005 -5.604559e-006 -5.430456e-005 -8.855980e-005 1.000784e+000 -6.262300e-003
6523755 1.001500e+000 -3.440001e-003 4.727376e-005 5.348898e-005 6.777966e-006 -2.935352e-004 1.001940e+000 -7.425867e-003
6598740 1.001001e+000 -3.311826e-003 -5.190381e-005 -1.811702e-006 -1.177344e-004 2.511741e-004 9.995784e-001 -6.292145e-003
6673725 1.000750e+000 -3.640135e-003 -1.451441e-004 -3.836973e-005 2.198808e-004 1.107512e-004 1.000246e+000 -7.569595e-003
6748710 1.001274e+000 -3.014322e-003 6.223861e-006 3.667968e-005 -9.347633e-006 -1.244100e-005 1.000422e+000 -6.906794e-003
6823695 1.000734e+000 -2.896334e-003 1.185001e-004 5.881305e-006 4.197936e-005 3.547452e-005 1.000842e+000 -8.325154e-003
6898680 1.000883e+000 -3.571823e-003 -7.004593e-005 8.108880e-005 -1.369742e-004 2.370970e-004 9.990171e-001 -8.329435e-003
6973665 1.000647e+000 -3.342821e-003 9.477334e-005 -1.725956e-005 2.213195e-004 1.666296e-004 1.001838e+000 -7.327783e-003
7048650 1.000103e+000 -3.289023e-003 -9.737334e-005 -3.834757e-005 2.880461e-004 -2.536811e-004 1.000045e+000 -6.864189e-003
7123635 1.000448e+000 -2.937405e-003 1.551013e-005 2.600517e-005 -1.062266e-004 1.638432e-004 1.000626e+000 -7.095383e-003
7198620 1.000896e+000 -3.209237e-003 -1.834761e-005 -1.763791e-005 -1.468118e-004 3.083605e-004 9.999031e-001 -8.576584e-003
7273605 1.000902e+000 -3.610087e-003 -1.079255e-005 -1.134772e-005 -6.704495e-005 -1.351740e-004 1.000658e+000 -8.567616e-003
7348590 1.001284e+000 -3.648771e-003 -4.658606e-005 1.634353e-005 -1.871722e-004 -7.945091e-006 1.000844e+000 -9.007818e-003
7423575 1.000490e+000 -3.987178e-003 2.242965e-005 6.849770e-005 -2.379271e-004 -3.764510e-006 9.994716e-001 -7.693554e-003
7498560 9.998015e-001 -3.380420e-003 1.972036e-006 6.643814e-005 -2.326410e-004 -2.848297e-004 1.000081e+000 -8.655384e-003
7573545 1.000347e+000 -3.817118e-003 -1.252193e-005 3.863578e-005 2.663832e-005 -2.870211e-004 1.000554e+000 -7.728556e-003
7648530 1.000679e+000 -4.069035e-003 -3.050321e-005 -4.307235e-006 1.868324e-004 -3.948099e-005 9.996091e-001 -7.982489e-003
7723515 1.001364e+000 -3.361832e-003 1.305081e-004 -2.987458e-005 -8.093738e-005 1.076853e-004 9.991725e-001 -8.669028e-003
7798500 1.001130e+000 -4.402392e-003 6.526103e-005 8.245763e-005 -1.988757e-004 1.317648e-005 9.992295e-001 -8.736680e-003
7873485 1.001152e+000 -4.065190e-003 1.103853e-005 -2.771955e-005 -1.293356e-004 -1.932213e-004 9.993282e-001 -8.660511e-003
7948470 1.000930e+000 -4.517381e-003 2.105857e-005 -1.828750e-004 -1.101468e-004 -1.291018e-004 9.996917e-001 -8.285029e-003
8023455 1.000901e+000 -3.839471e-003 2.384452e-005 1.210079e-005 -1.011358e-004 -7.845989e-005 9.995944e-001 -8.056610e-003
8098440 1.000343e+000 -4.447650e-003 -7.665124e-006 2.656384e-005 -1.606942e-004 3.093717e-006 9.987537e-001 -8.609469e-003
8173425 1.000447e+000 -4.379949e-003 -3.394784e-005 -8.925539e-005 -1.084555e-004 -1.117249e-005 1.000510e+000 -6.383569e-003
8248410 1.000486e+000 -4.842500e-003 1.557450e-005 4.462733e-005 -6.568099e-005 -3.052928e-005 1.000781e+000 -7.316058e-003
8323395 9.999894e-001 -3.913183e-003 1.863492e-004 -9.855370e-005 9.263114e-005 -1.772334e-004 1.000226e+000 -6.040928e-003
8398380 1.000713e+000 -4.947549e-003 9.701574e-006 -1.348293e-004 8.735017e-005 1.908812e-004 9.997686e-001 -5.747710e-003
8473365 1.000417e+000 -4.745923e-003 6.107495e-005 -3.819977e-005 2.463722e-004 1.558750e-004 1.000363e+000 -7.166648e-003
8548350 1.000356e+000 -4.484355e-003 1.679994e-005 6.328918e-005 -1.857895e-004 4.899642e-005 9.998509e-001 -7.643418e-003
8623335 1.000300e+000 -4.644566e-003 6.030342e-005 -6.711030e-005 -1.047506e-005 -1.050787e-004 1.000343e+000 -8.328611e-003
8698320 1.000607e+000 -4.579146e-003 9.271931e-005 -5.122087e-005 4.927439e-005 -1.489201e-005 1.002129e+000 -7.858996e-003
8773305 1.000403e+000 -5.156767e-003 6.583785e-005 -1.454379e-006 -2.330840e-004 -1.425278e-004 9.989763e-001 -8.800689e-003
8848290 1.000615e+000 -4.584918e-003 1.395556e-005 -9.089310e-005 1.697161e-004 1.433475e-004 1.000195e+000 -9.036612e-003
8923275 1.000601e+000 -4.987674e-003 -3.391640e-005 5.372852e-006 -2.611566e-005 1.960457e-004 1.001111e+000 -8.222430e-003
8998260 1.000554e+000 -4.658911e-003 5.661204e-005 1.631967e-005 3.864178e-005 1.414084e-004 1.000304e+000 -9.492749e-003
9073245 1.000702e+000 -4.801180e-003 6.050855e-005 -1.400966e-004 1.029178e-004 2.940246e-005 1.000041e+000 -9.394172e-003
9148230 1.000154e+000 -4.711471e-003 -3.222291e-005 -4.741695e-005 1.350401e-005 1.453807e-004 9.994648e-001 -1.028086e-002
9223215 1.001274e+000 -5.630888e-003 8.306935e-005 -1.491050e-004 9.955183e-005 4.609752e-005 1.002254e+000 -7.255748e-003
9298200 1.000725e+000 -5.320173e-003 -8.278101e-005 4.888726e-005 2.615606e-005 -1.974404e-004 1.000048e+000 -7.886815e-003
9373185 1.000427e+000 -5.863508e-003 7.933701e-005 4.658527e-005 -2.763062e-006 8.793921e-005 1.001311e+000 -8.009688e-003
9448170 1.000093e+000 -5.533352e-003 2.477464e-005 -3.177548e-005 3.109431e-005 -1.756261e-004 1.000822e+000 -9.156196e-003
9523155 1.000658e+000 -5.363144e-003 -8.428246e-005 3.619901e-005 1.957844e-006 -3.260139e-005 1.001519e+000 -1.042930e-002
9598140 1.000482e+000 -6.306624e-003 7.351776e-006 4.501320e-005 1.791759e-005 -2.068245e-006 9.997371e-001 -1.043371e-002
9673125 1.000532e+000 -6.079595e-003 4.638492e-005 -5.372829e-005 -3.961577e-006 -1.496092e-004 1.000784e+000 -9.781896e-003
9748110 1.000847e+000 -6.784678e-003 -9.756374e-005 8.438969e-005 -4.651991e-005 6.249400e-006 1.001173e+000 -1.137488e-002
9823095 1.000492e+000 -6.103230e-003 -1.398396e-005 6.666883e-005 -1.846476e-004 -3.133010e-005 1.001452e+000 -1.207435e-002
9898080 1.000742e+000 -5.945600e-003 -3.779368e-006 4.400426e-005 -3.997122e-005 -1.292628e-004 9.998841e-001 -1.144262e-002
9973065 1.000797e+000 -7.133189e-003 8.733473e-005 -8.522376e-005 -1.070911e-004 -8.518352e-005 1.001521e+000 -1.098045e-002
10048050 1.000524e+000 -7.069309e-003 2.478900e-005 8.136013e-006 6.009949e-005 -1.313295e-004 1.003068e+000 -1.251762e-002
10123035 9.999855e-001 -6.421709e-003 -1.283275e-004 2.045820e-005 -1.614817e-005 -4.685809e-006 1.001247e+000 -1.168464e-002
10198020 1.000948e+000 -6.975730e-003 -2.684261e-007 8.510309e-005 1.843629e-004 -9.447458e-005 1.000736e+000 -1.048061e-002
10273005 1.000765e+000 -6.763131e-003 -2.652063e-005 7.037017e-005 -9.247347e-005 -6.671197e-005 1.000547e+000 -1.378150e-002
10347990 1.000821e+000 -7.683183e-003 1.158211e-004 1.029426e-004 1.048115e-004 -2.683990e-004 1.000651e+000 -1.231060e-002
10422975 1.000386e+000 -7.551568e-003 -1.935427e-006 8.377037e-006 2.175649e-004 3.246188e-004 1.001010e+000 -1.130805e-002
10497960 1.000824e+000 -7.298423e-003 -1.796588e-005 1.478750e-004 -4.030862e-004 -1.860293e-004 1.001635e+000 -1.468753e-002
10572945 9.999399e-001 -7.969634e-003 -1.180066e-004 -2.714012e-005 5.500404e-005 1.089396e-004 1.000147e+000 -1.508093e-002
10647930 1.000068e+000 -7.044589e-003 -2.744655e-005 -1.340954e-004 -1.663615e-004 -4.740849e-005 1.001020e+000 -1.488446e-002
10722915 1.000238e+000 -7.075016e-003 9.629001e-005 7.538347e-005 -9.052252e-005 -9.745153e-005 1.001520e+000 -1.438683e-002
10797900 1.000369e+000 -7.706156e-003 -5.213039e-005 -1.817490e-005 8.905911e-005 -1.295785e-004 1.000511e+000 -1.435536e-002
10872885 1.000267e+000 -7.668203e-003 4.673832e-005 -1.037316e-004 -1.035031e-004 3.004961e-006 1.001107e+000 -1.616579e-002
10947870 9.993931e-001 -7.800294e-003 1.522730e-004 -5.818286e-005 -1.525583e-004 -1.343260e-004 1.001005e+000 -1.484248e-002
11022855 1.000267e+000 -7.440359e-003 5.850424e-006 -3.922922e-006 4.257556e-005 2.469848e-004 1.001012e+000 -1.536734e-002
11097840 1.000248e+000 -7.080791e-003 -1.194978e-004 5.272433e-006 -1.901644e-004 1.859547e-004 1.001229e+000 -1.694863e-002
11172825 1.000270e+000 -7.360454e-003 -7.955796e-005 -1.479946e-004 4.582225e-006 -1.330686e-004 1.001644e+000 -1.673889e-002
11247810 9.996838e-001 -7.273245e-003 9.177536e-006 6.540082e-006 -2.649766e-005 -2.553992e-004 1.000515e+000 -1.609256e-002
11322795 1.000864e+000 -8.198342e-003 -9.466336e-005 -9.689136e-005 -2.254638e-005 2.315355e-004 1.003560e+000 -1.602090e-002
11397780 1.000788e+000 -7.502196e-003 6.399278e-006 7.341420e-006 7.889997e-008 1.042353e-005 1.002082e+000 -1.679559e-002
11472765 1.000584e+000 -7.687266e-003 3.913438e-005 -1.616293e-004 9.163454e-005 2.255584e-004 1.000352e+000 -1.567104e-002
11547750 1.000560e+000 -8.856834e-003 2.776030e-005 1.047019e-005 -1.792416e-004 -1.149665e-004 1.002348e+000 -1.525310e-002
11622735 1.000229e+000 -7.041576e-003 -1.176126e-005 1.031301e-004 9.812960e-005 -1.635503e-004 1.001410e+000 -1.568547e-002
11697720 1.000060e+000 -7.628301e-003 -3.286010e-005 4.508286e-005 2.316076e-004 -1.664481e-004 1.000347e+000 -1.632378e-002
11772705 1.000130e+000 -7.359840e-003 -4.971238e-005 8.272068e-005 2.443191e-004 -1.599972e-004 1.001610e+000 -1.609412e-002
11847690 1.000064e+000 -8.352229e-003 -5.226861e-005 7.825789e-007 -1.878286e-004 -4.583365e-005 1.002676e+000 -1.677916e-002
11922675 9.999880e-001 -7.660651e-003 -1.006691e-004 -1.034047e-004 1.421938e-004 2.110548e-004 1.000852e+000 -1.578240e-002
11997660 9.994506e-001 -7.743226e-003 -2.600091e-005 2.818050e-005 3.978262e-005 -1.898817e-004 1.000408e+000 -1.571373e-002
