!Agilent Technologies,N5230C,SG49000117,A.08.50.07
!Agilent N5230C: A.08.50.07
!Date: Thursday, December 07, 2023 06:04:44
!Correction: S11(Full 2 Port(1,2)) 
!S21(Full 2 Port(1,2)) 
!S12(Full 2 Port(1,2)) 
!S22(Full 2 Port(1,2)) 
!S2P File: Measurements: S11, S21, S12, S22:
# Hz S  RI   R 50
300000 1.022124e+000 -7.908368e-003 -7.268961e-006 2.924339e-004 -1.011402e-004 -7.403065e-004 1.036547e+000 -1.794337e-002
374985 9.980882e-001 -3.519475e-003 1.208094e-004 -2.501224e-005 -1.305156e-004 2.900184e-004 9.834886e-001 -1.586119e-002
449970 9.877489e-001 -5.074134e-004 1.165341e-004 -7.415910e-005 2.504339e-004 8.915908e-005 9.582670e-001 -1.294891e-002
524955 9.785720e-001 5.901284e-003 -2.407316e-005 2.709787e-005 2.819209e-004 -2.072407e-004 9.280593e-001 -1.721200e-003
599940 9.811502e-001 4.518896e-003 3.297518e-005 9.176955e-006 -2.139392e-004 5.502232e-005 9.444057e-001 3.961291e-003
674925 9.784580e-001 4.084255e-003 8.568628e-005 -8.007391e-006 1.290226e-004 -8.474857e-005 9.349577e-001 -1.658230e-002
749910 9.793347e-001 6.013125e-003 -1.039283e-004 -9.935426e-005 3.396241e-005 -6.423899e-005 9.316868e-001 -8.948578e-003
824895 9.838504e-001 2.755381e-003 2.033896e-005 2.762746e-005 2.079777e-004 -1.305770e-005 9.386144e-001 -8.402999e-003
899880 9.883762e-001 9.254595e-004 3.144344e-005 3.292131e-005 8.978375e-005 3.931719e-005 9.442097e-001 -1.170994e-002
974865 9.905612e-001 -1.270625e-003 8.986109e-005 -4.323470e-005 -1.507547e-004 8.494362e-005 9.505866e-001 -1.182475e-002
1049850 9.937367e-001 -2.285756e-003 -9.346438e-005 -4.374255e-005 5.929890e-005 -4.040204e-005 9.589214e-001 -1.051035e-002
1124835 9.978377e-001 -6.399585e-003 -5.185211e-005 3.280714e-005 -7.701564e-005 -2.274295e-004 9.686080e-001 -1.151139e-002
1199820 1.003231e+000 -9.149422e-003 4.032365e-005 -1.864674e-005 4.965923e-005 -1.467903e-004 9.771121e-001 -1.119483e-002
1274805 1.007685e+000 -1.275857e-002 -1.615385e-005 -1.419598e-005 -9.367999e-005 -1.935593e-005 9.903345e-001 -7.784289e-003
1349790 1.000225e+000 -6.050219e-003 -8.769774e-005 -5.470896e-006 -1.447483e-004 -3.063274e-004 1.003669e+000 -1.110917e-002
1424775 9.994003e-001 -5.375755e-003 1.481041e-005 -7.909696e-005 -1.125415e-004 -6.040829e-006 1.003673e+000 -1.315144e-002
1499760 9.987555e-001 -4.545633e-003 -4.101246e-005 2.649827e-005 1.845999e-004 3.265527e-004 1.004880e+000 -9.204995e-003
1574745 9.979236e-001 -2.935826e-003 -1.187372e-004 -1.297187e-004 2.587704e-004 2.655185e-004 9.999434e-001 -1.135667e-002
1649730 9.982706e-001 -3.552302e-003 7.225759e-005 1.554190e-005 4.730868e-005 3.405399e-005 1.003030e+000 -9.787081e-003
1724715 9.975484e-001 -4.859766e-003 1.385881e-005 -8.155555e-005 -1.107341e-004 -4.906037e-005 1.003779e+000 -1.094620e-002
1799700 9.965146e-001 -4.135992e-003 -1.177946e-004 7.991499e-005 1.917271e-004 -9.258540e-005 1.003370e+000 -1.046038e-002
1874685 9.964307e-001 -3.464100e-003 -8.802721e-005 -3.632918e-005 -5.284349e-005 -7.466494e-005 1.000693e+000 -8.122533e-003
1949670 9.956047e-001 -2.245319e-003 -2.240096e-005 7.121066e-005 -1.900375e-004 -1.509436e-004 1.000739e+000 -5.407630e-003
2024655 9.948844e-001 -1.634515e-003 -5.585340e-005 2.160173e-005 8.896387e-005 -1.873260e-004 9.989912e-001 -5.246269e-003
2099640 9.944984e-001 -1.942119e-003 1.371511e-005 1.531667e-006 2.555053e-004 -7.684634e-005 1.000286e+000 -5.550465e-003
2174625 9.941636e-001 -2.624847e-003 -5.634766e-006 -2.054345e-005 1.288738e-004 3.437948e-005 1.000296e+000 -7.353791e-003
2249610 9.951783e-001 -2.099715e-003 5.898737e-005 3.964237e-005 4.273473e-005 -6.277044e-005 1.001452e+000 -6.032605e-003
2324595 1.000965e+000 -4.063754e-003 -1.190144e-004 6.057123e-005 -1.715347e-004 5.813592e-005 1.003066e+000 -7.711696e-003
2399580 1.000223e+000 -2.877729e-003 -7.761348e-005 1.450909e-004 -3.908794e-005 1.074577e-005 1.003451e+000 -4.810757e-003
2474565 9.979075e-001 -9.332150e-004 -9.208758e-005 8.092078e-005 -6.471785e-005 -1.382756e-004 1.000217e+000 -6.154485e-003
2549550 1.001103e+000 -2.361175e-003 3.983742e-005 -9.183567e-005 1.965177e-004 -3.299413e-004 9.981480e-001 -6.416978e-003
2624535 1.000986e+000 -2.487142e-003 -6.075983e-005 -2.508419e-005 3.101137e-004 1.144583e-005 1.000722e+000 -5.772994e-003
2699520 1.000433e+000 -3.586709e-003 -4.191718e-005 1.775430e-005 1.408449e-004 -8.598414e-005 9.956282e-001 -5.185630e-003
2774505 1.000357e+000 -1.973014e-003 1.890773e-005 -1.110617e-004 -8.000610e-005 -6.598521e-005 9.993661e-001 -9.463258e-003
2849490 1.000504e+000 -2.589300e-003 5.317058e-005 1.132558e-005 -4.182206e-005 -6.901184e-005 9.990032e-001 -4.089617e-003
2924475 1.002047e+000 -2.619892e-003 -4.032499e-005 -1.763411e-005 1.748905e-005 -1.760597e-004 1.002196e+000 -6.474438e-003
2999460 1.000779e+000 -3.400264e-003 -3.039204e-005 9.089212e-006 1.425521e-004 1.284681e-004 1.000820e+000 -5.371822e-003
3074445 1.000848e+000 -3.077969e-003 1.096917e-004 1.261664e-004 1.359947e-004 1.156650e-004 9.985164e-001 -5.430486e-003
3149430 1.001231e+000 -2.767146e-003 -6.101465e-005 -4.036399e-005 7.023771e-005 -7.845327e-005 1.000374e+000 -4.475083e-003
3224415 1.000662e+000 -2.591407e-003 -7.011584e-005 8.175799e-005 -1.398281e-004 7.504801e-005 9.997779e-001 -6.223506e-003
3299400 1.000659e+000 -3.233141e-003 3.489883e-005 -2.123453e-006 -3.187120e-004 -7.607508e-005 1.001161e+000 -8.401108e-003
3374385 1.001087e+000 -2.849896e-003 7.678235e-006 4.893763e-005 -1.576631e-004 -4.974982e-005 1.000268e+000 -5.333770e-003
3449370 1.000578e+000 -2.770000e-003 -1.219222e-005 7.906029e-005 -4.566935e-005 -8.508993e-005 9.985393e-001 -7.660838e-003
3524355 1.001492e+000 -2.118362e-003 1.646329e-005 -5.778990e-005 -2.967451e-005 -5.219389e-005 9.991794e-001 -6.174513e-003
3599340 1.001097e+000 -2.617109e-003 8.784881e-005 5.814141e-005 -8.315162e-005 -8.649674e-005 9.990378e-001 -5.604850e-003
3674325 1.001399e+000 -2.481943e-003 2.792354e-005 -6.363553e-005 1.476788e-005 -5.018752e-005 9.988045e-001 -5.857663e-003
3749310 1.000658e+000 -2.644489e-003 -5.513788e-005 -6.965590e-005 -3.968189e-006 -1.243521e-005 1.000024e+000 -6.479600e-003
3824295 1.000647e+000 -3.245873e-003 -9.972366e-005 -5.255182e-005 -3.045145e-004 1.101196e-004 9.986202e-001 -6.783725e-003
3899280 1.000485e+000 -3.391803e-003 6.177084e-005 -2.491638e-005 1.488189e-005 -1.214426e-004 9.998204e-001 -6.887118e-003
3974265 1.001145e+000 -3.593406e-003 4.564574e-005 -3.747597e-005 2.826625e-005 3.130252e-005 1.000353e+000 -7.958979e-003
4049250 1.001026e+000 -2.870389e-003 -3.792553e-005 5.894899e-005 -3.157595e-005 -4.582187e-005 9.999728e-001 -7.553835e-003
4124235 1.001057e+000 -3.360958e-003 6.180877e-005 -5.672600e-005 7.911191e-005 9.299420e-005 9.991110e-001 -7.186109e-003
4199220 1.001455e+000 -4.285465e-003 -1.296314e-005 -7.897663e-005 1.069981e-004 1.684651e-004 9.998227e-001 -5.757444e-003
4274205 1.000818e+000 -2.863728e-003 1.570357e-005 1.009757e-005 1.150464e-004 -1.049178e-004 9.996755e-001 -6.147107e-003
4349190 1.000683e+000 -3.530700e-003 -8.756106e-005 -5.651720e-005 -2.339000e-004 5.209406e-005 9.991562e-001 -6.225280e-003
4424175 1.000710e+000 -3.106041e-003 -2.602202e-005 -8.210989e-005 4.072718e-005 1.058352e-004 1.000229e+000 -7.141627e-003
4499160 1.000510e+000 -3.767765e-003 3.182638e-005 -7.532149e-005 4.377071e-005 -1.469003e-004 1.000150e+000 -5.572317e-003
4574145 1.001469e+000 -2.971936e-003 -1.540303e-005 -1.560038e-005 2.373014e-005 -2.821855e-004 9.999735e-001 -5.208732e-003
4649130 1.000131e+000 -3.296569e-003 4.084748e-005 -2.304022e-005 3.854095e-005 1.126234e-005 9.999804e-001 -6.750427e-003
4724115 1.000666e+000 -3.084494e-003 6.735615e-005 -3.497116e-005 4.520104e-005 -1.103412e-005 9.999748e-001 -5.667082e-003
4799100 1.000949e+000 -2.932833e-003 -3.767385e-006 8.127043e-005 -1.925865e-005 -7.886190e-005 9.994394e-001 -4.502749e-003
4874085 1.001156e+000 -3.259501e-003 -8.495868e-005 -3.871824e-005 -1.068007e-004 -2.232501e-004 1.001926e+000 -5.747110e-003
4949070 1.000887e+000 -3.158047e-003 -8.248773e-005 -5.549726e-005 3.976167e-005 -1.808345e-004 9.991565e-001 -6.489046e-003
5024055 1.000763e+000 -3.829505e-003 -8.254460e-005 -3.403347e-005 -1.465369e-004 -9.947897e-005 9.989036e-001 -5.369832e-003
5099040 1.001921e+000 -2.617238e-003 5.607523e-005 -1.355063e-005 2.731161e-004 6.383925e-005 9.998392e-001 -5.002812e-003
5174025 1.001048e+000 -3.261035e-003 -1.083305e-004 6.015824e-006 -9.062816e-005 -3.652434e-004 9.986424e-001 -5.881667e-003
5249010 1.002153e+000 -3.321385e-003 9.564896e-005 -1.941876e-005 2.664771e-004 1.018713e-004 9.993322e-001 -3.428589e-003
5323995 1.000704e+000 -3.377048e-003 6.900258e-006 1.200856e-004 3.781240e-005 -1.289724e-004 9.980294e-001 -5.663553e-003
5398980 1.000999e+000 -3.175928e-003 3.128515e-005 -7.826990e-006 1.624327e-004 -8.584210e-005 9.990748e-001 -4.417087e-003
5473965 1.000656e+000 -3.208561e-003 -2.523434e-005 -1.078196e-005 9.543414e-006 -8.236283e-005 9.998727e-001 -2.587405e-003
5548950 1.000266e+000 -3.132702e-003 8.402141e-005 -1.131133e-005 1.091171e-004 -7.564305e-005 1.000153e+000 -4.988499e-003
5623935 1.000917e+000 -3.710491e-003 -5.838841e-005 -9.608107e-006 4.012429e-005 1.551323e-005 1.000518e+000 -4.617736e-003
5698920 1.001302e+000 -3.089573e-003 -4.637736e-005 -5.406370e-005 5.012453e-005 -2.776164e-006 1.000104e+000 -5.083892e-003
5773905 1.001117e+000 -3.303583e-003 -5.606697e-005 -6.091554e-005 -4.122532e-005 8.875927e-005 1.000571e+000 -7.756992e-003
5848890 1.001629e+000 -3.629850e-003 2.294925e-005 -3.932617e-005 9.869449e-005 -2.051318e-005 1.000957e+000 -6.359339e-003
5923875 1.000739e+000 -3.356941e-003 4.220758e-005 -3.782929e-005 -2.072945e-004 -2.526756e-005 1.000231e+000 -5.690612e-003
5998860 1.000527e+000 -3.747800e-003 3.815047e-005 1.838779e-005 1.680399e-004 7.524499e-005 1.001048e+000 -6.211145e-003
6073845 1.000698e+000 -3.810671e-003 -8.075617e-005 -2.215169e-005 -8.406983e-005 4.453359e-006 1.000979e+000 -6.294349e-003
6148830 1.000977e+000 -3.989997e-003 -8.559495e-006 -5.212062e-005 -1.534670e-004 -6.261541e-005 1.000760e+000 -6.065027e-003
6223815 1.001079e+000 -3.316307e-003 3.425473e-005 -3.902175e-005 2.975411e-004 1.361611e-004 9.982851e-001 -7.609833e-003
6298800 1.000748e+000 -3.558794e-003 -5.283081e-005 1.695837e-006 5.892515e-005 5.099506e-005 1.000250e+000 -5.960331e-003
6373785 1.001144e+000 -3.469982e-003 1.214822e-006 6.171954e-005 -9.921360e-005 -2.396799e-005 9.999480e-001 -6.263461e-003
6448770 1.001354e+000 -3.631412e-003 8.765420e-006 -6.497935e-005 -2.721458e-006 -3.091519e-004 1.000220e+000 -7.011123e-003
6523755 1.001192e+000 -3.345930e-003 7.366061e-005 -3.665419e-005 4.691518e-005 -9.144973e-006 9.994830e-001 -7.833538e-003
6598740 1.000999e+000 -2.857485e-003 -3.620017e-005 -1.164944e-004 4.848199e-005 1.589134e-004 9.999111e-001 -7.971212e-003
6673725 1.001014e+000 -3.281089e-003 3.135764e-005 1.556120e-005 1.070103e-004 -2.567660e-004 1.000623e+000 -7.418604e-003
6748710 1.000533e+000 -3.118502e-003 -5.650685e-005 1.249806e-005 -1.195521e-004 6.880014e-005 9.994164e-001 -7.105340e-003
6823695 1.001418e+000 -3.359791e-003 -5.830454e-006 3.662146e-005 -3.761883e-004 3.094343e-004 9.999256e-001 -7.841529e-003
6898680 1.001006e+000 -3.317896e-003 -2.610957e-005 -5.365816e-005 1.509969e-004 7.865386e-005 1.001080e+000 -7.721058e-003
6973665 1.000783e+000 -3.442332e-003 8.732991e-005 3.794572e-005 8.080252e-005 1.290187e-004 1.000571e+000 -7.535221e-003
7048650 1.001111e+000 -2.874724e-003 6.858347e-005 -1.575826e-004 1.825077e-004 1.564718e-004 1.000744e+000 -8.747000e-003
7123635 1.000466e+000 -3.750386e-003 -1.270371e-004 -2.042072e-005 -2.028610e-004 5.509332e-005 1.000268e+000 -9.668658e-003
7198620 1.000652e+000 -3.897730e-003 3.492224e-005 1.271971e-004 -6.562068e-006 1.522293e-004 1.000105e+000 -7.759003e-003
7273605 1.001487e+000 -3.548883e-003 2.266224e-005 -4.020440e-005 -1.557653e-004 2.003038e-004 1.001032e+000 -8.789835e-003
7348590 1.001179e+000 -3.438830e-003 2.964937e-005 8.892131e-005 -4.410456e-005 1.260540e-004 1.000273e+000 -8.312130e-003
7423575 9.998287e-001 -3.922306e-003 1.660546e-004 -9.347338e-006 9.245358e-005 1.321251e-004 1.001016e+000 -7.681046e-003
7498560 1.000382e+000 -3.616298e-003 1.596116e-005 -1.262822e-005 3.443931e-004 4.552749e-005 1.000086e+000 -9.120079e-003
7573545 1.000735e+000 -3.168470e-003 -1.124164e-004 -3.242402e-005 2.155154e-005 2.173576e-004 9.996844e-001 -9.146207e-003
7648530 1.000333e+000 -4.417112e-003 -4.066357e-005 4.697844e-005 -2.768956e-004 -2.149094e-004 1.001369e+000 -8.529724e-003
7723515 1.000794e+000 -3.630077e-003 1.626965e-005 3.456567e-005 1.506607e-006 -1.190268e-004 9.993832e-001 -9.479371e-003
7798500 1.001046e+000 -3.834355e-003 -4.232030e-005 1.737568e-005 -2.689757e-005 4.311694e-005 9.982109e-001 -9.307091e-003
7873485 1.000830e+000 -4.612573e-003 -3.316496e-005 -9.233516e-007 -9.998885e-005 2.224743e-004 1.000822e+000 -8.997256e-003
7948470 1.000983e+000 -3.915851e-003 1.304352e-005 1.448839e-005 -5.914602e-005 1.982987e-004 1.000124e+000 -8.467349e-003
8023455 1.000666e+000 -4.011343e-003 4.200654e-006 -1.407971e-005 -1.203911e-005 1.547216e-004 9.990969e-001 -7.931065e-003
8098440 1.000116e+000 -4.863997e-003 -2.133241e-005 -1.431045e-005 1.991253e-005 -1.940161e-004 1.000130e+000 -8.547738e-003
8173425 1.001011e+000 -4.047725e-003 6.013156e-005 9.730622e-005 -7.149568e-005 3.571274e-006 1.000044e+000 -6.989335e-003
8248410 1.000159e+000 -3.991188e-003 -9.557808e-007 -5.221029e-005 -4.042385e-005 -8.277690e-005 1.001491e+000 -8.438157e-003
8323395 1.000327e+000 -4.280711e-003 4.615275e-005 -7.829734e-005 -2.354211e-004 -1.777000e-004 9.992676e-001 -8.441170e-003
8398380 1.000208e+000 -4.434001e-003 -1.150780e-004 9.177242e-005 -2.791984e-005 1.181166e-004 1.000867e+000 -7.606761e-003
8473365 1.000383e+000 -3.667636e-003 1.676666e-005 8.486717e-006 -7.215493e-005 -1.228516e-004 1.000400e+000 -8.107004e-003
8548350 1.000784e+000 -4.583139e-003 5.780801e-005 7.654425e-005 -6.256052e-005 -2.119370e-004 9.996243e-001 -8.033696e-003
8623335 1.000764e+000 -4.738774e-003 -6.795161e-006 -4.766364e-005 1.191735e-004 -4.243386e-005 1.000080e+000 -8.372116e-003
8698320 1.000372e+000 -4.510943e-003 2.919735e-005 4.286534e-005 8.456536e-005 -3.560023e-005 1.000186e+000 -8.706502e-003
8773305 1.000381e+000 -4.812452e-003 8.625124e-005 1.440517e-005 -1.081240e-004 4.745154e-006 1.001477e+000 -8.438129e-003
8848290 1.000883e+000 -4.472736e-003 -1.234421e-005 5.399072e-005 5.360532e-005 -1.069424e-004 1.001215e+000 -9.291533e-003
8923275 1.000651e+000 -4.898699e-003 -3.014711e-005 3.127147e-005 1.040155e-004 -9.491861e-005 1.000795e+000 -8.881369e-003
8998260 1.000642e+000 -5.468538e-003 9.416806e-005 3.782131e-006 7.001086e-005 -1.222667e-004 1.000916e+000 -8.119848e-003
9073245 1.001032e+000 -5.324188e-003 -1.004910e-005 1.108369e-005 5.373472e-005 1.127494e-004 1.000320e+000 -8.456494e-003
9148230 1.000530e+000 -6.303152e-003 -5.730882e-005 -4.361458e-005 1.751648e-004 1.132701e-004 1.001548e+000 -9.747815e-003
9223215 1.001134e+000 -5.397683e-003 4.060926e-005 1.218431e-004 -7.229373e-005 4.376248e-005 1.000898e+000 -7.327827e-003
9298200 1.000762e+000 -5.791516e-003 -3.934095e-005 -8.812073e-005 -1.587102e-005 1.685600e-004 9.997604e-001 -7.827424e-003
9373185 1.000651e+000 -5.123681e-003 4.457214e-006 -1.172402e-004 -3.788476e-004 2.778023e-004 9.997380e-001 -1.045045e-002
9448170 1.000289e+000 -5.571558e-003 -2.668066e-005 -9.699214e-005 -2.650002e-004 -7.611539e-005 1.001117e+000 -1.008182e-002
9523155 1.000733e+000 -6.107329e-003 4.302512e-005 -9.815863e-005 4.039546e-004 -1.184690e-004 1.000882e+000 -8.862287e-003
9598140 1.000782e+000 -5.595616e-003 -3.723804e-005 -3.007740e-005 -1.453237e-005 -9.624399e-005 1.000569e+000 -9.813168e-003
9673125 1.000936e+000 -5.820652e-003 -2.042252e-005 1.448100e-005 -1.330791e-004 4.473699e-005 1.000277e+000 -9.710344e-003
9748110 1.000117e+000 -5.924034e-003 7.485318e-005 3.339665e-005 -1.101949e-004 1.832850e-004 1.000507e+000 -1.113541e-002
9823095 1.000815e+000 -6.531456e-003 3.332956e-005 3.831716e-005 -4.874868e-006 -9.253452e-005 1.001099e+000 -1.183553e-002
9898080 1.000682e+000 -6.838514e-003 9.990994e-005 -2.403031e-005 1.844539e-004 1.103009e-004 1.000885e+000 -1.205264e-002
9973065 1.001075e+000 -6.355880e-003 1.055579e-005 2.572856e-005 1.095861e-005 6.900206e-005 1.000714e+000 -1.221790e-002
10048050 1.000119e+000 -6.363026e-003 3.802012e-005 -3.654643e-005 7.968901e-005 -1.910380e-004 1.000154e+000 -1.127429e-002
10123035 1.000669e+000 -7.049840e-003 1.144687e-004 5.463521e-007 1.240862e-004 -2.038514e-004 1.002195e+000 -1.308541e-002
10198020 1.000631e+000 -7.712997e-003 -9.181906e-005 4.377942e-005 -4.976091e-005 -1.046458e-004 1.002448e+000 -1.324427e-002
10273005 1.000568e+000 -8.190191e-003 4.040116e-005 -1.764348e-005 1.316051e-004 6.547190e-005 1.003182e+000 -1.382505e-002
10347990 1.000423e+000 -7.392292e-003 3.261377e-005 2.029499e-005 1.376588e-004 -2.749279e-004 1.001113e+000 -1.280446e-002
10422975 9.999287e-001 -7.288658e-003 -5.832261e-005 -1.647216e-004 -1.506905e-004 -4.034649e-006 1.000282e+000 -1.453560e-002
10497960 1.000550e+000 -7.834007e-003 -3.000112e-005 -7.080825e-006 3.982265e-005 4.211857e-004 1.002328e+000 -1.366506e-002
10572945 1.000195e+000 -7.990759e-003 -2.796946e-005 -5.606735e-005 -2.598823e-004 9.277269e-005 1.001748e+000 -1.483468e-002
10647930 9.999381e-001 -7.261300e-003 5.348297e-005 1.197038e-004 3.947790e-006 -9.870965e-005 1.002334e+000 -1.521950e-002
10722915 1.000046e+000 -7.616637e-003 4.931371e-005 1.097068e-004 2.207852e-004 8.157179e-005 1.000623e+000 -1.399091e-002
10797900 9.999025e-001 -7.557751e-003 -7.360843e-006 4.273350e-005 -1.481342e-004 -1.925149e-004 1.002571e+000 -1.666284e-002
10872885 9.998971e-001 -7.611611e-003 1.221913e-004 -7.753913e-005 1.672351e-004 -2.440679e-004 1.001713e+000 -1.860554e-002
10947870 9.999034e-001 -7.514249e-003 5.021458e-005 2.748061e-005 -2.533916e-005 1.290033e-004 1.001114e+000 -1.554649e-002
11022855 1.000399e+000 -7.552630e-003 4.904922e-005 -4.040842e-005 3.229416e-005 -3.747866e-005 1.001821e+000 -1.707828e-002
11097840 1.000493e+000 -7.457580e-003 -4.601667e-006 5.266395e-005 -5.119528e-006 -7.195535e-005 1.001488e+000 -1.543239e-002
11172825 1.000483e+000 -7.614871e-003 -8.227174e-005 -4.730516e-005 1.109134e-004 7.331759e-005 1.001411e+000 -1.542554e-002
11247810 1.000319e+000 -7.629593e-003 7.993343e-006 -6.026547e-005 -1.761346e-004 1.669295e-004 1.001324e+000 -1.442147e-002
11322795 1.000576e+000 -6.943948e-003 3.773939e-005 3.056868e-005 -1.867345e-004 3.494315e-005 1.002051e+000 -1.451350e-002
11397780 1.000522e+000 -7.672957e-003 -3.763399e-006 -2.763975e-005 6.012677e-005 3.867067e-005 1.001323e+000 -1.738384e-002
11472765 1.000545e+000 -8.317607e-003 7.351713e-005 -4.083477e-005 -7.622048e-005 3.082448e-005 1.002953e+000 -1.578050e-002
11547750 9.995862e-001 -7.796251e-003 1.436289e-004 1.064475e-004 3.246084e-004 2.657516e-006 1.002185e+000 -1.615014e-002
11622735 1.000292e+000 -7.786088e-003 5.294559e-005 -3.366044e-005 1.530217e-004 -1.898582e-005 1.003183e+000 -1.743080e-002
11697720 9.998654e-001 -8.318568e-003 -2.015050e-006 -3.704746e-005 2.205269e-005 2.601544e-004 1.001772e+000 -1.690681e-002
11772705 9.996147e-001 -7.533654e-003 1.190669e-004 8.434510e-005 -2.042207e-004 -1.919658e-004 1.000709e+000 -1.662886e-002
11847690 1.000550e+000 -8.395186e-003 -2.157336e-005 1.223074e-004 7.940280e-005 -2.159105e-004 1.001204e+000 -1.676070e-002
11922675 1.000019e+000 -8.380202e-003 1.036706e-004 4.726427e-005 -2.298727e-004 -2.104884e-005 1.003021e+000 -1.630490e-002
11997660 1.000539e+000 -8.347289e-003 2.132578e-005 7.352371e-005 1.873130e-004 6.089770e-005 1.001539e+000 -1.568875e-002
