!Agilent Technologies,N5230C,SG49000117,A.08.50.07
!Agilent N5230C: A.08.50.07
!Date: Thursday, December 07, 2023 06:07:02
!Correction: S11(Full 2 Port(1,2)) 
!S21(Full 2 Port(1,2)) 
!S12(Full 2 Port(1,2)) 
!S22(Full 2 Port(1,2)) 
!S2P File: Measurements: S11, S21, S12, S22:
# Hz S  RI   R 50
300000 1.016073e+000 -1.398284e-002 9.913155e-005 -3.832355e-004 -5.092994e-004 2.533651e-004 1.033607e+000 -1.422773e-002
374985 9.967371e-001 -4.498628e-003 1.652546e-005 -9.654054e-006 2.726943e-004 4.677553e-005 9.809195e-001 -1.534516e-002
449970 9.903542e-001 4.927170e-004 9.254471e-006 -2.049293e-005 1.873870e-004 -2.055627e-005 9.595391e-001 -1.542384e-002
524955 9.786823e-001 5.153828e-003 3.372863e-005 1.115770e-004 2.949995e-004 -1.797123e-004 9.307053e-001 -3.663588e-003
599940 9.809489e-001 5.506973e-003 4.351269e-005 6.563800e-005 -7.805471e-005 4.437254e-005 9.445914e-001 6.145309e-003
674925 9.785267e-001 4.454856e-003 1.821903e-005 1.741235e-005 -1.907787e-004 1.679292e-004 9.354073e-001 -1.592489e-002
749910 9.790128e-001 5.394915e-003 -2.140189e-005 1.237562e-004 1.604989e-004 -1.991755e-004 9.321733e-001 -9.617466e-003
824895 9.835553e-001 2.800772e-003 5.517392e-005 5.803343e-005 -8.848566e-005 1.602380e-004 9.372575e-001 -1.048149e-002
899880 9.879388e-001 1.793192e-003 -5.638757e-005 -9.778858e-006 2.037522e-004 -1.761105e-005 9.432458e-001 -1.332328e-002
974865 9.905179e-001 -2.074773e-005 4.331314e-005 -9.348959e-006 -5.118900e-005 6.620037e-005 9.479001e-001 -1.094191e-002
1049850 9.943995e-001 -2.480469e-003 -1.463296e-005 -8.039861e-005 1.138796e-004 6.518107e-005 9.590284e-001 -9.880546e-003
1124835 9.972746e-001 -5.482332e-003 9.538513e-005 2.417914e-006 3.233284e-005 -3.245774e-005 9.669231e-001 -1.101751e-002
1199820 1.002638e+000 -9.475314e-003 -4.238274e-005 -3.879953e-006 1.743364e-004 -1.878350e-004 9.772429e-001 -9.481620e-003
1274805 1.007891e+000 -1.288223e-002 -5.394309e-005 -7.158108e-006 -1.592020e-004 -5.108559e-006 9.903471e-001 -8.794212e-003
1349790 1.000151e+000 -6.711303e-003 -1.165818e-004 4.059260e-005 3.541370e-004 -1.237522e-004 1.003939e+000 -1.266721e-002
1424775 9.995716e-001 -5.703469e-003 1.145534e-004 2.174646e-004 -1.118881e-004 3.454057e-004 1.002246e+000 -1.114284e-002
1499760 9.991944e-001 -4.923131e-003 5.426439e-005 7.130673e-006 -4.135357e-005 1.603459e-004 1.005517e+000 -8.552735e-003
1574745 9.983844e-001 -3.474820e-003 -1.795936e-004 -4.830804e-005 9.223098e-005 1.931389e-005 9.992793e-001 -9.579432e-003
1649730 9.979095e-001 -4.860917e-003 4.141427e-005 -1.139427e-005 7.178411e-005 1.100319e-005 1.002645e+000 -9.662477e-003
1724715 9.967246e-001 -4.827876e-003 -3.982360e-005 8.712983e-006 -3.635057e-004 -6.188772e-005 1.003034e+000 -1.190617e-002
1799700 9.966940e-001 -4.337586e-003 3.837764e-005 -3.708228e-005 -3.703130e-006 -1.100397e-004 1.005337e+000 -1.252214e-002
1874685 9.961994e-001 -3.109311e-003 -3.185198e-005 5.679140e-006 -1.214361e-004 -1.095410e-004 1.002463e+000 -6.909353e-003
1949670 9.947237e-001 -2.754651e-003 -2.396969e-004 -1.451639e-004 9.835585e-005 1.497121e-004 1.002367e+000 -6.492808e-003
2024655 9.953240e-001 -2.750574e-003 1.960012e-004 6.518454e-005 -1.169759e-004 1.742078e-004 1.000573e+000 -5.134559e-003
2099640 9.945540e-001 -2.001719e-003 9.198742e-005 3.256207e-005 3.405174e-004 -4.225278e-005 9.990390e-001 -4.030501e-003
2174625 9.947189e-001 -2.983399e-003 9.502438e-005 2.433714e-005 -1.851765e-005 2.435197e-005 1.000989e+000 -6.663874e-003
2249610 9.952276e-001 -3.302546e-003 -5.187980e-005 -4.740464e-005 -2.713454e-005 1.480220e-004 1.000542e+000 -5.838585e-003
2324595 1.000479e+000 -4.410624e-003 -7.620036e-005 -7.163018e-005 4.092730e-006 -7.626773e-005 1.001186e+000 -6.450707e-003
2399580 1.000807e+000 -3.791775e-003 -2.984878e-005 2.057083e-004 -2.631278e-004 -2.496294e-004 1.002864e+000 -4.781570e-003
2474565 9.993778e-001 -1.712724e-003 -1.630659e-004 -1.665000e-005 -8.582527e-005 -4.755143e-005 1.002025e+000 -5.728754e-003
2549550 1.000924e+000 -3.096633e-003 1.138669e-005 -9.281299e-005 -7.642500e-005 -1.207823e-004 9.982542e-001 -6.330371e-003
2624535 1.001138e+000 -2.679470e-003 -1.653832e-004 -9.211173e-005 -1.804623e-004 -2.234694e-004 9.991794e-001 -6.268422e-003
2699520 1.000429e+000 -3.789675e-003 -3.583479e-005 -9.784631e-005 1.991072e-004 -6.642785e-005 9.959590e-001 -4.896153e-003
2774505 9.998235e-001 -2.748165e-003 5.823835e-005 -2.476861e-005 1.481168e-004 2.715766e-004 9.999463e-001 -9.064781e-003
2849490 1.000794e+000 -2.690897e-003 1.388580e-004 -1.046916e-004 3.080035e-004 2.532672e-005 9.964262e-001 -4.974169e-003
2924475 1.000904e+000 -3.490057e-003 -9.235166e-005 5.597379e-005 1.340451e-005 8.698987e-005 1.002402e+000 -6.572254e-003
2999460 1.000436e+000 -2.699384e-003 1.520694e-005 7.363063e-005 -7.009534e-005 -9.835976e-005 1.000900e+000 -5.236324e-003
3074445 1.001430e+000 -2.508952e-003 5.003552e-005 5.708134e-005 2.893502e-004 -1.341884e-004 9.988334e-001 -6.049674e-003
3149430 1.001084e+000 -2.444082e-003 -5.360296e-005 2.995906e-005 -7.362568e-005 -7.779182e-005 1.000646e+000 -4.836370e-003
3224415 1.001242e+000 -3.052137e-003 3.197607e-005 6.497840e-005 2.036077e-005 1.333729e-004 1.001032e+000 -4.950650e-003
3299400 1.000202e+000 -3.239427e-003 -5.505304e-005 4.565255e-005 2.202202e-005 -2.692198e-006 9.995480e-001 -6.399549e-003
3374385 1.000236e+000 -2.688975e-003 2.165734e-006 -1.566992e-005 -8.936246e-005 1.186515e-004 9.992175e-001 -6.399252e-003
3449370 1.001405e+000 -3.261409e-003 8.693438e-005 3.523114e-005 1.058753e-005 -2.256845e-004 9.980328e-001 -6.132394e-003
3524355 1.000872e+000 -2.140334e-003 -4.598691e-005 -1.000962e-004 -6.844104e-005 9.286173e-005 9.996319e-001 -4.484398e-003
3599340 1.001471e+000 -2.085236e-003 1.050486e-004 -1.076519e-005 -5.325071e-005 1.729749e-004 9.985170e-001 -4.358528e-003
3674325 1.001349e+000 -1.976708e-003 8.131713e-006 1.149215e-004 9.146370e-005 -2.122619e-004 1.000381e+000 -6.164176e-003
3749310 1.001373e+000 -1.938817e-003 2.244067e-005 -1.014646e-005 1.658770e-005 2.225897e-004 9.988753e-001 -5.965821e-003
3824295 1.000918e+000 -2.399103e-003 -1.273411e-004 -6.698547e-005 8.813503e-005 -9.060001e-006 9.990799e-001 -5.628635e-003
3899280 1.000772e+000 -3.446267e-003 8.037710e-005 -2.800052e-005 -4.850399e-005 -9.938126e-005 1.000084e+000 -8.314839e-003
3974265 1.000775e+000 -3.705637e-003 -7.336136e-005 5.555743e-005 3.179771e-005 -1.533652e-004 9.997463e-001 -6.986063e-003
4049250 1.001156e+000 -3.425237e-003 1.015118e-005 -2.270372e-007 1.443360e-004 9.339082e-005 1.000567e+000 -6.775676e-003
4124235 1.001547e+000 -3.668300e-003 -6.989646e-005 4.688915e-005 8.877971e-005 -2.772266e-004 9.990197e-001 -6.360162e-003
4199220 1.000808e+000 -3.457765e-003 -5.361359e-005 -8.791050e-005 -3.540829e-005 1.048391e-004 9.991419e-001 -5.742888e-003
4274205 1.001139e+000 -2.919752e-003 -8.141615e-005 4.193081e-005 3.163977e-004 1.333929e-004 9.991526e-001 -4.985870e-003
4349190 1.000913e+000 -3.245610e-003 4.297690e-005 1.147494e-004 -3.694731e-005 -1.717929e-004 1.000381e+000 -4.847336e-003
4424175 1.000582e+000 -2.834199e-003 9.098057e-005 1.312520e-005 6.321180e-005 -2.501924e-005 1.000952e+000 -6.118423e-003
4499160 1.000668e+000 -3.692738e-003 2.920741e-005 -3.124367e-005 -3.121544e-005 1.668790e-004 9.990765e-001 -4.770454e-003
4574145 1.001462e+000 -3.417541e-003 4.548786e-005 8.317437e-005 1.431405e-005 -6.576636e-005 9.990111e-001 -5.473083e-003
4649130 1.001541e+000 -2.979025e-003 -7.116397e-005 2.071907e-005 -1.754564e-004 -7.402476e-005 9.972518e-001 -4.709263e-003
4724115 1.000571e+000 -3.125566e-003 2.187682e-005 3.388782e-006 -5.557786e-005 -2.098455e-005 1.000104e+000 -4.564568e-003
4799100 1.001021e+000 -3.020832e-003 4.544549e-005 -9.749418e-006 -7.149338e-005 5.672839e-007 1.000726e+000 -5.286713e-003
4874085 1.001283e+000 -3.190152e-003 1.858649e-005 1.895847e-005 1.181827e-004 -8.008118e-005 1.000887e+000 -6.204133e-003
4949070 1.000839e+000 -3.217649e-003 -1.193653e-004 -1.169002e-004 3.848979e-006 1.745315e-004 1.001265e+000 -4.731978e-003
5024055 1.000998e+000 -2.801970e-003 -3.855739e-005 -5.945257e-005 3.333564e-004 -1.934984e-005 9.989417e-001 -5.832486e-003
5099040 1.001535e+000 -2.912042e-003 -1.387403e-005 -5.143699e-005 1.519720e-004 -9.403000e-005 1.000120e+000 -4.842382e-003
5174025 1.001155e+000 -3.306049e-003 -4.928858e-005 6.093948e-006 -2.447319e-005 2.129401e-004 1.000246e+000 -5.254748e-003
5249010 1.002033e+000 -2.554320e-003 -2.122701e-005 6.618269e-005 -2.108249e-004 1.145040e-004 9.992790e-001 -4.522980e-003
5323995 1.001073e+000 -3.478745e-003 -1.101511e-005 -7.225779e-006 -7.098755e-005 -4.037057e-004 9.981637e-001 -4.404438e-003
5398980 1.000461e+000 -2.896121e-003 -1.670180e-004 3.761491e-005 2.412274e-005 -1.314689e-004 9.998621e-001 -5.909112e-003
5473965 1.000910e+000 -3.478203e-003 5.694622e-005 8.369489e-008 -2.311516e-004 -2.828231e-005 1.000465e+000 -5.102027e-003
5548950 1.001142e+000 -3.405855e-003 -4.599739e-005 -5.845033e-005 8.355607e-005 -1.240458e-004 9.992626e-001 -3.756411e-003
5623935 1.000537e+000 -2.406374e-003 3.927180e-005 1.344859e-005 1.011576e-004 1.352694e-004 9.991603e-001 -4.788855e-003
5698920 1.000534e+000 -2.778407e-003 2.871703e-005 -3.858495e-005 -4.437570e-005 1.148932e-005 1.000912e+000 -5.622396e-003
5773905 1.000981e+000 -3.555881e-003 2.757884e-005 5.293624e-005 1.839976e-004 -2.209556e-004 9.993585e-001 -6.283397e-003
5848890 1.001339e+000 -3.574755e-003 -4.087136e-005 -7.318887e-005 -3.265547e-004 2.213827e-004 1.000358e+000 -5.615728e-003
5923875 1.000681e+000 -3.727108e-003 8.105311e-005 1.478399e-005 -1.439874e-004 1.598041e-004 1.000184e+000 -6.976258e-003
5998860 1.000413e+000 -3.344506e-003 5.619918e-006 -6.050775e-005 6.605635e-005 -1.102543e-004 1.000658e+000 -7.711529e-003
6073845 1.000343e+000 -3.833985e-003 4.975254e-005 1.316089e-005 3.045316e-005 -1.114295e-004 1.000295e+000 -7.116565e-003
6148830 1.000302e+000 -3.643695e-003 -8.550705e-006 4.797307e-005 -5.526586e-005 8.905573e-005 1.001998e+000 -6.056705e-003
6223815 1.001165e+000 -3.172818e-003 -1.431773e-004 -9.877465e-005 -1.902750e-004 -1.812501e-004 9.997415e-001 -7.105216e-003
6298800 1.000834e+000 -2.818110e-003 9.342478e-005 -3.274345e-005 8.298006e-005 -1.792897e-004 1.000502e+000 -5.844775e-003
6373785 1.001095e+000 -3.631465e-003 -1.440586e-006 -8.747499e-005 1.139591e-004 5.659565e-005 9.998245e-001 -5.981032e-003
6448770 1.001152e+000 -2.924752e-003 4.830708e-005 -1.419681e-004 -2.339940e-005 -1.783609e-005 1.000768e+000 -5.570074e-003
6523755 1.000902e+000 -3.978842e-003 -7.580136e-005 3.067643e-005 2.414730e-004 -3.588328e-005 1.000036e+000 -7.488220e-003
6598740 1.000825e+000 -3.053039e-003 -6.814551e-005 3.184537e-005 8.775720e-005 -4.250160e-005 9.992458e-001 -6.193921e-003
6673725 1.000899e+000 -3.320657e-003 -1.209477e-004 -5.863813e-005 -2.101279e-004 7.990825e-005 1.000810e+000 -6.372579e-003
6748710 1.000362e+000 -3.009768e-003 -1.511479e-005 6.042319e-006 1.677911e-005 9.635607e-005 1.000218e+000 -7.826148e-003
6823695 1.000494e+000 -3.368294e-003 -1.637984e-005 -3.771152e-005 6.732827e-006 -1.391241e-004 1.000784e+000 -6.931311e-003
6898680 1.000811e+000 -3.738843e-003 -1.557817e-005 -4.378589e-005 1.605764e-004 -3.037756e-004 9.992972e-001 -7.884810e-003
6973665 1.000568e+000 -3.590622e-003 -1.421164e-005 -1.260462e-004 2.101294e-004 1.683034e-004 1.000674e+000 -9.084739e-003
7048650 1.001142e+000 -4.196944e-003 1.435218e-005 -1.409593e-004 -1.084389e-004 2.140677e-005 9.999443e-001 -9.590488e-003
7123635 1.001239e+000 -3.031246e-003 -7.170675e-005 -4.082740e-005 -1.632485e-005 -4.198195e-005 1.000985e+000 -7.692773e-003
7198620 1.000385e+000 -3.415803e-003 -4.914972e-005 6.404436e-005 9.508159e-006 -1.385659e-005 1.000420e+000 -8.997708e-003
7273605 1.000872e+000 -3.560100e-003 2.853474e-005 -6.247981e-005 5.896598e-005 -1.448353e-004 9.998326e-001 -7.711907e-003
7348590 9.999505e-001 -3.495902e-003 5.434475e-005 1.321960e-005 1.217630e-004 -1.684214e-004 1.000525e+000 -8.092294e-003
7423575 1.000845e+000 -3.312211e-003 -8.136996e-005 -9.684226e-005 2.699925e-004 -3.182730e-005 1.001208e+000 -7.950445e-003
7498560 1.000108e+000 -3.674544e-003 6.470995e-005 -2.417518e-005 1.205091e-004 7.479047e-005 9.993030e-001 -8.520494e-003
7573545 1.000291e+000 -3.546620e-003 -3.221486e-005 -1.036231e-004 -3.536221e-005 1.198028e-004 9.995123e-001 -7.215797e-003
7648530 1.000557e+000 -3.498825e-003 -3.523187e-005 7.440774e-005 2.424191e-005 -1.782955e-004 1.000573e+000 -8.224413e-003
7723515 1.000952e+000 -3.939271e-003 -8.481546e-005 1.754571e-005 -3.935690e-005 -1.280517e-004 9.993474e-001 -9.828076e-003
7798500 1.000891e+000 -3.835826e-003 1.110178e-004 1.151691e-005 9.479382e-005 8.277166e-005 1.000680e+000 -9.536204e-003
7873485 1.001108e+000 -3.813748e-003 -5.325592e-005 3.336723e-005 1.737861e-004 -3.522977e-004 1.000005e+000 -9.290691e-003
7948470 1.000916e+000 -4.695467e-003 -1.841536e-005 -4.091781e-005 -3.575547e-005 -1.699383e-004 9.991572e-001 -6.951701e-003
8023455 1.000796e+000 -4.449674e-003 2.100336e-005 -9.421006e-006 1.702760e-004 1.438198e-004 1.000567e+000 -7.873429e-003
8098440 1.000557e+000 -3.857286e-003 1.083606e-004 -5.683630e-005 -9.051513e-005 1.682664e-004 9.996164e-001 -7.667732e-003
8173425 1.000142e+000 -4.146390e-003 -1.526978e-005 2.042072e-006 -3.374760e-007 -2.065943e-004 9.997456e-001 -8.371345e-003
8248410 1.000478e+000 -3.917558e-003 3.718210e-005 -4.442414e-005 7.941917e-005 -1.630854e-005 9.998346e-001 -6.619698e-003
8323395 1.001025e+000 -4.102885e-003 -1.047525e-004 -1.251455e-004 -1.368163e-004 1.196427e-004 1.000413e+000 -6.327321e-003
8398380 1.000265e+000 -4.569341e-003 7.234957e-005 -8.647397e-005 -1.028153e-004 3.341628e-005 9.994611e-001 -8.157384e-003
8473365 1.000561e+000 -4.653394e-003 -2.133228e-005 3.437358e-005 -7.559459e-005 4.620607e-005 9.997504e-001 -8.136877e-003
8548350 1.000765e+000 -4.415734e-003 1.787897e-005 6.342579e-005 1.745131e-004 2.823959e-005 9.996889e-001 -6.538352e-003
8623335 1.000440e+000 -4.466113e-003 1.412745e-004 6.537584e-005 -1.991179e-005 7.022039e-005 9.999152e-001 -8.493352e-003
8698320 1.000641e+000 -4.630195e-003 4.302595e-005 -3.686547e-005 6.931200e-005 -1.486330e-004 9.998773e-001 -8.075690e-003
8773305 1.000560e+000 -5.304441e-003 -1.079302e-004 8.632043e-007 1.632085e-004 -5.948437e-005 1.000641e+000 -8.482321e-003
8848290 1.000845e+000 -4.537306e-003 -5.659994e-005 4.615076e-005 -8.275868e-005 -1.172738e-004 9.996936e-001 -9.897368e-003
8923275 1.000603e+000 -4.437150e-003 -5.025151e-005 -5.428836e-005 7.602892e-005 1.700468e-004 9.992166e-001 -9.468137e-003
8998260 1.000446e+000 -4.099399e-003 3.305842e-005 7.134643e-005 2.925204e-005 7.164495e-005 1.001172e+000 -9.076885e-003
9073245 1.000750e+000 -5.953696e-003 -8.516837e-005 -1.098869e-005 1.734727e-004 1.045912e-004 1.000744e+000 -9.301875e-003
9148230 1.000202e+000 -5.184202e-003 4.412993e-005 6.771995e-005 3.998593e-005 1.890287e-005 1.000778e+000 -6.169989e-003
9223215 1.000977e+000 -5.261005e-003 5.011701e-005 -5.600261e-006 -1.660401e-004 7.260004e-005 1.000073e+000 -9.815349e-003
9298200 1.000796e+000 -5.126245e-003 -1.021942e-004 -2.703444e-005 -2.353488e-004 3.480487e-004 9.996029e-001 -8.723163e-003
9373185 1.000831e+000 -5.628454e-003 1.078584e-005 7.327565e-005 -3.831393e-005 -1.056758e-004 9.995506e-001 -9.198215e-003
9448170 1.000899e+000 -5.549396e-003 2.093021e-005 -1.487002e-005 -2.212633e-004 -1.131884e-004 1.001031e+000 -9.959643e-003
9523155 1.001114e+000 -5.825741e-003 -7.204240e-006 -1.249958e-004 2.330547e-004 1.080879e-004 1.001139e+000 -1.169276e-002
9598140 1.000349e+000 -5.732911e-003 -7.557902e-005 2.127068e-005 -1.431932e-004 -5.649309e-005 9.999918e-001 -9.978144e-003
9673125 1.000202e+000 -6.398899e-003 -1.088123e-005 4.189718e-005 9.113237e-005 9.707762e-005 1.000419e+000 -1.158878e-002
9748110 1.000447e+000 -5.920625e-003 -1.378220e-004 9.003712e-005 -2.880599e-005 -1.519082e-004 1.000450e+000 -1.204220e-002
9823095 1.000693e+000 -6.587050e-003 3.675896e-005 4.677302e-005 1.897011e-004 -2.546631e-004 1.001732e+000 -1.216965e-002
9898080 1.000437e+000 -6.534410e-003 1.028187e-004 -2.775842e-005 2.191013e-006 -5.718208e-005 1.000935e+000 -1.227631e-002
9973065 1.000832e+000 -6.494753e-003 -7.607301e-005 4.492107e-005 -1.277696e-004 -1.430931e-004 1.000654e+000 -1.303875e-002
10048050 1.000340e+000 -7.178679e-003 2.114346e-005 -9.993577e-005 1.149544e-005 6.024023e-005 1.001995e+000 -1.179934e-002
10123035 1.000823e+000 -7.909987e-003 -2.058610e-005 2.583922e-005 -5.574357e-005 -1.779030e-004 1.000582e+000 -1.294569e-002
10198020 9.998603e-001 -7.476763e-003 1.242453e-005 -2.858890e-006 -2.591464e-004 -1.238927e-004 1.001485e+000 -1.180435e-002
10273005 1.000731e+000 -8.036386e-003 1.299513e-004 -1.107922e-004 -2.262614e-004 -6.302725e-005 1.001874e+000 -1.198234e-002
10347990 1.000539e+000 -7.340180e-003 3.306718e-006 -5.638868e-005 6.377583e-005 -9.282872e-005 1.003191e+000 -1.349335e-002
10422975 9.996713e-001 -7.440731e-003 3.093580e-005 3.613140e-005 2.782091e-004 -6.961949e-005 1.002106e+000 -1.437063e-002
10497960 1.000792e+000 -7.623949e-003 -6.293525e-005 -7.892585e-006 -1.476900e-004 8.484977e-005 1.000478e+000 -1.449149e-002
10572945 1.000343e+000 -7.308634e-003 -2.012938e-005 -4.885017e-005 -2.744013e-004 -2.549080e-005 1.001477e+000 -1.410806e-002
10647930 1.000389e+000 -6.732913e-003 -1.333825e-004 9.525320e-006 2.329492e-004 1.698915e-004 1.001707e+000 -1.515194e-002
10722915 9.995673e-001 -7.506362e-003 1.064079e-004 -9.434954e-006 -1.806053e-004 -3.673477e-004 1.002294e+000 -1.692673e-002
10797900 1.000611e+000 -7.812966e-003 -6.859932e-005 -5.230847e-005 -1.061370e-006 -1.898591e-004 1.002207e+000 -1.610280e-002
10872885 9.997714e-001 -7.240657e-003 -5.968077e-005 -6.375467e-005 3.202661e-005 -2.707844e-004 1.001892e+000 -1.330570e-002
10947870 1.000468e+000 -7.429042e-003 -2.908366e-005 1.755288e-005 1.041950e-004 2.175690e-004 1.002443e+000 -1.484582e-002
11022855 1.000434e+000 -7.531838e-003 8.772562e-005 -1.812336e-005 -1.035321e-004 -8.298660e-005 1.001975e+000 -1.541681e-002
11097840 1.000663e+000 -7.152413e-003 1.790891e-004 -2.005043e-005 -4.703501e-005 -8.267594e-005 1.001575e+000 -1.573473e-002
11172825 9.996774e-001 -8.278236e-003 5.912428e-006 1.119130e-005 1.880388e-005 2.378373e-004 1.000001e+000 -1.624454e-002
11247810 1.000571e+000 -7.669193e-003 5.476638e-007 4.036795e-005 -6.470967e-005 -4.806407e-006 1.001498e+000 -1.533600e-002
11322795 9.997329e-001 -7.911923e-003 5.695788e-005 9.522920e-005 -1.688408e-004 -1.843792e-004 1.002863e+000 -1.679413e-002
11397780 1.000355e+000 -7.558925e-003 7.025685e-005 2.715385e-005 6.978028e-005 8.730336e-005 1.002088e+000 -1.577813e-002
11472765 1.000261e+000 -8.351241e-003 5.343172e-005 1.328649e-005 5.218177e-005 -8.752293e-005 1.000804e+000 -1.596590e-002
11547750 9.996957e-001 -7.956033e-003 1.205600e-004 8.923890e-005 -1.242242e-004 1.087224e-004 1.001391e+000 -1.582853e-002
11622735 9.998028e-001 -7.797793e-003 -5.644903e-005 1.188669e-004 2.389489e-004 -9.169502e-005 1.001646e+000 -1.621803e-002
11697720 1.000065e+000 -7.709476e-003 -3.328599e-005 -1.140467e-004 1.324540e-004 -2.547503e-004 1.001856e+000 -1.605147e-002
11772705 1.000608e+000 -7.760633e-003 8.204186e-005 -2.343942e-005 7.313405e-005 1.353021e-004 1.001094e+000 -1.606381e-002
11847690 9.994187e-001 -8.024076e-003 1.023621e-005 -1.065506e-004 1.039252e-004 -8.138112e-005 1.001943e+000 -1.478553e-002
11922675 1.000173e+000 -8.096498e-003 1.291637e-004 1.677244e-005 9.263223e-005 -2.489031e-004 1.002881e+000 -1.621035e-002
11997660 9.996936e-001 -8.024022e-003 9.090865e-005 8.731475e-006 -1.918107e-004 1.460283e-004 1.002272e+000 -1.490554e-002
