!Agilent Technologies,N5230C,SG49000117,A.08.50.07
!Agilent N5230C: A.08.50.07
!Date: Thursday, December 07, 2023 06:10:34
!Correction: S11(Full 2 Port(1,2)) 
!S21(Full 2 Port(1,2)) 
!S12(Full 2 Port(1,2)) 
!S22(Full 2 Port(1,2)) 
!S2P File: Measurements: S11, S21, S12, S22:
# Hz S  RI   R 50
300000 1.018502e+000 -1.047043e-002 7.278181e-005 -1.436705e-004 -3.402990e-004 -1.233730e-004 1.034504e+000 -1.617856e-002
374985 9.970265e-001 -6.082405e-003 1.599936e-004 1.574972e-005 -1.335802e-004 -2.160681e-004 9.871194e-001 -1.747397e-002
449970 9.892598e-001 -9.358437e-004 -1.298685e-004 2.253141e-005 -3.841298e-004 -3.374857e-004 9.626982e-001 -1.265923e-002
524955 9.785151e-001 5.960646e-003 9.315467e-006 -3.479896e-005 2.815413e-004 1.795094e-005 9.297716e-001 -2.066820e-003
599940 9.808092e-001 4.661598e-003 9.998080e-006 -3.165941e-005 -2.323629e-004 -1.340833e-004 9.442532e-001 4.662903e-003
674925 9.782549e-001 3.742661e-003 -1.281028e-005 -2.638643e-005 1.859075e-004 5.899759e-006 9.373266e-001 -1.609269e-002
749910 9.795310e-001 6.302910e-003 -6.689892e-005 -6.980606e-005 9.597417e-005 2.077034e-004 9.322187e-001 -9.490764e-003
824895 9.834148e-001 4.211744e-003 -6.846206e-005 1.275167e-004 -9.999548e-005 -1.016573e-004 9.376256e-001 -1.039558e-002
899880 9.876200e-001 1.451847e-004 9.978306e-006 -7.743978e-005 2.707102e-005 -3.191279e-004 9.438635e-001 -1.233996e-002
974865 9.882542e-001 2.306886e-004 1.002359e-004 3.226139e-005 -6.287584e-006 -6.441226e-005 9.476247e-001 -1.082159e-002
1049850 9.942272e-001 -2.853560e-003 3.470849e-005 2.802355e-005 1.379425e-004 4.196260e-006 9.587443e-001 -1.093969e-002
1124835 9.972082e-001 -5.888365e-003 2.566192e-005 1.230701e-005 3.665363e-004 3.517226e-005 9.689305e-001 -1.173288e-002
1199820 1.002220e+000 -8.894094e-003 4.233780e-005 -7.818705e-006 1.327244e-004 9.633014e-005 9.774892e-001 -1.133402e-002
1274805 1.007510e+000 -1.352244e-002 -4.692179e-005 -1.061603e-005 2.270809e-004 -2.182277e-006 9.909911e-001 -8.997618e-003
1349790 9.997845e-001 -6.113296e-003 -1.816248e-005 1.527794e-004 5.786867e-005 5.506123e-005 1.002956e+000 -1.056263e-002
1424775 9.995518e-001 -5.198610e-003 -6.386331e-005 6.480162e-005 -3.440240e-004 7.620059e-005 1.004208e+000 -1.163538e-002
1499760 9.991169e-001 -5.026231e-003 -3.210298e-005 1.693770e-005 1.659426e-004 3.374530e-004 1.005827e+000 -9.776041e-003
1574745 9.986501e-001 -3.608539e-003 -1.206181e-004 -1.384205e-004 -1.145442e-004 2.081640e-004 9.996797e-001 -8.683750e-003
1649730 9.981176e-001 -4.753676e-003 -5.518710e-005 -1.595680e-004 -1.707667e-005 -1.396912e-004 1.002036e+000 -1.094827e-002
1724715 9.975992e-001 -5.378915e-003 -5.223089e-005 -5.286311e-005 2.903148e-006 3.022648e-004 1.004290e+000 -1.233473e-002
1799700 9.959373e-001 -4.556859e-003 3.569597e-006 2.719820e-005 2.960353e-005 9.307765e-005 1.005144e+000 -1.099584e-002
1874685 9.958387e-001 -2.814990e-003 -9.034370e-005 -1.770000e-004 -2.163007e-004 -1.547714e-004 1.001568e+000 -9.463334e-003
1949670 9.962867e-001 -2.556990e-003 1.653547e-004 -8.482690e-006 -3.780825e-004 2.966754e-004 1.000826e+000 -9.701957e-003
2024655 9.951091e-001 -1.524258e-003 -1.203651e-004 2.141740e-004 6.358134e-005 3.575379e-004 1.001109e+000 -8.802816e-003
2099640 9.947432e-001 -2.160549e-003 -5.184598e-005 -3.914991e-005 -2.075742e-004 -6.041000e-005 1.001112e+000 -4.384901e-003
2174625 9.952303e-001 -3.043313e-003 2.306682e-005 -1.169624e-004 2.705868e-004 -2.011997e-005 1.000215e+000 -6.428787e-003
2249610 9.949874e-001 -2.386641e-003 -3.097608e-005 -1.737012e-006 6.804670e-005 -2.445072e-004 1.001840e+000 -6.447731e-003
2324595 1.000045e+000 -4.540149e-003 -3.754329e-006 -4.557586e-006 4.029421e-005 -2.019290e-005 1.003181e+000 -5.321287e-003
2399580 1.000211e+000 -4.080371e-003 3.312889e-005 -7.033992e-005 1.865363e-004 3.614377e-004 1.002727e+000 -4.892412e-003
2474565 9.994546e-001 -1.152418e-003 -6.508470e-005 -6.276935e-005 1.401670e-004 3.693573e-005 1.000031e+000 -5.657507e-003
2549550 1.000432e+000 -2.249619e-003 -4.444752e-005 -1.069742e-004 7.879452e-005 -5.062698e-005 9.988778e-001 -6.636751e-003
2624535 1.000497e+000 -3.172120e-003 -3.046978e-005 -8.496082e-006 1.314003e-004 -1.527739e-004 1.000077e+000 -6.418618e-003
2699520 1.000178e+000 -4.257751e-003 8.618018e-005 -6.409147e-005 -1.792211e-004 -2.032677e-004 9.947538e-001 -6.417963e-003
2774505 9.993123e-001 -2.692286e-003 -6.193350e-005 -1.672989e-005 2.972448e-004 1.314496e-005 9.994502e-001 -1.006950e-002
2849490 1.000148e+000 -2.272615e-003 8.387815e-005 -3.877950e-005 -1.863261e-004 -1.211175e-004 9.985958e-001 -5.631498e-003
2924475 1.001154e+000 -2.613026e-003 4.225923e-005 2.825455e-005 -6.210043e-005 1.560205e-004 1.004227e+000 -5.502709e-003
2999460 1.000857e+000 -2.356080e-003 3.965064e-005 3.173357e-005 -1.327348e-004 1.651260e-005 1.000632e+000 -6.249126e-003
3074445 1.000896e+000 -3.508120e-003 6.097445e-005 -2.200889e-005 -2.525904e-004 7.769870e-005 1.000178e+000 -5.525841e-003
3149430 1.000757e+000 -2.350481e-003 -1.121466e-004 4.778040e-005 -1.318966e-004 3.937258e-004 9.994118e-001 -5.637690e-003
3224415 1.001159e+000 -3.011111e-003 1.322907e-005 -8.930293e-006 4.877468e-006 -3.317334e-004 9.987282e-001 -4.593623e-003
3299400 1.001592e+000 -2.555855e-003 -4.301854e-005 2.858672e-005 -5.486162e-006 -2.898216e-004 9.992138e-001 -5.553999e-003
3374385 1.000434e+000 -3.596521e-003 -1.085705e-004 1.639317e-006 -5.981437e-005 1.143675e-004 9.981124e-001 -6.394809e-003
3449370 1.000786e+000 -3.163567e-003 -5.414717e-006 4.545789e-005 1.188890e-004 5.904193e-005 9.982145e-001 -5.284561e-003
3524355 1.001174e+000 -2.134054e-003 8.289689e-005 -1.051461e-005 7.223191e-006 -2.821019e-004 9.997323e-001 -4.776957e-003
3599340 1.000847e+000 -2.096769e-003 -3.912003e-005 5.491945e-007 -1.186864e-004 2.119759e-004 9.986619e-001 -4.841466e-003
3674325 1.000927e+000 -2.469879e-003 2.831188e-005 2.553618e-005 3.667912e-004 2.353492e-004 9.991131e-001 -5.156066e-003
3749310 1.001053e+000 -1.484708e-003 -1.014261e-004 -5.499840e-005 6.624205e-006 1.567750e-004 9.980991e-001 -5.549232e-003
3824295 1.000586e+000 -2.016312e-003 3.253863e-005 2.430718e-005 7.337177e-005 3.184553e-005 9.982356e-001 -7.568476e-003
3899280 1.001010e+000 -3.186691e-003 -6.661909e-005 -8.558806e-005 3.852627e-005 2.340804e-005 1.001029e+000 -6.752769e-003
3974265 1.001745e+000 -4.005096e-003 2.300697e-005 3.306377e-005 1.151307e-004 -9.804303e-007 1.000592e+000 -8.361503e-003
4049250 1.001319e+000 -3.377275e-003 6.041338e-006 -5.566415e-005 -4.239017e-005 7.508726e-005 9.999681e-001 -7.544984e-003
4124235 1.001297e+000 -3.554688e-003 6.200135e-005 6.977232e-006 -1.985763e-004 1.030651e-004 9.994254e-001 -7.119722e-003
4199220 1.000650e+000 -4.113965e-003 -4.368498e-005 4.153884e-005 1.460325e-004 -9.239995e-005 1.000410e+000 -6.630552e-003
4274205 1.001177e+000 -2.998584e-003 2.421181e-005 8.896377e-005 2.829424e-005 2.234081e-004 9.998457e-001 -5.693730e-003
4349190 1.000753e+000 -2.718262e-003 -4.146267e-005 7.962390e-005 -1.800151e-004 -4.118471e-005 1.000310e+000 -4.845855e-003
4424175 1.001213e+000 -3.700945e-003 1.592489e-004 -1.384637e-006 -1.354163e-004 -1.940567e-004 9.997827e-001 -5.614726e-003
4499160 1.001689e+000 -3.553114e-003 7.919842e-005 -5.933532e-005 -5.086115e-005 -2.848099e-005 1.000039e+000 -4.501778e-003
4574145 1.000791e+000 -3.046111e-003 -1.030849e-004 6.076973e-005 -5.702359e-005 -2.743118e-004 1.001250e+000 -4.577445e-003
4649130 1.000742e+000 -2.674048e-003 -1.860555e-005 8.757866e-006 -1.293468e-004 -6.379473e-005 1.000435e+000 -4.950347e-003
4724115 1.001830e+000 -2.669596e-003 -2.912317e-005 5.576167e-005 -1.121471e-004 2.287808e-005 1.000203e+000 -6.052771e-003
4799100 1.001616e+000 -3.497766e-003 1.897600e-005 4.435149e-005 -1.324184e-004 -6.591406e-005 9.994802e-001 -4.778775e-003
4874085 1.001377e+000 -3.573042e-003 4.291909e-005 1.355858e-004 -1.706845e-005 1.246730e-004 1.000222e+000 -4.818670e-003
4949070 1.000978e+000 -2.885058e-003 -9.579967e-005 1.134388e-004 -3.043965e-005 -9.385699e-005 1.001846e+000 -3.339529e-003
5024055 1.001935e+000 -3.813393e-003 -6.752013e-005 3.128169e-005 1.113402e-004 -1.769543e-004 9.979690e-001 -4.559299e-003
5099040 1.001315e+000 -3.551933e-003 2.121773e-005 -1.537840e-006 -1.249380e-004 -1.069922e-004 9.994358e-001 -4.664097e-003
5174025 1.000764e+000 -2.909506e-003 -2.547898e-005 4.566516e-005 -2.406512e-004 -4.675366e-005 9.987336e-001 -4.407024e-003
5249010 1.001009e+000 -3.537665e-003 -4.228882e-006 1.037712e-005 2.236500e-004 -1.177229e-004 1.000900e+000 -3.542902e-003
5323995 1.000182e+000 -3.095646e-003 7.980842e-005 -5.772671e-005 3.163571e-004 -7.160508e-005 9.981169e-001 -5.008507e-003
5398980 1.000768e+000 -3.308257e-003 -6.065788e-005 -4.201614e-005 4.674222e-005 1.670078e-004 9.991322e-001 -4.468012e-003
5473965 1.000455e+000 -2.861048e-003 8.322657e-005 -3.777186e-005 8.213233e-005 1.448711e-004 9.996650e-001 -5.054393e-003
5548950 1.000536e+000 -3.305988e-003 1.084348e-004 5.025409e-005 -1.599042e-004 7.342689e-005 1.000377e+000 -4.739013e-003
5623935 1.000456e+000 -3.047368e-003 -3.189268e-005 -4.925971e-005 2.213676e-004 9.773488e-005 1.000154e+000 -5.552047e-003
5698920 1.001000e+000 -3.203146e-003 -4.989594e-005 -6.542991e-005 6.127109e-005 -1.661198e-004 1.001272e+000 -4.944392e-003
5773905 1.001078e+000 -3.843076e-003 8.475864e-005 1.097559e-005 1.675321e-004 -1.115680e-004 1.000966e+000 -6.527817e-003
5848890 1.000891e+000 -3.245791e-003 4.062801e-005 3.691224e-007 -7.058723e-005 -1.925416e-004 1.000539e+000 -5.413253e-003
5923875 1.000915e+000 -3.843503e-003 -1.942944e-005 -8.707663e-007 6.222721e-005 9.571221e-006 1.000788e+000 -6.334391e-003
5998860 1.000663e+000 -4.011366e-003 -6.429454e-005 1.280725e-005 -2.145973e-004 6.331770e-006 1.000995e+000 -7.130901e-003
6073845 1.000095e+000 -3.421079e-003 6.166265e-005 -9.927971e-005 7.123365e-005 9.862575e-005 1.000697e+000 -5.611473e-003
6148830 1.000877e+000 -4.118252e-003 -1.119792e-005 1.718219e-005 6.190809e-005 -5.570113e-005 1.000343e+000 -6.244099e-003
6223815 1.001354e+000 -3.378179e-003 5.783304e-005 -2.886412e-005 2.422400e-004 -4.722798e-005 1.000022e+000 -6.638666e-003
6298800 1.000922e+000 -3.292449e-003 -1.009265e-004 -1.897335e-005 -2.429119e-004 -4.889285e-005 9.988531e-001 -4.727080e-003
6373785 1.000830e+000 -3.004505e-003 6.354096e-005 1.255414e-004 1.297181e-004 7.129079e-005 1.000855e+000 -4.905411e-003
6448770 1.001263e+000 -2.873095e-003 -1.844571e-005 3.274963e-005 1.475899e-004 2.865171e-004 1.000468e+000 -6.413208e-003
6523755 1.001055e+000 -3.281827e-003 -1.011976e-005 9.528117e-005 -8.702381e-005 -8.972004e-005 9.995074e-001 -7.074593e-003
6598740 1.001259e+000 -3.499486e-003 -3.965095e-005 -7.776396e-005 -1.371371e-004 1.151397e-005 1.001817e+000 -7.493760e-003
6673725 1.000554e+000 -3.972091e-003 -8.771807e-005 1.044034e-004 -1.214720e-004 3.655032e-005 1.000600e+000 -6.197550e-003
6748710 1.000619e+000 -3.592248e-003 -5.761584e-005 -6.899580e-005 5.645570e-005 -7.824341e-005 1.001192e+000 -9.661016e-003
6823695 1.001040e+000 -2.854635e-003 -1.268514e-004 5.825899e-005 -9.615602e-005 -3.339246e-004 1.001162e+000 -7.539247e-003
6898680 1.000039e+000 -2.969800e-003 -8.556143e-005 -1.117047e-004 1.171924e-004 -6.315127e-005 1.000931e+000 -7.657041e-003
6973665 1.000614e+000 -3.592348e-003 4.518724e-005 -9.173965e-005 -7.001109e-005 -5.213146e-005 9.995092e-001 -9.099387e-003
7048650 1.000422e+000 -3.246672e-003 -1.111448e-005 7.091899e-005 3.095593e-004 2.915980e-004 1.000537e+000 -9.045164e-003
7123635 1.000298e+000 -3.462994e-003 1.264359e-004 6.756193e-005 -7.176795e-005 -1.148201e-004 9.987749e-001 -7.928839e-003
7198620 1.000487e+000 -4.189246e-003 2.239897e-005 -8.367361e-005 4.577522e-005 -3.202107e-004 1.000013e+000 -7.704698e-003
7273605 1.000299e+000 -4.062158e-003 -1.742682e-005 -1.555356e-006 1.593616e-004 1.418426e-005 9.996972e-001 -8.780569e-003
7348590 1.000675e+000 -3.728832e-003 1.243271e-004 3.654640e-005 -3.849181e-004 -2.473201e-004 1.000221e+000 -9.074980e-003
7423575 1.000456e+000 -4.377035e-003 7.986033e-005 -8.588048e-005 -7.176166e-005 1.496933e-004 9.999762e-001 -8.572410e-003
7498560 1.000408e+000 -3.840738e-003 -4.286267e-005 1.896542e-006 5.836399e-005 9.568225e-005 9.997026e-001 -8.291237e-003
7573545 9.996365e-001 -3.868373e-003 1.494323e-005 3.947298e-005 -2.378332e-004 3.322343e-004 1.001096e+000 -7.604988e-003
7648530 1.000251e+000 -4.408772e-003 2.821831e-005 3.979095e-005 -1.514204e-004 -2.339469e-004 9.998380e-001 -6.539025e-003
7723515 1.001013e+000 -4.058063e-003 1.826957e-005 -3.910458e-005 1.251803e-005 -3.277904e-004 9.993839e-001 -8.626869e-003
7798500 1.001135e+000 -3.711727e-003 -1.254188e-005 -9.280663e-006 -1.019276e-004 2.478513e-004 9.994809e-001 -8.876978e-003
7873485 1.000790e+000 -4.409153e-003 -7.330717e-005 -6.814714e-005 -3.766293e-005 5.143414e-005 1.000063e+000 -9.300945e-003
7948470 1.000626e+000 -4.043148e-003 2.997588e-005 1.885033e-005 1.002440e-004 1.436210e-004 1.000451e+000 -8.151937e-003
8023455 1.000663e+000 -4.228238e-003 -3.374899e-005 4.874717e-005 2.432516e-004 -2.861203e-004 1.000501e+000 -8.524591e-003
8098440 1.000518e+000 -4.398039e-003 -6.882360e-005 -5.992899e-005 -1.910201e-004 4.105917e-005 9.997780e-001 -8.486662e-003
8173425 1.000137e+000 -3.942350e-003 4.604867e-005 -6.402973e-006 1.016865e-004 -7.499438e-005 1.000335e+000 -6.829202e-003
8248410 1.000920e+000 -4.201025e-003 5.304762e-005 -7.929188e-005 6.713132e-005 -1.184600e-005 9.979829e-001 -7.236853e-003
8323395 1.000309e+000 -4.174235e-003 8.183208e-005 5.023971e-005 2.352649e-004 -1.972526e-004 1.000057e+000 -7.736348e-003
8398380 1.000168e+000 -4.679089e-003 -8.414750e-005 9.494150e-005 6.684942e-005 -2.552899e-004 1.001688e+000 -7.615724e-003
8473365 1.001074e+000 -4.363042e-003 9.065200e-006 -6.081411e-005 -3.959534e-006 2.919418e-005 1.000433e+000 -7.803415e-003
8548350 1.000337e+000 -4.900178e-003 -2.991195e-006 4.835680e-005 -1.119047e-006 -7.349125e-005 9.994166e-001 -8.623212e-003
8623335 1.000226e+000 -4.957036e-003 7.478427e-005 -3.364380e-005 -3.039288e-004 -2.904265e-004 9.991729e-001 -8.645767e-003
8698320 1.000510e+000 -4.717169e-003 -2.762467e-005 3.170095e-005 1.716700e-004 1.297221e-004 9.994230e-001 -8.800615e-003
8773305 1.000096e+000 -4.897131e-003 1.703050e-005 3.945186e-005 -2.152340e-004 -2.724439e-005 1.000640e+000 -9.255840e-003
8848290 1.000641e+000 -4.893852e-003 3.251118e-005 3.845306e-005 2.777292e-005 8.026008e-005 9.997198e-001 -1.059878e-002
8923275 1.000435e+000 -5.559266e-003 -3.229979e-005 2.615360e-005 2.200648e-004 -1.227460e-004 1.001122e+000 -9.338097e-003
8998260 1.000343e+000 -5.113505e-003 -3.952827e-005 3.437473e-005 2.488976e-005 5.066268e-006 1.002177e+000 -9.089995e-003
9073245 1.000833e+000 -5.884565e-003 3.636428e-005 6.696561e-005 -4.429081e-005 -3.960318e-004 9.991210e-001 -1.048432e-002
9148230 1.000968e+000 -4.934273e-003 5.698211e-006 1.054914e-005 3.907574e-005 -1.475260e-005 1.000959e+000 -9.060813e-003
9223215 1.001269e+000 -4.581698e-003 2.004352e-005 2.787874e-005 4.107660e-005 -3.094810e-004 1.000929e+000 -8.402519e-003
9298200 1.000772e+000 -5.271285e-003 2.929111e-006 -9.557372e-005 6.089982e-005 -2.275076e-004 1.001750e+000 -8.770021e-003
9373185 1.000991e+000 -5.086291e-003 -5.551712e-005 -9.281946e-005 -1.677207e-004 2.483436e-005 9.998534e-001 -8.446489e-003
9448170 1.000617e+000 -5.238344e-003 3.484774e-005 -3.041724e-005 9.552856e-005 2.282377e-004 9.998314e-001 -9.784427e-003
9523155 1.000136e+000 -5.786237e-003 3.581225e-005 -4.094226e-005 8.982171e-006 1.699043e-004 1.001507e+000 -1.037880e-002
9598140 1.000347e+000 -5.531929e-003 2.773732e-005 2.808544e-005 2.108944e-004 -3.802246e-004 9.996092e-001 -9.564848e-003
9673125 1.000894e+000 -6.410533e-003 -4.656779e-005 -8.283290e-005 1.963517e-004 -1.749043e-004 9.993595e-001 -1.006578e-002
9748110 1.000453e+000 -7.023714e-003 -4.074791e-005 -5.896075e-005 2.442153e-004 5.876720e-005 1.000774e+000 -1.168139e-002
9823095 1.000996e+000 -6.291739e-003 -2.980335e-005 -1.302029e-005 6.494490e-005 -5.413288e-005 1.000649e+000 -1.070519e-002
9898080 1.000742e+000 -6.564894e-003 2.816701e-005 1.675025e-004 -1.362641e-004 -5.073845e-005 1.000606e+000 -1.282464e-002
9973065 1.000677e+000 -6.242559e-003 -4.159852e-005 -2.423894e-005 5.094742e-005 3.545311e-005 1.000743e+000 -1.311560e-002
10048050 1.000450e+000 -6.905472e-003 -8.968157e-005 1.807616e-005 -1.199618e-004 2.237948e-004 1.000692e+000 -1.336046e-002
10123035 1.000275e+000 -7.529416e-003 8.633897e-005 -1.792281e-006 -4.663832e-005 -7.772652e-005 1.001973e+000 -1.405838e-002
10198020 1.000958e+000 -6.940279e-003 -1.344332e-004 -6.983312e-006 4.899197e-005 2.492682e-004 1.002062e+000 -1.405024e-002
10273005 1.000905e+000 -7.649266e-003 1.473330e-005 -1.886579e-005 1.006903e-004 -2.476020e-005 1.001303e+000 -1.241765e-002
10347990 1.000533e+000 -7.363734e-003 1.644390e-004 5.010162e-005 -2.238885e-004 2.253384e-004 1.002916e+000 -1.376327e-002
10422975 9.998799e-001 -6.815115e-003 3.183430e-005 7.091343e-006 -2.367317e-004 1.237116e-004 1.002008e+000 -1.411706e-002
10497960 1.000454e+000 -7.329437e-003 9.348494e-005 -5.616466e-006 3.935763e-005 -3.248555e-005 1.001392e+000 -1.496537e-002
10572945 1.000250e+000 -7.785541e-003 6.411243e-005 2.970665e-005 -1.049974e-004 -2.955998e-005 1.001889e+000 -1.701997e-002
10647930 1.000197e+000 -7.648090e-003 8.211382e-005 -3.307542e-005 1.375296e-004 4.108562e-005 1.001269e+000 -1.439120e-002
10722915 1.000390e+000 -7.359631e-003 3.072852e-007 -4.766161e-005 3.019260e-005 -4.168441e-005 1.000840e+000 -1.693066e-002
10797900 9.998555e-001 -7.666660e-003 -2.219273e-005 -4.297270e-005 -1.553925e-004 2.463147e-004 1.001576e+000 -1.579738e-002
10872885 1.000279e+000 -7.704336e-003 -9.829277e-005 -3.816327e-005 -2.656964e-005 3.613689e-005 1.001716e+000 -1.731393e-002
10947870 1.000526e+000 -7.128671e-003 1.345417e-004 -3.052042e-005 1.433312e-004 9.081770e-005 9.999614e-001 -1.678147e-002
11022855 1.000751e+000 -7.646132e-003 -6.410691e-005 -7.635305e-005 -2.581500e-004 3.726955e-005 1.001083e+000 -1.556688e-002
11097840 1.000810e+000 -8.022502e-003 4.314090e-005 -5.571928e-005 -2.834096e-004 4.544336e-005 1.001136e+000 -1.535423e-002
11172825 1.000750e+000 -7.499912e-003 7.594852e-005 2.016374e-005 5.980765e-006 -3.133169e-005 1.001312e+000 -1.523122e-002
11247810 1.000288e+000 -7.880129e-003 7.885677e-005 -1.506552e-005 -1.763441e-004 6.414361e-005 1.000479e+000 -1.598549e-002
11322795 9.997438e-001 -7.602792e-003 4.867188e-005 -6.358567e-005 1.392647e-004 -2.411877e-004 1.000762e+000 -1.682062e-002
11397780 9.996614e-001 -7.407744e-003 -8.254602e-005 5.303533e-006 -7.146133e-005 -1.388597e-004 1.001224e+000 -1.783428e-002
11472765 1.000312e+000 -7.902244e-003 2.609815e-006 2.639159e-005 1.395141e-005 -1.816062e-004 1.000486e+000 -1.735975e-002
11547750 1.000464e+000 -8.330417e-003 -8.125408e-006 -7.328876e-005 1.417414e-005 -1.554504e-004 1.000538e+000 -1.689194e-002
11622735 1.000162e+000 -7.920106e-003 -1.384980e-005 -7.325876e-005 2.677942e-004 1.820776e-004 1.002119e+000 -1.481314e-002
11697720 9.998313e-001 -8.604618e-003 -4.631222e-005 -3.619886e-005 -4.589641e-005 2.162753e-004 1.000553e+000 -1.599536e-002
11772705 9.994626e-001 -8.001301e-003 -7.161852e-005 -2.025933e-005 -1.163907e-004 -4.379178e-005 1.001598e+000 -1.662417e-002
11847690 9.997798e-001 -7.628287e-003 -6.625063e-005 6.966632e-005 6.533421e-006 -3.064354e-004 1.003471e+000 -1.679800e-002
11922675 1.000444e+000 -8.143641e-003 -4.872799e-005 -1.075189e-005 3.817524e-005 -1.278571e-004 1.000846e+000 -1.417099e-002
11997660 9.998363e-001 -7.919035e-003 6.880074e-005 -2.968222e-005 1.082986e-004 1.093270e-004 1.001286e+000 -1.552874e-002
