!Agilent Technologies,N5230C,SG49000117,A.08.50.07
!Agilent N5230C: A.08.50.07
!Date: Thursday, December 07, 2023 06:12:33
!Correction: S11(Full 2 Port(1,2)) 
!S21(Full 2 Port(1,2)) 
!S12(Full 2 Port(1,2)) 
!S22(Full 2 Port(1,2)) 
!S2P File: Measurements: S11, S21, S12, S22:
# Hz S  RI   R 50
300000 1.017092e+000 -9.674784e-003 -3.740185e-004 -2.103520e-004 1.238204e-004 3.021940e-004 1.032881e+000 -1.649972e-002
374985 9.968964e-001 -3.779963e-003 -6.922674e-006 1.733285e-005 1.754250e-004 -9.062359e-005 9.837760e-001 -1.624424e-002
449970 9.876467e-001 -5.429402e-004 7.140616e-005 -2.715807e-005 -3.277167e-005 3.448109e-004 9.530838e-001 -1.413654e-002
524955 9.789256e-001 5.093507e-003 -3.390573e-005 -1.340718e-004 9.027886e-005 2.435280e-005 9.307392e-001 -3.494203e-003
599940 9.813221e-001 4.452425e-003 8.789729e-005 2.404465e-005 -1.277560e-005 4.374896e-005 9.446718e-001 2.125618e-003
674925 9.794319e-001 3.891443e-003 9.809253e-006 -6.175604e-005 -3.256893e-005 1.030264e-004 9.356184e-001 -1.478258e-002
749910 9.780747e-001 6.411911e-003 -1.392876e-004 6.259826e-005 -2.690054e-004 1.145410e-004 9.339336e-001 -1.202839e-002
824895 9.838150e-001 2.482267e-003 -1.789634e-004 8.703905e-005 -6.274148e-005 -2.175168e-005 9.394796e-001 -1.142134e-002
899880 9.877108e-001 1.588315e-003 1.099183e-005 -3.706719e-005 -2.315212e-004 5.739248e-006 9.461138e-001 -1.348712e-002
974865 9.889330e-001 -8.953469e-004 -1.561959e-005 2.478573e-005 6.009025e-005 -1.244852e-004 9.524733e-001 -1.183805e-002
1049850 9.941689e-001 -2.439805e-003 -2.185491e-005 -5.263777e-005 1.625093e-004 1.064293e-004 9.564489e-001 -1.300594e-002
1124835 9.983899e-001 -6.734808e-003 -1.095270e-004 -7.471473e-005 -1.479441e-004 -3.103357e-004 9.673294e-001 -1.076036e-002
1199820 1.002517e+000 -8.630280e-003 5.699153e-005 -5.024321e-005 -1.328348e-004 -6.197442e-005 9.779007e-001 -1.088759e-002
1274805 1.007917e+000 -1.203704e-002 -6.016130e-005 -4.874383e-005 -4.451623e-005 8.733043e-005 9.900878e-001 -8.166576e-003
1349790 1.000472e+000 -6.078863e-003 -6.472856e-005 -1.184021e-004 1.713708e-004 6.403957e-005 1.002403e+000 -1.340221e-002
1424775 9.994145e-001 -5.273221e-003 1.456985e-004 -7.092277e-005 -9.751131e-005 -4.420715e-005 1.001063e+000 -1.268356e-002
1499760 9.992169e-001 -4.192904e-003 -5.254994e-006 9.736092e-005 4.584326e-004 6.974022e-005 1.005953e+000 -7.985019e-003
1574745 9.982827e-001 -3.677208e-003 -6.782234e-005 -2.147930e-005 -1.774546e-004 5.020648e-004 1.000489e+000 -1.078514e-002
1649730 9.990917e-001 -5.122453e-003 2.191885e-005 -5.865557e-005 -3.080749e-005 9.626625e-005 1.003115e+000 -1.079918e-002
1724715 9.967898e-001 -4.726079e-003 -9.509394e-005 1.049709e-004 2.786640e-004 1.322415e-004 1.001994e+000 -1.372977e-002
1799700 9.963070e-001 -3.896680e-003 -1.236250e-004 6.752119e-006 -3.936815e-005 -1.544644e-004 1.002773e+000 -1.232207e-002
1874685 9.966224e-001 -3.678727e-003 -1.335692e-005 5.897109e-005 -2.669222e-004 1.043679e-004 1.001841e+000 -9.680675e-003
1949670 9.947420e-001 -2.008890e-003 -2.244403e-004 8.535425e-007 8.215853e-005 -1.703220e-004 1.001243e+000 -4.912272e-003
2024655 9.940611e-001 -1.756263e-003 -2.416760e-004 1.368926e-004 -2.051339e-004 -2.366697e-004 1.000402e+000 -7.045647e-003
2099640 9.951059e-001 -1.542289e-003 -1.659719e-004 -1.654327e-005 -1.428434e-004 3.167491e-005 1.000455e+000 -5.600342e-003
2174625 9.949764e-001 -2.564974e-003 -6.152238e-005 5.723006e-005 1.062583e-004 -2.721779e-004 1.001212e+000 -5.830543e-003
2249610 9.959214e-001 -3.505917e-003 -4.931618e-006 -1.400902e-005 -1.340603e-004 1.978827e-004 1.000203e+000 -7.038268e-003
2324595 9.998056e-001 -4.384555e-003 -1.111522e-005 -1.080362e-004 2.982527e-005 -2.326724e-004 1.001894e+000 -6.139304e-003
2399580 1.000587e+000 -3.575385e-003 5.123638e-005 4.926878e-005 -1.972171e-004 -4.516433e-006 1.001700e+000 -5.941787e-003
2474565 9.996579e-001 -6.755586e-004 -8.357630e-005 -5.743490e-005 -1.071155e-005 2.859337e-005 1.000168e+000 -7.179817e-003
2549550 1.000534e+000 -2.176490e-003 -1.326206e-005 -2.041077e-004 2.305608e-004 -1.078432e-004 9.979213e-001 -5.627268e-003
2624535 1.001055e+000 -3.104000e-003 -9.142233e-005 -8.634803e-005 -1.398897e-005 1.370889e-004 1.000010e+000 -5.842765e-003
2699520 1.000829e+000 -4.115757e-003 9.846856e-005 3.298387e-005 -1.370007e-004 -1.183481e-005 9.951227e-001 -6.319310e-003
2774505 9.999362e-001 -2.874220e-003 2.434173e-005 5.156165e-005 6.768083e-006 -1.104535e-005 1.000507e+000 -9.865204e-003
2849490 1.001599e+000 -2.376331e-003 -7.910975e-005 1.019452e-004 -1.491323e-004 5.948797e-005 9.977531e-001 -5.679037e-003
2924475 1.000662e+000 -2.583997e-003 -3.949999e-005 -7.484097e-005 -2.336035e-004 -2.626096e-004 1.001017e+000 -6.596106e-003
2999460 1.001074e+000 -3.418768e-003 -1.298469e-005 -7.509653e-005 9.605661e-005 1.885811e-004 1.000896e+000 -5.737533e-003
3074445 1.001035e+000 -2.167477e-003 -3.400054e-005 1.120501e-004 -1.093111e-004 6.671152e-005 9.987665e-001 -4.016678e-003
3149430 1.000993e+000 -2.430193e-003 3.541097e-005 3.574747e-005 2.069309e-004 5.096682e-005 9.992881e-001 -5.630588e-003
3224415 1.001138e+000 -1.760991e-003 4.843341e-005 8.061928e-005 -5.689975e-005 -3.776658e-005 1.000412e+000 -5.373468e-003
3299400 1.001194e+000 -2.469212e-003 1.219665e-004 -5.764779e-005 -2.811713e-005 -1.511239e-004 1.000906e+000 -7.896468e-003
3374385 1.000552e+000 -3.077697e-003 -1.516817e-004 -5.068746e-005 9.455024e-005 -5.648842e-005 9.996272e-001 -6.273710e-003
3449370 1.000124e+000 -2.798004e-003 9.527917e-005 5.012174e-005 -4.568136e-006 3.208188e-004 9.989904e-001 -6.271775e-003
3524355 1.000801e+000 -2.760387e-003 7.534998e-005 2.205642e-005 5.412200e-005 9.533815e-005 9.999508e-001 -4.085021e-003
3599340 1.001145e+000 -1.924951e-003 -2.215243e-005 -1.455826e-004 2.280518e-004 2.925318e-004 9.986243e-001 -6.693072e-003
3674325 1.001248e+000 -2.327413e-003 -3.432609e-005 -3.090616e-005 -8.804127e-006 -1.382613e-004 9.998754e-001 -4.705434e-003
3749310 1.000365e+000 -2.220842e-003 -6.521907e-005 -5.661379e-005 3.596782e-004 -6.801186e-005 1.000052e+000 -6.847964e-003
3824295 1.001151e+000 -3.442616e-003 -5.132455e-005 -6.954510e-005 1.024251e-004 1.306152e-005 9.986235e-001 -6.948821e-003
3899280 1.001134e+000 -4.083322e-003 -1.094262e-004 -3.782593e-005 8.679861e-005 -1.076674e-004 9.994065e-001 -7.955424e-003
3974265 1.000733e+000 -3.336260e-003 5.631298e-005 4.971405e-005 -4.914252e-005 -2.270556e-004 9.999745e-001 -7.857124e-003
4049250 1.001578e+000 -3.737241e-003 -8.516649e-006 -4.862291e-005 1.336988e-005 4.497721e-005 1.000613e+000 -7.162039e-003
4124235 1.000884e+000 -3.467511e-003 -3.199797e-005 -1.134618e-004 -1.825577e-004 3.737332e-005 9.989420e-001 -8.344504e-003
4199220 1.000504e+000 -2.919008e-003 -1.637512e-004 5.513808e-005 1.220247e-004 -2.359077e-004 9.999020e-001 -5.020656e-003
4274205 1.001159e+000 -3.135009e-003 4.339599e-005 5.817293e-005 1.320169e-004 2.011298e-004 1.000335e+000 -5.031303e-003
4349190 1.001341e+000 -3.218969e-003 1.012124e-004 -2.836907e-005 5.646178e-005 8.380604e-005 9.993784e-001 -6.730091e-003
4424175 1.001414e+000 -2.767093e-003 8.577609e-006 -1.472998e-004 1.705082e-005 -1.748320e-004 9.996532e-001 -5.671351e-003
4499160 1.000802e+000 -3.985936e-003 -5.713281e-005 1.285972e-004 1.432926e-004 -7.456296e-005 9.980655e-001 -4.945606e-003
4574145 1.001380e+000 -2.913765e-003 -4.877144e-005 -8.548988e-005 -2.475917e-005 7.740712e-005 1.000151e+000 -5.461114e-003
4649130 1.000454e+000 -3.364944e-003 8.101611e-005 -4.928093e-005 -1.986773e-004 6.986928e-005 9.991875e-001 -6.557393e-003
4724115 1.001367e+000 -3.759942e-003 7.768521e-005 -7.742522e-005 1.184175e-005 -3.579752e-005 9.992167e-001 -6.145883e-003
4799100 1.001351e+000 -3.721280e-003 -5.268590e-005 -9.227288e-006 -1.468487e-004 7.815918e-005 9.986562e-001 -7.913120e-003
4874085 1.001367e+000 -3.054495e-003 8.853759e-006 9.329069e-005 -4.843223e-005 9.222368e-005 1.001823e+000 -4.722937e-003
4949070 1.001022e+000 -2.979174e-003 -4.871577e-005 3.910387e-005 1.857428e-004 4.944687e-005 9.999635e-001 -5.735703e-003
5024055 1.000991e+000 -2.909940e-003 5.163656e-005 -1.459979e-005 1.477578e-004 6.646568e-005 9.986024e-001 -4.416569e-003
5099040 1.001525e+000 -3.575486e-003 1.718397e-004 -9.231988e-005 4.283992e-005 -1.802143e-004 1.002045e+000 -5.514020e-003
5174025 1.001241e+000 -3.375805e-003 -1.288449e-004 1.372976e-005 1.251941e-004 1.366267e-005 9.990172e-001 -3.915554e-003
5249010 1.001434e+000 -3.845327e-003 7.471467e-005 1.113091e-005 -6.583956e-006 -1.439283e-004 1.000490e+000 -4.585732e-003
5323995 1.000983e+000 -3.594390e-003 7.500480e-005 -6.694951e-005 1.384283e-005 1.440322e-004 9.988376e-001 -6.034936e-003
5398980 1.001273e+000 -3.874848e-003 -3.361525e-005 -9.381052e-007 -6.554225e-005 -9.608868e-005 9.999529e-001 -4.570481e-003
5473965 1.000504e+000 -3.243743e-003 -1.577690e-004 3.712138e-005 1.700213e-005 1.067442e-004 9.990269e-001 -4.805393e-003
5548950 9.999593e-001 -3.961725e-003 5.647828e-005 4.462546e-005 7.754409e-005 1.923063e-004 9.993063e-001 -5.572266e-003
5623935 1.000767e+000 -3.260824e-003 3.206587e-005 -1.649628e-005 -2.100029e-005 -1.614467e-004 1.000847e+000 -5.525333e-003
5698920 1.001022e+000 -3.284719e-003 -4.265388e-005 8.827227e-005 -1.352015e-004 -6.880346e-005 1.001095e+000 -4.962152e-003
5773905 1.001237e+000 -4.098706e-003 6.909980e-005 -1.380845e-005 6.197636e-005 1.812536e-004 9.999529e-001 -6.638838e-003
5848890 1.001194e+000 -4.090633e-003 4.492696e-006 6.543128e-005 9.986002e-005 1.367477e-004 1.000655e+000 -6.163947e-003
5923875 1.001403e+000 -3.662023e-003 1.299613e-004 -3.182215e-005 2.626211e-004 -2.235414e-004 1.000131e+000 -5.269578e-003
5998860 1.000657e+000 -3.633027e-003 2.424899e-005 -1.309429e-005 4.865493e-005 -2.891811e-004 9.989111e-001 -6.208817e-003
6073845 1.000468e+000 -3.430279e-003 5.872195e-005 4.764893e-005 -7.842042e-005 1.270327e-004 1.001540e+000 -6.066727e-003
6148830 1.000679e+000 -3.923743e-003 -1.158886e-004 2.079171e-005 6.035156e-005 -2.394323e-004 1.002362e+000 -6.936671e-003
6223815 1.000754e+000 -3.404255e-003 -3.062237e-005 -4.226681e-005 -2.217361e-004 -1.415271e-005 9.995425e-001 -6.028415e-003
6298800 1.000804e+000 -3.409014e-003 1.236605e-005 -5.268795e-005 -2.057969e-004 1.485491e-004 9.996465e-001 -5.640724e-003
6373785 1.000332e+000 -3.147104e-003 -5.519987e-005 1.935153e-005 -8.059031e-005 1.148323e-007 1.000836e+000 -5.986543e-003
6448770 1.000329e+000 -3.039270e-003 7.373404e-006 -6.578286e-005 3.994881e-005 -8.625756e-005 9.998977e-001 -7.435449e-003
6523755 1.000974e+000 -3.389501e-003 -4.420357e-005 -2.286285e-005 -2.630224e-004 -1.599852e-004 1.000955e+000 -6.655914e-003
6598740 1.000352e+000 -3.265209e-003 5.353259e-005 7.472612e-005 -1.253603e-005 -1.117019e-004 9.988680e-001 -7.444710e-003
6673725 1.000450e+000 -3.781778e-003 -6.989757e-005 -9.223708e-005 9.742081e-005 -3.024231e-004 1.000372e+000 -6.127522e-003
6748710 1.000642e+000 -2.977308e-003 6.547174e-005 -2.555109e-005 -1.879495e-004 -1.003407e-004 1.000876e+000 -8.217062e-003
6823695 1.000196e+000 -3.715041e-003 9.948327e-005 8.454998e-005 3.913329e-004 6.339803e-005 1.001353e+000 -7.415772e-003
6898680 1.000439e+000 -3.123995e-003 9.874146e-005 9.095985e-005 -3.646548e-004 -6.168805e-005 9.991987e-001 -7.208489e-003
6973665 1.000909e+000 -3.710798e-003 8.739118e-005 -9.062919e-005 1.705144e-004 1.698664e-004 9.989262e-001 -6.776758e-003
7048650 1.000577e+000 -3.656832e-003 -3.406936e-005 -3.614259e-006 -1.876257e-004 1.531388e-004 1.001407e+000 -8.302675e-003
7123635 1.000325e+000 -3.411622e-003 3.490379e-005 -6.003200e-005 2.041899e-005 -4.108833e-005 1.001370e+000 -7.172044e-003
7198620 1.001065e+000 -3.390112e-003 3.409685e-005 3.984951e-006 -3.003671e-005 -5.970822e-005 1.000220e+000 -7.618898e-003
7273605 1.001078e+000 -3.775170e-003 3.501466e-006 -9.562924e-005 1.550401e-005 2.735512e-005 9.995312e-001 -8.147312e-003
7348590 1.000423e+000 -3.542752e-003 3.682430e-005 5.203836e-005 -1.890465e-004 -1.193866e-004 9.999017e-001 -8.950417e-003
7423575 1.000110e+000 -4.548920e-003 -8.705276e-006 -3.060403e-006 -3.923919e-005 2.558752e-004 1.000410e+000 -6.998841e-003
7498560 1.000858e+000 -3.853388e-003 2.758419e-005 -3.401023e-005 -6.770799e-005 -1.531748e-004 1.000614e+000 -8.347710e-003
7573545 1.000389e+000 -4.194334e-003 -5.071594e-005 -1.676945e-005 3.065125e-004 6.090234e-005 1.001693e+000 -8.772616e-003
7648530 9.999403e-001 -4.079413e-003 -5.435568e-005 -1.243642e-005 -5.010485e-005 4.366364e-004 1.001929e+000 -8.898764e-003
7723515 1.001028e+000 -3.861121e-003 1.917256e-006 1.033688e-004 1.652059e-004 -9.725618e-005 9.987406e-001 -8.312088e-003
7798500 1.000836e+000 -4.146965e-003 7.914093e-005 4.931224e-005 1.184682e-004 1.398742e-004 1.000403e+000 -1.027629e-002
7873485 1.001404e+000 -4.647878e-003 1.701615e-005 1.382057e-005 -2.730451e-004 -1.054120e-004 9.990046e-001 -9.343901e-003
7948470 1.000440e+000 -4.096505e-003 -3.094173e-005 -3.202315e-005 2.027814e-004 -1.215112e-004 9.993184e-001 -9.029192e-003
8023455 1.000836e+000 -4.392484e-003 -6.432154e-005 -1.879099e-005 -7.094553e-006 -1.809743e-004 1.000511e+000 -8.230787e-003
8098440 1.000640e+000 -4.651658e-003 -3.655981e-005 6.036141e-005 -1.143596e-004 -1.281679e-004 1.001216e+000 -7.239188e-003
8173425 1.000937e+000 -4.655495e-003 3.441533e-005 5.897863e-006 2.647919e-004 1.237441e-004 9.993261e-001 -7.782470e-003
8248410 1.000558e+000 -4.548840e-003 -6.601743e-005 -6.427708e-005 1.445441e-004 -1.733544e-004 1.001907e+000 -5.848722e-003
8323395 1.000275e+000 -4.359772e-003 3.078132e-005 3.712861e-005 -9.070939e-005 -2.921989e-005 9.991926e-001 -6.825103e-003
8398380 1.000686e+000 -4.665857e-003 3.694495e-005 2.296525e-005 2.323529e-004 4.485507e-005 1.000187e+000 -7.878592e-003
8473365 1.000371e+000 -4.640312e-003 6.270905e-005 -4.468247e-006 1.727949e-004 2.294950e-004 1.001000e+000 -8.640473e-003
8548350 1.000766e+000 -5.483192e-003 -6.973984e-005 4.705656e-005 1.837231e-004 4.945097e-005 1.001078e+000 -8.682031e-003
8623335 1.000930e+000 -5.265288e-003 -5.590818e-005 8.952223e-005 2.309121e-004 9.660300e-006 1.000306e+000 -9.216812e-003
8698320 1.000349e+000 -4.575421e-003 -6.115115e-005 -4.194022e-005 7.665173e-006 -1.643712e-004 9.999419e-001 -8.997278e-003
8773305 1.000245e+000 -4.877547e-003 5.878330e-006 -7.854699e-005 -9.134941e-005 -3.317729e-006 9.997657e-001 -9.704372e-003
8848290 1.000252e+000 -5.217574e-003 6.739208e-005 -2.262332e-005 6.573750e-005 4.281021e-005 1.000444e+000 -8.616130e-003
8923275 1.001484e+000 -6.482352e-003 -1.170712e-004 8.580580e-005 -1.716828e-004 -2.458690e-004 9.998785e-001 -9.929758e-003
8998260 1.000874e+000 -5.127572e-003 1.897054e-006 -1.058057e-006 3.377234e-004 1.382519e-004 1.000713e+000 -9.912932e-003
9073245 1.000945e+000 -5.166112e-003 -5.689065e-005 5.031216e-005 -1.983460e-005 -9.597791e-005 1.001031e+000 -9.975833e-003
9148230 1.000663e+000 -5.113602e-003 -7.497219e-005 -3.293151e-005 -7.849572e-005 6.455792e-005 9.984876e-001 -1.055616e-002
9223215 1.000475e+000 -6.309926e-003 4.777777e-005 2.880308e-005 -3.722677e-005 -2.300421e-004 9.985096e-001 -9.404655e-003
9298200 1.000269e+000 -5.569512e-003 -1.843847e-005 -1.773626e-005 1.442880e-004 -8.366868e-006 1.000456e+000 -7.983080e-003
9373185 1.001132e+000 -5.720911e-003 -2.343067e-006 -7.479882e-005 -1.576679e-006 1.360646e-004 1.000398e+000 -1.007304e-002
9448170 1.000489e+000 -5.748472e-003 -8.297605e-005 1.582717e-005 -4.144172e-005 -2.279621e-004 9.999228e-001 -1.044877e-002
9523155 1.000388e+000 -6.279808e-003 -2.122465e-005 -3.880880e-005 9.616909e-005 -2.523606e-004 1.001356e+000 -1.148773e-002
9598140 1.001178e+000 -5.626612e-003 7.059705e-005 2.310638e-005 1.421555e-004 6.186718e-005 1.000904e+000 -1.082127e-002
9673125 1.000815e+000 -6.489410e-003 -3.874793e-005 1.072655e-005 -2.956774e-005 -1.428836e-004 1.000652e+000 -1.131566e-002
9748110 1.000340e+000 -5.933575e-003 3.005075e-005 -1.232213e-004 -2.586891e-004 1.572593e-004 1.001996e+000 -1.155262e-002
9823095 1.000635e+000 -5.587363e-003 3.316471e-005 4.265156e-005 1.939406e-004 9.397967e-005 1.001406e+000 -9.634136e-003
9898080 1.000971e+000 -6.948415e-003 -7.880784e-006 -3.489932e-006 7.711500e-006 -8.949862e-005 1.001351e+000 -1.183671e-002
9973065 1.000590e+000 -6.236674e-003 1.467544e-004 5.043727e-005 -1.518584e-004 -1.958343e-004 1.000752e+000 -1.341108e-002
10048050 1.000602e+000 -6.784302e-003 8.945314e-005 -1.384262e-005 6.826623e-005 -5.030934e-005 1.002484e+000 -1.345585e-002
10123035 1.000683e+000 -7.288122e-003 -3.921474e-006 -1.584506e-005 1.632407e-004 2.103756e-004 1.002050e+000 -1.363040e-002
10198020 1.000291e+000 -7.446546e-003 1.028895e-005 -1.377920e-004 1.174702e-004 3.019594e-005 1.001263e+000 -1.296052e-002
10273005 1.000618e+000 -7.753896e-003 -5.833967e-005 -1.516338e-007 5.244598e-005 -5.912972e-005 1.002678e+000 -1.337135e-002
10347990 1.000617e+000 -7.676558e-003 6.260187e-005 -5.760026e-005 -9.596112e-005 6.151551e-005 1.000816e+000 -1.349981e-002
10422975 1.000325e+000 -7.382947e-003 2.894578e-005 -2.895564e-006 -1.613536e-004 2.566039e-005 1.001211e+000 -1.397999e-002
10497960 9.999813e-001 -7.889760e-003 -1.604155e-004 -1.969672e-006 1.624615e-004 1.844069e-004 1.001407e+000 -1.462281e-002
10572945 1.000245e+000 -7.570681e-003 -4.478764e-005 1.637535e-006 -5.300167e-005 5.777849e-005 1.000619e+000 -1.517362e-002
10647930 1.000266e+000 -7.295459e-003 3.205937e-006 -5.771166e-005 6.521239e-005 3.829130e-006 1.001810e+000 -1.540698e-002
10722915 9.998311e-001 -7.362426e-003 4.372761e-005 -7.714635e-005 7.087381e-005 -4.138567e-005 1.000891e+000 -1.555661e-002
10797900 9.995865e-001 -6.870422e-003 -1.769724e-004 4.770901e-006 1.092233e-004 3.652328e-005 1.001121e+000 -1.590971e-002
10872885 1.000056e+000 -7.318606e-003 5.667411e-005 6.494175e-005 1.159156e-004 -5.475759e-005 1.002873e+000 -1.628498e-002
10947870 1.000173e+000 -7.197420e-003 5.037394e-005 -6.831029e-005 -1.784027e-004 -5.268895e-005 1.002693e+000 -1.710192e-002
11022855 1.000502e+000 -8.107231e-003 9.838140e-005 -9.885824e-006 3.688187e-005 1.371903e-004 1.001085e+000 -1.535635e-002
11097840 1.001080e+000 -7.226028e-003 -1.681367e-004 -7.607402e-006 -7.736152e-005 2.276269e-004 1.002353e+000 -1.620973e-002
11172825 1.000520e+000 -7.656871e-003 5.190064e-005 -6.968115e-005 3.199072e-005 -8.216437e-005 1.000960e+000 -1.768753e-002
11247810 1.000054e+000 -7.775056e-003 4.922443e-005 -1.644959e-005 3.743074e-004 -1.814773e-005 9.996916e-001 -1.765050e-002
11322795 1.001179e+000 -7.873304e-003 5.356513e-005 1.500678e-005 -1.038938e-004 1.006617e-004 1.000579e+000 -1.873971e-002
11397780 1.000013e+000 -7.905402e-003 -9.755111e-006 -1.085972e-005 2.886634e-004 5.662819e-005 1.001240e+000 -1.634277e-002
11472765 1.000655e+000 -7.762112e-003 -1.237891e-004 3.065994e-005 -1.217440e-004 3.362734e-004 1.001345e+000 -1.686507e-002
11547750 9.993503e-001 -7.930395e-003 -3.538060e-005 2.186848e-004 -1.676959e-005 -1.567512e-004 1.000453e+000 -1.715793e-002
11622735 1.000149e+000 -7.619968e-003 -3.300366e-005 6.274932e-005 9.030123e-005 -8.060707e-005 1.002554e+000 -1.589546e-002
11697720 9.998503e-001 -8.218082e-003 7.283336e-005 -1.109700e-005 -7.125615e-005 -5.744887e-005 1.002586e+000 -1.523978e-002
11772705 9.997022e-001 -7.601614e-003 -9.022973e-006 4.589185e-005 7.720666e-005 6.051523e-005 1.000844e+000 -1.589741e-002
11847690 9.994791e-001 -7.462006e-003 -1.201144e-004 -1.361882e-005 -3.686449e-004 3.428123e-005 1.001212e+000 -1.613032e-002
11922675 1.000327e+000 -8.055416e-003 1.252695e-005 6.186598e-005 3.749502e-005 2.771436e-005 1.001738e+000 -1.567436e-002
11997660 1.000539e+000 -8.165034e-003 9.669946e-005 -9.226413e-005 -1.559210e-005 1.914760e-004 1.001764e+000 -1.592122e-002
