!Agilent Technologies,N5230C,SG49000117,A.08.50.07
!Agilent N5230C: A.08.50.07
!Date: Sunday, March 17, 2024 09:00:42
!Correction: S11(Off) 
!S21(Off) 
!S12(Off) 
!S22(Full 1 Port(2)) 
!S2P File: Measurements: S11, S21, S12, S22:
# Hz S  RI   R 50
300000000 1.118719e-005 -3.376857e-005 -6.015350e-001 -6.773367e-001 7.245484e-005 -2.412605e-005 1.021782e+000 -8.642632e-002
300285000 1.051948e-004 -2.909629e-005 -6.181391e-001 -6.548569e-001 4.191719e-005 4.185929e-005 1.023257e+000 -8.524371e-002
300570000 -6.679173e-005 3.146786e-005 -6.337202e-001 -6.311376e-001 5.416590e-005 -3.230630e-005 1.023055e+000 -8.579930e-002
300855000 -5.293910e-006 -7.713547e-005 -6.478922e-001 -6.078083e-001 6.683157e-005 4.583234e-005 1.022879e+000 -8.425944e-002
301140000 7.086337e-005 1.293443e-005 -6.623355e-001 -5.842234e-001 3.334441e-005 8.621834e-005 1.022643e+000 -8.626184e-002
301425000 5.523211e-005 -7.702358e-005 -6.754159e-001 -5.608548e-001 6.165148e-005 2.003593e-005 1.023384e+000 -8.598525e-002
301710000 -4.792818e-005 -4.629237e-005 -6.875825e-001 -5.370524e-001 1.414140e-005 1.780466e-005 1.023985e+000 -8.703365e-002
301995000 9.339421e-005 -1.010844e-004 -6.987869e-001 -5.140912e-001 2.885184e-006 -1.280155e-005 1.023068e+000 -8.595998e-002
302280000 1.583767e-006 -3.800482e-005 -7.088501e-001 -4.900437e-001 -8.889919e-005 1.166228e-004 1.023181e+000 -8.520725e-002
302565000 8.301630e-005 -3.601739e-005 -7.184572e-001 -4.670696e-001 2.466524e-005 5.365365e-005 1.024469e+000 -8.599965e-002
302850000 7.417796e-005 -2.309074e-005 -7.278199e-001 -4.438711e-001 7.397535e-005 5.989847e-005 1.021649e+000 -8.584071e-002
303135000 -6.525274e-005 -4.762050e-005 -7.353828e-001 -4.205684e-001 -1.057502e-004 1.005753e-004 1.023417e+000 -8.659555e-002
303420000 4.135893e-005 -1.640245e-005 -7.434694e-001 -3.975365e-001 -1.119287e-004 1.156749e-004 1.023171e+000 -8.657571e-002
303705000 8.535650e-005 4.364851e-005 -7.507216e-001 -3.742652e-001 -1.309056e-005 -1.065712e-004 1.024221e+000 -8.567500e-002
303990000 4.096820e-005 6.308787e-005 -7.563454e-001 -3.508116e-001 -8.231844e-005 -3.752313e-006 1.023097e+000 -8.752965e-002
304275000 4.056947e-005 7.144746e-005 -7.620115e-001 -3.285236e-001 1.097708e-005 -5.067501e-005 1.022711e+000 -8.571659e-002
304560000 -3.669395e-005 3.725504e-005 -7.670406e-001 -3.059102e-001 1.505059e-005 -3.916780e-005 1.022364e+000 -8.789426e-002
304845000 3.165437e-005 6.550669e-005 -7.717865e-001 -2.836404e-001 -2.840034e-005 -1.438390e-004 1.023527e+000 -8.798304e-002
305130000 -5.158352e-005 -5.434426e-006 -7.758251e-001 -2.606300e-001 8.070486e-005 -7.855420e-005 1.022066e+000 -8.613875e-002
305415000 -7.604819e-005 -3.596591e-005 -7.792757e-001 -2.386503e-001 1.984066e-006 -5.649523e-005 1.023285e+000 -8.825998e-002
305700000 5.700317e-006 4.100195e-005 -7.820116e-001 -2.168997e-001 -7.910096e-005 -3.700673e-005 1.023187e+000 -8.692132e-002
305985000 -6.687224e-005 -2.208280e-005 -7.842370e-001 -1.943356e-001 -1.239512e-004 3.012491e-005 1.025080e+000 -8.737932e-002
306270000 -7.256208e-005 -3.837283e-005 -7.865700e-001 -1.724086e-001 -8.961436e-005 2.715607e-005 1.024856e+000 -8.702893e-002
306555000 8.487376e-005 -6.291593e-005 -7.878392e-001 -1.506003e-001 -7.029206e-005 2.070830e-006 1.023874e+000 -8.715700e-002
306840000 4.821173e-005 -8.689804e-006 -7.893135e-001 -1.296038e-001 -1.088128e-004 -1.045124e-004 1.023755e+000 -8.597459e-002
307125000 3.596601e-005 -4.050168e-005 -7.890958e-001 -1.074037e-001 2.909241e-005 5.399520e-005 1.022671e+000 -8.810104e-002
307410000 4.597094e-005 -1.321288e-004 -7.892802e-001 -8.661771e-002 -6.584159e-005 3.241905e-005 1.024590e+000 -8.767510e-002
307695000 1.472249e-005 6.043734e-005 -7.889062e-001 -6.565499e-002 2.484986e-005 -7.193529e-005 1.023199e+000 -8.899511e-002
307980000 3.117906e-005 -2.857731e-005 -7.883850e-001 -4.443162e-002 5.637695e-005 -1.018684e-004 1.022682e+000 -8.791170e-002
308265000 3.659831e-005 -8.953387e-005 -7.867793e-001 -2.409590e-002 -7.776876e-006 -1.176647e-004 1.024044e+000 -8.714996e-002
308550000 1.862078e-006 1.492868e-004 -7.854310e-001 -3.058649e-003 3.519338e-005 3.578775e-005 1.022070e+000 -8.701754e-002
308835000 -8.661010e-005 -5.307359e-005 -7.838477e-001 1.718717e-002 2.432932e-005 -2.581745e-006 1.023223e+000 -8.963902e-002
309120000 1.048544e-004 9.105315e-007 -7.815660e-001 3.792607e-002 1.626907e-004 6.159252e-005 1.023375e+000 -8.907862e-002
309405000 1.923424e-005 -3.608776e-006 -7.779890e-001 5.802210e-002 9.092844e-005 -3.644087e-005 1.024623e+000 -8.787743e-002
309690000 -1.196091e-004 7.138691e-005 -7.752880e-001 7.812089e-002 -4.091391e-005 4.564521e-006 1.024521e+000 -8.794066e-002
309975000 -2.224783e-005 3.283950e-005 -7.724357e-001 9.830865e-002 -6.333061e-005 -4.399287e-005 1.022560e+000 -8.931981e-002
310260000 -1.017528e-004 4.070058e-005 -7.685753e-001 1.181592e-001 5.287637e-005 1.877459e-005 1.025485e+000 -8.871428e-002
310545000 -1.153046e-004 -4.876059e-005 -7.637589e-001 1.376603e-001 3.402567e-005 1.766348e-005 1.024254e+000 -8.925328e-002
310830000 -7.178924e-005 2.805860e-006 -7.597960e-001 1.574120e-001 9.154271e-005 5.879381e-005 1.025529e+000 -8.917556e-002
311115000 -5.884865e-005 1.954080e-005 -7.552403e-001 1.769819e-001 -3.361356e-005 1.224581e-004 1.023688e+000 -8.981989e-002
311400000 4.419096e-005 2.069828e-005 -7.492828e-001 1.962041e-001 -2.420167e-005 9.055821e-006 1.024471e+000 -8.976199e-002
311685000 7.367782e-005 -6.366061e-005 -7.443696e-001 2.156706e-001 -4.493250e-005 6.182894e-005 1.024196e+000 -8.903097e-002
311970000 -6.403380e-005 2.466316e-006 -7.386414e-001 2.351322e-001 -7.992574e-005 7.306074e-005 1.023332e+000 -8.883741e-002
312255000 -4.204562e-005 -3.374391e-005 -7.319301e-001 2.542061e-001 -1.902539e-005 -8.001420e-005 1.024304e+000 -8.886009e-002
312540000 -2.417714e-007 -1.152348e-004 -7.252750e-001 2.729179e-001 2.192505e-005 1.773351e-005 1.023631e+000 -8.875487e-002
312825000 -3.161825e-005 2.513890e-006 -7.187266e-001 2.922581e-001 4.290167e-006 4.469348e-005 1.023297e+000 -9.041767e-002
313110000 -7.482558e-005 -9.286575e-005 -7.108268e-001 3.115238e-001 3.459695e-005 -1.030828e-004 1.023651e+000 -9.232866e-002
313395000 8.866469e-005 -2.346228e-005 -7.035217e-001 3.299765e-001 -6.380371e-005 -6.532311e-005 1.023069e+000 -8.873744e-002
313680000 6.215667e-005 4.833968e-006 -6.952589e-001 3.488007e-001 -4.123564e-005 3.559338e-005 1.024479e+000 -8.959292e-002
313965000 -1.228271e-005 -1.000648e-004 -6.868438e-001 3.676194e-001 1.604904e-005 2.652089e-005 1.025217e+000 -8.906203e-002
314250000 9.822471e-005 -6.936702e-005 -6.779726e-001 3.858051e-001 5.530424e-005 -3.638543e-005 1.023662e+000 -8.918706e-002
314535000 7.027382e-005 -4.317869e-005 -6.688016e-001 4.049309e-001 8.440713e-005 -1.663456e-004 1.023187e+000 -8.867872e-002
314820000 6.174159e-005 6.049123e-005 -6.594242e-001 4.233479e-001 1.087515e-004 -4.775040e-005 1.023372e+000 -9.141052e-002
315105000 2.118823e-005 3.586233e-006 -6.492305e-001 4.413599e-001 -4.030318e-005 3.287408e-005 1.020744e+000 -9.090105e-002
315390000 -1.934488e-005 3.437569e-005 -6.382458e-001 4.592486e-001 2.425130e-005 4.131657e-006 1.024064e+000 -8.956715e-002
315675000 4.695738e-005 8.180901e-005 -6.278338e-001 4.776959e-001 3.761547e-005 6.940938e-005 1.022623e+000 -8.902558e-002
315960000 -1.462149e-004 5.888030e-005 -6.161335e-001 4.960574e-001 -7.537522e-005 7.359815e-005 1.022277e+000 -9.039740e-002
316245000 -1.595224e-004 1.830266e-004 -6.043478e-001 5.142247e-001 3.753152e-005 5.197333e-005 1.021670e+000 -8.957497e-002
316530000 -1.507926e-004 -6.955852e-005 -5.919669e-001 5.322203e-001 -2.190238e-005 -6.659834e-006 1.023731e+000 -9.038424e-002
316815000 4.884373e-005 7.953218e-006 -5.793394e-001 5.496210e-001 2.813426e-006 -5.956020e-005 1.023834e+000 -8.950002e-002
317100000 -9.932470e-005 -7.645418e-005 -5.658666e-001 5.670717e-001 -4.090293e-005 -1.177910e-004 1.024099e+000 -8.945093e-002
317385000 -1.413720e-004 -6.041442e-005 -5.522433e-001 5.848211e-001 -2.815672e-005 -1.348028e-005 1.025522e+000 -8.841508e-002
317670000 -3.680325e-005 3.907095e-005 -5.376059e-001 6.022099e-001 -5.621088e-005 -1.582823e-005 1.024587e+000 -9.051470e-002
317955000 1.058995e-005 -9.766827e-006 -5.227177e-001 6.195967e-001 -9.630212e-005 -2.440916e-005 1.024385e+000 -9.163415e-002
318240000 -6.300221e-005 -6.450143e-005 -5.073962e-001 6.367229e-001 4.389160e-005 1.220804e-004 1.023870e+000 -9.103621e-002
318525000 -3.425762e-005 2.924525e-005 -4.909083e-001 6.542283e-001 3.231972e-005 -7.067837e-005 1.024262e+000 -9.105350e-002
318810000 4.366778e-005 3.850017e-006 -4.745842e-001 6.702308e-001 1.413273e-005 1.860647e-005 1.023604e+000 -9.206827e-002
319095000 -6.592162e-005 -1.017744e-005 -4.575740e-001 6.867034e-001 8.331393e-005 5.536475e-005 1.024295e+000 -9.049634e-002
319380000 -1.219886e-005 -1.504142e-004 -4.395329e-001 7.032899e-001 8.990942e-005 7.328040e-005 1.024685e+000 -9.184696e-002
319665000 -3.178656e-005 -4.553422e-005 -4.215466e-001 7.193882e-001 3.500262e-005 -1.705795e-005 1.024731e+000 -9.036829e-002
319950000 1.274237e-004 -1.091503e-004 -4.024665e-001 7.351536e-001 -1.479347e-004 -8.631737e-006 1.024262e+000 -9.148431e-002
320235000 4.991212e-005 5.730975e-006 -3.823355e-001 7.507110e-001 -3.556083e-005 -1.469518e-006 1.024715e+000 -9.286534e-002
320520000 8.576230e-006 4.868946e-005 -3.611018e-001 7.661955e-001 -6.143314e-005 1.217123e-004 1.024352e+000 -9.315145e-002
320805000 8.747046e-005 4.497351e-005 -3.407043e-001 7.807890e-001 -1.216866e-004 6.274872e-005 1.023099e+000 -9.155974e-002
321090000 -5.538158e-005 1.195149e-004 -3.190282e-001 7.953733e-001 -1.789604e-004 -1.189007e-004 1.023738e+000 -9.118564e-002
321375000 -6.192378e-005 1.402446e-005 -2.959271e-001 8.093067e-001 1.373954e-005 -1.045527e-004 1.022311e+000 -9.072495e-002
321660000 4.324979e-005 -5.397833e-005 -2.728438e-001 8.229890e-001 4.005624e-006 -2.234520e-005 1.024108e+000 -9.196611e-002
321945000 -6.050950e-005 9.707542e-005 -2.494316e-001 8.360882e-001 5.545165e-006 -8.021518e-005 1.024764e+000 -9.279731e-002
322230000 -3.349312e-005 1.049925e-004 -2.243721e-001 8.485751e-001 2.592974e-005 -6.112559e-005 1.023980e+000 -9.249721e-002
322515000 5.004936e-006 4.205482e-005 -1.979267e-001 8.603490e-001 -3.789658e-005 -3.762111e-005 1.023460e+000 -9.342951e-002
322800000 -9.685694e-006 9.110531e-006 -1.722240e-001 8.718826e-001 8.513352e-005 -2.074735e-005 1.024239e+000 -9.264912e-002
323085000 3.949636e-006 -2.254584e-005 -1.451102e-001 8.821477e-001 -4.081955e-005 -7.871531e-005 1.024748e+000 -9.223993e-002
323370000 -9.498353e-005 1.718825e-005 -1.166480e-001 8.917361e-001 -1.693406e-005 2.656804e-005 1.023908e+000 -9.306888e-002
323655000 -7.731769e-005 -6.841695e-005 -8.878393e-002 9.011993e-001 -5.707785e-005 -9.386611e-005 1.024627e+000 -9.320481e-002
323940000 -8.024975e-005 -2.286725e-006 -5.920272e-002 9.101663e-001 -4.384983e-005 2.276737e-005 1.025007e+000 -9.387872e-002
324225000 3.862026e-005 -3.500211e-005 -2.903924e-002 9.171582e-001 1.881060e-005 1.225539e-005 1.023572e+000 -9.416806e-002
324510000 -7.510144e-005 4.380489e-005 1.814770e-003 9.236440e-001 -5.631524e-005 6.480035e-005 1.024283e+000 -9.453848e-002
324795000 5.165021e-005 -4.772166e-005 3.371367e-002 9.291803e-001 -6.983255e-005 6.168669e-005 1.023997e+000 -9.301273e-002
325080000 -3.856515e-005 -3.725411e-005 6.537679e-002 9.331160e-001 -1.850504e-005 -3.012385e-005 1.024369e+000 -9.175041e-002
325365000 -1.148153e-005 4.376126e-005 9.772830e-002 9.363212e-001 4.204701e-006 6.045562e-005 1.024919e+000 -9.300266e-002
325650000 -8.086728e-007 1.077627e-004 1.316594e-001 9.380920e-001 -8.523723e-005 -8.252520e-007 1.024156e+000 -9.264234e-002
325935000 -1.049271e-004 1.250229e-004 1.652539e-001 9.388096e-001 -9.537496e-005 -4.235638e-005 1.023907e+000 -9.390622e-002
326220000 -1.795071e-005 -2.298213e-006 1.996884e-001 9.380572e-001 -4.634023e-005 3.253081e-005 1.024769e+000 -9.359148e-002
326505000 -6.044940e-005 3.983229e-005 2.346576e-001 9.360875e-001 -2.958960e-005 -3.568261e-005 1.023765e+000 -9.418705e-002
326790000 4.270147e-005 3.852136e-005 2.695142e-001 9.318897e-001 -1.627558e-005 -1.494854e-005 1.024019e+000 -9.361392e-002
327075000 3.684635e-005 -6.900443e-005 3.054695e-001 9.274580e-001 4.626435e-005 -7.048296e-005 1.023798e+000 -9.522960e-002
327360000 -1.295807e-004 -3.470995e-006 3.403450e-001 9.198270e-001 3.947501e-005 -1.092034e-004 1.026230e+000 -9.404308e-002
327645000 -4.391238e-005 -5.693892e-005 3.767716e-001 9.122373e-001 -2.169098e-005 6.873272e-005 1.026446e+000 -9.424240e-002
327930000 -5.341682e-005 -4.650046e-005 4.120615e-001 9.020607e-001 -2.690778e-005 4.553626e-005 1.024899e+000 -9.388725e-002
328215000 -1.847676e-005 -4.237533e-005 4.477730e-001 8.904442e-001 8.687565e-006 7.565631e-006 1.024627e+000 -9.479050e-002
328500000 4.618048e-006 1.363571e-005 4.832020e-001 8.771021e-001 -5.070766e-006 3.239073e-005 1.023567e+000 -9.435766e-002
328785000 4.179170e-005 -2.229704e-005 5.186488e-001 8.615491e-001 1.756577e-005 -4.394468e-005 1.025082e+000 -9.485400e-002
329070000 -2.236660e-005 4.990068e-005 5.533487e-001 8.443125e-001 -5.527159e-005 -1.078307e-004 1.023990e+000 -9.488263e-002
329355000 8.178155e-006 1.616513e-005 5.879529e-001 8.259937e-001 3.643047e-005 -1.611353e-005 1.024995e+000 -9.455333e-002
329640000 3.605623e-005 -7.171144e-005 6.214582e-001 8.055891e-001 1.004688e-004 -7.034912e-005 1.024289e+000 -9.511190e-002
329925000 -2.495778e-005 -7.289018e-005 6.550067e-001 7.826660e-001 8.913629e-005 8.100097e-005 1.024262e+000 -9.470400e-002
330210000 -5.551629e-005 7.059177e-005 6.861128e-001 7.594345e-001 -1.254098e-006 -1.535118e-005 1.023967e+000 -9.465425e-002
330495000 1.968944e-006 1.164015e-004 7.175732e-001 7.337692e-001 4.472341e-005 -3.439674e-005 1.024347e+000 -9.575759e-002
330780000 -7.777412e-005 -4.718547e-007 7.477480e-001 7.063447e-001 5.099058e-006 8.948168e-007 1.026072e+000 -9.504919e-002
331065000 -1.355806e-004 -7.700476e-006 7.761087e-001 6.779522e-001 4.061483e-005 -3.100174e-005 1.023352e+000 -9.341973e-002
331350000 -7.081687e-005 -1.529853e-006 8.035157e-001 6.473657e-001 -7.910664e-006 -5.848089e-005 1.024325e+000 -9.505352e-002
331635000 7.185744e-005 -1.402296e-004 8.296111e-001 6.160293e-001 4.333893e-005 1.408985e-004 1.025130e+000 -9.468151e-002
331920000 -1.886087e-005 -6.873774e-005 8.540861e-001 5.833111e-001 -6.116092e-005 -3.018027e-005 1.024294e+000 -9.393401e-002
332205000 4.106393e-005 -2.379482e-005 8.759457e-001 5.488487e-001 -9.522839e-005 5.248172e-005 1.023672e+000 -9.601523e-002
332490000 -7.460579e-006 4.505751e-006 8.974726e-001 5.142354e-001 2.589976e-005 -8.353760e-005 1.024968e+000 -9.575038e-002
332775000 5.353594e-005 -1.922443e-005 9.167942e-001 4.775863e-001 -1.018183e-005 1.420594e-005 1.024245e+000 -9.564522e-002
333060000 1.173340e-005 4.216969e-005 9.343262e-001 4.405999e-001 -1.628975e-004 -1.689401e-005 1.024863e+000 -9.605503e-002
333345000 3.926045e-005 -1.293641e-004 9.501110e-001 4.033331e-001 5.204298e-006 -6.541323e-006 1.025915e+000 -9.519554e-002
333630000 2.666065e-005 -5.068008e-005 9.634696e-001 3.650584e-001 3.973813e-005 -7.254146e-005 1.024363e+000 -9.728246e-002
333915000 -2.634425e-005 4.606866e-005 9.758402e-001 3.261395e-001 -3.455086e-005 -6.576259e-005 1.024480e+000 -9.589953e-002
334200000 6.662582e-005 3.918710e-005 9.848459e-001 2.869250e-001 -2.073815e-005 -8.145632e-005 1.025207e+000 -9.714256e-002
334485000 3.815975e-005 6.977730e-006 9.932915e-001 2.478435e-001 -7.525425e-005 -5.737206e-006 1.024854e+000 -9.725573e-002
334770000 -1.362241e-005 9.755197e-005 9.991000e-001 2.084479e-001 -8.255764e-005 1.466910e-005 1.024322e+000 -9.563301e-002
335055000 1.421909e-005 -1.033296e-004 1.003008e+000 1.697364e-001 -3.746091e-006 -1.543801e-005 1.026508e+000 -9.565306e-002
335340000 5.739302e-006 2.604126e-005 1.004968e+000 1.307807e-001 3.781163e-005 -5.628137e-005 1.025522e+000 -9.680855e-002
335625000 4.738034e-005 -1.086305e-005 1.005655e+000 9.111620e-002 5.939189e-006 3.348363e-005 1.024723e+000 -9.657620e-002
335910000 -2.787862e-005 -1.567737e-005 1.004320e+000 5.323379e-002 -2.349501e-005 3.929326e-005 1.025246e+000 -9.635372e-002
336195000 -1.276017e-005 -2.558741e-005 1.000937e+000 1.510564e-002 -3.248342e-005 -9.249757e-005 1.024027e+000 -9.692177e-002
336480000 2.076377e-005 7.786010e-006 9.963349e-001 -2.211275e-002 5.691845e-005 -1.012401e-005 1.025002e+000 -9.631595e-002
336765000 1.760630e-005 7.043528e-006 9.902667e-001 -5.916755e-002 -5.802022e-005 -3.690165e-005 1.024735e+000 -9.776352e-002
337050000 -6.415140e-005 5.690053e-005 9.821187e-001 -9.417427e-002 1.835098e-005 7.022161e-005 1.025735e+000 -9.649279e-002
337335000 -6.187223e-005 -7.886971e-005 9.731213e-001 -1.290355e-001 6.007549e-006 -1.263671e-004 1.024165e+000 -9.887932e-002
337620000 -1.453073e-004 -6.549112e-007 9.623870e-001 -1.634525e-001 -2.728827e-005 -5.376942e-005 1.024354e+000 -9.806003e-002
337905000 -3.464405e-005 3.748815e-005 9.506253e-001 -1.971580e-001 8.181333e-006 -3.051396e-005 1.024065e+000 -9.705403e-002
338190000 1.397269e-005 1.327184e-004 9.381859e-001 -2.291992e-001 1.296531e-004 8.641130e-006 1.024312e+000 -9.807319e-002
338475000 1.769140e-005 1.896248e-005 9.233649e-001 -2.611040e-001 1.732810e-005 -8.141449e-005 1.025475e+000 -9.666542e-002
338760000 2.315202e-005 3.060602e-006 9.088435e-001 -2.902305e-001 2.012509e-005 -8.484951e-005 1.025188e+000 -9.798238e-002
339045000 1.255779e-005 -4.053919e-005 8.926496e-001 -3.205843e-001 1.616126e-004 6.279512e-006 1.024224e+000 -9.732688e-002
339330000 4.527282e-005 -3.600384e-005 8.757811e-001 -3.479915e-001 8.878177e-005 9.683661e-005 1.025926e+000 -9.689131e-002
339615000 2.125167e-005 -4.145051e-005 8.580277e-001 -3.754393e-001 3.682722e-005 -9.656038e-006 1.024876e+000 -9.803081e-002
339900000 -5.642063e-005 -5.835573e-005 8.395493e-001 -4.011844e-001 2.218432e-006 2.933816e-005 1.024191e+000 -9.872948e-002
340185000 6.981441e-005 3.502436e-005 8.208818e-001 -4.259481e-001 3.590901e-005 3.178634e-005 1.024915e+000 -9.874938e-002
340470000 -4.456749e-005 3.430093e-005 8.008262e-001 -4.504501e-001 4.381862e-005 5.549467e-005 1.022584e+000 -9.688367e-002
340755000 1.679099e-005 -1.129783e-004 7.802511e-001 -4.732586e-001 -9.600229e-005 6.549122e-005 1.025574e+000 -1.000903e-001
341040000 6.409180e-005 -8.510841e-005 7.604465e-001 -4.954660e-001 -3.864763e-005 -5.043280e-005 1.024550e+000 -9.941959e-002
341325000 2.445595e-005 4.086984e-005 7.395440e-001 -5.162389e-001 -8.804481e-005 2.453000e-005 1.025417e+000 -9.754381e-002
341610000 2.405503e-005 1.108589e-005 7.182417e-001 -5.359809e-001 -6.206342e-005 -1.566762e-005 1.025607e+000 -9.794667e-002
341895000 -2.152186e-005 7.074956e-005 6.967198e-001 -5.551429e-001 8.423177e-006 -1.861947e-005 1.023713e+000 -9.988595e-002
342180000 7.783853e-005 4.192882e-006 6.743369e-001 -5.731210e-001 3.971572e-005 -1.921018e-005 1.025880e+000 -9.946727e-002
342465000 -1.004612e-004 2.438130e-006 6.527330e-001 -5.898901e-001 -6.110202e-005 1.146402e-004 1.024832e+000 -9.969322e-002
342750000 -1.005136e-004 1.204889e-004 6.305009e-001 -6.063896e-001 1.085628e-004 2.001136e-005 1.027497e+000 -9.872884e-002
343035000 -3.042246e-005 -4.336374e-005 6.083590e-001 -6.211561e-001 1.140319e-004 -1.134323e-004 1.023567e+000 -1.001357e-001
343320000 9.359609e-005 -8.842695e-006 5.860270e-001 -6.353083e-001 1.070141e-004 -3.465357e-005 1.024503e+000 -9.921486e-002
343605000 -8.888466e-005 -2.737023e-005 5.637183e-001 -6.488324e-001 1.525197e-004 -1.740008e-005 1.024923e+000 -9.954036e-002
343890000 -3.816659e-005 -3.994317e-006 5.410119e-001 -6.614875e-001 6.802844e-006 3.918620e-005 1.024014e+000 -9.988388e-002
