!Agilent Technologies,N5230C,SG49000117,A.08.50.07
!Agilent N5230C: A.08.50.07
!Date: Sunday, March 17, 2024 09:04:29
!Correction: S11(Off) 
!S21(Off) 
!S12(Off) 
!S22(Full 1 Port(2)) 
!S2P File: Measurements: S11, S21, S12, S22:
# Hz S  RI   R 50
300000000 -5.797889e-005 -1.002446e-004 -6.128179e-001 -6.636835e-001 -5.087015e-006 1.291225e-005 1.016577e+000 -1.274291e-001
300285000 1.844264e-005 -5.535152e-006 -6.287068e-001 -6.399775e-001 -5.508346e-005 8.474260e-006 1.016379e+000 -1.280675e-001
300570000 -2.795667e-005 -9.829559e-006 -6.442313e-001 -6.166571e-001 -1.390577e-004 7.675735e-005 1.017946e+000 -1.286107e-001
300855000 -2.876159e-005 4.706830e-006 -6.580931e-001 -5.934006e-001 -3.141402e-005 -5.073610e-005 1.019409e+000 -1.271018e-001
301140000 1.257827e-005 1.492728e-004 -6.712398e-001 -5.690320e-001 -7.517897e-005 -5.882479e-005 1.017622e+000 -1.284663e-001
301425000 1.969069e-004 -3.516615e-005 -6.831307e-001 -5.460738e-001 -2.231360e-005 -4.280256e-005 1.019894e+000 -1.287761e-001
301710000 -5.115218e-005 5.592634e-005 -6.948702e-001 -5.225313e-001 -2.402377e-005 -5.643360e-006 1.019982e+000 -1.293162e-001
301995000 -9.424153e-005 -1.085912e-004 -7.062870e-001 -4.989888e-001 -3.143651e-005 -4.298870e-005 1.017811e+000 -1.276189e-001
302280000 5.344940e-005 -3.557031e-005 -7.155400e-001 -4.757591e-001 -6.235268e-005 -2.525352e-005 1.018088e+000 -1.295343e-001
302565000 -1.049057e-004 -5.405690e-005 -7.246802e-001 -4.518785e-001 1.018999e-004 -5.041989e-005 1.019498e+000 -1.299391e-001
302850000 -3.477328e-005 -4.575408e-005 -7.339264e-001 -4.287370e-001 4.753118e-005 -4.813279e-005 1.017410e+000 -1.280515e-001
303135000 -1.136080e-004 -6.165352e-005 -7.414842e-001 -4.056979e-001 9.213533e-005 7.472003e-005 1.018058e+000 -1.299886e-001
303420000 2.858945e-005 -1.762861e-005 -7.489409e-001 -3.822849e-001 -2.339996e-005 1.398040e-005 1.017081e+000 -1.320045e-001
303705000 6.928645e-005 -5.714528e-005 -7.549399e-001 -3.586394e-001 2.481114e-005 3.295467e-005 1.018974e+000 -1.293027e-001
303990000 6.022034e-005 -5.190192e-005 -7.610127e-001 -3.363746e-001 -4.605365e-005 2.176019e-006 1.017746e+000 -1.303698e-001
304275000 1.205575e-004 2.110463e-005 -7.666312e-001 -3.132737e-001 -2.907225e-005 9.174199e-005 1.018612e+000 -1.301771e-001
304560000 1.453303e-004 -9.999408e-006 -7.713166e-001 -2.909186e-001 -3.312279e-005 2.668139e-005 1.018514e+000 -1.290363e-001
304845000 -1.987122e-006 3.115142e-005 -7.752206e-001 -2.686882e-001 -7.017392e-005 -1.912602e-005 1.016863e+000 -1.299998e-001
305130000 2.014352e-004 6.944045e-005 -7.789490e-001 -2.463194e-001 -1.479825e-004 8.787584e-006 1.017090e+000 -1.296626e-001
305415000 1.104356e-007 2.744326e-005 -7.818120e-001 -2.239676e-001 9.300940e-005 7.724237e-005 1.018784e+000 -1.302119e-001
305700000 -5.830353e-006 2.436207e-005 -7.846243e-001 -2.019228e-001 -6.838651e-006 -1.758891e-005 1.018743e+000 -1.302263e-001
305985000 7.495293e-006 -4.645892e-005 -7.864015e-001 -1.796718e-001 5.960752e-005 3.844679e-005 1.019846e+000 -1.303432e-001
306270000 -5.547956e-005 1.340650e-004 -7.882343e-001 -1.579147e-001 7.277854e-006 3.132203e-006 1.020534e+000 -1.295151e-001
306555000 2.918957e-005 -1.903812e-005 -7.894270e-001 -1.360961e-001 2.330242e-005 -5.416901e-006 1.018981e+000 -1.319819e-001
306840000 -8.190149e-006 4.218824e-006 -7.895179e-001 -1.145546e-001 3.541228e-005 -1.293962e-006 1.017027e+000 -1.292793e-001
307125000 4.089511e-005 -5.208539e-005 -7.902784e-001 -9.355307e-002 -2.514835e-005 -2.748386e-005 1.018663e+000 -1.307676e-001
307410000 4.634365e-005 4.578369e-005 -7.896462e-001 -7.259135e-002 3.589151e-005 -5.053012e-005 1.018827e+000 -1.305393e-001
307695000 1.534884e-005 5.759519e-005 -7.889374e-001 -5.179690e-002 -2.475547e-005 -1.438933e-006 1.017354e+000 -1.322703e-001
307980000 -7.256130e-005 -5.459847e-005 -7.883568e-001 -3.036879e-002 -5.948765e-005 -8.627031e-006 1.018256e+000 -1.311232e-001
308265000 1.075065e-004 -2.212541e-005 -7.861660e-001 -9.640988e-003 1.143233e-005 1.266713e-005 1.017451e+000 -1.324844e-001
308550000 -2.589725e-005 -2.556511e-005 -7.848594e-001 1.099124e-002 -3.721286e-005 -9.201989e-005 1.018409e+000 -1.317458e-001
308835000 1.476052e-005 5.420950e-005 -7.822702e-001 3.127378e-002 1.340459e-005 -1.846121e-005 1.017678e+000 -1.309006e-001
309120000 7.354903e-005 4.273076e-005 -7.798479e-001 5.215929e-002 1.218778e-004 -2.929367e-005 1.019222e+000 -1.328236e-001
309405000 2.636710e-005 -8.144213e-006 -7.765545e-001 7.175975e-002 7.297936e-006 -3.017601e-005 1.019755e+000 -1.328214e-001
309690000 1.236255e-004 1.086652e-004 -7.738172e-001 9.181893e-002 7.114954e-005 -3.807206e-005 1.019029e+000 -1.316128e-001
309975000 8.819035e-005 6.175035e-005 -7.693669e-001 1.115827e-001 -8.697485e-006 4.926494e-005 1.018390e+000 -1.329242e-001
310260000 -7.776058e-006 1.457945e-004 -7.655401e-001 1.316417e-001 -7.896882e-005 1.204715e-005 1.020068e+000 -1.318467e-001
310545000 -1.826105e-005 3.568058e-005 -7.614221e-001 1.518252e-001 2.360839e-005 3.440139e-005 1.020164e+000 -1.316028e-001
310830000 4.381936e-005 -5.053804e-005 -7.561672e-001 1.709896e-001 -8.679740e-005 4.565800e-005 1.020635e+000 -1.314971e-001
311115000 4.818572e-005 3.443215e-005 -7.515116e-001 1.903436e-001 3.345843e-005 -9.091572e-005 1.018795e+000 -1.347741e-001
311400000 -9.823251e-005 1.921130e-005 -7.460223e-001 2.100389e-001 5.627694e-005 -1.696186e-004 1.017901e+000 -1.320202e-001
311685000 4.385543e-005 -3.263573e-005 -7.404525e-001 2.291037e-001 -7.418464e-008 7.998567e-006 1.019549e+000 -1.308074e-001
311970000 1.491801e-005 -4.949712e-005 -7.339419e-001 2.485169e-001 -6.736562e-005 -2.925307e-006 1.016440e+000 -1.322464e-001
312255000 -2.702270e-005 -4.240818e-006 -7.270467e-001 2.672483e-001 -2.897697e-005 1.681579e-005 1.019020e+000 -1.331549e-001
312540000 -6.908322e-005 -6.032130e-005 -7.205980e-001 2.866320e-001 3.541383e-005 7.075187e-006 1.018688e+000 -1.330559e-001
312825000 -2.456854e-005 -1.979606e-004 -7.134617e-001 3.052148e-001 1.107292e-004 6.291054e-006 1.019346e+000 -1.351025e-001
313110000 7.846669e-005 -1.029107e-004 -7.058766e-001 3.242558e-001 -2.461712e-005 7.353309e-005 1.018285e+000 -1.343982e-001
313395000 -4.373283e-005 -6.934146e-006 -6.975701e-001 3.431803e-001 -1.446606e-004 4.108492e-005 1.017790e+000 -1.329018e-001
313680000 -1.915557e-005 -1.060291e-004 -6.891086e-001 3.619392e-001 1.315560e-005 1.784930e-005 1.019100e+000 -1.338830e-001
313965000 1.803096e-005 -4.254702e-005 -6.805018e-001 3.805622e-001 4.613921e-005 -1.389913e-005 1.020259e+000 -1.338532e-001
314250000 1.961159e-004 -2.845640e-005 -6.713288e-001 3.985379e-001 1.389919e-005 -5.932754e-005 1.017320e+000 -1.350159e-001
314535000 4.814979e-005 9.604642e-005 -6.617368e-001 4.174059e-001 -4.723248e-005 -2.405252e-005 1.018293e+000 -1.354650e-001
314820000 -3.111159e-007 3.662517e-005 -6.514683e-001 4.351131e-001 -1.084408e-005 5.295826e-005 1.019218e+000 -1.358208e-001
315105000 7.170336e-006 1.705807e-005 -6.412082e-001 4.542248e-001 3.648258e-005 -3.780326e-005 1.016641e+000 -1.348433e-001
315390000 -1.295995e-004 -3.193430e-005 -6.305482e-001 4.720468e-001 -1.230634e-004 7.246179e-005 1.018481e+000 -1.354777e-001
315675000 -6.939573e-005 -3.722108e-005 -6.189823e-001 4.904208e-001 4.546932e-005 6.986642e-005 1.018338e+000 -1.346393e-001
315960000 -1.670968e-005 1.529613e-005 -6.075395e-001 5.085672e-001 4.067044e-005 -7.951509e-006 1.018862e+000 -1.362856e-001
316245000 -2.439513e-005 2.140503e-005 -5.951305e-001 5.261639e-001 -3.087646e-005 5.815145e-005 1.017348e+000 -1.348687e-001
316530000 -3.594367e-005 4.311558e-005 -5.829546e-001 5.438284e-001 9.418781e-006 -5.700724e-005 1.018940e+000 -1.346393e-001
316815000 -9.976517e-006 3.935042e-005 -5.694697e-001 5.615917e-001 4.027088e-005 5.081848e-005 1.018562e+000 -1.345954e-001
317100000 -1.368903e-005 -6.051156e-005 -5.558121e-001 5.794057e-001 -3.579483e-005 6.024439e-005 1.018520e+000 -1.344657e-001
317385000 -4.541932e-005 6.029128e-006 -5.415848e-001 5.967391e-001 -1.861078e-005 1.873198e-005 1.019791e+000 -1.332469e-001
317670000 -3.309360e-005 -1.613503e-004 -5.269948e-001 6.139973e-001 -1.209094e-004 -5.284184e-006 1.019334e+000 -1.364103e-001
317955000 -2.126211e-004 -8.385909e-005 -5.112196e-001 6.315427e-001 -1.187160e-004 8.545916e-005 1.019159e+000 -1.342752e-001
318240000 3.687023e-005 -1.106946e-004 -4.958959e-001 6.482958e-001 1.001011e-005 -1.299705e-004 1.019000e+000 -1.360501e-001
318525000 3.599739e-005 -8.392477e-005 -4.789582e-001 6.648073e-001 -9.837977e-007 3.187454e-005 1.019137e+000 -1.352138e-001
318810000 1.672884e-004 6.644032e-006 -4.619894e-001 6.812228e-001 -8.571328e-005 -3.953570e-005 1.017250e+000 -1.354235e-001
319095000 1.003179e-005 1.611530e-005 -4.440571e-001 6.976732e-001 9.370779e-006 -7.174382e-005 1.017873e+000 -1.339105e-001
319380000 1.706740e-005 1.169491e-004 -4.258302e-001 7.138202e-001 9.718908e-005 -1.017310e-004 1.019363e+000 -1.377393e-001
319665000 3.799388e-005 9.803084e-005 -4.072414e-001 7.301605e-001 5.998200e-005 -2.311534e-006 1.019200e+000 -1.342853e-001
319950000 8.168057e-005 -1.838408e-005 -3.882687e-001 7.453714e-001 3.491769e-005 -1.091929e-005 1.019374e+000 -1.374910e-001
320235000 4.855696e-005 1.581725e-004 -3.675813e-001 7.606338e-001 7.404494e-006 -1.908063e-005 1.019778e+000 -1.381156e-001
320520000 8.929139e-006 9.383786e-005 -3.464824e-001 7.753360e-001 5.235361e-005 -7.088935e-005 1.018617e+000 -1.368345e-001
320805000 -1.187264e-005 1.160127e-004 -3.249972e-001 7.904913e-001 3.530609e-005 1.346160e-004 1.016452e+000 -1.360745e-001
321090000 2.013297e-005 -1.036485e-005 -3.025635e-001 8.043950e-001 -2.511641e-005 9.391053e-005 1.017974e+000 -1.370807e-001
321375000 -1.424322e-004 -8.466668e-005 -2.795738e-001 8.178232e-001 3.933678e-005 1.084921e-004 1.018475e+000 -1.364761e-001
321660000 -2.422709e-005 7.943031e-005 -2.555896e-001 8.313752e-001 -4.169198e-005 -1.478538e-004 1.019843e+000 -1.379847e-001
321945000 3.081929e-005 1.808150e-005 -2.312141e-001 8.436268e-001 -4.979477e-006 5.125012e-005 1.018360e+000 -1.378991e-001
322230000 4.024839e-005 1.071218e-004 -2.060412e-001 8.558010e-001 2.996950e-006 -5.822145e-005 1.017272e+000 -1.381076e-001
322515000 2.676121e-006 2.018203e-005 -1.800119e-001 8.672994e-001 -2.042586e-005 2.591902e-005 1.017366e+000 -1.384835e-001
322800000 -1.083351e-005 -7.708945e-005 -1.527662e-001 8.786212e-001 -3.162627e-005 3.517497e-005 1.019920e+000 -1.380970e-001
323085000 1.123346e-005 -7.507334e-006 -1.253823e-001 8.881744e-001 -2.540877e-005 -1.871904e-005 1.018006e+000 -1.371614e-001
323370000 -9.532277e-005 2.802580e-005 -9.728626e-002 8.980504e-001 -4.149722e-005 -1.161084e-004 1.019236e+000 -1.385731e-001
323655000 -1.073522e-004 -6.590942e-005 -6.835634e-002 9.060117e-001 3.427435e-006 -3.534860e-005 1.019380e+000 -1.397001e-001
323940000 -5.971803e-005 1.623338e-006 -3.842630e-002 9.142009e-001 2.657120e-005 -8.907869e-005 1.018778e+000 -1.402123e-001
324225000 -1.912424e-005 9.808441e-005 -7.406717e-003 9.205508e-001 5.680167e-005 -5.327521e-005 1.017721e+000 -1.383164e-001
324510000 -3.884028e-005 -1.386474e-004 2.309395e-002 9.264925e-001 -5.362493e-005 -1.148800e-004 1.020075e+000 -1.402370e-001
324795000 -3.567599e-005 5.823342e-005 5.496413e-002 9.303445e-001 -1.617128e-005 -9.302379e-005 1.019622e+000 -1.393256e-001
325080000 4.159517e-005 -5.410752e-005 8.823161e-002 9.343330e-001 -3.313591e-005 5.011890e-005 1.019187e+000 -1.386443e-001
325365000 1.100803e-004 -2.959605e-005 1.212816e-001 9.363146e-001 9.036787e-005 2.923118e-005 1.019893e+000 -1.394866e-001
325650000 2.232860e-005 4.643306e-005 1.540446e-001 9.379865e-001 -1.055850e-005 1.053102e-004 1.018009e+000 -1.388574e-001
325935000 1.798167e-005 -1.884055e-005 1.886661e-001 9.371538e-001 -5.784145e-005 4.118321e-005 1.018879e+000 -1.404107e-001
326220000 -4.003847e-005 -7.318868e-007 2.228140e-001 9.363630e-001 9.907125e-005 -8.282112e-005 1.019459e+000 -1.410601e-001
326505000 8.719589e-005 3.245262e-005 2.580298e-001 9.329883e-001 5.227894e-006 -1.013933e-004 1.017662e+000 -1.405399e-001
326790000 1.405527e-004 1.777464e-005 2.933430e-001 9.279330e-001 4.971197e-005 3.416438e-005 1.017959e+000 -1.385384e-001
327075000 -1.076003e-004 9.172551e-005 3.289677e-001 9.215436e-001 1.585416e-006 -6.647476e-005 1.018780e+000 -1.408530e-001
327360000 1.060038e-004 4.426980e-005 3.646819e-001 9.138474e-001 3.707771e-005 -6.865364e-005 1.019481e+000 -1.403426e-001
327645000 7.514254e-005 -1.036398e-005 4.001720e-001 9.047623e-001 -7.770531e-005 -7.499062e-005 1.019585e+000 -1.398520e-001
327930000 1.060942e-004 6.444933e-005 4.358163e-001 8.934466e-001 -6.585951e-006 -5.141826e-005 1.019045e+000 -1.396771e-001
328215000 -6.861220e-005 -2.795169e-005 4.715619e-001 8.804338e-001 3.572334e-005 -4.400702e-005 1.019541e+000 -1.418270e-001
328500000 -4.139939e-005 -2.816200e-005 5.073693e-001 8.661866e-001 4.465763e-005 6.016379e-005 1.018802e+000 -1.420141e-001
328785000 -5.755017e-005 1.376597e-005 5.414235e-001 8.497682e-001 1.143391e-004 8.175610e-006 1.017902e+000 -1.400944e-001
329070000 2.392090e-005 1.400577e-005 5.761116e-001 8.312293e-001 2.554017e-005 2.085493e-005 1.019086e+000 -1.407058e-001
329355000 -1.833909e-005 -9.654745e-005 6.110712e-001 8.121243e-001 4.863839e-005 9.479977e-005 1.018709e+000 -1.415117e-001
329640000 -3.971747e-005 -8.206491e-005 6.435009e-001 7.904583e-001 -2.318636e-005 4.560884e-006 1.019116e+000 -1.430988e-001
329925000 6.304810e-005 -4.396884e-005 6.751568e-001 7.664657e-001 6.195987e-005 9.883462e-005 1.018985e+000 -1.412960e-001
330210000 1.101577e-005 -1.671934e-005 7.068554e-001 7.413813e-001 -4.893241e-006 9.829114e-005 1.018223e+000 -1.417420e-001
330495000 8.693072e-007 -7.200416e-005 7.373391e-001 7.151196e-001 -1.891976e-006 5.225566e-005 1.017440e+000 -1.414901e-001
330780000 9.699904e-005 -3.552015e-005 7.669064e-001 6.870341e-001 1.254390e-005 -7.826896e-006 1.019818e+000 -1.427232e-001
331065000 9.084162e-006 -3.287873e-005 7.947823e-001 6.568821e-001 1.060928e-004 1.430828e-005 1.017055e+000 -1.411791e-001
331350000 -6.637639e-005 2.180770e-005 8.208158e-001 6.260090e-001 -1.264351e-004 -2.541119e-005 1.017718e+000 -1.415842e-001
331635000 -2.413306e-006 -4.438426e-006 8.457844e-001 5.934314e-001 -1.587158e-005 5.752499e-007 1.019125e+000 -1.422741e-001
331920000 -9.242535e-005 1.862642e-004 8.690943e-001 5.595863e-001 -4.021580e-005 -9.986128e-006 1.018196e+000 -1.417233e-001
332205000 3.171240e-005 8.512384e-005 8.906918e-001 5.249160e-001 -3.946655e-006 -2.615852e-005 1.018228e+000 -1.427635e-001
332490000 2.004532e-005 1.119534e-004 9.101744e-001 4.890053e-001 2.468349e-005 1.536622e-005 1.019049e+000 -1.428976e-001
332775000 -8.968193e-005 -2.491436e-005 9.285521e-001 4.523115e-001 -9.623473e-006 -1.100417e-005 1.017863e+000 -1.435576e-001
333060000 -5.552193e-005 -6.643363e-005 9.457347e-001 4.159670e-001 -2.683492e-005 -5.263679e-005 1.018583e+000 -1.425315e-001
333345000 -4.422104e-005 -1.103890e-004 9.594616e-001 3.771068e-001 1.731439e-005 -7.561227e-006 1.019675e+000 -1.417266e-001
333630000 -8.108069e-005 -7.284936e-005 9.719752e-001 3.380172e-001 6.500454e-005 -1.863660e-006 1.018130e+000 -1.444052e-001
333915000 2.037283e-005 4.150941e-005 9.821309e-001 2.989267e-001 -4.907872e-005 1.908523e-006 1.018706e+000 -1.434646e-001
334200000 -2.966127e-005 5.829101e-006 9.905869e-001 2.604527e-001 -2.099845e-005 -4.064040e-005 1.019942e+000 -1.446209e-001
334485000 -9.671354e-005 -5.945413e-005 9.977785e-001 2.207948e-001 1.788432e-005 -7.981945e-005 1.018520e+000 -1.435142e-001
334770000 4.164111e-006 8.608217e-006 1.002750e+000 1.817924e-001 -3.001456e-005 8.493929e-005 1.018547e+000 -1.450283e-001
335055000 -3.711965e-005 -1.015006e-004 1.004967e+000 1.414655e-001 -7.496276e-006 -5.944999e-005 1.019861e+000 -1.435673e-001
335340000 2.235134e-006 3.756247e-005 1.006482e+000 1.037170e-001 -1.651951e-005 -1.592408e-005 1.018121e+000 -1.441390e-001
335625000 7.170887e-005 -4.127930e-005 1.005451e+000 6.456065e-002 -6.572906e-005 -9.631342e-005 1.019073e+000 -1.444353e-001
335910000 -1.034252e-004 -1.271494e-005 1.002599e+000 2.674230e-002 -1.922266e-005 -9.515799e-005 1.019148e+000 -1.451615e-001
336195000 -1.112263e-004 -8.633223e-005 9.982805e-001 -1.065720e-002 1.228733e-004 -5.065704e-005 1.018362e+000 -1.448276e-001
336480000 -6.443606e-005 1.226767e-005 9.927004e-001 -4.753211e-002 6.428335e-005 -3.663387e-005 1.018624e+000 -1.445636e-001
336765000 1.266297e-005 -4.719733e-005 9.856282e-001 -8.371381e-002 -4.158516e-005 -2.063131e-005 1.019464e+000 -1.448775e-001
337050000 -1.158133e-004 -3.701264e-005 9.768354e-001 -1.193677e-001 2.081023e-005 2.997167e-005 1.019199e+000 -1.449363e-001
337335000 9.339359e-005 6.216822e-005 9.662854e-001 -1.534882e-001 -6.367275e-006 -1.684967e-005 1.018820e+000 -1.469377e-001
337620000 8.700140e-005 -7.767414e-005 9.547474e-001 -1.872895e-001 -1.072131e-004 -1.809506e-005 1.018030e+000 -1.463674e-001
337905000 4.101554e-006 -5.778342e-005 9.426321e-001 -2.198183e-001 9.252682e-005 -6.531621e-006 1.018529e+000 -1.448192e-001
338190000 -1.265490e-005 -4.946533e-005 9.283247e-001 -2.516055e-001 5.475295e-005 8.011936e-006 1.016970e+000 -1.453011e-001
338475000 7.075613e-005 -8.535306e-005 9.137331e-001 -2.824846e-001 -3.855906e-005 -3.133283e-006 1.018451e+000 -1.437095e-001
338760000 2.337528e-005 -2.071726e-005 8.982188e-001 -3.117063e-001 8.205070e-005 -3.982414e-005 1.019143e+000 -1.461451e-001
339045000 3.723964e-006 6.657629e-006 8.811176e-001 -3.404208e-001 2.224665e-005 2.637999e-005 1.017918e+000 -1.454590e-001
339330000 -8.371407e-005 -1.503815e-004 8.629345e-001 -3.678578e-001 3.522250e-005 -5.301481e-005 1.019415e+000 -1.451033e-001
339615000 -6.985458e-005 -1.765471e-004 8.454636e-001 -3.945071e-001 8.361391e-005 2.148394e-005 1.018792e+000 -1.460937e-001
339900000 -7.399821e-005 -5.421409e-005 8.267319e-001 -4.201866e-001 7.124842e-005 5.484999e-005 1.018395e+000 -1.474797e-001
340185000 9.248179e-005 -1.022226e-004 8.069800e-001 -4.442908e-001 4.070111e-005 9.332626e-005 1.018932e+000 -1.482149e-001
340470000 1.580081e-005 1.984983e-005 7.873889e-001 -4.677211e-001 -9.419877e-005 7.003210e-005 1.018097e+000 -1.462061e-001
340755000 5.705708e-005 -8.906098e-005 7.662718e-001 -4.899035e-001 -4.356717e-005 -1.262592e-004 1.019629e+000 -1.473975e-001
341040000 -1.159873e-005 -3.220862e-006 7.462554e-001 -5.114740e-001 -1.642104e-004 1.114296e-005 1.018076e+000 -1.481115e-001
341325000 8.124878e-005 -4.498372e-005 7.241971e-001 -5.313467e-001 -1.146645e-005 1.869201e-005 1.018550e+000 -1.455205e-001
341610000 -4.354988e-006 1.315108e-004 7.028328e-001 -5.506373e-001 5.537023e-005 -4.383763e-005 1.020072e+000 -1.456568e-001
341895000 6.097186e-007 -1.143445e-005 6.811122e-001 -5.689766e-001 4.175115e-005 -4.525478e-005 1.017010e+000 -1.482549e-001
342180000 -8.511170e-006 5.056876e-005 6.588798e-001 -5.860230e-001 6.243309e-005 -1.208726e-004 1.019297e+000 -1.469495e-001
342465000 -1.178800e-004 7.932707e-005 6.366864e-001 -6.021504e-001 -1.080729e-005 -1.163885e-004 1.018509e+000 -1.485243e-001
342750000 1.160676e-004 -2.120598e-005 6.146408e-001 -6.181315e-001 4.910510e-005 2.646111e-006 1.020309e+000 -1.462100e-001
343035000 -5.617859e-005 1.596899e-004 5.923267e-001 -6.320710e-001 -1.958404e-005 1.588239e-005 1.019262e+000 -1.480454e-001
343320000 -1.272229e-004 1.016056e-004 5.690818e-001 -6.456209e-001 1.304919e-004 4.354838e-005 1.018028e+000 -1.476758e-001
343605000 -1.059006e-004 -3.468720e-005 5.464593e-001 -6.593292e-001 2.017351e-005 4.637697e-005 1.017415e+000 -1.472928e-001
343890000 -2.695336e-005 -3.137056e-005 5.239559e-001 -6.712269e-001 7.322026e-005 4.252047e-005 1.019052e+000 -1.467379e-001
