!Agilent Technologies,N5230C,SG49000117,A.08.50.07
!Agilent N5230C: A.08.50.07
!Date: Sunday, March 17, 2024 09:05:26
!Correction: S11(Off) 
!S21(Off) 
!S12(Off) 
!S22(Full 1 Port(2)) 
!S2P File: Measurements: S11, S21, S12, S22:
# Hz S  RI   R 50
300000000 6.773954e-005 -2.734185e-005 -6.203328e-001 -6.528178e-001 8.480585e-005 6.918062e-005 1.012709e+000 -1.564795e-001
300285000 -1.835350e-005 -2.580693e-005 -6.358448e-001 -6.299539e-001 4.211477e-005 1.491153e-004 1.013666e+000 -1.572283e-001
300570000 1.455568e-005 -2.954918e-005 -6.507902e-001 -6.064048e-001 7.161947e-005 -2.742426e-005 1.013115e+000 -1.577533e-001
300855000 -2.272698e-005 -1.125022e-004 -6.645297e-001 -5.832277e-001 -9.871526e-006 7.873181e-005 1.014208e+000 -1.569060e-001
301140000 -3.643542e-006 6.178061e-007 -6.773291e-001 -5.592521e-001 1.412184e-005 4.569018e-005 1.013813e+000 -1.580357e-001
301425000 5.768941e-005 1.865905e-005 -6.893882e-001 -5.356685e-001 -3.149177e-005 1.124847e-004 1.015385e+000 -1.577979e-001
301710000 1.664964e-006 -1.737571e-004 -7.010235e-001 -5.117766e-001 -3.698647e-005 1.040019e-004 1.014607e+000 -1.592924e-001
301995000 1.985621e-005 5.137723e-005 -7.109442e-001 -4.885865e-001 4.103076e-005 4.012491e-006 1.013957e+000 -1.579107e-001
302280000 8.289099e-005 2.421508e-005 -7.202525e-001 -4.651569e-001 2.256179e-005 -7.006017e-005 1.014306e+000 -1.588459e-001
302565000 -4.956472e-005 4.925023e-005 -7.297010e-001 -4.420062e-001 6.942138e-005 4.401325e-005 1.013690e+000 -1.599429e-001
302850000 9.475173e-005 -4.442488e-006 -7.375352e-001 -4.181257e-001 -8.581205e-005 -8.190419e-005 1.013445e+000 -1.590149e-001
303135000 -5.434567e-005 2.963191e-005 -7.452320e-001 -3.950753e-001 1.243433e-005 5.247855e-005 1.012853e+000 -1.587326e-001
303420000 -4.465890e-006 6.448277e-006 -7.519826e-001 -3.719866e-001 -5.107246e-005 8.594368e-006 1.013269e+000 -1.598661e-001
303705000 1.302769e-004 4.884249e-005 -7.581745e-001 -3.485160e-001 2.006452e-006 -3.046414e-005 1.014373e+000 -1.592050e-001
303990000 7.688055e-005 5.938075e-005 -7.644345e-001 -3.260556e-001 9.983533e-005 -3.295782e-005 1.011753e+000 -1.596066e-001
304275000 -5.140594e-005 3.225879e-005 -7.693962e-001 -3.030373e-001 3.817015e-005 -1.186080e-004 1.012976e+000 -1.588417e-001
304560000 -1.185995e-005 8.521589e-005 -7.735147e-001 -2.804652e-001 5.105216e-005 -6.529946e-005 1.013301e+000 -1.595734e-001
304845000 2.325724e-005 5.688810e-005 -7.773159e-001 -2.580791e-001 3.262311e-006 7.200690e-005 1.013564e+000 -1.596060e-001
305130000 4.581583e-005 6.377829e-005 -7.807890e-001 -2.361068e-001 2.501992e-005 8.853975e-005 1.012758e+000 -1.594661e-001
305415000 -7.657677e-005 3.140941e-005 -7.831187e-001 -2.139160e-001 6.899209e-005 -9.364383e-006 1.013433e+000 -1.612952e-001
305700000 -5.153739e-005 6.993782e-005 -7.855741e-001 -1.916156e-001 3.343442e-005 6.377303e-005 1.012084e+000 -1.590237e-001
305985000 -1.132363e-004 3.857105e-005 -7.876275e-001 -1.698317e-001 -7.441932e-005 3.434870e-005 1.013196e+000 -1.604383e-001
306270000 1.676604e-005 -2.944004e-005 -7.887705e-001 -1.474545e-001 9.067749e-005 1.006279e-004 1.015967e+000 -1.604071e-001
306555000 -5.068530e-005 -5.421782e-005 -7.894637e-001 -1.263496e-001 -8.357317e-005 2.686952e-005 1.015162e+000 -1.627472e-001
306840000 -1.123396e-004 -6.246410e-005 -7.902243e-001 -1.050240e-001 -1.388962e-006 3.755240e-005 1.013793e+000 -1.588392e-001
307125000 6.199235e-006 -1.220610e-004 -7.895537e-001 -8.347686e-002 -3.449385e-006 1.248919e-004 1.014095e+000 -1.614529e-001
307410000 8.565959e-005 -4.232454e-005 -7.892120e-001 -6.255621e-002 -5.751877e-005 2.509222e-006 1.012856e+000 -1.602730e-001
307695000 2.313363e-005 8.486919e-005 -7.887629e-001 -4.123281e-002 1.066005e-005 3.482488e-005 1.014513e+000 -1.615202e-001
307980000 6.870642e-005 3.150557e-005 -7.873753e-001 -2.046820e-002 -1.216330e-004 1.053294e-005 1.013083e+000 -1.618688e-001
308265000 3.712054e-005 -1.035411e-004 -7.858373e-001 3.082514e-004 -1.073629e-004 2.522513e-005 1.012776e+000 -1.628793e-001
308550000 6.751440e-005 6.133516e-005 -7.837665e-001 2.091953e-002 -5.426190e-006 4.582875e-005 1.012108e+000 -1.619085e-001
308835000 7.656420e-005 -4.126891e-005 -7.812042e-001 4.095164e-002 -1.279175e-004 -7.674046e-005 1.013289e+000 -1.632438e-001
309120000 1.438340e-004 -2.333461e-006 -7.785642e-001 6.133085e-002 -1.321443e-005 4.997524e-007 1.013425e+000 -1.619828e-001
309405000 -5.597107e-006 5.850272e-005 -7.749133e-001 8.199948e-002 -3.501941e-005 -1.397442e-006 1.015647e+000 -1.625274e-001
309690000 1.019091e-004 -6.915954e-005 -7.716616e-001 1.015850e-001 1.043875e-005 -3.861956e-005 1.014771e+000 -1.616728e-001
309975000 9.558464e-005 -5.257832e-005 -7.677960e-001 1.213483e-001 1.264201e-005 -1.925461e-004 1.013781e+000 -1.625286e-001
310260000 8.061018e-005 -2.035439e-005 -7.638444e-001 1.410452e-001 1.740822e-005 -2.274357e-004 1.014293e+000 -1.612650e-001
310545000 4.834167e-005 -1.092769e-005 -7.595307e-001 1.604625e-001 -2.847917e-005 -1.577280e-004 1.013487e+000 -1.628182e-001
310830000 5.611307e-006 4.088265e-005 -7.540136e-001 1.806695e-001 5.794499e-005 -6.475235e-005 1.015436e+000 -1.629437e-001
311115000 -1.919775e-006 1.132026e-004 -7.484839e-001 1.998067e-001 1.179974e-004 -1.960876e-007 1.013957e+000 -1.638011e-001
311400000 -7.264954e-005 1.853856e-004 -7.433085e-001 2.189759e-001 1.539323e-004 6.874085e-005 1.014248e+000 -1.639933e-001
311685000 -9.168606e-005 4.614752e-005 -7.373343e-001 2.385352e-001 4.071287e-005 6.772167e-005 1.014170e+000 -1.629258e-001
311970000 -5.115268e-005 -8.108039e-005 -7.307841e-001 2.576567e-001 4.610609e-006 -4.697420e-005 1.013048e+000 -1.624645e-001
312255000 -3.021725e-005 -5.536926e-007 -7.239074e-001 2.769615e-001 3.400664e-005 -5.309386e-005 1.014009e+000 -1.631396e-001
312540000 8.701428e-006 6.340938e-005 -7.168644e-001 2.960480e-001 -3.973090e-005 1.733335e-005 1.012233e+000 -1.638456e-001
312825000 -9.438479e-005 4.538590e-005 -7.095469e-001 3.145138e-001 1.937470e-005 -1.016429e-005 1.012441e+000 -1.658894e-001
313110000 -3.328565e-005 -9.787165e-005 -7.014914e-001 3.334827e-001 4.576417e-005 9.925535e-005 1.013340e+000 -1.656068e-001
313395000 -2.869549e-005 -4.913276e-005 -6.930718e-001 3.521432e-001 -3.714802e-005 -2.075665e-005 1.014367e+000 -1.637541e-001
313680000 -3.295812e-005 3.201866e-005 -6.852371e-001 3.706335e-001 -9.515859e-006 1.178848e-005 1.014137e+000 -1.645518e-001
313965000 6.332237e-005 4.077679e-005 -6.758886e-001 3.893027e-001 1.226180e-005 -2.100913e-005 1.015290e+000 -1.644166e-001
314250000 -7.054476e-005 3.110988e-005 -6.659946e-001 4.078293e-001 2.780607e-005 -1.523470e-005 1.013115e+000 -1.651025e-001
314535000 6.857228e-005 2.184235e-005 -6.566146e-001 4.256822e-001 -6.056457e-005 -1.037737e-004 1.013722e+000 -1.646764e-001
314820000 -4.487912e-005 1.041696e-005 -6.464545e-001 4.444886e-001 1.594303e-005 -1.229263e-005 1.012255e+000 -1.666086e-001
315105000 -4.619862e-006 4.458088e-006 -6.355742e-001 4.630262e-001 -2.574528e-005 7.822320e-006 1.010232e+000 -1.661372e-001
315390000 1.407185e-004 -8.933136e-005 -6.244768e-001 4.807333e-001 -9.796141e-005 2.227815e-005 1.014486e+000 -1.671897e-001
315675000 1.812539e-005 -3.293548e-005 -6.132845e-001 4.986808e-001 -5.130946e-005 -6.997537e-005 1.012852e+000 -1.648407e-001
315960000 -5.943967e-005 4.652732e-005 -6.013082e-001 5.169661e-001 -1.104159e-004 -1.397057e-005 1.011711e+000 -1.647846e-001
316245000 1.257090e-004 -2.197858e-005 -5.886084e-001 5.346652e-001 -1.240127e-004 -3.191337e-005 1.012995e+000 -1.644477e-001
316530000 6.718144e-005 1.451174e-004 -5.756974e-001 5.522419e-001 2.881413e-005 -9.652571e-005 1.012971e+000 -1.661004e-001
316815000 -1.731533e-006 8.080401e-005 -5.629421e-001 5.697430e-001 8.926583e-006 8.472903e-005 1.014987e+000 -1.651547e-001
317100000 -4.869372e-005 8.524212e-005 -5.486270e-001 5.871685e-001 -2.252153e-005 1.927115e-005 1.012298e+000 -1.653969e-001
317385000 -9.867649e-005 5.362535e-005 -5.340135e-001 6.046591e-001 3.149439e-005 1.705112e-005 1.014412e+000 -1.648357e-001
317670000 -3.703430e-005 8.217838e-005 -5.188859e-001 6.219231e-001 -9.580420e-005 -2.764778e-005 1.015162e+000 -1.666125e-001
317955000 -4.428260e-005 4.375805e-005 -5.036493e-001 6.389443e-001 1.027393e-004 1.145998e-004 1.014148e+000 -1.672116e-001
318240000 -1.094155e-005 5.064812e-005 -4.874071e-001 6.557473e-001 6.225233e-005 9.553291e-006 1.013154e+000 -1.661824e-001
318525000 -1.215080e-004 -2.416862e-005 -4.707491e-001 6.724855e-001 3.370492e-005 7.362420e-005 1.014523e+000 -1.661976e-001
318810000 -1.178435e-004 1.025276e-005 -4.533836e-001 6.889846e-001 -7.406322e-005 3.502578e-005 1.013888e+000 -1.663166e-001
319095000 -6.186815e-005 -9.052354e-006 -4.354276e-001 7.056210e-001 5.367539e-005 2.622930e-005 1.013280e+000 -1.662602e-001
319380000 -7.695559e-005 -7.451745e-005 -4.169233e-001 7.214158e-001 -3.283969e-005 4.991980e-005 1.013872e+000 -1.684355e-001
319665000 1.708837e-004 -5.347587e-005 -3.978552e-001 7.364587e-001 4.100708e-005 5.418568e-005 1.015305e+000 -1.659929e-001
319950000 1.321714e-004 -6.600811e-005 -3.774293e-001 7.520629e-001 -9.841564e-005 1.708588e-006 1.013409e+000 -1.678509e-001
320235000 2.453020e-006 -7.844219e-005 -3.574086e-001 7.675209e-001 2.835978e-005 1.288861e-004 1.013803e+000 -1.692477e-001
320520000 3.469914e-005 -6.153023e-005 -3.356803e-001 7.820876e-001 6.129663e-005 -1.129818e-005 1.014200e+000 -1.679629e-001
320805000 -2.426498e-005 5.057084e-005 -3.140728e-001 7.961639e-001 2.355933e-005 2.157251e-005 1.013912e+000 -1.681680e-001
321090000 5.308482e-005 -6.687253e-005 -2.914500e-001 8.102231e-001 -4.182861e-005 4.410980e-005 1.012530e+000 -1.675831e-001
321375000 8.828514e-005 -2.740425e-005 -2.678327e-001 8.237153e-001 -4.950936e-005 7.545385e-005 1.013159e+000 -1.676514e-001
321660000 3.619709e-005 3.178818e-005 -2.436746e-001 8.363363e-001 -2.953447e-005 7.214634e-005 1.012769e+000 -1.678097e-001
321945000 5.665211e-005 4.994839e-005 -2.188075e-001 8.490044e-001 -3.457910e-005 9.744523e-006 1.013217e+000 -1.699333e-001
322230000 4.702735e-005 2.816624e-005 -1.929488e-001 8.608714e-001 -3.252615e-005 -1.096314e-005 1.012265e+000 -1.695009e-001
322515000 5.124803e-005 6.202782e-005 -1.672281e-001 8.718995e-001 -5.567616e-005 -2.748370e-005 1.013106e+000 -1.688624e-001
322800000 -5.301630e-005 -1.972924e-005 -1.397207e-001 8.825547e-001 4.264822e-005 -1.344167e-004 1.014365e+000 -1.691392e-001
323085000 -4.287715e-005 8.481499e-005 -1.118243e-001 8.920294e-001 -1.100130e-004 3.599876e-005 1.012957e+000 -1.690108e-001
323370000 -2.801546e-006 -4.147814e-005 -8.334003e-002 9.011211e-001 5.435223e-005 -1.377625e-004 1.013548e+000 -1.701061e-001
323655000 -3.542864e-005 -1.914761e-005 -5.385280e-002 9.092394e-001 -2.712612e-005 -6.048990e-005 1.012528e+000 -1.710629e-001
323940000 -8.595194e-005 5.195141e-005 -2.356344e-002 9.161558e-001 -3.600238e-005 -3.836759e-005 1.012777e+000 -1.706065e-001
324225000 6.204856e-005 4.206746e-005 6.696803e-003 9.223627e-001 -4.876635e-005 -4.182549e-005 1.011418e+000 -1.703247e-001
324510000 -2.901545e-005 -2.305352e-005 3.865453e-002 9.278402e-001 3.288428e-005 -5.084369e-005 1.015268e+000 -1.723484e-001
324795000 -3.818499e-005 -6.013641e-005 7.079749e-002 9.318989e-001 4.031049e-005 5.140065e-005 1.013098e+000 -1.701901e-001
325080000 -6.902264e-005 -9.838564e-005 1.032840e-001 9.342482e-001 -5.333154e-005 2.685927e-005 1.013284e+000 -1.701212e-001
325365000 -8.160972e-005 6.079676e-005 1.360603e-001 9.367032e-001 -6.340211e-005 5.771797e-005 1.014329e+000 -1.706887e-001
325650000 -5.762585e-005 -5.186161e-005 1.703711e-001 9.371866e-001 -4.686448e-005 -5.203148e-006 1.014362e+000 -1.705317e-001
325935000 -5.380100e-005 -1.168787e-005 2.046503e-001 9.357275e-001 9.782734e-005 6.858351e-005 1.012290e+000 -1.718090e-001
326220000 -1.758525e-005 -3.400245e-005 2.398713e-001 9.339261e-001 7.625880e-005 -5.116546e-005 1.015134e+000 -1.726982e-001
326505000 2.123029e-005 -7.121762e-005 2.745060e-001 9.295599e-001 -4.183884e-005 1.276721e-005 1.013860e+000 -1.728311e-001
326790000 4.366159e-005 1.411370e-005 3.101110e-001 9.239431e-001 -2.256258e-005 -6.180633e-005 1.011633e+000 -1.714265e-001
327075000 1.804084e-005 -5.094839e-005 3.451465e-001 9.178932e-001 -6.147883e-005 -8.054488e-006 1.012250e+000 -1.733301e-001
327360000 4.746842e-005 6.303552e-005 3.807263e-001 9.083910e-001 -9.296213e-005 -4.231557e-005 1.014650e+000 -1.726108e-001
327645000 1.402241e-005 -2.284100e-005 4.170142e-001 8.989750e-001 -2.064872e-005 -1.663253e-005 1.013073e+000 -1.721256e-001
327930000 3.437424e-005 9.001938e-006 4.524330e-001 8.864232e-001 5.249947e-005 -3.338163e-005 1.013632e+000 -1.713849e-001
328215000 -2.670166e-006 2.761816e-005 4.880995e-001 8.732728e-001 5.093478e-005 -5.788378e-005 1.013079e+000 -1.728532e-001
328500000 9.237917e-006 1.125756e-005 5.236154e-001 8.580703e-001 2.468635e-005 1.067404e-005 1.012160e+000 -1.730750e-001
328785000 -9.691065e-005 1.043177e-004 5.580047e-001 8.405525e-001 1.800676e-005 -3.366642e-005 1.013854e+000 -1.720216e-001
329070000 -7.259286e-005 -1.830752e-005 5.918155e-001 8.213871e-001 2.576059e-005 3.447412e-005 1.012126e+000 -1.731064e-001
329355000 2.575347e-005 6.759027e-005 6.255703e-001 8.007725e-001 1.083176e-004 -7.898029e-005 1.013207e+000 -1.736220e-001
329640000 -8.895693e-007 3.222430e-005 6.585777e-001 7.786496e-001 3.725878e-006 5.016436e-005 1.013156e+000 -1.733073e-001
329925000 -6.150294e-006 -3.389582e-005 6.900573e-001 7.546944e-001 -8.567207e-005 1.478483e-005 1.013267e+000 -1.743757e-001
330210000 6.456292e-005 -4.550249e-005 7.213032e-001 7.291238e-001 9.769055e-005 -3.367242e-006 1.012314e+000 -1.740715e-001
330495000 5.172128e-005 -8.452893e-005 7.512913e-001 7.022206e-001 -3.060896e-005 1.717881e-004 1.012239e+000 -1.741030e-001
330780000 1.582768e-005 -7.809001e-006 7.793143e-001 6.722299e-001 -8.836486e-006 1.320177e-005 1.013453e+000 -1.742507e-001
331065000 1.192492e-004 -3.124800e-006 8.065028e-001 6.429162e-001 4.978200e-005 4.944479e-005 1.011858e+000 -1.732372e-001
331350000 3.727178e-005 8.912203e-005 8.325329e-001 6.105897e-001 -7.708430e-005 -8.774200e-005 1.012301e+000 -1.740700e-001
331635000 -4.598070e-005 8.311847e-005 8.570946e-001 5.777553e-001 -9.026764e-005 -7.417591e-005 1.013655e+000 -1.750325e-001
331920000 1.438482e-005 1.034836e-004 8.793085e-001 5.432876e-001 2.994929e-005 -1.837398e-005 1.013401e+000 -1.730482e-001
332205000 5.708696e-006 -6.443899e-005 9.006122e-001 5.083385e-001 -2.940571e-005 -3.355408e-005 1.013634e+000 -1.756907e-001
332490000 -2.812132e-005 -3.477779e-005 9.190922e-001 4.715468e-001 6.685594e-005 -1.066379e-004 1.013396e+000 -1.749595e-001
332775000 -4.631536e-005 4.509167e-006 9.363795e-001 4.347927e-001 8.846825e-005 -8.474135e-005 1.012664e+000 -1.758235e-001
333060000 -5.611581e-005 4.440866e-005 9.514806e-001 3.968546e-001 1.015970e-004 1.367739e-005 1.013052e+000 -1.749774e-001
333345000 -2.785060e-005 -4.196633e-006 9.657695e-001 3.585850e-001 8.961697e-005 -2.555593e-005 1.014320e+000 -1.743522e-001
333630000 7.075294e-005 7.849748e-005 9.773738e-001 3.202395e-001 7.368118e-006 -7.288705e-005 1.013524e+000 -1.767595e-001
333915000 -1.030128e-004 2.991140e-005 9.861146e-001 2.806595e-001 7.308328e-005 -1.933449e-005 1.012082e+000 -1.754885e-001
334200000 1.706636e-006 1.676240e-005 9.936765e-001 2.412251e-001 1.102215e-004 1.094390e-005 1.013797e+000 -1.768767e-001
334485000 7.007514e-005 4.336422e-005 9.999654e-001 2.022711e-001 3.673002e-005 -1.200116e-004 1.013481e+000 -1.757750e-001
334770000 5.675267e-005 3.469552e-005 1.002916e+000 1.628905e-001 4.148146e-005 -9.402091e-005 1.011790e+000 -1.768332e-001
335055000 -7.914968e-006 2.071350e-005 1.005600e+000 1.235055e-001 -1.396829e-005 -6.126602e-005 1.013785e+000 -1.763852e-001
335340000 5.603917e-005 4.809220e-005 1.005750e+000 8.482374e-002 3.896365e-005 2.255776e-005 1.014382e+000 -1.787528e-001
335625000 1.289389e-004 7.968363e-005 1.003824e+000 4.663843e-002 -5.475094e-005 -9.958668e-005 1.013187e+000 -1.777258e-001
335910000 5.953967e-005 -3.415294e-005 1.000762e+000 8.749991e-003 -4.015178e-005 -8.730945e-006 1.012989e+000 -1.770991e-001
336195000 2.943198e-005 4.381663e-005 9.952440e-001 -2.883938e-002 -1.360796e-005 7.290699e-005 1.011796e+000 -1.771208e-001
336480000 1.573880e-005 1.124530e-004 9.897550e-001 -6.564406e-002 2.401809e-005 -1.022016e-006 1.013289e+000 -1.762532e-001
336765000 8.140820e-005 -1.638297e-005 9.815170e-001 -1.011674e-001 1.773595e-004 -7.438266e-005 1.012960e+000 -1.777532e-001
337050000 -3.912348e-005 -1.115527e-005 9.718021e-001 -1.362811e-001 -7.390195e-005 7.585095e-005 1.012996e+000 -1.768513e-001
337335000 3.339270e-005 8.410912e-005 9.612704e-001 -1.699478e-001 1.225801e-005 8.282443e-005 1.012621e+000 -1.798680e-001
337620000 -1.999952e-005 4.728298e-005 9.485269e-001 -2.034258e-001 -8.155425e-005 -4.330498e-005 1.012409e+000 -1.786930e-001
337905000 -1.676519e-005 -3.426329e-005 9.353085e-001 -2.356555e-001 8.987640e-005 7.672526e-005 1.011594e+000 -1.772975e-001
338190000 -2.683856e-005 -5.540603e-005 9.210880e-001 -2.668170e-001 -8.949755e-005 -1.710392e-005 1.012454e+000 -1.788428e-001
338475000 -7.784935e-006 2.557729e-006 9.060916e-001 -2.968358e-001 -5.193400e-005 -2.720348e-005 1.013820e+000 -1.780184e-001
338760000 -8.628531e-005 5.742742e-005 8.895419e-001 -3.264826e-001 -8.599847e-006 4.133424e-005 1.012023e+000 -1.782751e-001
339045000 -1.765712e-005 -3.366918e-005 8.726793e-001 -3.545652e-001 -4.585753e-005 -6.847973e-005 1.011555e+000 -1.786120e-001
339330000 7.515807e-005 -3.928470e-005 8.555385e-001 -3.814687e-001 2.150544e-005 -6.355065e-005 1.013200e+000 -1.780093e-001
339615000 -4.731360e-005 5.846889e-005 8.364077e-001 -4.078136e-001 -1.562748e-005 -6.190098e-005 1.011950e+000 -1.795240e-001
339900000 1.134339e-004 9.934757e-006 8.171466e-001 -4.327217e-001 -1.352517e-005 -5.142353e-005 1.012555e+000 -1.813597e-001
340185000 -3.173430e-005 -9.319947e-006 7.974091e-001 -4.563533e-001 1.034928e-007 -1.672789e-004 1.013559e+000 -1.810478e-001
340470000 9.656149e-005 -1.893125e-005 7.771168e-001 -4.792901e-001 -6.049997e-005 -7.428856e-006 1.012445e+000 -1.783005e-001
340755000 -5.993566e-005 -5.576533e-006 7.566694e-001 -5.008274e-001 -2.400404e-005 -7.771341e-005 1.012663e+000 -1.812296e-001
341040000 -3.133345e-005 3.880174e-005 7.354171e-001 -5.218199e-001 -9.638857e-005 1.336094e-004 1.012000e+000 -1.809067e-001
341325000 8.062634e-005 7.020751e-005 7.134427e-001 -5.411423e-001 -1.066594e-004 1.557441e-005 1.013750e+000 -1.786624e-001
341610000 1.742928e-006 3.338198e-005 6.921775e-001 -5.599770e-001 -1.153737e-004 -2.819913e-005 1.014009e+000 -1.786870e-001
341895000 -2.023666e-005 -1.577964e-005 6.702545e-001 -5.779256e-001 8.036294e-005 5.185202e-005 1.011770e+000 -1.798917e-001
342180000 -1.342869e-004 -8.131350e-005 6.479773e-001 -5.947388e-001 2.943114e-006 -2.386127e-005 1.012937e+000 -1.798137e-001
342465000 -5.859894e-005 -8.082233e-005 6.256233e-001 -6.107627e-001 -2.636480e-005 -7.357110e-006 1.012306e+000 -1.812069e-001
342750000 -2.170520e-005 1.334525e-005 6.030536e-001 -6.257701e-001 9.096287e-005 1.009966e-004 1.013363e+000 -1.797062e-001
343035000 2.090188e-005 -6.348704e-005 5.807678e-001 -6.396136e-001 4.333320e-005 -2.598166e-005 1.012339e+000 -1.828328e-001
343320000 5.465766e-005 -6.549972e-006 5.582759e-001 -6.534076e-001 9.696294e-005 -9.779150e-005 1.011400e+000 -1.808848e-001
343605000 -2.598749e-005 5.698453e-005 5.354218e-001 -6.662037e-001 1.155705e-004 4.852711e-005 1.012143e+000 -1.817383e-001
343890000 2.297874e-005 8.662156e-005 5.128165e-001 -6.775944e-001 3.746741e-007 -1.391180e-005 1.012249e+000 -1.813082e-001
