!Agilent Technologies,N5230C,SG49000117,A.08.50.07
!Agilent N5230C: A.08.50.07
!Date: Monday, May 20, 2024 20:18:56
!Correction: S11(Full 2 Port(1,2)) 
!S21(Full 2 Port(1,2)) 
!S12(Full 2 Port(1,2)) 
!S22(Full 2 Port(1,2)) 
!S2P File: Measurements: S11, S21, S12, S22:
# Hz S  MA   R 50
1000000000 1.030749e+000 -1.614460e+001 2.233784e-003 7.166238e+001 3.549922e-003 6.159779e+001 1.063865e+000 -2.788028e+001
1000150000 1.030302e+000 -1.612213e+001 2.261585e-003 7.957372e+001 3.619925e-003 6.589445e+001 1.063992e+000 -2.776940e+001
1000300000 1.031078e+000 -1.615807e+001 2.230861e-003 8.043318e+001 3.845388e-003 6.826511e+001 1.062860e+000 -2.793573e+001
1000450000 1.030940e+000 -1.611286e+001 1.955173e-003 7.538113e+001 3.474778e-003 6.741669e+001 1.061808e+000 -2.793968e+001
1000600000 1.031463e+000 -1.614124e+001 2.021156e-003 8.064851e+001 3.893665e-003 6.757197e+001 1.061326e+000 -2.796314e+001
1000750000 1.031123e+000 -1.613700e+001 1.954837e-003 8.600880e+001 2.974667e-003 6.526020e+001 1.061960e+000 -2.799495e+001
1000900000 1.031047e+000 -1.616281e+001 1.905099e-003 7.990606e+001 3.712770e-003 6.888895e+001 1.063248e+000 -2.797877e+001
1001050000 1.031037e+000 -1.621824e+001 2.053222e-003 7.853701e+001 3.764284e-003 6.603046e+001 1.063074e+000 -2.779843e+001
1001200000 1.030501e+000 -1.619289e+001 1.948562e-003 8.012024e+001 4.000478e-003 6.617566e+001 1.065204e+000 -2.793415e+001
1001350000 1.030200e+000 -1.617156e+001 1.984562e-003 8.148793e+001 3.319348e-003 6.000927e+001 1.060949e+000 -2.781702e+001
1001500000 1.030489e+000 -1.625216e+001 1.829441e-003 7.203845e+001 3.555900e-003 7.665224e+001 1.063203e+000 -2.776103e+001
1001650000 1.029882e+000 -1.627070e+001 2.290429e-003 7.454253e+001 3.865673e-003 5.915182e+001 1.062368e+000 -2.796375e+001
1001800000 1.030257e+000 -1.626523e+001 2.094392e-003 8.145090e+001 3.799874e-003 6.859218e+001 1.062108e+000 -2.780874e+001
1001950000 1.029423e+000 -1.625122e+001 2.034144e-003 8.021928e+001 3.407805e-003 6.197153e+001 1.063035e+000 -2.787479e+001
1002100000 1.028991e+000 -1.616180e+001 2.065024e-003 7.298278e+001 4.342453e-003 7.003288e+001 1.063346e+000 -2.793640e+001
1002250000 1.029207e+000 -1.624846e+001 1.768499e-003 7.678001e+001 3.629003e-003 6.998174e+001 1.060859e+000 -2.790651e+001
1002400000 1.029740e+000 -1.617690e+001 1.918051e-003 8.235999e+001 3.801183e-003 6.349641e+001 1.061189e+000 -2.802044e+001
1002550000 1.030027e+000 -1.621172e+001 1.894051e-003 8.333604e+001 3.230113e-003 6.986148e+001 1.062853e+000 -2.800791e+001
1002700000 1.030236e+000 -1.619328e+001 1.826976e-003 8.100174e+001 3.437683e-003 7.238544e+001 1.062462e+000 -2.798761e+001
1002850000 1.029599e+000 -1.618039e+001 1.641308e-003 8.283330e+001 3.637326e-003 6.969672e+001 1.062061e+000 -2.796952e+001
1003000000 1.031642e+000 -1.623599e+001 2.037084e-003 7.450375e+001 3.902695e-003 6.681245e+001 1.063322e+000 -2.796462e+001
1003150000 1.031602e+000 -1.624512e+001 1.756679e-003 8.039780e+001 3.613934e-003 6.848877e+001 1.063231e+000 -2.799107e+001
1003300000 1.031861e+000 -1.621689e+001 2.061825e-003 8.184343e+001 3.997284e-003 6.730925e+001 1.062003e+000 -2.787374e+001
1003450000 1.030742e+000 -1.616792e+001 2.034739e-003 7.882456e+001 4.022357e-003 6.504401e+001 1.060846e+000 -2.787660e+001
1003600000 1.032043e+000 -1.625427e+001 2.054736e-003 7.419176e+001 3.781688e-003 6.033910e+001 1.062163e+000 -2.804546e+001
1003750000 1.030842e+000 -1.617258e+001 2.062101e-003 8.223522e+001 3.688805e-003 6.315362e+001 1.060944e+000 -2.791522e+001
1003900000 1.031472e+000 -1.618934e+001 2.337424e-003 7.752299e+001 3.390580e-003 5.863261e+001 1.061422e+000 -2.787871e+001
1004050000 1.031323e+000 -1.625467e+001 1.905596e-003 7.485329e+001 3.321456e-003 7.573645e+001 1.062802e+000 -2.789369e+001
1004200000 1.029862e+000 -1.625142e+001 1.941995e-003 7.191202e+001 3.500397e-003 6.854338e+001 1.062729e+000 -2.798750e+001
1004350000 1.029016e+000 -1.617304e+001 2.133786e-003 8.311464e+001 3.701760e-003 6.233080e+001 1.064884e+000 -2.800546e+001
1004500000 1.028199e+000 -1.621788e+001 1.843297e-003 8.217201e+001 3.811211e-003 6.406464e+001 1.063560e+000 -2.792719e+001
1004650000 1.030431e+000 -1.619262e+001 2.061907e-003 7.432730e+001 3.718932e-003 6.935730e+001 1.063657e+000 -2.799868e+001
1004800000 1.031469e+000 -1.618968e+001 1.835894e-003 8.471960e+001 3.803561e-003 6.586595e+001 1.063924e+000 -2.799919e+001
1004950000 1.032094e+000 -1.618472e+001 2.084865e-003 8.353895e+001 3.848891e-003 6.663901e+001 1.063440e+000 -2.790866e+001
1005100000 1.030991e+000 -1.612141e+001 2.294183e-003 7.030922e+001 3.446423e-003 6.326780e+001 1.061636e+000 -2.812244e+001
1005250000 1.030593e+000 -1.622330e+001 2.086169e-003 7.965583e+001 3.829367e-003 6.434238e+001 1.065919e+000 -2.800550e+001
1005400000 1.030686e+000 -1.620723e+001 2.031538e-003 8.160259e+001 4.055246e-003 7.972527e+001 1.062380e+000 -2.803221e+001
1005550000 1.030018e+000 -1.620457e+001 1.805173e-003 7.419530e+001 3.214935e-003 7.396276e+001 1.063445e+000 -2.801957e+001
1005700000 1.031489e+000 -1.619700e+001 1.947524e-003 7.801220e+001 4.540855e-003 6.576426e+001 1.064130e+000 -2.806194e+001
1005850000 1.031323e+000 -1.624399e+001 1.897216e-003 7.319180e+001 3.971667e-003 6.549467e+001 1.064470e+000 -2.815813e+001
1006000000 1.030677e+000 -1.620510e+001 2.073661e-003 7.282175e+001 4.008973e-003 6.508269e+001 1.064520e+000 -2.799357e+001
1006150000 1.031525e+000 -1.626024e+001 2.048122e-003 7.417768e+001 3.238971e-003 6.584721e+001 1.062199e+000 -2.807046e+001
1006300000 1.030399e+000 -1.631717e+001 2.327386e-003 7.752592e+001 3.771879e-003 6.813988e+001 1.064872e+000 -2.802817e+001
1006450000 1.031726e+000 -1.635109e+001 1.747338e-003 7.976733e+001 3.427062e-003 6.952021e+001 1.063876e+000 -2.797224e+001
1006600000 1.031623e+000 -1.636426e+001 2.269886e-003 8.012455e+001 3.527409e-003 7.647226e+001 1.062970e+000 -2.788791e+001
1006750000 1.031912e+000 -1.629137e+001 1.945608e-003 7.825640e+001 3.840951e-003 6.848193e+001 1.062325e+000 -2.791809e+001
1006900000 1.031678e+000 -1.631082e+001 2.066429e-003 7.464043e+001 4.259024e-003 7.045277e+001 1.062699e+000 -2.810472e+001
1007050000 1.030988e+000 -1.626381e+001 1.840055e-003 8.782195e+001 4.284297e-003 6.827210e+001 1.063063e+000 -2.799163e+001
1007200000 1.030787e+000 -1.628831e+001 2.188264e-003 8.187125e+001 3.749081e-003 7.014307e+001 1.061034e+000 -2.799533e+001
1007350000 1.031541e+000 -1.626090e+001 2.200972e-003 7.805035e+001 4.138728e-003 6.328877e+001 1.062819e+000 -2.798621e+001
1007500000 1.030938e+000 -1.628057e+001 1.957125e-003 7.078423e+001 3.927725e-003 7.056393e+001 1.060618e+000 -2.794804e+001
1007650000 1.032274e+000 -1.627986e+001 2.115771e-003 7.123282e+001 3.576661e-003 6.476276e+001 1.064012e+000 -2.798588e+001
1007800000 1.029941e+000 -1.629256e+001 2.088506e-003 7.328483e+001 3.725948e-003 6.785930e+001 1.061320e+000 -2.819708e+001
1007950000 1.029315e+000 -1.630272e+001 2.324973e-003 7.580255e+001 3.769232e-003 6.838746e+001 1.060195e+000 -2.823675e+001
1008100000 1.030134e+000 -1.644402e+001 2.025041e-003 8.404925e+001 4.001633e-003 6.968382e+001 1.061990e+000 -2.822798e+001
1008250000 1.029549e+000 -1.630674e+001 1.828733e-003 6.617159e+001 3.578682e-003 6.795281e+001 1.062810e+000 -2.817384e+001
1008400000 1.031455e+000 -1.625051e+001 1.823075e-003 7.464541e+001 3.802659e-003 6.462106e+001 1.062216e+000 -2.817894e+001
1008550000 1.030241e+000 -1.630145e+001 2.176285e-003 7.986138e+001 4.047133e-003 7.139693e+001 1.064121e+000 -2.809428e+001
1008700000 1.031477e+000 -1.626029e+001 1.985627e-003 8.988813e+001 4.035953e-003 6.787901e+001 1.061714e+000 -2.815283e+001
1008850000 1.030661e+000 -1.628476e+001 1.683833e-003 7.952880e+001 3.516553e-003 6.577566e+001 1.062726e+000 -2.802389e+001
1009000000 1.030427e+000 -1.620323e+001 1.815118e-003 8.151249e+001 3.710102e-003 6.494489e+001 1.063612e+000 -2.818847e+001
1009150000 1.031989e+000 -1.629367e+001 1.967975e-003 6.846730e+001 3.641691e-003 6.461823e+001 1.062796e+000 -2.810447e+001
1009300000 1.032288e+000 -1.627779e+001 2.247380e-003 8.350221e+001 4.274657e-003 6.586485e+001 1.062795e+000 -2.825355e+001
1009450000 1.030946e+000 -1.629512e+001 1.852723e-003 7.653666e+001 3.403434e-003 6.379506e+001 1.063976e+000 -2.814883e+001
1009600000 1.029781e+000 -1.630964e+001 1.920138e-003 8.052001e+001 3.976299e-003 6.700881e+001 1.063597e+000 -2.820933e+001
1009750000 1.031052e+000 -1.634745e+001 2.037257e-003 7.231488e+001 3.585690e-003 6.605737e+001 1.065007e+000 -2.815290e+001
1009900000 1.032532e+000 -1.633966e+001 2.043740e-003 7.022407e+001 4.020499e-003 7.093004e+001 1.064010e+000 -2.808904e+001
1010050000 1.030088e+000 -1.635016e+001 1.963164e-003 7.936892e+001 4.204075e-003 6.815685e+001 1.063500e+000 -2.825352e+001
1010200000 1.029655e+000 -1.641635e+001 2.015270e-003 8.462657e+001 3.656559e-003 5.823606e+001 1.064822e+000 -2.818486e+001
1010350000 1.031579e+000 -1.643618e+001 2.004988e-003 7.475178e+001 4.234117e-003 5.932698e+001 1.066675e+000 -2.832490e+001
1010500000 1.031270e+000 -1.645953e+001 1.966275e-003 7.080909e+001 3.509943e-003 6.236533e+001 1.063892e+000 -2.827801e+001
1010650000 1.030964e+000 -1.642648e+001 1.994637e-003 7.696941e+001 3.916759e-003 6.616557e+001 1.064914e+000 -2.821200e+001
1010800000 1.029763e+000 -1.636551e+001 2.153564e-003 7.580052e+001 3.543996e-003 6.348553e+001 1.061734e+000 -2.816877e+001
1010950000 1.030557e+000 -1.637595e+001 2.112259e-003 7.848479e+001 4.566039e-003 7.464844e+001 1.062703e+000 -2.812774e+001
1011100000 1.030927e+000 -1.634731e+001 2.206203e-003 7.614640e+001 3.836497e-003 6.089317e+001 1.059409e+000 -2.797947e+001
1011250000 1.029920e+000 -1.637556e+001 2.251128e-003 8.148739e+001 3.545274e-003 7.185964e+001 1.061727e+000 -2.809054e+001
1011400000 1.031919e+000 -1.637011e+001 1.978656e-003 7.632487e+001 4.038271e-003 5.758033e+001 1.061404e+000 -2.803804e+001
1011550000 1.031356e+000 -1.647106e+001 2.164665e-003 6.966854e+001 3.794296e-003 7.150959e+001 1.065088e+000 -2.820941e+001
1011700000 1.031181e+000 -1.639570e+001 2.109813e-003 6.951819e+001 4.343092e-003 6.256739e+001 1.060756e+000 -2.831465e+001
1011850000 1.030786e+000 -1.637050e+001 2.166774e-003 7.501547e+001 3.919970e-003 6.381750e+001 1.060831e+000 -2.826145e+001
1012000000 1.029856e+000 -1.644909e+001 2.101165e-003 7.016280e+001 3.689256e-003 5.419842e+001 1.061189e+000 -2.839605e+001
1012150000 1.030283e+000 -1.640767e+001 1.824499e-003 7.554897e+001 3.697943e-003 6.878673e+001 1.063346e+000 -2.814080e+001
1012300000 1.029934e+000 -1.638298e+001 1.847611e-003 7.605336e+001 3.629529e-003 5.843591e+001 1.063821e+000 -2.806684e+001
1012450000 1.028867e+000 -1.639171e+001 2.257304e-003 8.577801e+001 3.701305e-003 6.509447e+001 1.062824e+000 -2.804566e+001
1012600000 1.031441e+000 -1.635849e+001 2.076888e-003 7.541830e+001 3.917862e-003 6.423649e+001 1.064867e+000 -2.805056e+001
1012750000 1.031002e+000 -1.643970e+001 2.261374e-003 7.589783e+001 4.371303e-003 6.057962e+001 1.064585e+000 -2.805372e+001
1012900000 1.028728e+000 -1.642199e+001 2.175526e-003 6.672622e+001 4.519246e-003 6.141419e+001 1.062842e+000 -2.803485e+001
1013050000 1.030602e+000 -1.634504e+001 2.272436e-003 8.042861e+001 3.737150e-003 6.499577e+001 1.062374e+000 -2.814229e+001
1013200000 1.029449e+000 -1.649736e+001 2.045923e-003 7.572929e+001 4.439587e-003 6.616792e+001 1.063219e+000 -2.817313e+001
1013350000 1.030893e+000 -1.650182e+001 1.763000e-003 8.429142e+001 3.978682e-003 6.864395e+001 1.060132e+000 -2.824302e+001
1013500000 1.030954e+000 -1.648952e+001 2.102760e-003 7.433765e+001 3.228936e-003 6.822861e+001 1.062890e+000 -2.817719e+001
1013650000 1.030372e+000 -1.642659e+001 2.190059e-003 7.797742e+001 3.070594e-003 6.542508e+001 1.061199e+000 -2.816350e+001
1013800000 1.030941e+000 -1.650400e+001 2.214937e-003 8.208400e+001 3.810389e-003 7.274714e+001 1.062196e+000 -2.833131e+001
1013950000 1.030457e+000 -1.650004e+001 1.699280e-003 8.175714e+001 4.258947e-003 6.402090e+001 1.060888e+000 -2.827561e+001
1014100000 1.031226e+000 -1.653205e+001 2.258388e-003 8.382490e+001 3.565256e-003 6.033371e+001 1.061851e+000 -2.830804e+001
1014250000 1.030288e+000 -1.648050e+001 2.176267e-003 7.414646e+001 3.850721e-003 6.143791e+001 1.061328e+000 -2.830672e+001
1014400000 1.030554e+000 -1.644344e+001 2.416591e-003 8.304018e+001 4.283587e-003 6.519899e+001 1.061789e+000 -2.830964e+001
1014550000 1.030755e+000 -1.649437e+001 1.903331e-003 7.590623e+001 3.792958e-003 5.834673e+001 1.062578e+000 -2.820401e+001
1014700000 1.031909e+000 -1.651737e+001 1.893756e-003 7.560330e+001 4.051660e-003 5.257037e+001 1.065306e+000 -2.820472e+001
1014850000 1.033526e+000 -1.648215e+001 2.024765e-003 7.286401e+001 3.695560e-003 6.368321e+001 1.062805e+000 -2.825094e+001
1015000000 1.032254e+000 -1.651236e+001 2.151515e-003 8.051915e+001 3.391466e-003 6.277729e+001 1.063485e+000 -2.814132e+001
1015150000 1.032163e+000 -1.652632e+001 2.193345e-003 7.393066e+001 3.809477e-003 6.260445e+001 1.062885e+000 -2.821857e+001
1015300000 1.029901e+000 -1.652442e+001 1.993597e-003 7.295241e+001 3.978797e-003 6.298779e+001 1.061569e+000 -2.819302e+001
1015450000 1.031084e+000 -1.654393e+001 2.170662e-003 7.827412e+001 4.625755e-003 6.634351e+001 1.061280e+000 -2.826076e+001
1015600000 1.031316e+000 -1.656912e+001 2.125009e-003 7.361298e+001 4.000811e-003 7.064818e+001 1.061236e+000 -2.833990e+001
1015750000 1.029558e+000 -1.657749e+001 1.994850e-003 7.364799e+001 3.852264e-003 6.394794e+001 1.060280e+000 -2.831480e+001
1015900000 1.029981e+000 -1.652459e+001 2.154811e-003 7.767999e+001 3.916896e-003 6.962954e+001 1.059420e+000 -2.833681e+001
1016050000 1.033213e+000 -1.652640e+001 2.164127e-003 7.123118e+001 3.807211e-003 6.889555e+001 1.059170e+000 -2.833807e+001
1016200000 1.031936e+000 -1.652348e+001 1.942535e-003 7.399810e+001 3.598795e-003 6.414847e+001 1.062020e+000 -2.824579e+001
1016350000 1.032629e+000 -1.644794e+001 2.144218e-003 7.477911e+001 3.965905e-003 6.627728e+001 1.059738e+000 -2.831318e+001
1016500000 1.032061e+000 -1.647752e+001 2.030640e-003 8.120366e+001 4.170489e-003 6.539536e+001 1.062197e+000 -2.823298e+001
1016650000 1.032203e+000 -1.645066e+001 2.123938e-003 8.150411e+001 3.800113e-003 7.563756e+001 1.062296e+000 -2.824154e+001
1016800000 1.032405e+000 -1.649729e+001 1.939478e-003 8.278400e+001 4.060335e-003 7.605215e+001 1.061856e+000 -2.821970e+001
1016950000 1.033578e+000 -1.651149e+001 2.280024e-003 7.854610e+001 3.898198e-003 6.330278e+001 1.063447e+000 -2.829379e+001
1017100000 1.031811e+000 -1.652725e+001 1.962740e-003 7.084123e+001 4.410191e-003 6.757039e+001 1.065868e+000 -2.818475e+001
1017250000 1.032213e+000 -1.656668e+001 2.086920e-003 7.841335e+001 4.501779e-003 6.390482e+001 1.062631e+000 -2.827426e+001
1017400000 1.030532e+000 -1.656098e+001 1.930493e-003 7.385885e+001 3.774081e-003 6.606976e+001 1.063370e+000 -2.813797e+001
1017550000 1.031009e+000 -1.654890e+001 2.083963e-003 8.065091e+001 3.661804e-003 6.481734e+001 1.064476e+000 -2.823502e+001
1017700000 1.030277e+000 -1.655153e+001 2.078404e-003 7.816157e+001 3.487225e-003 5.855139e+001 1.064009e+000 -2.830641e+001
1017850000 1.029983e+000 -1.656936e+001 2.028268e-003 7.887627e+001 3.666213e-003 6.182757e+001 1.061551e+000 -2.826200e+001
1018000000 1.030027e+000 -1.656916e+001 2.135633e-003 7.318174e+001 4.068768e-003 6.630625e+001 1.065230e+000 -2.833482e+001
1018150000 1.030652e+000 -1.655032e+001 2.063823e-003 7.423759e+001 3.362290e-003 6.023209e+001 1.061807e+000 -2.837835e+001
1018300000 1.029674e+000 -1.649767e+001 2.242981e-003 8.009830e+001 3.477740e-003 6.361655e+001 1.062082e+000 -2.829158e+001
1018450000 1.031186e+000 -1.656866e+001 1.856675e-003 7.334255e+001 3.713057e-003 6.639159e+001 1.063355e+000 -2.824094e+001
1018600000 1.032739e+000 -1.656078e+001 2.109844e-003 7.146120e+001 3.213625e-003 6.874398e+001 1.061093e+000 -2.815819e+001
1018750000 1.031322e+000 -1.657497e+001 1.760366e-003 7.537457e+001 3.970603e-003 6.615945e+001 1.063970e+000 -2.827857e+001
1018900000 1.032367e+000 -1.655744e+001 2.085421e-003 7.501102e+001 4.188056e-003 6.687022e+001 1.061802e+000 -2.820785e+001
1019050000 1.031418e+000 -1.651878e+001 2.323391e-003 8.057174e+001 4.009411e-003 6.374905e+001 1.065624e+000 -2.843115e+001
1019200000 1.031436e+000 -1.657793e+001 1.750816e-003 7.526749e+001 3.561606e-003 6.973697e+001 1.061553e+000 -2.829460e+001
1019350000 1.030226e+000 -1.668265e+001 2.011415e-003 6.679745e+001 4.056351e-003 7.217606e+001 1.061938e+000 -2.847521e+001
1019500000 1.031679e+000 -1.660846e+001 2.038530e-003 6.984966e+001 3.767165e-003 5.852520e+001 1.063460e+000 -2.832217e+001
1019650000 1.030197e+000 -1.662046e+001 2.268560e-003 7.586483e+001 3.522820e-003 6.045871e+001 1.061900e+000 -2.843941e+001
1019800000 1.032407e+000 -1.659872e+001 2.031376e-003 7.048717e+001 3.699263e-003 6.601581e+001 1.062519e+000 -2.843463e+001
1019950000 1.030441e+000 -1.661665e+001 1.923325e-003 7.136354e+001 3.787610e-003 6.378476e+001 1.061193e+000 -2.835563e+001
1020100000 1.031816e+000 -1.667714e+001 2.104343e-003 6.791091e+001 3.868430e-003 6.310214e+001 1.060578e+000 -2.837526e+001
1020250000 1.030974e+000 -1.658886e+001 2.105445e-003 7.316446e+001 3.634005e-003 5.881430e+001 1.062631e+000 -2.830905e+001
1020400000 1.031439e+000 -1.668774e+001 2.083549e-003 7.952336e+001 3.258044e-003 5.800807e+001 1.064456e+000 -2.839234e+001
1020550000 1.031208e+000 -1.668869e+001 2.132214e-003 7.309908e+001 4.089565e-003 6.150762e+001 1.068089e+000 -2.840337e+001
1020700000 1.031743e+000 -1.672399e+001 2.078027e-003 7.254341e+001 3.819190e-003 6.426978e+001 1.068308e+000 -2.832643e+001
1020850000 1.031458e+000 -1.669826e+001 2.122208e-003 7.374401e+001 3.668917e-003 5.858001e+001 1.068808e+000 -2.838120e+001
1021000000 1.029661e+000 -1.665968e+001 2.269031e-003 7.431391e+001 3.751160e-003 6.433770e+001 1.068243e+000 -2.842073e+001
1021150000 1.031678e+000 -1.664001e+001 2.056246e-003 8.152493e+001 3.642158e-003 5.915848e+001 1.067800e+000 -2.843293e+001
1021300000 1.030078e+000 -1.665137e+001 2.066302e-003 7.281821e+001 4.196979e-003 5.460347e+001 1.065686e+000 -2.833410e+001
1021450000 1.028763e+000 -1.654657e+001 2.121850e-003 7.097990e+001 4.125286e-003 6.234455e+001 1.065756e+000 -2.836901e+001
1021600000 1.028915e+000 -1.659333e+001 2.318098e-003 7.761757e+001 3.763745e-003 6.535709e+001 1.061483e+000 -2.838358e+001
1021750000 1.030757e+000 -1.659829e+001 2.002050e-003 7.364622e+001 3.506627e-003 7.028433e+001 1.062335e+000 -2.847052e+001
1021900000 1.029999e+000 -1.655224e+001 2.176585e-003 7.121757e+001 4.103931e-003 6.532920e+001 1.065502e+000 -2.841712e+001
1022050000 1.030583e+000 -1.660588e+001 1.959996e-003 8.601600e+001 4.015880e-003 6.506631e+001 1.065017e+000 -2.841473e+001
1022200000 1.030159e+000 -1.659390e+001 2.250034e-003 7.121581e+001 3.579112e-003 6.638067e+001 1.061302e+000 -2.851480e+001
1022350000 1.030713e+000 -1.661811e+001 2.117331e-003 7.539175e+001 4.019208e-003 6.925629e+001 1.064568e+000 -2.851168e+001
1022500000 1.030242e+000 -1.664977e+001 1.976278e-003 7.238654e+001 4.159994e-003 6.221735e+001 1.061901e+000 -2.840378e+001
1022650000 1.030908e+000 -1.664997e+001 1.989082e-003 7.342725e+001 3.854542e-003 6.047152e+001 1.064567e+000 -2.829009e+001
1022800000 1.031074e+000 -1.665081e+001 2.179929e-003 8.115071e+001 3.822482e-003 6.216773e+001 1.064056e+000 -2.841903e+001
1022950000 1.031784e+000 -1.669375e+001 1.937191e-003 6.961507e+001 3.650992e-003 6.940231e+001 1.064567e+000 -2.840746e+001
1023100000 1.032288e+000 -1.665551e+001 2.171305e-003 7.444359e+001 4.033604e-003 5.578193e+001 1.062855e+000 -2.852502e+001
1023250000 1.030254e+000 -1.670600e+001 2.166602e-003 8.370194e+001 3.713405e-003 6.145224e+001 1.063780e+000 -2.835243e+001
