!Agilent Technologies,N5230C,SG49000117,A.08.50.07
!Agilent N5230C: A.08.50.07
!Date: Monday, May 20, 2024 19:57:25
!Correction: S11(Full 2 Port(1,2)) 
!S21(Full 2 Port(1,2)) 
!S12(Full 2 Port(1,2)) 
!S22(Full 2 Port(1,2)) 
!S2P File: Measurements: S11, S21, S12, S22:
# Hz S  MA   R 50
1000000000 1.030684e+000 -1.768769e+001 1.867472e-003 7.672517e+001 3.538901e-003 6.428314e+001 1.063181e+000 -3.053486e+001
1000150000 1.030421e+000 -1.768980e+001 1.939010e-003 7.863362e+001 3.519939e-003 6.475072e+001 1.062556e+000 -3.051954e+001
1000300000 1.030574e+000 -1.768404e+001 1.881183e-003 7.730396e+001 3.444639e-003 6.496152e+001 1.062512e+000 -3.052719e+001
1000450000 1.030850e+000 -1.769682e+001 1.950119e-003 7.755798e+001 3.397382e-003 6.515040e+001 1.062322e+000 -3.053431e+001
1000600000 1.030710e+000 -1.768662e+001 1.955295e-003 7.887136e+001 3.466530e-003 6.464142e+001 1.062082e+000 -3.058486e+001
1000750000 1.030865e+000 -1.770219e+001 1.906951e-003 7.684066e+001 3.493267e-003 6.434836e+001 1.061988e+000 -3.059988e+001
1000900000 1.030611e+000 -1.770094e+001 1.954752e-003 7.716634e+001 3.533908e-003 6.467779e+001 1.062065e+000 -3.054806e+001
1001050000 1.030656e+000 -1.769679e+001 1.904567e-003 7.593994e+001 3.538370e-003 6.435209e+001 1.062358e+000 -3.055041e+001
1001200000 1.030195e+000 -1.768593e+001 1.949829e-003 7.752025e+001 3.547382e-003 6.478786e+001 1.062625e+000 -3.050529e+001
1001350000 1.029976e+000 -1.768504e+001 1.902531e-003 7.621332e+001 3.492590e-003 6.542336e+001 1.063026e+000 -3.048870e+001
1001500000 1.030025e+000 -1.768438e+001 2.000714e-003 7.566261e+001 3.472148e-003 6.307504e+001 1.063373e+000 -3.045393e+001
1001650000 1.029795e+000 -1.769573e+001 1.971846e-003 7.731315e+001 3.445600e-003 6.544675e+001 1.063031e+000 -3.049357e+001
1001800000 1.029196e+000 -1.771872e+001 1.917660e-003 7.706254e+001 3.557175e-003 6.515946e+001 1.062643e+000 -3.053352e+001
1001950000 1.029249e+000 -1.772152e+001 1.952408e-003 7.645188e+001 3.525337e-003 6.472930e+001 1.062366e+000 -3.056988e+001
1002100000 1.029235e+000 -1.774063e+001 1.941102e-003 7.557297e+001 3.551428e-003 6.512409e+001 1.062109e+000 -3.062051e+001
1002250000 1.029238e+000 -1.775412e+001 1.906085e-003 7.670387e+001 3.509262e-003 6.438890e+001 1.061975e+000 -3.063009e+001
1002400000 1.029510e+000 -1.774646e+001 1.921529e-003 7.755544e+001 3.583943e-003 6.299591e+001 1.062142e+000 -3.064194e+001
1002550000 1.030112e+000 -1.773532e+001 1.893990e-003 7.665720e+001 3.473595e-003 6.412302e+001 1.062305e+000 -3.064128e+001
1002700000 1.030321e+000 -1.773538e+001 1.933710e-003 7.713529e+001 3.507745e-003 6.449287e+001 1.062463e+000 -3.060036e+001
1002850000 1.030859e+000 -1.774519e+001 1.988136e-003 7.790488e+001 3.563890e-003 6.392027e+001 1.062506e+000 -3.058314e+001
1003000000 1.031154e+000 -1.776270e+001 1.945721e-003 7.603974e+001 3.559696e-003 6.587799e+001 1.062558e+000 -3.055311e+001
1003150000 1.031242e+000 -1.775259e+001 1.934181e-003 7.731049e+001 3.578019e-003 6.353568e+001 1.061971e+000 -3.055851e+001
1003300000 1.031683e+000 -1.774609e+001 1.961542e-003 7.732941e+001 3.610564e-003 6.538298e+001 1.061928e+000 -3.057977e+001
1003450000 1.031766e+000 -1.773071e+001 1.934214e-003 7.661811e+001 3.598659e-003 6.562260e+001 1.061036e+000 -3.059003e+001
1003600000 1.031664e+000 -1.772982e+001 1.948348e-003 7.719762e+001 3.553616e-003 6.463018e+001 1.061069e+000 -3.058639e+001
1003750000 1.031560e+000 -1.772785e+001 1.981891e-003 7.692001e+001 3.544331e-003 6.328114e+001 1.061075e+000 -3.060016e+001
1003900000 1.030989e+000 -1.771670e+001 1.998673e-003 7.785239e+001 3.531340e-003 6.408408e+001 1.061342e+000 -3.057683e+001
1004050000 1.030754e+000 -1.773318e+001 1.966651e-003 7.693053e+001 3.526542e-003 6.562624e+001 1.061778e+000 -3.059698e+001
1004200000 1.030183e+000 -1.774064e+001 1.951288e-003 7.786284e+001 3.513675e-003 6.503928e+001 1.061837e+000 -3.058408e+001
1004350000 1.029947e+000 -1.773813e+001 1.932297e-003 7.817282e+001 3.516606e-003 6.500720e+001 1.062054e+000 -3.056141e+001
1004500000 1.029695e+000 -1.775789e+001 1.936259e-003 7.738676e+001 3.510884e-003 6.364153e+001 1.062693e+000 -3.054460e+001
1004650000 1.029906e+000 -1.775287e+001 1.953681e-003 7.725230e+001 3.593755e-003 6.762979e+001 1.062224e+000 -3.060213e+001
1004800000 1.030431e+000 -1.775140e+001 1.961950e-003 7.829692e+001 3.535603e-003 6.381601e+001 1.062375e+000 -3.061040e+001
1004950000 1.030602e+000 -1.774153e+001 1.967897e-003 7.619255e+001 3.601815e-003 6.458939e+001 1.062631e+000 -3.060541e+001
1005100000 1.030808e+000 -1.773726e+001 1.944333e-003 7.707901e+001 3.543575e-003 6.429208e+001 1.062797e+000 -3.062367e+001
1005250000 1.030700e+000 -1.773134e+001 1.955087e-003 7.622766e+001 3.570360e-003 6.376686e+001 1.062912e+000 -3.062840e+001
1005400000 1.030852e+000 -1.774629e+001 2.009997e-003 7.824805e+001 3.528851e-003 6.440352e+001 1.062955e+000 -3.064533e+001
1005550000 1.030872e+000 -1.774716e+001 1.942033e-003 7.690662e+001 3.608320e-003 6.426626e+001 1.063351e+000 -3.067510e+001
1005700000 1.030822e+000 -1.775924e+001 1.917026e-003 7.729542e+001 3.661197e-003 6.377594e+001 1.063511e+000 -3.067227e+001
1005850000 1.031182e+000 -1.777111e+001 1.923342e-003 7.669981e+001 3.583251e-003 6.344052e+001 1.063978e+000 -3.071005e+001
1006000000 1.031042e+000 -1.777302e+001 1.995806e-003 7.802456e+001 3.611664e-003 6.395112e+001 1.064124e+000 -3.070613e+001
1006150000 1.031063e+000 -1.779701e+001 1.974434e-003 7.628416e+001 3.533925e-003 6.342240e+001 1.063839e+000 -3.068053e+001
1006300000 1.031142e+000 -1.779115e+001 1.925422e-003 7.705631e+001 3.611317e-003 6.427193e+001 1.063593e+000 -3.066332e+001
1006450000 1.031065e+000 -1.782346e+001 1.944290e-003 7.825585e+001 3.520360e-003 6.289900e+001 1.063607e+000 -3.063546e+001
1006600000 1.031474e+000 -1.783877e+001 1.960936e-003 7.658537e+001 3.495168e-003 6.520683e+001 1.063198e+000 -3.059410e+001
1006750000 1.031150e+000 -1.785898e+001 1.967687e-003 7.744994e+001 3.487346e-003 6.375624e+001 1.063257e+000 -3.056979e+001
1006900000 1.031484e+000 -1.784203e+001 1.945051e-003 7.564407e+001 3.524923e-003 6.539068e+001 1.063090e+000 -3.057804e+001
1007050000 1.031377e+000 -1.782746e+001 1.945798e-003 7.752475e+001 3.636796e-003 6.197702e+001 1.062666e+000 -3.061725e+001
1007200000 1.031406e+000 -1.782966e+001 1.963301e-003 7.650249e+001 3.585913e-003 6.310741e+001 1.062786e+000 -3.061763e+001
1007350000 1.031179e+000 -1.779635e+001 1.969749e-003 7.650882e+001 3.584832e-003 6.330415e+001 1.062874e+000 -3.063522e+001
1007500000 1.031267e+000 -1.779628e+001 1.945146e-003 7.753527e+001 3.599877e-003 6.348478e+001 1.062466e+000 -3.066383e+001
1007650000 1.030661e+000 -1.780943e+001 1.941448e-003 7.605103e+001 3.549992e-003 6.349140e+001 1.061749e+000 -3.072128e+001
1007800000 1.030142e+000 -1.782407e+001 1.903560e-003 7.701264e+001 3.567371e-003 6.293962e+001 1.062033e+000 -3.076046e+001
1007950000 1.030021e+000 -1.782847e+001 1.928857e-003 7.648835e+001 3.606087e-003 6.367228e+001 1.061678e+000 -3.080422e+001
1008100000 1.029872e+000 -1.784831e+001 1.978962e-003 7.523319e+001 3.616657e-003 6.431522e+001 1.061755e+000 -3.086306e+001
1008250000 1.029916e+000 -1.786032e+001 1.917860e-003 7.736571e+001 3.605038e-003 6.415061e+001 1.061758e+000 -3.082667e+001
1008400000 1.030331e+000 -1.785289e+001 1.932588e-003 7.603114e+001 3.610299e-003 6.305847e+001 1.062318e+000 -3.083152e+001
1008550000 1.030446e+000 -1.784443e+001 1.978931e-003 7.584219e+001 3.577938e-003 6.443682e+001 1.062108e+000 -3.081050e+001
1008700000 1.030943e+000 -1.782907e+001 1.982244e-003 7.658010e+001 3.594742e-003 6.460667e+001 1.062954e+000 -3.078192e+001
1008850000 1.031316e+000 -1.782961e+001 1.953803e-003 7.518385e+001 3.592448e-003 6.255246e+001 1.063125e+000 -3.075433e+001
1009000000 1.031360e+000 -1.780853e+001 2.011829e-003 7.546223e+001 3.583935e-003 6.423872e+001 1.063094e+000 -3.079082e+001
1009150000 1.031046e+000 -1.784196e+001 1.931706e-003 7.665260e+001 3.553804e-003 6.529347e+001 1.063216e+000 -3.079799e+001
1009300000 1.030948e+000 -1.781932e+001 1.956622e-003 7.552396e+001 3.547772e-003 6.341256e+001 1.063619e+000 -3.080901e+001
1009450000 1.030738e+000 -1.784299e+001 2.046776e-003 7.645966e+001 3.767117e-003 6.492174e+001 1.063592e+000 -3.081838e+001
1009600000 1.030416e+000 -1.784869e+001 1.929107e-003 7.553945e+001 3.584829e-003 6.210616e+001 1.063589e+000 -3.080452e+001
1009750000 1.030662e+000 -1.786694e+001 1.996896e-003 7.611705e+001 3.683879e-003 6.403680e+001 1.063615e+000 -3.082608e+001
1009900000 1.030467e+000 -1.788555e+001 2.000459e-003 7.595668e+001 3.642817e-003 6.247449e+001 1.063761e+000 -3.085523e+001
1010050000 1.030685e+000 -1.791998e+001 1.939485e-003 7.525712e+001 3.681626e-003 6.399302e+001 1.064004e+000 -3.082119e+001
1010200000 1.030439e+000 -1.792947e+001 1.977759e-003 7.728784e+001 3.668614e-003 6.266582e+001 1.063752e+000 -3.083755e+001
1010350000 1.030636e+000 -1.797042e+001 1.979430e-003 7.693232e+001 3.512557e-003 6.487821e+001 1.063904e+000 -3.085136e+001
1010500000 1.030571e+000 -1.799327e+001 1.984410e-003 7.718618e+001 3.629105e-003 6.186583e+001 1.063943e+000 -3.086385e+001
1010650000 1.030533e+000 -1.796597e+001 1.957376e-003 7.572134e+001 3.589269e-003 6.419839e+001 1.063023e+000 -3.083786e+001
1010800000 1.030404e+000 -1.795841e+001 1.955483e-003 7.649902e+001 3.627119e-003 6.433170e+001 1.062646e+000 -3.081129e+001
1010950000 1.030214e+000 -1.792172e+001 1.980644e-003 7.529372e+001 3.543502e-003 6.396407e+001 1.062164e+000 -3.077324e+001
1011100000 1.030540e+000 -1.789597e+001 2.009576e-003 7.763219e+001 3.582290e-003 6.423281e+001 1.061947e+000 -3.075308e+001
1011250000 1.030500e+000 -1.787205e+001 1.984327e-003 7.551579e+001 3.483413e-003 6.458656e+001 1.061525e+000 -3.069353e+001
1011400000 1.030540e+000 -1.787284e+001 1.977321e-003 7.608848e+001 3.564314e-003 6.157235e+001 1.061711e+000 -3.075704e+001
1011550000 1.030705e+000 -1.790751e+001 1.991584e-003 7.484457e+001 3.612665e-003 6.267781e+001 1.061442e+000 -3.081325e+001
1011700000 1.031013e+000 -1.792777e+001 1.956020e-003 7.609923e+001 3.557324e-003 6.281236e+001 1.061677e+000 -3.086294e+001
1011850000 1.030638e+000 -1.793474e+001 1.968087e-003 7.781193e+001 3.557064e-003 6.307221e+001 1.062189e+000 -3.086197e+001
1012000000 1.030655e+000 -1.796337e+001 1.969201e-003 7.702493e+001 3.645300e-003 6.346241e+001 1.062658e+000 -3.089321e+001
1012150000 1.030882e+000 -1.796372e+001 2.041583e-003 7.626689e+001 3.650947e-003 6.237414e+001 1.062864e+000 -3.083372e+001
1012300000 1.030535e+000 -1.794582e+001 1.966919e-003 7.692142e+001 3.615409e-003 6.416004e+001 1.063476e+000 -3.077329e+001
1012450000 1.030123e+000 -1.795485e+001 1.975595e-003 7.525866e+001 3.677650e-003 6.422227e+001 1.063788e+000 -3.074076e+001
1012600000 1.030336e+000 -1.793225e+001 1.968731e-003 7.482736e+001 3.578320e-003 6.382355e+001 1.064001e+000 -3.070104e+001
1012750000 1.030128e+000 -1.792527e+001 2.013733e-003 7.616006e+001 3.647601e-003 6.290179e+001 1.064838e+000 -3.066791e+001
1012900000 1.030317e+000 -1.794032e+001 2.003382e-003 7.536642e+001 3.606533e-003 6.268299e+001 1.063432e+000 -3.071574e+001
1013050000 1.029968e+000 -1.795229e+001 1.989636e-003 7.567136e+001 3.511280e-003 6.304441e+001 1.062632e+000 -3.075102e+001
1013200000 1.030019e+000 -1.797790e+001 1.991773e-003 7.522913e+001 3.606256e-003 6.321315e+001 1.062147e+000 -3.079173e+001
1013350000 1.029783e+000 -1.800256e+001 1.973002e-003 7.583807e+001 3.513741e-003 6.262848e+001 1.061671e+000 -3.082961e+001
1013500000 1.030122e+000 -1.801572e+001 1.995629e-003 7.620544e+001 3.720953e-003 6.273071e+001 1.061190e+000 -3.087709e+001
1013650000 1.030168e+000 -1.801245e+001 1.933167e-003 7.529850e+001 3.607874e-003 6.341943e+001 1.061385e+000 -3.086115e+001
1013800000 1.030177e+000 -1.801015e+001 1.990103e-003 7.553381e+001 3.623296e-003 6.283854e+001 1.061710e+000 -3.092883e+001
1013950000 1.030481e+000 -1.801316e+001 1.976280e-003 7.547162e+001 3.609197e-003 6.140417e+001 1.062002e+000 -3.091474e+001
1014100000 1.030489e+000 -1.801480e+001 1.991219e-003 7.481849e+001 3.692125e-003 6.307652e+001 1.062537e+000 -3.090636e+001
1014250000 1.030650e+000 -1.801744e+001 1.992957e-003 7.473199e+001 3.548942e-003 6.254565e+001 1.063173e+000 -3.091241e+001
1014400000 1.030878e+000 -1.802365e+001 1.968028e-003 7.396544e+001 3.637102e-003 6.469337e+001 1.063613e+000 -3.091018e+001
1014550000 1.031427e+000 -1.803291e+001 1.986171e-003 7.470795e+001 3.623258e-003 6.307962e+001 1.064227e+000 -3.089621e+001
1014700000 1.031647e+000 -1.803699e+001 1.991465e-003 7.624285e+001 3.634626e-003 6.188132e+001 1.064649e+000 -3.090385e+001
1014850000 1.031774e+000 -1.803342e+001 1.973391e-003 7.590616e+001 3.702663e-003 6.296052e+001 1.064740e+000 -3.089423e+001
1015000000 1.031661e+000 -1.803472e+001 1.987167e-003 7.615723e+001 3.560290e-003 6.376786e+001 1.064891e+000 -3.089430e+001
1015150000 1.031537e+000 -1.802779e+001 1.990442e-003 7.612775e+001 3.614906e-003 6.268235e+001 1.063635e+000 -3.087782e+001
1015300000 1.030888e+000 -1.804368e+001 1.988552e-003 7.600133e+001 3.604017e-003 6.342465e+001 1.063292e+000 -3.089985e+001
1015450000 1.030737e+000 -1.802897e+001 2.052536e-003 7.598505e+001 3.645190e-003 6.349668e+001 1.062167e+000 -3.095178e+001
1015600000 1.030471e+000 -1.804479e+001 2.004182e-003 7.620039e+001 3.687612e-003 6.243943e+001 1.061939e+000 -3.094543e+001
1015750000 1.030698e+000 -1.804810e+001 1.963883e-003 7.449189e+001 3.673190e-003 6.140096e+001 1.061209e+000 -3.093719e+001
1015900000 1.030741e+000 -1.804277e+001 1.927007e-003 7.615314e+001 3.622264e-003 6.172681e+001 1.060486e+000 -3.093359e+001
1016050000 1.030812e+000 -1.804073e+001 2.001419e-003 7.455722e+001 3.638122e-003 6.079847e+001 1.060798e+000 -3.094285e+001
1016200000 1.031304e+000 -1.802968e+001 1.946013e-003 7.580365e+001 3.652152e-003 6.218596e+001 1.060570e+000 -3.090668e+001
1016350000 1.031509e+000 -1.804358e+001 1.970410e-003 7.559789e+001 3.603941e-003 6.249286e+001 1.060707e+000 -3.090565e+001
1016500000 1.031734e+000 -1.802996e+001 1.995934e-003 7.531104e+001 3.618239e-003 6.171506e+001 1.060313e+000 -3.090789e+001
1016650000 1.032197e+000 -1.805439e+001 1.980634e-003 7.475941e+001 3.623651e-003 6.209242e+001 1.062060e+000 -3.090272e+001
1016800000 1.032410e+000 -1.805840e+001 1.953558e-003 7.501869e+001 3.645054e-003 6.239919e+001 1.063474e+000 -3.085929e+001
1016950000 1.032449e+000 -1.807887e+001 2.011380e-003 7.517124e+001 3.624843e-003 6.242434e+001 1.063951e+000 -3.086918e+001
1017100000 1.032501e+000 -1.808456e+001 1.982780e-003 7.597417e+001 3.600901e-003 6.226237e+001 1.064884e+000 -3.087924e+001
1017250000 1.032431e+000 -1.807201e+001 1.979145e-003 7.539984e+001 3.651842e-003 6.287418e+001 1.065431e+000 -3.085408e+001
1017400000 1.031906e+000 -1.810491e+001 2.060620e-003 7.499794e+001 3.625372e-003 6.228043e+001 1.065414e+000 -3.086307e+001
1017550000 1.031165e+000 -1.809099e+001 1.968808e-003 7.621175e+001 3.662289e-003 6.208558e+001 1.064605e+000 -3.089318e+001
1017700000 1.030749e+000 -1.810540e+001 2.002474e-003 7.592670e+001 3.663908e-003 6.172819e+001 1.064078e+000 -3.090053e+001
1017850000 1.030498e+000 -1.809572e+001 1.955676e-003 7.428240e+001 3.691737e-003 6.154082e+001 1.064227e+000 -3.094739e+001
1018000000 1.030124e+000 -1.811302e+001 1.935650e-003 7.521511e+001 3.607314e-003 6.266871e+001 1.063957e+000 -3.094984e+001
1018150000 1.030377e+000 -1.811695e+001 1.977099e-003 7.600861e+001 3.715604e-003 6.366061e+001 1.063804e+000 -3.096428e+001
1018300000 1.030761e+000 -1.811158e+001 1.970328e-003 7.491101e+001 3.659717e-003 6.138443e+001 1.063431e+000 -3.096381e+001
1018450000 1.030873e+000 -1.810688e+001 2.026867e-003 7.559754e+001 3.565311e-003 6.200931e+001 1.063059e+000 -3.096375e+001
1018600000 1.031385e+000 -1.810578e+001 2.011796e-003 7.418731e+001 3.645996e-003 6.259961e+001 1.062878e+000 -3.096221e+001
1018750000 1.031097e+000 -1.810640e+001 2.000103e-003 7.603989e+001 3.770665e-003 6.155745e+001 1.063387e+000 -3.095173e+001
1018900000 1.031269e+000 -1.810942e+001 2.000679e-003 7.406065e+001 3.720237e-003 6.315342e+001 1.063479e+000 -3.096418e+001
1019050000 1.031186e+000 -1.812064e+001 2.002546e-003 7.406561e+001 3.689348e-003 6.240560e+001 1.064473e+000 -3.101225e+001
1019200000 1.030960e+000 -1.813129e+001 1.962767e-003 7.566887e+001 3.581680e-003 6.196892e+001 1.064157e+000 -3.102959e+001
1019350000 1.030926e+000 -1.814325e+001 2.009606e-003 7.516029e+001 3.708101e-003 6.311696e+001 1.064421e+000 -3.103686e+001
1019500000 1.030933e+000 -1.817211e+001 2.026515e-003 7.518365e+001 3.655524e-003 6.272371e+001 1.064945e+000 -3.105247e+001
1019650000 1.030920e+000 -1.819304e+001 1.984025e-003 7.469064e+001 3.596393e-003 6.316003e+001 1.063591e+000 -3.105672e+001
1019800000 1.030899e+000 -1.819097e+001 1.940686e-003 7.569753e+001 3.584608e-003 6.163456e+001 1.062749e+000 -3.106916e+001
1019950000 1.030961e+000 -1.819844e+001 2.012022e-003 7.483846e+001 3.661898e-003 6.215911e+001 1.061765e+000 -3.108260e+001
1020100000 1.030914e+000 -1.819719e+001 1.999700e-003 7.396252e+001 3.581597e-003 6.345235e+001 1.061521e+000 -3.106919e+001
1020250000 1.031030e+000 -1.819501e+001 1.986571e-003 7.476841e+001 3.536742e-003 6.068734e+001 1.061505e+000 -3.108679e+001
1020400000 1.031015e+000 -1.820373e+001 1.977976e-003 7.648761e+001 3.671267e-003 6.210178e+001 1.063866e+000 -3.111312e+001
1020550000 1.031137e+000 -1.822192e+001 2.000582e-003 7.497849e+001 3.633438e-003 6.157759e+001 1.065150e+000 -3.110173e+001
1020700000 1.031267e+000 -1.821210e+001 2.023722e-003 7.321755e+001 3.666882e-003 6.033370e+001 1.067134e+000 -3.109021e+001
1020850000 1.031188e+000 -1.821188e+001 1.991935e-003 7.558633e+001 3.715856e-003 6.204771e+001 1.067736e+000 -3.107836e+001
1021000000 1.030862e+000 -1.822033e+001 2.021416e-003 7.451487e+001 3.670860e-003 6.094221e+001 1.068924e+000 -3.107363e+001
1021150000 1.030416e+000 -1.818855e+001 2.034744e-003 7.396719e+001 3.646832e-003 6.223961e+001 1.067348e+000 -3.108873e+001
1021300000 1.029969e+000 -1.817312e+001 1.981026e-003 7.459135e+001 3.623238e-003 6.148703e+001 1.065596e+000 -3.107449e+001
1021450000 1.029776e+000 -1.816372e+001 1.988396e-003 7.579622e+001 3.637409e-003 6.250828e+001 1.064227e+000 -3.110204e+001
1021600000 1.029297e+000 -1.815454e+001 2.020657e-003 7.609646e+001 3.573488e-003 6.099984e+001 1.063361e+000 -3.112715e+001
1021750000 1.029162e+000 -1.813974e+001 1.927950e-003 7.402670e+001 3.732219e-003 6.256790e+001 1.062029e+000 -3.115593e+001
1021900000 1.029443e+000 -1.814357e+001 2.019450e-003 7.376378e+001 3.680594e-003 6.205942e+001 1.063085e+000 -3.112776e+001
1022050000 1.030134e+000 -1.815142e+001 1.987216e-003 7.512278e+001 3.586809e-003 6.048645e+001 1.063238e+000 -3.113456e+001
1022200000 1.030557e+000 -1.817937e+001 2.016304e-003 7.542516e+001 3.619439e-003 6.143525e+001 1.064117e+000 -3.111056e+001
1022350000 1.030812e+000 -1.819561e+001 2.013966e-003 7.469201e+001 3.762124e-003 6.147783e+001 1.063979e+000 -3.109629e+001
1022500000 1.031282e+000 -1.817417e+001 1.983143e-003 7.428103e+001 3.655358e-003 6.246850e+001 1.064467e+000 -3.108601e+001
1022650000 1.031384e+000 -1.820132e+001 2.005332e-003 7.446217e+001 3.578447e-003 6.203707e+001 1.063932e+000 -3.107666e+001
1022800000 1.031313e+000 -1.820001e+001 1.961480e-003 7.592406e+001 3.588886e-003 6.047746e+001 1.063854e+000 -3.106779e+001
1022950000 1.031562e+000 -1.821389e+001 1.976870e-003 7.415650e+001 3.698186e-003 6.322035e+001 1.064046e+000 -3.107996e+001
1023100000 1.031156e+000 -1.821763e+001 2.003873e-003 7.575140e+001 3.612206e-003 6.239676e+001 1.063757e+000 -3.106604e+001
1023250000 1.031235e+000 -1.821723e+001 2.028929e-003 7.476588e+001 3.651008e-003 6.222216e+001 1.063690e+000 -3.108554e+001
