!Agilent Technologies,N5230C,SG49000117,A.08.50.07
!Agilent N5230C: A.08.50.07
!Date: Monday, May 20, 2024 19:51:53
!Correction: S11(Full 2 Port(1,2)) 
!S21(Full 2 Port(1,2)) 
!S12(Full 2 Port(1,2)) 
!S22(Full 2 Port(1,2)) 
!S2P File: Measurements: S11, S21, S12, S22:
# Hz S  MA   R 50
1000000000 1.030762e+000 -1.912852e+001 2.223555e-003 7.582629e+001 3.982465e-003 6.301566e+001 1.063744e+000 -3.292763e+001
1000150000 1.030777e+000 -1.911915e+001 2.241964e-003 7.695024e+001 4.056630e-003 6.250788e+001 1.063572e+000 -3.293377e+001
1000300000 1.030974e+000 -1.912268e+001 2.240251e-003 7.607553e+001 4.020907e-003 6.327500e+001 1.063347e+000 -3.294601e+001
1000450000 1.030853e+000 -1.912970e+001 2.231270e-003 7.564507e+001 3.981352e-003 6.289806e+001 1.063336e+000 -3.295961e+001
1000600000 1.030898e+000 -1.912632e+001 2.198940e-003 7.659309e+001 4.081296e-003 6.355918e+001 1.062721e+000 -3.296138e+001
1000750000 1.031008e+000 -1.913647e+001 2.245313e-003 7.723958e+001 3.940049e-003 6.292876e+001 1.062445e+000 -3.298639e+001
1000900000 1.030689e+000 -1.912913e+001 2.214393e-003 7.614699e+001 4.088158e-003 6.210758e+001 1.063172e+000 -3.296185e+001
1001050000 1.030766e+000 -1.912932e+001 2.239333e-003 7.601225e+001 3.963237e-003 6.240955e+001 1.063285e+000 -3.293028e+001
1001200000 1.030623e+000 -1.911533e+001 2.244860e-003 7.579191e+001 4.046868e-003 6.251162e+001 1.063629e+000 -3.292516e+001
1001350000 1.030128e+000 -1.912080e+001 2.251864e-003 7.665632e+001 4.033476e-003 6.338053e+001 1.064325e+000 -3.288452e+001
1001500000 1.030046e+000 -1.912489e+001 2.269921e-003 7.512941e+001 3.982038e-003 6.322559e+001 1.064098e+000 -3.286176e+001
1001650000 1.029772e+000 -1.911583e+001 2.222651e-003 7.759405e+001 3.925076e-003 6.406570e+001 1.063793e+000 -3.289650e+001
1001800000 1.029331e+000 -1.915852e+001 2.252838e-003 7.548917e+001 4.033451e-003 6.249945e+001 1.063452e+000 -3.292720e+001
1001950000 1.029487e+000 -1.917721e+001 2.258596e-003 7.623706e+001 4.050663e-003 6.223846e+001 1.063190e+000 -3.298902e+001
1002100000 1.029313e+000 -1.918235e+001 2.182199e-003 7.571379e+001 3.977311e-003 6.186709e+001 1.062811e+000 -3.301469e+001
1002250000 1.029344e+000 -1.918913e+001 2.204165e-003 7.733228e+001 4.149535e-003 6.219188e+001 1.062618e+000 -3.303084e+001
1002400000 1.029791e+000 -1.919119e+001 2.239831e-003 7.548224e+001 3.994563e-003 6.259966e+001 1.062805e+000 -3.302798e+001
1002550000 1.030304e+000 -1.916730e+001 2.260457e-003 7.531771e+001 3.920459e-003 6.197887e+001 1.063323e+000 -3.302246e+001
1002700000 1.030638e+000 -1.918513e+001 2.222738e-003 7.566492e+001 4.070888e-003 6.229963e+001 1.063321e+000 -3.300748e+001
1002850000 1.031175e+000 -1.917937e+001 2.192200e-003 7.699916e+001 4.098711e-003 6.307984e+001 1.063569e+000 -3.298484e+001
1003000000 1.031376e+000 -1.919487e+001 2.171702e-003 7.703008e+001 4.129241e-003 6.340237e+001 1.063858e+000 -3.295311e+001
1003150000 1.031601e+000 -1.917906e+001 2.251344e-003 7.601041e+001 4.102264e-003 6.262431e+001 1.063342e+000 -3.297525e+001
1003300000 1.031746e+000 -1.917410e+001 2.298951e-003 7.694157e+001 3.985115e-003 6.189925e+001 1.062498e+000 -3.298901e+001
1003450000 1.031810e+000 -1.917414e+001 2.242324e-003 7.711464e+001 4.088547e-003 6.232162e+001 1.062333e+000 -3.298701e+001
1003600000 1.031762e+000 -1.916908e+001 2.248673e-003 7.558366e+001 4.067514e-003 6.301134e+001 1.061884e+000 -3.298019e+001
1003750000 1.031921e+000 -1.914927e+001 2.218524e-003 7.589719e+001 4.113218e-003 6.293902e+001 1.062182e+000 -3.299118e+001
1003900000 1.031326e+000 -1.916497e+001 2.231901e-003 7.691074e+001 4.103859e-003 6.175617e+001 1.062062e+000 -3.299958e+001
1004050000 1.030858e+000 -1.916774e+001 2.229890e-003 7.637350e+001 4.070869e-003 6.238058e+001 1.062122e+000 -3.298844e+001
1004200000 1.030417e+000 -1.917381e+001 2.270262e-003 7.662954e+001 4.037858e-003 6.286476e+001 1.062492e+000 -3.296905e+001
1004350000 1.030013e+000 -1.917191e+001 2.265994e-003 7.595394e+001 4.026388e-003 6.101456e+001 1.063120e+000 -3.298329e+001
1004500000 1.030119e+000 -1.919314e+001 2.285743e-003 7.698708e+001 4.039081e-003 6.199703e+001 1.063230e+000 -3.296733e+001
1004650000 1.030174e+000 -1.918250e+001 2.290175e-003 7.574923e+001 4.023200e-003 6.145665e+001 1.063187e+000 -3.300221e+001
1004800000 1.030521e+000 -1.918798e+001 2.236830e-003 7.562671e+001 4.138013e-003 6.255708e+001 1.063228e+000 -3.299331e+001
1004950000 1.030712e+000 -1.918844e+001 2.260287e-003 7.730064e+001 4.102615e-003 6.243203e+001 1.063411e+000 -3.301404e+001
1005100000 1.030757e+000 -1.916750e+001 2.198191e-003 7.644843e+001 4.061948e-003 6.221647e+001 1.063831e+000 -3.303918e+001
1005250000 1.031084e+000 -1.918911e+001 2.249680e-003 7.666660e+001 4.037453e-003 6.264876e+001 1.063905e+000 -3.302174e+001
1005400000 1.031282e+000 -1.919041e+001 2.296336e-003 7.593216e+001 4.093651e-003 6.188372e+001 1.063902e+000 -3.307016e+001
1005550000 1.031001e+000 -1.920342e+001 2.265498e-003 7.666434e+001 4.087386e-003 6.188902e+001 1.063910e+000 -3.306397e+001
1005700000 1.031133e+000 -1.919527e+001 2.274127e-003 7.686404e+001 4.071096e-003 6.220165e+001 1.064415e+000 -3.310581e+001
1005850000 1.031264e+000 -1.921890e+001 2.221335e-003 7.501729e+001 4.116770e-003 6.298372e+001 1.064669e+000 -3.311884e+001
1006000000 1.031108e+000 -1.922305e+001 2.223464e-003 7.591032e+001 4.045371e-003 6.124977e+001 1.064751e+000 -3.310962e+001
1006150000 1.031303e+000 -1.923312e+001 2.224879e-003 7.603578e+001 4.019129e-003 6.176820e+001 1.064809e+000 -3.310035e+001
1006300000 1.031177e+000 -1.924273e+001 2.295829e-003 7.469335e+001 4.082746e-003 6.160691e+001 1.064376e+000 -3.306997e+001
1006450000 1.031318e+000 -1.926393e+001 2.273337e-003 7.615535e+001 4.063119e-003 6.332962e+001 1.064286e+000 -3.303542e+001
1006600000 1.031633e+000 -1.927939e+001 2.311796e-003 7.625236e+001 4.163377e-003 6.240129e+001 1.064185e+000 -3.300205e+001
1006750000 1.031394e+000 -1.930333e+001 2.260010e-003 7.473713e+001 4.130985e-003 6.184857e+001 1.064161e+000 -3.297589e+001
1006900000 1.031346e+000 -1.930008e+001 2.293171e-003 7.519836e+001 4.116803e-003 6.157597e+001 1.064040e+000 -3.299594e+001
1007050000 1.031567e+000 -1.927842e+001 2.293455e-003 7.466570e+001 4.060269e-003 6.235577e+001 1.063707e+000 -3.299731e+001
1007200000 1.031279e+000 -1.924883e+001 2.270527e-003 7.593252e+001 4.047222e-003 6.230713e+001 1.063585e+000 -3.303410e+001
1007350000 1.031395e+000 -1.927146e+001 2.226655e-003 7.566368e+001 4.074445e-003 6.176569e+001 1.063421e+000 -3.303767e+001
1007500000 1.031192e+000 -1.924433e+001 2.258498e-003 7.589104e+001 4.139971e-003 6.286835e+001 1.063261e+000 -3.307123e+001
1007650000 1.030860e+000 -1.926592e+001 2.288292e-003 7.447746e+001 4.031431e-003 6.137976e+001 1.063306e+000 -3.311876e+001
1007800000 1.030659e+000 -1.926525e+001 2.258819e-003 7.765430e+001 4.136195e-003 6.186990e+001 1.063301e+000 -3.316877e+001
1007950000 1.030129e+000 -1.928637e+001 2.245317e-003 7.467104e+001 4.067996e-003 6.056927e+001 1.062872e+000 -3.320217e+001
1008100000 1.029970e+000 -1.929044e+001 2.276258e-003 7.539668e+001 4.059183e-003 6.061230e+001 1.062600e+000 -3.322738e+001
1008250000 1.030057e+000 -1.930291e+001 2.291661e-003 7.487601e+001 4.127047e-003 6.134090e+001 1.062551e+000 -3.326171e+001
1008400000 1.030276e+000 -1.929133e+001 2.281382e-003 7.627265e+001 4.110675e-003 6.015006e+001 1.062984e+000 -3.323634e+001
1008550000 1.030856e+000 -1.929129e+001 2.248676e-003 7.640117e+001 4.207986e-003 6.207676e+001 1.062885e+000 -3.322557e+001
1008700000 1.031139e+000 -1.926734e+001 2.249012e-003 7.516364e+001 4.106530e-003 6.235005e+001 1.063460e+000 -3.320371e+001
1008850000 1.031381e+000 -1.927028e+001 2.321404e-003 7.495829e+001 4.158689e-003 6.086607e+001 1.064182e+000 -3.317849e+001
1009000000 1.031529e+000 -1.925017e+001 2.376065e-003 7.561074e+001 4.093936e-003 6.112283e+001 1.064305e+000 -3.319159e+001
1009150000 1.031229e+000 -1.926385e+001 2.267419e-003 7.582751e+001 4.133408e-003 6.164637e+001 1.064415e+000 -3.319379e+001
1009300000 1.031161e+000 -1.926753e+001 2.262470e-003 7.574185e+001 3.995897e-003 6.175796e+001 1.064055e+000 -3.320962e+001
1009450000 1.030903e+000 -1.928376e+001 2.302105e-003 7.578238e+001 4.100353e-003 6.035288e+001 1.064259e+000 -3.323224e+001
1009600000 1.030700e+000 -1.928674e+001 2.278976e-003 7.631316e+001 4.049441e-003 6.155289e+001 1.064267e+000 -3.323713e+001
1009750000 1.030567e+000 -1.931162e+001 2.241689e-003 7.539505e+001 4.132910e-003 6.220832e+001 1.064667e+000 -3.320375e+001
1009900000 1.030758e+000 -1.932891e+001 2.292517e-003 7.456473e+001 4.130596e-003 6.174518e+001 1.064350e+000 -3.323474e+001
1010050000 1.030723e+000 -1.935578e+001 2.289025e-003 7.597564e+001 4.130873e-003 6.124491e+001 1.064781e+000 -3.322507e+001
1010200000 1.030705e+000 -1.938347e+001 2.315705e-003 7.476563e+001 4.060638e-003 6.013825e+001 1.064933e+000 -3.327828e+001
1010350000 1.030617e+000 -1.941514e+001 2.304356e-003 7.500323e+001 4.143877e-003 5.971191e+001 1.064920e+000 -3.324868e+001
1010500000 1.030687e+000 -1.943400e+001 2.226648e-003 7.612251e+001 4.179642e-003 6.067105e+001 1.064893e+000 -3.327939e+001
1010650000 1.030722e+000 -1.942746e+001 2.331361e-003 7.437631e+001 4.076160e-003 5.995292e+001 1.064415e+000 -3.326512e+001
1010800000 1.030582e+000 -1.940569e+001 2.299042e-003 7.593685e+001 4.114896e-003 6.009021e+001 1.063932e+000 -3.321571e+001
1010950000 1.030443e+000 -1.938203e+001 2.258554e-003 7.607338e+001 4.183280e-003 6.168680e+001 1.063282e+000 -3.319550e+001
1011100000 1.030728e+000 -1.934463e+001 2.306657e-003 7.647882e+001 4.066550e-003 6.120253e+001 1.062835e+000 -3.316153e+001
1011250000 1.030765e+000 -1.931300e+001 2.294224e-003 7.474446e+001 4.016953e-003 6.291208e+001 1.062342e+000 -3.314595e+001
1011400000 1.030834e+000 -1.933674e+001 2.308036e-003 7.443599e+001 4.211262e-003 6.135659e+001 1.062638e+000 -3.315909e+001
1011550000 1.031045e+000 -1.935408e+001 2.284579e-003 7.535365e+001 4.169863e-003 6.067479e+001 1.062309e+000 -3.321537e+001
1011700000 1.031054e+000 -1.936865e+001 2.251575e-003 7.601238e+001 4.130410e-003 6.091254e+001 1.062691e+000 -3.326579e+001
1011850000 1.031283e+000 -1.938712e+001 2.292512e-003 7.501839e+001 4.057386e-003 6.017889e+001 1.062840e+000 -3.329028e+001
1012000000 1.030961e+000 -1.940887e+001 2.250445e-003 7.371102e+001 4.089328e-003 6.024294e+001 1.063209e+000 -3.329000e+001
1012150000 1.031027e+000 -1.940667e+001 2.337854e-003 7.565755e+001 4.019187e-003 6.261656e+001 1.063576e+000 -3.325070e+001
1012300000 1.030638e+000 -1.938260e+001 2.299138e-003 7.544123e+001 4.198665e-003 6.073281e+001 1.064128e+000 -3.322250e+001
1012450000 1.030800e+000 -1.939376e+001 2.266745e-003 7.576801e+001 4.142365e-003 6.172677e+001 1.064608e+000 -3.315454e+001
1012600000 1.030238e+000 -1.938692e+001 2.273985e-003 7.560012e+001 4.202542e-003 6.113903e+001 1.065252e+000 -3.313448e+001
1012750000 1.030387e+000 -1.937651e+001 2.291953e-003 7.435861e+001 4.166649e-003 6.213684e+001 1.065269e+000 -3.309201e+001
1012900000 1.030486e+000 -1.938960e+001 2.279488e-003 7.394586e+001 4.090017e-003 6.155812e+001 1.064617e+000 -3.312850e+001
1013050000 1.030178e+000 -1.940717e+001 2.276540e-003 7.382669e+001 4.166051e-003 5.998246e+001 1.063567e+000 -3.318121e+001
1013200000 1.030028e+000 -1.943826e+001 2.251260e-003 7.582870e+001 4.099405e-003 6.056023e+001 1.062806e+000 -3.320450e+001
1013350000 1.030111e+000 -1.945255e+001 2.276207e-003 7.565192e+001 4.083546e-003 5.995251e+001 1.062220e+000 -3.326667e+001
1013500000 1.030044e+000 -1.946150e+001 2.253579e-003 7.498138e+001 4.102507e-003 6.026788e+001 1.062478e+000 -3.327492e+001
1013650000 1.030052e+000 -1.946997e+001 2.262268e-003 7.487443e+001 4.090368e-003 5.935823e+001 1.062447e+000 -3.330687e+001
1013800000 1.030442e+000 -1.945917e+001 2.263720e-003 7.492778e+001 4.172091e-003 6.126413e+001 1.063161e+000 -3.333734e+001
1013950000 1.030679e+000 -1.946594e+001 2.287591e-003 7.459957e+001 4.199692e-003 6.090808e+001 1.063238e+000 -3.332240e+001
1014100000 1.030950e+000 -1.946669e+001 2.321040e-003 7.335432e+001 4.139917e-003 6.131947e+001 1.063337e+000 -3.335648e+001
1014250000 1.030952e+000 -1.947291e+001 2.234482e-003 7.528152e+001 4.242306e-003 6.060777e+001 1.063984e+000 -3.332510e+001
1014400000 1.031117e+000 -1.947567e+001 2.298408e-003 7.404456e+001 4.145844e-003 6.036000e+001 1.064434e+000 -3.330823e+001
1014550000 1.031537e+000 -1.948978e+001 2.289943e-003 7.486851e+001 4.111712e-003 5.989144e+001 1.065184e+000 -3.332389e+001
1014700000 1.031859e+000 -1.948549e+001 2.303199e-003 7.379316e+001 4.066022e-003 6.096856e+001 1.065392e+000 -3.330154e+001
1014850000 1.032092e+000 -1.948560e+001 2.295899e-003 7.407568e+001 4.011217e-003 6.134192e+001 1.065563e+000 -3.330291e+001
1015000000 1.032034e+000 -1.950482e+001 2.303749e-003 7.563008e+001 4.242109e-003 5.974654e+001 1.066002e+000 -3.331571e+001
1015150000 1.031755e+000 -1.950585e+001 2.226316e-003 7.442843e+001 4.109886e-003 6.142434e+001 1.064835e+000 -3.332147e+001
1015300000 1.031329e+000 -1.949085e+001 2.289307e-003 7.409171e+001 4.014905e-003 6.141052e+001 1.063931e+000 -3.333986e+001
1015450000 1.031025e+000 -1.950329e+001 2.295435e-003 7.493681e+001 4.085461e-003 6.245246e+001 1.063014e+000 -3.336230e+001
1015600000 1.030728e+000 -1.949614e+001 2.307520e-003 7.312060e+001 4.180790e-003 6.117389e+001 1.062501e+000 -3.338063e+001
1015750000 1.030505e+000 -1.950553e+001 2.314404e-003 7.555244e+001 4.166846e-003 5.990635e+001 1.062085e+000 -3.338421e+001
1015900000 1.030614e+000 -1.949103e+001 2.311334e-003 7.517970e+001 4.208413e-003 6.082964e+001 1.062049e+000 -3.338206e+001
1016050000 1.031282e+000 -1.949623e+001 2.262964e-003 7.477200e+001 4.112537e-003 6.105653e+001 1.061718e+000 -3.335234e+001
1016200000 1.031571e+000 -1.950387e+001 2.270333e-003 7.456602e+001 4.103285e-003 6.040756e+001 1.061444e+000 -3.335081e+001
1016350000 1.031709e+000 -1.949804e+001 2.318620e-003 7.432534e+001 4.137730e-003 6.095152e+001 1.061838e+000 -3.333207e+001
1016500000 1.032051e+000 -1.950270e+001 2.259744e-003 7.421349e+001 4.127000e-003 6.064394e+001 1.062027e+000 -3.331488e+001
1016650000 1.032349e+000 -1.951517e+001 2.341873e-003 7.443953e+001 4.208805e-003 6.095937e+001 1.062895e+000 -3.331227e+001
1016800000 1.032779e+000 -1.951439e+001 2.224674e-003 7.470846e+001 4.195626e-003 6.052104e+001 1.064471e+000 -3.330388e+001
1016950000 1.032823e+000 -1.952947e+001 2.264972e-003 7.391531e+001 4.193383e-003 6.125153e+001 1.065130e+000 -3.330333e+001
1017100000 1.032623e+000 -1.952687e+001 2.327210e-003 7.369449e+001 4.206012e-003 6.084185e+001 1.065775e+000 -3.331592e+001
1017250000 1.032372e+000 -1.953335e+001 2.282784e-003 7.422141e+001 4.078370e-003 5.987309e+001 1.066369e+000 -3.328555e+001
1017400000 1.031712e+000 -1.954377e+001 2.299411e-003 7.509845e+001 4.213993e-003 6.071719e+001 1.066001e+000 -3.331544e+001
1017550000 1.031375e+000 -1.955626e+001 2.302613e-003 7.367030e+001 4.132348e-003 6.181081e+001 1.065405e+000 -3.333305e+001
1017700000 1.030996e+000 -1.955874e+001 2.266652e-003 7.507553e+001 4.188424e-003 5.964386e+001 1.064882e+000 -3.336039e+001
1017850000 1.030538e+000 -1.956026e+001 2.253786e-003 7.464165e+001 4.077402e-003 6.117075e+001 1.064770e+000 -3.332607e+001
1018000000 1.030311e+000 -1.958779e+001 2.241191e-003 7.481302e+001 4.213364e-003 6.230296e+001 1.064733e+000 -3.335240e+001
1018150000 1.030684e+000 -1.958030e+001 2.294659e-003 7.446685e+001 4.110782e-003 6.079734e+001 1.064048e+000 -3.337772e+001
1018300000 1.030826e+000 -1.958282e+001 2.293952e-003 7.361117e+001 4.170759e-003 6.094917e+001 1.064161e+000 -3.339955e+001
1018450000 1.031190e+000 -1.956500e+001 2.259037e-003 7.497617e+001 4.206052e-003 6.016417e+001 1.064063e+000 -3.339585e+001
1018600000 1.031542e+000 -1.957074e+001 2.262847e-003 7.436411e+001 4.173840e-003 5.970979e+001 1.064425e+000 -3.339666e+001
1018750000 1.031462e+000 -1.956565e+001 2.297123e-003 7.497801e+001 4.113842e-003 6.127608e+001 1.063966e+000 -3.337811e+001
1018900000 1.031595e+000 -1.957137e+001 2.290025e-003 7.356808e+001 4.143752e-003 5.897861e+001 1.064427e+000 -3.338644e+001
1019050000 1.031423e+000 -1.958232e+001 2.294410e-003 7.316135e+001 4.250446e-003 6.103711e+001 1.064679e+000 -3.345622e+001
1019200000 1.031164e+000 -1.959822e+001 2.308895e-003 7.420913e+001 4.186997e-003 5.953759e+001 1.065115e+000 -3.345911e+001
1019350000 1.030913e+000 -1.961914e+001 2.314122e-003 7.435590e+001 4.084927e-003 5.981820e+001 1.065159e+000 -3.348070e+001
1019500000 1.031247e+000 -1.962325e+001 2.322280e-003 7.474078e+001 4.313554e-003 5.914213e+001 1.065179e+000 -3.352832e+001
1019650000 1.031160e+000 -1.963661e+001 2.289871e-003 7.416298e+001 4.176175e-003 6.029889e+001 1.064656e+000 -3.349223e+001
1019800000 1.030867e+000 -1.964777e+001 2.286698e-003 7.374049e+001 4.194898e-003 6.065351e+001 1.063517e+000 -3.350194e+001
1019950000 1.030932e+000 -1.965785e+001 2.314884e-003 7.421587e+001 4.245306e-003 5.949266e+001 1.062983e+000 -3.349521e+001
1020100000 1.031181e+000 -1.965977e+001 2.288770e-003 7.365493e+001 4.132084e-003 5.946980e+001 1.062641e+000 -3.351711e+001
1020250000 1.031171e+000 -1.966097e+001 2.316330e-003 7.353758e+001 4.152716e-003 5.973150e+001 1.062890e+000 -3.351473e+001
1020400000 1.031263e+000 -1.965966e+001 2.307010e-003 7.326559e+001 4.161608e-003 5.987955e+001 1.064401e+000 -3.352752e+001
1020550000 1.031455e+000 -1.968313e+001 2.272454e-003 7.437337e+001 4.203828e-003 6.090622e+001 1.066602e+000 -3.351027e+001
1020700000 1.031661e+000 -1.966779e+001 2.274995e-003 7.434485e+001 4.151683e-003 6.030159e+001 1.068130e+000 -3.351020e+001
1020850000 1.031355e+000 -1.966690e+001 2.279060e-003 7.367706e+001 4.230877e-003 6.012626e+001 1.068357e+000 -3.352226e+001
1021000000 1.031211e+000 -1.967519e+001 2.328484e-003 7.300166e+001 4.074378e-003 6.166758e+001 1.069732e+000 -3.353445e+001
1021150000 1.030665e+000 -1.966696e+001 2.341212e-003 7.390905e+001 4.247273e-003 6.020961e+001 1.068286e+000 -3.350375e+001
1021300000 1.030292e+000 -1.963255e+001 2.341682e-003 7.342551e+001 4.224340e-003 5.991191e+001 1.066653e+000 -3.352314e+001
1021450000 1.029661e+000 -1.960809e+001 2.295483e-003 7.441041e+001 4.243620e-003 6.007046e+001 1.064810e+000 -3.353065e+001
1021600000 1.029730e+000 -1.960732e+001 2.334370e-003 7.319386e+001 4.143476e-003 5.836966e+001 1.064378e+000 -3.353867e+001
1021750000 1.029680e+000 -1.960146e+001 2.271772e-003 7.441810e+001 4.159098e-003 6.035598e+001 1.063390e+000 -3.356237e+001
1021900000 1.029932e+000 -1.961582e+001 2.326087e-003 7.425612e+001 4.181087e-003 5.886987e+001 1.063367e+000 -3.357658e+001
1022050000 1.030347e+000 -1.963527e+001 2.332949e-003 7.281541e+001 4.197990e-003 6.121584e+001 1.064376e+000 -3.356587e+001
1022200000 1.030679e+000 -1.964827e+001 2.289105e-003 7.445076e+001 4.172817e-003 6.055049e+001 1.064731e+000 -3.356391e+001
1022350000 1.031323e+000 -1.965239e+001 2.356537e-003 7.384000e+001 4.199670e-003 6.014730e+001 1.064817e+000 -3.354474e+001
1022500000 1.031453e+000 -1.965931e+001 2.327011e-003 7.424389e+001 4.134795e-003 5.944357e+001 1.065292e+000 -3.353860e+001
1022650000 1.031575e+000 -1.966873e+001 2.282141e-003 7.467712e+001 4.164349e-003 5.985904e+001 1.065060e+000 -3.351892e+001
1022800000 1.031528e+000 -1.967196e+001 2.323752e-003 7.389569e+001 4.320105e-003 5.947361e+001 1.065152e+000 -3.350620e+001
1022950000 1.031441e+000 -1.968638e+001 2.308381e-003 7.342492e+001 4.146189e-003 5.977791e+001 1.064792e+000 -3.351559e+001
1023100000 1.031247e+000 -1.967835e+001 2.316233e-003 7.493975e+001 4.144524e-003 5.907903e+001 1.064659e+000 -3.350331e+001
1023250000 1.031204e+000 -1.968998e+001 2.263315e-003 7.439810e+001 4.072469e-003 6.055084e+001 1.064615e+000 -3.350639e+001
