!Agilent Technologies,N5230C,SG49000117,A.08.50.07
!Agilent N5230C: A.08.50.07
!Date: Friday, May 17, 2024 22:50:36
!Correction: S11(Full 2 Port(1,2)) 
!S21(Full 2 Port(1,2)) 
!S12(Full 2 Port(1,2)) 
!S22(Full 2 Port(1,2)) 
!S2P File: Measurements: S11, S21, S12, S22:
# Hz S  MA   R 50
1000000000 1.025964e+000 -1.082535e+001 1.165107e-003 7.992202e+001 2.327224e-003 7.511092e+001 1.054137e+000 -1.962592e+001
1000150000 1.026001e+000 -1.082901e+001 1.260696e-003 8.015217e+001 2.276319e-003 7.417645e+001 1.053773e+000 -1.960248e+001
1000300000 1.025864e+000 -1.083059e+001 1.182486e-003 8.305675e+001 2.229381e-003 7.466722e+001 1.053592e+000 -1.963659e+001
1000450000 1.025957e+000 -1.083156e+001 1.195082e-003 7.961823e+001 2.261282e-003 7.313172e+001 1.053302e+000 -1.962827e+001
1000600000 1.026169e+000 -1.082609e+001 1.227698e-003 8.177647e+001 2.218867e-003 7.432743e+001 1.053510e+000 -1.964583e+001
1000750000 1.026075e+000 -1.083424e+001 1.172592e-003 8.077692e+001 2.355193e-003 7.180040e+001 1.053018e+000 -1.965971e+001
1000900000 1.026002e+000 -1.082937e+001 1.174115e-003 8.129855e+001 2.272470e-003 7.191161e+001 1.053629e+000 -1.965177e+001
1001050000 1.025693e+000 -1.082340e+001 1.122512e-003 8.262267e+001 2.239233e-003 7.273961e+001 1.053786e+000 -1.962285e+001
1001200000 1.025808e+000 -1.082890e+001 1.212190e-003 8.127895e+001 2.291247e-003 7.465108e+001 1.054117e+000 -1.960906e+001
1001350000 1.025373e+000 -1.082327e+001 1.193448e-003 8.019277e+001 2.139034e-003 7.430270e+001 1.054548e+000 -1.956858e+001
1001500000 1.025378e+000 -1.081517e+001 1.136531e-003 8.042192e+001 2.206110e-003 7.381366e+001 1.054694e+000 -1.956489e+001
1001650000 1.024907e+000 -1.084478e+001 1.161902e-003 8.424532e+001 2.246395e-003 7.522195e+001 1.054037e+000 -1.956561e+001
1001800000 1.024806e+000 -1.084498e+001 1.197753e-003 7.881192e+001 2.276083e-003 7.439695e+001 1.053822e+000 -1.961357e+001
1001950000 1.024493e+000 -1.085009e+001 1.188698e-003 8.138627e+001 2.269925e-003 7.607587e+001 1.053633e+000 -1.963688e+001
1002100000 1.024484e+000 -1.087368e+001 1.220252e-003 8.223673e+001 2.192444e-003 7.372548e+001 1.053338e+000 -1.967983e+001
1002250000 1.024816e+000 -1.086104e+001 1.219909e-003 7.883397e+001 2.256681e-003 7.476431e+001 1.053549e+000 -1.971680e+001
1002400000 1.025046e+000 -1.085831e+001 1.219723e-003 8.064468e+001 2.309215e-003 7.289510e+001 1.052919e+000 -1.970381e+001
1002550000 1.025552e+000 -1.086031e+001 1.225088e-003 8.265569e+001 2.261020e-003 7.206175e+001 1.053563e+000 -1.969571e+001
1002700000 1.025925e+000 -1.086269e+001 1.200697e-003 8.126718e+001 2.186296e-003 7.003316e+001 1.054019e+000 -1.966729e+001
1002850000 1.026231e+000 -1.086536e+001 1.192471e-003 8.249072e+001 2.270566e-003 7.499581e+001 1.053928e+000 -1.965049e+001
1003000000 1.026421e+000 -1.087736e+001 1.206636e-003 8.146880e+001 2.256385e-003 7.221705e+001 1.054185e+000 -1.962719e+001
1003150000 1.026788e+000 -1.085715e+001 1.207792e-003 8.139001e+001 2.262214e-003 7.572241e+001 1.053422e+000 -1.961590e+001
1003300000 1.026984e+000 -1.083899e+001 1.203859e-003 8.061966e+001 2.255700e-003 7.320811e+001 1.053005e+000 -1.962389e+001
1003450000 1.026888e+000 -1.084924e+001 1.156917e-003 8.008023e+001 2.266100e-003 7.434706e+001 1.052469e+000 -1.964549e+001
1003600000 1.026877e+000 -1.083390e+001 1.141505e-003 8.248528e+001 2.191703e-003 7.566076e+001 1.052465e+000 -1.965314e+001
1003750000 1.026864e+000 -1.080752e+001 1.176113e-003 8.139452e+001 2.288437e-003 7.385099e+001 1.052435e+000 -1.964164e+001
1003900000 1.025963e+000 -1.082617e+001 1.175472e-003 8.096358e+001 2.320845e-003 7.233833e+001 1.052254e+000 -1.963359e+001
1004050000 1.025555e+000 -1.084110e+001 1.223039e-003 8.298566e+001 2.329183e-003 7.366060e+001 1.052539e+000 -1.964633e+001
1004200000 1.025498e+000 -1.083111e+001 1.213111e-003 8.245456e+001 2.184695e-003 7.224862e+001 1.052917e+000 -1.964856e+001
1004350000 1.025330e+000 -1.084828e+001 1.206374e-003 8.137682e+001 2.215749e-003 7.306634e+001 1.053226e+000 -1.962605e+001
1004500000 1.024766e+000 -1.083795e+001 1.209730e-003 8.229265e+001 2.260719e-003 7.225073e+001 1.053375e+000 -1.961974e+001
1004650000 1.025156e+000 -1.084393e+001 1.215614e-003 8.308282e+001 2.208665e-003 7.420048e+001 1.053734e+000 -1.965863e+001
1004800000 1.025532e+000 -1.083299e+001 1.183473e-003 8.120090e+001 2.231329e-003 7.389178e+001 1.053801e+000 -1.966151e+001
1004950000 1.025432e+000 -1.083820e+001 1.207972e-003 8.359193e+001 2.291176e-003 7.227670e+001 1.053861e+000 -1.968456e+001
1005100000 1.025948e+000 -1.083290e+001 1.168552e-003 7.921687e+001 2.172393e-003 7.428197e+001 1.053797e+000 -1.969592e+001
1005250000 1.026060e+000 -1.082412e+001 1.224436e-003 8.238519e+001 2.238447e-003 7.382854e+001 1.054066e+000 -1.967074e+001
1005400000 1.025957e+000 -1.084013e+001 1.172227e-003 8.208971e+001 2.212012e-003 7.411971e+001 1.054223e+000 -1.968550e+001
1005550000 1.026097e+000 -1.082810e+001 1.216466e-003 8.139697e+001 2.242909e-003 7.225821e+001 1.054115e+000 -1.972175e+001
1005700000 1.026180e+000 -1.084098e+001 1.180844e-003 8.166313e+001 2.346049e-003 7.374275e+001 1.055056e+000 -1.972747e+001
1005850000 1.026156e+000 -1.086863e+001 1.135426e-003 8.268830e+001 2.290989e-003 7.273077e+001 1.055053e+000 -1.973642e+001
1006000000 1.026294e+000 -1.086144e+001 1.196640e-003 8.126038e+001 2.274814e-003 7.257349e+001 1.054723e+000 -1.973919e+001
1006150000 1.026146e+000 -1.087639e+001 1.212240e-003 7.981941e+001 2.308426e-003 7.071106e+001 1.054872e+000 -1.971980e+001
1006300000 1.026412e+000 -1.088906e+001 1.220440e-003 8.181200e+001 2.220938e-003 7.592171e+001 1.054539e+000 -1.969375e+001
1006450000 1.026551e+000 -1.089543e+001 1.250430e-003 8.404463e+001 2.275212e-003 7.009945e+001 1.054463e+000 -1.969648e+001
1006600000 1.026514e+000 -1.091741e+001 1.193141e-003 8.230354e+001 2.285468e-003 7.511863e+001 1.054080e+000 -1.966121e+001
1006750000 1.026287e+000 -1.092502e+001 1.195258e-003 8.097955e+001 2.285639e-003 7.237598e+001 1.053997e+000 -1.962463e+001
1006900000 1.026591e+000 -1.091611e+001 1.206078e-003 8.083174e+001 2.175303e-003 7.437941e+001 1.053784e+000 -1.962548e+001
1007050000 1.026618e+000 -1.090830e+001 1.205495e-003 8.188946e+001 2.308359e-003 7.598251e+001 1.053415e+000 -1.965482e+001
1007200000 1.026372e+000 -1.089573e+001 1.206820e-003 7.984393e+001 2.302543e-003 7.428369e+001 1.053207e+000 -1.966269e+001
1007350000 1.026178e+000 -1.087424e+001 1.214634e-003 8.001272e+001 2.327083e-003 7.194105e+001 1.053542e+000 -1.967962e+001
1007500000 1.026297e+000 -1.087451e+001 1.248423e-003 8.262566e+001 2.356927e-003 7.411095e+001 1.053129e+000 -1.967757e+001
1007650000 1.025920e+000 -1.086144e+001 1.220876e-003 8.286127e+001 2.348327e-003 7.306671e+001 1.053109e+000 -1.975022e+001
1007800000 1.025378e+000 -1.088373e+001 1.222032e-003 8.201687e+001 2.241668e-003 7.344625e+001 1.053142e+000 -1.981924e+001
1007950000 1.025105e+000 -1.090268e+001 1.164084e-003 8.213552e+001 2.221796e-003 7.267290e+001 1.053035e+000 -1.983782e+001
1008100000 1.024934e+000 -1.091671e+001 1.206328e-003 8.216958e+001 2.228182e-003 7.166541e+001 1.053076e+000 -1.990043e+001
1008250000 1.024847e+000 -1.092885e+001 1.235472e-003 8.188202e+001 2.351847e-003 7.258437e+001 1.053018e+000 -1.991080e+001
1008400000 1.025240e+000 -1.092517e+001 1.185834e-003 8.291952e+001 2.309967e-003 7.306565e+001 1.053237e+000 -1.988567e+001
1008550000 1.025755e+000 -1.090098e+001 1.258591e-003 8.286736e+001 2.361973e-003 7.293873e+001 1.053800e+000 -1.985262e+001
1008700000 1.025875e+000 -1.087073e+001 1.261191e-003 8.270072e+001 2.258649e-003 7.251844e+001 1.053524e+000 -1.983362e+001
1008850000 1.026189e+000 -1.086718e+001 1.225449e-003 8.220980e+001 2.386051e-003 7.427112e+001 1.053699e+000 -1.981506e+001
1009000000 1.026413e+000 -1.085629e+001 1.232371e-003 8.032216e+001 2.325939e-003 7.455446e+001 1.054034e+000 -1.981379e+001
1009150000 1.026222e+000 -1.086508e+001 1.210445e-003 8.316692e+001 2.265569e-003 7.240741e+001 1.054086e+000 -1.980721e+001
1009300000 1.026014e+000 -1.087487e+001 1.209286e-003 8.186330e+001 2.345663e-003 7.381775e+001 1.054323e+000 -1.983561e+001
1009450000 1.025842e+000 -1.088729e+001 1.198533e-003 8.087302e+001 2.262569e-003 7.128270e+001 1.054124e+000 -1.986419e+001
1009600000 1.025572e+000 -1.089037e+001 1.224259e-003 8.235201e+001 2.277694e-003 7.272157e+001 1.054064e+000 -1.983931e+001
1009750000 1.025381e+000 -1.091037e+001 1.239762e-003 8.247074e+001 2.293722e-003 7.382180e+001 1.054277e+000 -1.981984e+001
1009900000 1.025609e+000 -1.093217e+001 1.226734e-003 8.265792e+001 2.250325e-003 7.280140e+001 1.054708e+000 -1.983374e+001
1010050000 1.025557e+000 -1.095856e+001 1.251978e-003 8.105111e+001 2.279219e-003 7.482672e+001 1.054606e+000 -1.984133e+001
1010200000 1.025883e+000 -1.098521e+001 1.234747e-003 8.162400e+001 2.283003e-003 7.265538e+001 1.054356e+000 -1.986231e+001
1010350000 1.025587e+000 -1.100008e+001 1.240490e-003 8.054507e+001 2.322058e-003 7.313500e+001 1.054860e+000 -1.987011e+001
1010500000 1.025757e+000 -1.102406e+001 1.224504e-003 8.326933e+001 2.330144e-003 7.213254e+001 1.054689e+000 -1.989368e+001
1010650000 1.025649e+000 -1.100751e+001 1.208473e-003 8.146346e+001 2.254610e-003 7.305660e+001 1.053817e+000 -1.986355e+001
1010800000 1.025924e+000 -1.097857e+001 1.231403e-003 8.287475e+001 2.354761e-003 7.372348e+001 1.053237e+000 -1.982723e+001
1010950000 1.025802e+000 -1.094788e+001 1.245722e-003 8.098193e+001 2.328657e-003 7.353236e+001 1.052474e+000 -1.982479e+001
1011100000 1.025513e+000 -1.093064e+001 1.246216e-003 8.304621e+001 2.183535e-003 7.283546e+001 1.052292e+000 -1.976060e+001
1011250000 1.025439e+000 -1.091830e+001 1.183693e-003 7.937065e+001 2.332924e-003 7.336456e+001 1.052150e+000 -1.975780e+001
1011400000 1.025660e+000 -1.091358e+001 1.200463e-003 8.246904e+001 2.360149e-003 7.292126e+001 1.052447e+000 -1.978390e+001
1011550000 1.025732e+000 -1.092845e+001 1.228640e-003 8.075505e+001 2.313182e-003 7.192979e+001 1.052352e+000 -1.980354e+001
1011700000 1.025733e+000 -1.094931e+001 1.246079e-003 7.921815e+001 2.225689e-003 7.518253e+001 1.053178e+000 -1.987426e+001
1011850000 1.025791e+000 -1.096790e+001 1.238257e-003 8.140546e+001 2.255574e-003 7.277139e+001 1.053479e+000 -1.987305e+001
1012000000 1.025951e+000 -1.097559e+001 1.218936e-003 8.042236e+001 2.268052e-003 7.097218e+001 1.053798e+000 -1.992155e+001
1012150000 1.025559e+000 -1.098416e+001 1.234672e-003 8.111691e+001 2.226360e-003 7.210825e+001 1.053850e+000 -1.984005e+001
1012300000 1.025840e+000 -1.098130e+001 1.207607e-003 8.274165e+001 2.234579e-003 7.473638e+001 1.054442e+000 -1.981902e+001
1012450000 1.025431e+000 -1.096358e+001 1.268756e-003 8.138712e+001 2.283033e-003 7.290466e+001 1.054712e+000 -1.976638e+001
1012600000 1.025011e+000 -1.095641e+001 1.228357e-003 8.156506e+001 2.391132e-003 7.245315e+001 1.054934e+000 -1.972438e+001
1012750000 1.025334e+000 -1.094520e+001 1.270859e-003 8.232446e+001 2.305513e-003 7.347035e+001 1.054812e+000 -1.967926e+001
1012900000 1.025306e+000 -1.095522e+001 1.232921e-003 8.215063e+001 2.260885e-003 7.528501e+001 1.053857e+000 -1.972698e+001
1013050000 1.025067e+000 -1.097181e+001 1.212355e-003 8.205859e+001 2.280494e-003 7.424708e+001 1.053359e+000 -1.977052e+001
1013200000 1.024830e+000 -1.099036e+001 1.283933e-003 8.040511e+001 2.366311e-003 7.393854e+001 1.053064e+000 -1.981858e+001
1013350000 1.024815e+000 -1.100536e+001 1.269916e-003 8.281319e+001 2.306102e-003 7.301478e+001 1.052152e+000 -1.984731e+001
1013500000 1.024879e+000 -1.101230e+001 1.229824e-003 8.064390e+001 2.264870e-003 7.379431e+001 1.052019e+000 -1.987690e+001
1013650000 1.025027e+000 -1.101071e+001 1.236144e-003 8.175878e+001 2.292584e-003 7.205086e+001 1.052299e+000 -1.988006e+001
1013800000 1.025521e+000 -1.101836e+001 1.218826e-003 8.127544e+001 2.269159e-003 7.466994e+001 1.052844e+000 -1.992423e+001
1013950000 1.025515e+000 -1.102570e+001 1.241333e-003 8.375411e+001 2.274578e-003 7.249766e+001 1.053032e+000 -1.992119e+001
1014100000 1.025670e+000 -1.101999e+001 1.228026e-003 8.180666e+001 2.315865e-003 7.028848e+001 1.053695e+000 -1.994487e+001
1014250000 1.025709e+000 -1.101779e+001 1.224895e-003 7.972483e+001 2.192335e-003 7.430736e+001 1.053994e+000 -1.991044e+001
1014400000 1.026180e+000 -1.102053e+001 1.238686e-003 8.031553e+001 2.219497e-003 7.211990e+001 1.054440e+000 -1.990800e+001
1014550000 1.026254e+000 -1.102086e+001 1.258401e-003 8.077782e+001 2.221524e-003 7.380219e+001 1.055228e+000 -1.988312e+001
1014700000 1.026632e+000 -1.103165e+001 1.213799e-003 8.160358e+001 2.362917e-003 7.557766e+001 1.055091e+000 -1.989133e+001
1014850000 1.026879e+000 -1.102599e+001 1.279646e-003 8.221132e+001 2.362133e-003 7.474110e+001 1.055364e+000 -1.988699e+001
1015000000 1.026769e+000 -1.103307e+001 1.218493e-003 8.228353e+001 2.279333e-003 7.350429e+001 1.055295e+000 -1.987795e+001
1015150000 1.026376e+000 -1.102566e+001 1.228450e-003 8.093673e+001 2.327599e-003 7.495612e+001 1.054840e+000 -1.991027e+001
1015300000 1.026118e+000 -1.101104e+001 1.262733e-003 8.211824e+001 2.335345e-003 7.273745e+001 1.053537e+000 -1.990816e+001
1015450000 1.025851e+000 -1.102577e+001 1.232791e-003 8.116248e+001 2.338435e-003 7.250952e+001 1.053121e+000 -1.994676e+001
1015600000 1.025738e+000 -1.102517e+001 1.229527e-003 7.933875e+001 2.279888e-003 7.097408e+001 1.052380e+000 -1.996169e+001
1015750000 1.025561e+000 -1.101452e+001 1.188673e-003 8.142912e+001 2.303474e-003 7.188416e+001 1.051746e+000 -1.997712e+001
1015900000 1.025745e+000 -1.101218e+001 1.254146e-003 8.350217e+001 2.317943e-003 7.243953e+001 1.051828e+000 -1.997052e+001
1016050000 1.025816e+000 -1.102046e+001 1.222173e-003 8.192171e+001 2.335926e-003 7.107571e+001 1.051521e+000 -1.995096e+001
1016200000 1.026087e+000 -1.101244e+001 1.238906e-003 8.050185e+001 2.313767e-003 7.365976e+001 1.051584e+000 -1.996086e+001
1016350000 1.026342e+000 -1.101147e+001 1.221580e-003 7.911616e+001 2.250612e-003 7.427010e+001 1.051836e+000 -1.991951e+001
1016500000 1.026623e+000 -1.099960e+001 1.206615e-003 8.228036e+001 2.322926e-003 7.113924e+001 1.051800e+000 -1.988498e+001
1016650000 1.026944e+000 -1.100436e+001 1.220556e-003 8.246021e+001 2.327091e-003 7.596465e+001 1.052366e+000 -1.989444e+001
1016800000 1.027210e+000 -1.103683e+001 1.220970e-003 8.058204e+001 2.280098e-003 7.606564e+001 1.053714e+000 -1.984793e+001
1016950000 1.027430e+000 -1.103709e+001 1.241718e-003 7.966679e+001 2.228069e-003 7.584887e+001 1.054579e+000 -1.984750e+001
1017100000 1.027499e+000 -1.103346e+001 1.211113e-003 8.220021e+001 2.211273e-003 7.408267e+001 1.055046e+000 -1.984739e+001
1017250000 1.027378e+000 -1.103077e+001 1.245789e-003 8.113137e+001 2.373211e-003 7.347005e+001 1.055699e+000 -1.983487e+001
1017400000 1.026845e+000 -1.104212e+001 1.189652e-003 8.098251e+001 2.348382e-003 7.253613e+001 1.055465e+000 -1.986112e+001
1017550000 1.025888e+000 -1.104053e+001 1.273609e-003 8.051163e+001 2.352933e-003 7.262547e+001 1.054934e+000 -1.986372e+001
1017700000 1.025593e+000 -1.105309e+001 1.219667e-003 8.064671e+001 2.310248e-003 7.300567e+001 1.054887e+000 -1.988815e+001
1017850000 1.024877e+000 -1.105789e+001 1.233897e-003 8.128668e+001 2.281230e-003 7.201588e+001 1.054590e+000 -1.990430e+001
1018000000 1.024957e+000 -1.107281e+001 1.227540e-003 8.190732e+001 2.363337e-003 7.256445e+001 1.054590e+000 -1.990377e+001
1018150000 1.025234e+000 -1.107300e+001 1.187087e-003 8.090685e+001 2.318373e-003 7.180253e+001 1.054239e+000 -1.993065e+001
1018300000 1.025477e+000 -1.106107e+001 1.239602e-003 8.217257e+001 2.267888e-003 7.416456e+001 1.054438e+000 -1.993496e+001
1018450000 1.025854e+000 -1.106523e+001 1.237866e-003 8.278768e+001 2.174959e-003 7.236581e+001 1.053964e+000 -1.992529e+001
1018600000 1.026108e+000 -1.105224e+001 1.212375e-003 8.148926e+001 2.262160e-003 7.185413e+001 1.054140e+000 -1.991591e+001
1018750000 1.026354e+000 -1.104859e+001 1.256890e-003 7.898233e+001 2.330910e-003 7.289949e+001 1.053674e+000 -1.993328e+001
1018900000 1.026341e+000 -1.105039e+001 1.230867e-003 8.133891e+001 2.260202e-003 7.566457e+001 1.054472e+000 -1.991007e+001
1019050000 1.026106e+000 -1.105232e+001 1.246046e-003 8.203955e+001 2.388504e-003 7.492638e+001 1.054414e+000 -1.996477e+001
1019200000 1.025968e+000 -1.107047e+001 1.235155e-003 8.023198e+001 2.351807e-003 7.393772e+001 1.054991e+000 -1.998090e+001
1019350000 1.025765e+000 -1.109090e+001 1.261118e-003 8.185960e+001 2.356737e-003 7.233681e+001 1.055160e+000 -2.001587e+001
1019500000 1.025469e+000 -1.111492e+001 1.232278e-003 8.145515e+001 2.322753e-003 7.312213e+001 1.055278e+000 -2.000567e+001
1019650000 1.025557e+000 -1.112591e+001 1.229207e-003 8.109480e+001 2.399203e-003 7.026334e+001 1.053985e+000 -2.003687e+001
1019800000 1.025707e+000 -1.110811e+001 1.243208e-003 8.260266e+001 2.268055e-003 7.354153e+001 1.053095e+000 -2.005371e+001
1019950000 1.025745e+000 -1.112509e+001 1.264008e-003 8.115533e+001 2.411996e-003 7.026041e+001 1.053314e+000 -2.003064e+001
1020100000 1.025971e+000 -1.113486e+001 1.245953e-003 8.282961e+001 2.308079e-003 7.236874e+001 1.052416e+000 -2.004637e+001
1020250000 1.025788e+000 -1.112596e+001 1.250462e-003 7.998671e+001 2.363914e-003 7.410714e+001 1.052307e+000 -2.004421e+001
1020400000 1.026059e+000 -1.113599e+001 1.252250e-003 8.208495e+001 2.361084e-003 7.416363e+001 1.054337e+000 -2.001790e+001
1020550000 1.026063e+000 -1.113787e+001 1.266497e-003 7.940434e+001 2.365929e-003 7.356191e+001 1.056473e+000 -2.002434e+001
1020700000 1.026110e+000 -1.112889e+001 1.230409e-003 8.161718e+001 2.386248e-003 7.352748e+001 1.057657e+000 -2.002088e+001
1020850000 1.026027e+000 -1.115054e+001 1.232348e-003 7.871414e+001 2.278987e-003 7.076013e+001 1.058679e+000 -2.000029e+001
1021000000 1.025910e+000 -1.114224e+001 1.245006e-003 8.265140e+001 2.359660e-003 7.260112e+001 1.058941e+000 -1.999066e+001
1021150000 1.025287e+000 -1.111849e+001 1.194846e-003 8.189770e+001 2.334761e-003 7.101170e+001 1.057788e+000 -2.002160e+001
1021300000 1.024800e+000 -1.109300e+001 1.199122e-003 7.968742e+001 2.375805e-003 7.238737e+001 1.056407e+000 -2.001127e+001
1021450000 1.024479e+000 -1.108294e+001 1.180038e-003 8.341856e+001 2.370468e-003 7.262778e+001 1.054734e+000 -2.002514e+001
1021600000 1.024300e+000 -1.108328e+001 1.305865e-003 7.909903e+001 2.419112e-003 7.455101e+001 1.054068e+000 -2.003992e+001
1021750000 1.023954e+000 -1.106127e+001 1.260177e-003 8.111764e+001 2.339042e-003 7.333371e+001 1.053415e+000 -2.006975e+001
1021900000 1.024369e+000 -1.106716e+001 1.273741e-003 8.386522e+001 2.286297e-003 7.175712e+001 1.053965e+000 -2.003626e+001
1022050000 1.024626e+000 -1.108228e+001 1.249967e-003 8.013038e+001 2.404501e-003 7.124763e+001 1.054453e+000 -2.002415e+001
1022200000 1.025494e+000 -1.109410e+001 1.262161e-003 7.903935e+001 2.220425e-003 7.295238e+001 1.054762e+000 -2.000602e+001
1022350000 1.025722e+000 -1.110595e+001 1.256656e-003 8.057636e+001 2.338636e-003 7.311958e+001 1.055667e+000 -1.999366e+001
1022500000 1.026120e+000 -1.109812e+001 1.223895e-003 8.054109e+001 2.294910e-003 7.277907e+001 1.055532e+000 -2.001290e+001
1022650000 1.026254e+000 -1.110553e+001 1.240493e-003 8.138280e+001 2.325515e-003 7.234206e+001 1.055181e+000 -1.999722e+001
1022800000 1.026010e+000 -1.110141e+001 1.202230e-003 8.230026e+001 2.309883e-003 7.127561e+001 1.055119e+000 -1.998620e+001
1022950000 1.025851e+000 -1.110992e+001 1.247084e-003 8.084925e+001 2.408196e-003 7.193023e+001 1.055094e+000 -1.999869e+001
1023100000 1.025949e+000 -1.113173e+001 1.220491e-003 8.207203e+001 2.344565e-003 7.112054e+001 1.054535e+000 -1.998333e+001
1023250000 1.025804e+000 -1.112304e+001 1.217006e-003 8.142764e+001 2.338864e-003 7.386094e+001 1.054137e+000 -1.999939e+001
