!Agilent Technologies,N5230C,SG49000117,A.08.50.07
!Agilent N5230C: A.08.50.07
!Date: Friday, May 17, 2024 22:55:32
!Correction: S11(Full 2 Port(1,2)) 
!S21(Full 2 Port(1,2)) 
!S12(Full 2 Port(1,2)) 
!S22(Full 2 Port(1,2)) 
!S2P File: Measurements: S11, S21, S12, S22:
# Hz S  MA   R 50
1000000000 1.026028e+000 -1.152986e+001 1.249410e-003 7.960587e+001 2.412184e-003 7.439127e+001 1.053408e+000 -2.097113e+001
1000150000 1.026073e+000 -1.153300e+001 1.355712e-003 8.269955e+001 2.391350e-003 7.391484e+001 1.053230e+000 -2.099048e+001
1000300000 1.026042e+000 -1.153005e+001 1.276045e-003 8.224339e+001 2.378653e-003 7.474051e+001 1.052774e+000 -2.099976e+001
1000450000 1.026005e+000 -1.153037e+001 1.294421e-003 8.086631e+001 2.351506e-003 7.224574e+001 1.052792e+000 -2.101451e+001
1000600000 1.026258e+000 -1.153734e+001 1.263976e-003 8.151149e+001 2.369181e-003 7.223850e+001 1.052814e+000 -2.101455e+001
1000750000 1.026016e+000 -1.153495e+001 1.329177e-003 8.209103e+001 2.363580e-003 7.254694e+001 1.052520e+000 -2.101499e+001
1000900000 1.026235e+000 -1.153341e+001 1.268438e-003 8.280843e+001 2.310756e-003 7.373164e+001 1.052851e+000 -2.101758e+001
1001050000 1.025962e+000 -1.152907e+001 1.313352e-003 8.131937e+001 2.395007e-003 7.316213e+001 1.053111e+000 -2.099306e+001
1001200000 1.025744e+000 -1.153679e+001 1.320538e-003 8.391158e+001 2.380539e-003 7.318346e+001 1.053325e+000 -2.097731e+001
1001350000 1.025761e+000 -1.152096e+001 1.324850e-003 8.000635e+001 2.363955e-003 7.182530e+001 1.053532e+000 -2.093850e+001
1001500000 1.025344e+000 -1.152830e+001 1.295216e-003 8.097542e+001 2.372498e-003 7.357072e+001 1.053875e+000 -2.090441e+001
1001650000 1.025199e+000 -1.153834e+001 1.289167e-003 8.279456e+001 2.478187e-003 7.483725e+001 1.053400e+000 -2.093716e+001
1001800000 1.024801e+000 -1.154968e+001 1.289090e-003 8.195205e+001 2.441968e-003 7.364872e+001 1.053201e+000 -2.097117e+001
1001950000 1.024837e+000 -1.156931e+001 1.306186e-003 8.324836e+001 2.454351e-003 7.364709e+001 1.052811e+000 -2.101391e+001
1002100000 1.024712e+000 -1.158040e+001 1.288948e-003 8.324644e+001 2.391113e-003 7.147029e+001 1.052666e+000 -2.106681e+001
1002250000 1.024630e+000 -1.157228e+001 1.250630e-003 8.208927e+001 2.413731e-003 7.153819e+001 1.052468e+000 -2.108210e+001
1002400000 1.025062e+000 -1.155894e+001 1.250900e-003 8.223913e+001 2.394251e-003 7.190832e+001 1.052706e+000 -2.106380e+001
1002550000 1.025883e+000 -1.157536e+001 1.244335e-003 8.185593e+001 2.389826e-003 7.366644e+001 1.052801e+000 -2.104977e+001
1002700000 1.025923e+000 -1.156737e+001 1.288111e-003 7.960600e+001 2.351119e-003 7.199014e+001 1.053196e+000 -2.105471e+001
1002850000 1.026245e+000 -1.156095e+001 1.303434e-003 8.122687e+001 2.373278e-003 7.290859e+001 1.053022e+000 -2.103260e+001
1003000000 1.026608e+000 -1.157289e+001 1.320784e-003 8.089252e+001 2.393646e-003 7.140945e+001 1.053004e+000 -2.099827e+001
1003150000 1.026892e+000 -1.157074e+001 1.278594e-003 8.171078e+001 2.391676e-003 7.300854e+001 1.052640e+000 -2.099856e+001
1003300000 1.026877e+000 -1.155340e+001 1.294684e-003 7.999642e+001 2.380128e-003 7.237327e+001 1.052213e+000 -2.102192e+001
1003450000 1.026947e+000 -1.155233e+001 1.287548e-003 7.958823e+001 2.406168e-003 7.164778e+001 1.051560e+000 -2.101266e+001
1003600000 1.026965e+000 -1.154353e+001 1.283143e-003 8.283135e+001 2.415669e-003 7.318893e+001 1.051572e+000 -2.102690e+001
1003750000 1.026952e+000 -1.153596e+001 1.318935e-003 7.933657e+001 2.405912e-003 7.405140e+001 1.051511e+000 -2.103543e+001
1003900000 1.026228e+000 -1.153697e+001 1.283074e-003 8.028574e+001 2.415745e-003 7.085394e+001 1.051708e+000 -2.103152e+001
1004050000 1.025748e+000 -1.154401e+001 1.275784e-003 7.831165e+001 2.415308e-003 6.998162e+001 1.051644e+000 -2.104467e+001
1004200000 1.025553e+000 -1.155334e+001 1.308508e-003 8.122771e+001 2.410249e-003 7.358559e+001 1.052293e+000 -2.102277e+001
1004350000 1.025324e+000 -1.154972e+001 1.277865e-003 8.348208e+001 2.341528e-003 7.306042e+001 1.052586e+000 -2.101006e+001
1004500000 1.025093e+000 -1.156419e+001 1.287784e-003 8.228736e+001 2.369281e-003 7.370004e+001 1.052818e+000 -2.100157e+001
1004650000 1.025301e+000 -1.154500e+001 1.325064e-003 8.304084e+001 2.412485e-003 7.329284e+001 1.052502e+000 -2.102771e+001
1004800000 1.025445e+000 -1.154171e+001 1.314881e-003 7.991452e+001 2.372630e-003 7.394495e+001 1.053008e+000 -2.104494e+001
1004950000 1.025800e+000 -1.154356e+001 1.276092e-003 8.253716e+001 2.364435e-003 7.126832e+001 1.053178e+000 -2.105329e+001
1005100000 1.026181e+000 -1.154240e+001 1.291752e-003 8.282476e+001 2.450107e-003 7.509437e+001 1.053323e+000 -2.105916e+001
1005250000 1.026005e+000 -1.154914e+001 1.277527e-003 8.019614e+001 2.463531e-003 7.210098e+001 1.053047e+000 -2.105850e+001
1005400000 1.026227e+000 -1.153538e+001 1.302022e-003 7.790090e+001 2.412300e-003 7.311111e+001 1.053611e+000 -2.108212e+001
1005550000 1.026327e+000 -1.154087e+001 1.301044e-003 8.004219e+001 2.400412e-003 7.401449e+001 1.053914e+000 -2.110180e+001
1005700000 1.026185e+000 -1.157184e+001 1.311579e-003 8.245679e+001 2.396653e-003 7.172152e+001 1.054069e+000 -2.109603e+001
1005850000 1.026334e+000 -1.156605e+001 1.337149e-003 8.138968e+001 2.401136e-003 7.296431e+001 1.053753e+000 -2.110342e+001
1006000000 1.026422e+000 -1.156375e+001 1.304856e-003 8.054967e+001 2.330653e-003 7.414007e+001 1.054155e+000 -2.111695e+001
1006150000 1.026401e+000 -1.156894e+001 1.310584e-003 7.989195e+001 2.418520e-003 7.243924e+001 1.054110e+000 -2.109938e+001
1006300000 1.026469e+000 -1.159259e+001 1.315880e-003 8.116161e+001 2.360196e-003 7.296545e+001 1.054162e+000 -2.107462e+001
1006450000 1.026654e+000 -1.161227e+001 1.322939e-003 7.983190e+001 2.473787e-003 7.240512e+001 1.053755e+000 -2.105112e+001
1006600000 1.026489e+000 -1.162466e+001 1.318351e-003 8.080036e+001 2.457495e-003 7.207375e+001 1.053731e+000 -2.103700e+001
1006750000 1.026648e+000 -1.164701e+001 1.271447e-003 8.089160e+001 2.394628e-003 7.203007e+001 1.053281e+000 -2.101988e+001
1006900000 1.026664e+000 -1.163003e+001 1.293278e-003 8.083710e+001 2.358903e-003 7.225587e+001 1.052858e+000 -2.100232e+001
1007050000 1.026739e+000 -1.161735e+001 1.336281e-003 8.059477e+001 2.385482e-003 7.316394e+001 1.052657e+000 -2.103989e+001
1007200000 1.026495e+000 -1.161292e+001 1.291938e-003 8.126533e+001 2.411161e-003 7.345296e+001 1.052615e+000 -2.103578e+001
1007350000 1.026607e+000 -1.160101e+001 1.265766e-003 8.047860e+001 2.432311e-003 7.071664e+001 1.052373e+000 -2.105599e+001
1007500000 1.026287e+000 -1.157599e+001 1.279685e-003 8.158475e+001 2.456890e-003 7.236194e+001 1.052411e+000 -2.107262e+001
1007650000 1.026115e+000 -1.159205e+001 1.294074e-003 8.143063e+001 2.460854e-003 7.204686e+001 1.052381e+000 -2.113077e+001
1007800000 1.025540e+000 -1.161578e+001 1.294733e-003 8.190520e+001 2.476681e-003 7.283959e+001 1.052484e+000 -2.117257e+001
1007950000 1.025359e+000 -1.162676e+001 1.312504e-003 7.973273e+001 2.511798e-003 7.100420e+001 1.052452e+000 -2.121923e+001
1008100000 1.025013e+000 -1.162981e+001 1.266340e-003 8.057710e+001 2.436779e-003 7.086273e+001 1.052134e+000 -2.125249e+001
1008250000 1.025441e+000 -1.164155e+001 1.238287e-003 8.244877e+001 2.370914e-003 7.236713e+001 1.052087e+000 -2.127542e+001
1008400000 1.025424e+000 -1.163349e+001 1.294266e-003 8.104512e+001 2.500634e-003 7.105785e+001 1.052541e+000 -2.125816e+001
1008550000 1.025754e+000 -1.161913e+001 1.263195e-003 8.043330e+001 2.377855e-003 7.024142e+001 1.052498e+000 -2.123931e+001
1008700000 1.026034e+000 -1.158787e+001 1.307872e-003 8.177950e+001 2.476481e-003 7.182065e+001 1.053244e+000 -2.121472e+001
1008850000 1.026304e+000 -1.158943e+001 1.341912e-003 8.091033e+001 2.418275e-003 7.201532e+001 1.052784e+000 -2.120279e+001
1009000000 1.026406e+000 -1.158462e+001 1.274419e-003 8.011565e+001 2.396045e-003 7.408360e+001 1.053494e+000 -2.119366e+001
1009150000 1.026280e+000 -1.158191e+001 1.313555e-003 8.174327e+001 2.340818e-003 7.225336e+001 1.053568e+000 -2.120606e+001
1009300000 1.026070e+000 -1.159071e+001 1.296870e-003 8.132626e+001 2.451667e-003 7.157089e+001 1.053223e+000 -2.122407e+001
1009450000 1.025860e+000 -1.161173e+001 1.318846e-003 8.075883e+001 2.544642e-003 7.176540e+001 1.053811e+000 -2.121322e+001
1009600000 1.025831e+000 -1.161295e+001 1.302467e-003 8.170918e+001 2.570603e-003 7.105139e+001 1.053793e+000 -2.124582e+001
1009750000 1.025724e+000 -1.161428e+001 1.302982e-003 8.089346e+001 2.353400e-003 7.223013e+001 1.053790e+000 -2.120994e+001
1009900000 1.025813e+000 -1.165337e+001 1.359126e-003 7.965804e+001 2.468417e-003 7.086691e+001 1.054250e+000 -2.124669e+001
1010050000 1.025773e+000 -1.167718e+001 1.270397e-003 8.169688e+001 2.461859e-003 7.364636e+001 1.053753e+000 -2.124648e+001
1010200000 1.026036e+000 -1.168662e+001 1.289269e-003 7.960704e+001 2.463764e-003 7.252753e+001 1.053658e+000 -2.123580e+001
1010350000 1.025908e+000 -1.170863e+001 1.282201e-003 7.900841e+001 2.361041e-003 7.151343e+001 1.054065e+000 -2.126319e+001
1010500000 1.025746e+000 -1.173703e+001 1.284112e-003 8.059407e+001 2.442698e-003 7.106652e+001 1.053807e+000 -2.123358e+001
1010650000 1.025934e+000 -1.172658e+001 1.307755e-003 8.287685e+001 2.457830e-003 7.363861e+001 1.053524e+000 -2.125583e+001
1010800000 1.025881e+000 -1.169221e+001 1.308583e-003 8.034956e+001 2.408607e-003 7.414030e+001 1.052800e+000 -2.121055e+001
1010950000 1.025301e+000 -1.166431e+001 1.301058e-003 8.038385e+001 2.441405e-003 7.197913e+001 1.052453e+000 -2.121608e+001
1011100000 1.025833e+000 -1.163790e+001 1.338829e-003 8.287162e+001 2.470095e-003 7.255549e+001 1.051885e+000 -2.117315e+001
1011250000 1.025762e+000 -1.161842e+001 1.338278e-003 8.104845e+001 2.518871e-003 7.289738e+001 1.051445e+000 -2.114915e+001
1011400000 1.025508e+000 -1.163572e+001 1.268309e-003 8.089622e+001 2.488180e-003 7.086546e+001 1.051134e+000 -2.118711e+001
1011550000 1.025877e+000 -1.163850e+001 1.324639e-003 8.150589e+001 2.457718e-003 7.272563e+001 1.052203e+000 -2.123103e+001
1011700000 1.025982e+000 -1.166363e+001 1.295840e-003 8.272868e+001 2.487954e-003 7.152825e+001 1.052433e+000 -2.125233e+001
1011850000 1.025926e+000 -1.167626e+001 1.301879e-003 8.250664e+001 2.407429e-003 7.011756e+001 1.052541e+000 -2.127975e+001
1012000000 1.026050e+000 -1.169336e+001 1.337095e-003 8.285091e+001 2.500473e-003 7.245570e+001 1.052863e+000 -2.129950e+001
1012150000 1.025813e+000 -1.169250e+001 1.283119e-003 7.979487e+001 2.473438e-003 7.206815e+001 1.053089e+000 -2.126068e+001
1012300000 1.025810e+000 -1.168157e+001 1.327945e-003 8.064364e+001 2.404207e-003 7.286394e+001 1.053449e+000 -2.120583e+001
1012450000 1.025698e+000 -1.167400e+001 1.332048e-003 8.183220e+001 2.459417e-003 7.391096e+001 1.053779e+000 -2.115358e+001
1012600000 1.025244e+000 -1.165148e+001 1.288698e-003 8.135800e+001 2.488032e-003 7.309285e+001 1.054049e+000 -2.110464e+001
1012750000 1.025259e+000 -1.166721e+001 1.329772e-003 8.088857e+001 2.460426e-003 7.064803e+001 1.054004e+000 -2.107695e+001
1012900000 1.025409e+000 -1.167640e+001 1.323538e-003 7.865426e+001 2.492330e-003 7.182133e+001 1.053179e+000 -2.110318e+001
1013050000 1.024670e+000 -1.168569e+001 1.299867e-003 7.850667e+001 2.492817e-003 7.243167e+001 1.052844e+000 -2.117082e+001
1013200000 1.024910e+000 -1.170197e+001 1.327677e-003 8.204517e+001 2.443146e-003 7.221510e+001 1.052348e+000 -2.120979e+001
1013350000 1.025045e+000 -1.172056e+001 1.310102e-003 7.907962e+001 2.438960e-003 6.918171e+001 1.051482e+000 -2.124495e+001
1013500000 1.024908e+000 -1.174082e+001 1.312203e-003 8.219984e+001 2.465212e-003 7.020109e+001 1.051352e+000 -2.126760e+001
1013650000 1.025120e+000 -1.174739e+001 1.311280e-003 7.964405e+001 2.431824e-003 7.050181e+001 1.051798e+000 -2.127749e+001
1013800000 1.025373e+000 -1.173782e+001 1.321867e-003 7.885852e+001 2.423552e-003 7.237589e+001 1.051937e+000 -2.130753e+001
1013950000 1.025375e+000 -1.171918e+001 1.346094e-003 8.176651e+001 2.524962e-003 7.174400e+001 1.051994e+000 -2.131617e+001
1014100000 1.025802e+000 -1.173674e+001 1.305286e-003 7.897862e+001 2.405030e-003 7.184496e+001 1.052521e+000 -2.132231e+001
1014250000 1.025877e+000 -1.171724e+001 1.354666e-003 8.163528e+001 2.529811e-003 7.098360e+001 1.053432e+000 -2.129638e+001
1014400000 1.026107e+000 -1.173768e+001 1.334340e-003 8.142780e+001 2.461274e-003 7.218210e+001 1.053813e+000 -2.129420e+001
1014550000 1.026476e+000 -1.174156e+001 1.318196e-003 8.101213e+001 2.445660e-003 7.012505e+001 1.054074e+000 -2.128983e+001
1014700000 1.026895e+000 -1.173653e+001 1.344378e-003 8.050419e+001 2.529513e-003 7.059599e+001 1.054377e+000 -2.127201e+001
1014850000 1.026949e+000 -1.176285e+001 1.321685e-003 7.990613e+001 2.567915e-003 7.262474e+001 1.054714e+000 -2.128231e+001
1015000000 1.026796e+000 -1.174584e+001 1.318339e-003 8.206200e+001 2.409767e-003 7.051360e+001 1.054253e+000 -2.129349e+001
1015150000 1.026599e+000 -1.174539e+001 1.349326e-003 8.185511e+001 2.465271e-003 7.057933e+001 1.053711e+000 -2.129111e+001
1015300000 1.026071e+000 -1.173942e+001 1.324671e-003 8.104367e+001 2.528358e-003 7.033750e+001 1.052654e+000 -2.130777e+001
1015450000 1.025811e+000 -1.173384e+001 1.345353e-003 8.338013e+001 2.456711e-003 7.257560e+001 1.052275e+000 -2.133916e+001
1015600000 1.025761e+000 -1.173955e+001 1.319577e-003 7.910756e+001 2.470735e-003 7.226759e+001 1.051819e+000 -2.133588e+001
1015750000 1.025696e+000 -1.173195e+001 1.275340e-003 7.833601e+001 2.502404e-003 7.334825e+001 1.050622e+000 -2.134655e+001
1015900000 1.025778e+000 -1.174252e+001 1.327480e-003 7.921582e+001 2.514114e-003 7.129861e+001 1.050726e+000 -2.135278e+001
1016050000 1.026112e+000 -1.173010e+001 1.334295e-003 8.012207e+001 2.491019e-003 7.157794e+001 1.050854e+000 -2.134298e+001
1016200000 1.026112e+000 -1.173397e+001 1.305820e-003 7.760741e+001 2.420574e-003 7.067238e+001 1.050800e+000 -2.133987e+001
1016350000 1.026363e+000 -1.172988e+001 1.392090e-003 8.114527e+001 2.486417e-003 6.908286e+001 1.050410e+000 -2.132635e+001
1016500000 1.026731e+000 -1.172511e+001 1.328055e-003 8.241008e+001 2.466337e-003 7.043787e+001 1.050894e+000 -2.129619e+001
1016650000 1.027264e+000 -1.172915e+001 1.313751e-003 8.095861e+001 2.525680e-003 7.202898e+001 1.052181e+000 -2.128650e+001
1016800000 1.027499e+000 -1.174426e+001 1.347474e-003 8.077287e+001 2.417366e-003 6.985758e+001 1.053140e+000 -2.125871e+001
1016950000 1.027612e+000 -1.173518e+001 1.325276e-003 8.180982e+001 2.449382e-003 6.972269e+001 1.053948e+000 -2.124659e+001
1017100000 1.027580e+000 -1.174880e+001 1.296191e-003 8.079216e+001 2.454954e-003 7.135101e+001 1.054839e+000 -2.122822e+001
1017250000 1.027519e+000 -1.175350e+001 1.293902e-003 8.111722e+001 2.476803e-003 7.261820e+001 1.054872e+000 -2.122645e+001
1017400000 1.026825e+000 -1.177039e+001 1.320737e-003 8.246202e+001 2.535618e-003 7.305175e+001 1.054936e+000 -2.125100e+001
1017550000 1.026250e+000 -1.176404e+001 1.331993e-003 8.043716e+001 2.412667e-003 7.151945e+001 1.054647e+000 -2.125697e+001
1017700000 1.025679e+000 -1.177134e+001 1.331444e-003 8.190180e+001 2.431310e-003 7.226118e+001 1.054212e+000 -2.129293e+001
1017850000 1.025418e+000 -1.177855e+001 1.367928e-003 7.921950e+001 2.449261e-003 7.221920e+001 1.053982e+000 -2.130386e+001
1018000000 1.025051e+000 -1.179767e+001 1.292684e-003 8.064733e+001 2.538679e-003 7.086951e+001 1.053703e+000 -2.131569e+001
1018150000 1.025438e+000 -1.178834e+001 1.321816e-003 8.217224e+001 2.465790e-003 7.275335e+001 1.053432e+000 -2.133320e+001
1018300000 1.025832e+000 -1.179692e+001 1.294850e-003 7.859002e+001 2.469188e-003 7.102372e+001 1.053216e+000 -2.133626e+001
1018450000 1.026142e+000 -1.176996e+001 1.365578e-003 8.006770e+001 2.427601e-003 7.081988e+001 1.053079e+000 -2.132989e+001
1018600000 1.026309e+000 -1.176862e+001 1.364023e-003 7.904033e+001 2.478350e-003 7.060194e+001 1.053031e+000 -2.132649e+001
1018750000 1.026352e+000 -1.176402e+001 1.341051e-003 8.023383e+001 2.481773e-003 7.138918e+001 1.053000e+000 -2.131004e+001
1018900000 1.026319e+000 -1.176965e+001 1.295417e-003 8.163747e+001 2.409537e-003 7.044236e+001 1.053690e+000 -2.132116e+001
1019050000 1.025954e+000 -1.177681e+001 1.344167e-003 8.201015e+001 2.415879e-003 7.063360e+001 1.054310e+000 -2.136815e+001
1019200000 1.025915e+000 -1.179836e+001 1.306652e-003 8.238604e+001 2.482989e-003 7.135752e+001 1.054124e+000 -2.138016e+001
1019350000 1.025919e+000 -1.181466e+001 1.324334e-003 7.941693e+001 2.541562e-003 7.219306e+001 1.054169e+000 -2.137927e+001
1019500000 1.025739e+000 -1.182992e+001 1.300371e-003 8.130717e+001 2.572626e-003 7.149107e+001 1.054132e+000 -2.142226e+001
1019650000 1.025878e+000 -1.183141e+001 1.292576e-003 8.137007e+001 2.436920e-003 7.071080e+001 1.053830e+000 -2.143113e+001
1019800000 1.025779e+000 -1.183577e+001 1.326011e-003 8.186706e+001 2.519885e-003 6.921394e+001 1.053130e+000 -2.143279e+001
1019950000 1.025961e+000 -1.184170e+001 1.350586e-003 8.133995e+001 2.476265e-003 7.166522e+001 1.052334e+000 -2.144156e+001
1020100000 1.025872e+000 -1.184226e+001 1.333238e-003 8.131191e+001 2.419911e-003 7.054996e+001 1.051706e+000 -2.144257e+001
1020250000 1.025821e+000 -1.184535e+001 1.334338e-003 7.906792e+001 2.485855e-003 7.023363e+001 1.051826e+000 -2.144602e+001
1020400000 1.026049e+000 -1.185218e+001 1.319306e-003 8.083269e+001 2.549094e-003 7.066021e+001 1.053985e+000 -2.142153e+001
1020550000 1.026004e+000 -1.186673e+001 1.330615e-003 7.938506e+001 2.397208e-003 7.099600e+001 1.055514e+000 -2.144916e+001
1020700000 1.026211e+000 -1.184225e+001 1.307537e-003 8.032965e+001 2.451201e-003 7.019695e+001 1.056704e+000 -2.143370e+001
1020850000 1.026204e+000 -1.185688e+001 1.337367e-003 8.049714e+001 2.380519e-003 7.230029e+001 1.057994e+000 -2.141055e+001
1021000000 1.025768e+000 -1.186639e+001 1.372172e-003 8.092502e+001 2.373542e-003 7.181469e+001 1.058027e+000 -2.138570e+001
1021150000 1.025559e+000 -1.183416e+001 1.328109e-003 7.989532e+001 2.347925e-003 7.312361e+001 1.057026e+000 -2.139905e+001
1021300000 1.024861e+000 -1.181973e+001 1.341624e-003 8.126301e+001 2.511664e-003 7.082183e+001 1.055129e+000 -2.141619e+001
1021450000 1.024415e+000 -1.180726e+001 1.319382e-003 8.103499e+001 2.423534e-003 7.286945e+001 1.054348e+000 -2.142148e+001
1021600000 1.024279e+000 -1.177982e+001 1.346413e-003 8.084827e+001 2.344739e-003 7.072850e+001 1.053406e+000 -2.143391e+001
1021750000 1.024115e+000 -1.178364e+001 1.336338e-003 7.934835e+001 2.475899e-003 7.053050e+001 1.052718e+000 -2.146465e+001
1021900000 1.024580e+000 -1.179874e+001 1.375486e-003 8.070728e+001 2.543951e-003 7.097962e+001 1.053402e+000 -2.144549e+001
1022050000 1.024867e+000 -1.180432e+001 1.353775e-003 7.748642e+001 2.451213e-003 7.337170e+001 1.053700e+000 -2.144850e+001
1022200000 1.025385e+000 -1.181371e+001 1.333241e-003 8.033041e+001 2.546401e-003 7.340279e+001 1.054099e+000 -2.144418e+001
1022350000 1.025757e+000 -1.181701e+001 1.331061e-003 7.967572e+001 2.507375e-003 7.114683e+001 1.054420e+000 -2.143949e+001
1022500000 1.026330e+000 -1.181280e+001 1.316632e-003 8.138859e+001 2.533343e-003 7.110776e+001 1.054465e+000 -2.139540e+001
1022650000 1.026204e+000 -1.181038e+001 1.341340e-003 7.985009e+001 2.561016e-003 7.430559e+001 1.054324e+000 -2.141925e+001
1022800000 1.025970e+000 -1.182135e+001 1.304080e-003 8.060482e+001 2.580912e-003 7.228500e+001 1.054407e+000 -2.139005e+001
1022950000 1.026015e+000 -1.183574e+001 1.386136e-003 7.967432e+001 2.533006e-003 6.869221e+001 1.054082e+000 -2.136351e+001
1023100000 1.026129e+000 -1.184673e+001 1.339200e-003 8.094858e+001 2.484892e-003 6.983932e+001 1.054222e+000 -2.137131e+001
1023250000 1.025923e+000 -1.184278e+001 1.331694e-003 7.776925e+001 2.473357e-003 6.976789e+001 1.053659e+000 -2.139260e+001
