!Agilent Technologies,N5230C,SG49000117,A.08.50.07
!Agilent N5230C: A.08.50.07
!Date: Monday, May 20, 2024 20:14:01
!Correction: S11(Full 2 Port(1,2)) 
!S21(Full 2 Port(1,2)) 
!S12(Full 2 Port(1,2)) 
!S22(Full 2 Port(1,2)) 
!S2P File: Measurements: S11, S21, S12, S22:
# Hz S  MA   R 50
1000000000 1.029132e+000 -1.355087e+001 1.188403e-003 8.504627e+001 2.551076e-003 7.226619e+001 1.060401e+000 -2.318839e+001
1000150000 1.028922e+000 -1.351626e+001 1.520165e-003 8.256675e+001 2.290550e-003 7.148312e+001 1.060786e+000 -2.315391e+001
1000300000 1.029350e+000 -1.352633e+001 1.243269e-003 7.545410e+001 2.091135e-003 8.010299e+001 1.059433e+000 -2.321814e+001
1000450000 1.029960e+000 -1.356395e+001 1.311736e-003 7.557349e+001 2.434097e-003 7.825243e+001 1.058972e+000 -2.311959e+001
1000600000 1.030082e+000 -1.361467e+001 1.559807e-003 8.122859e+001 2.874225e-003 7.222149e+001 1.058057e+000 -2.314554e+001
1000750000 1.029934e+000 -1.359427e+001 1.426889e-003 7.800766e+001 2.713054e-003 6.645008e+001 1.059722e+000 -2.315051e+001
1000900000 1.028757e+000 -1.357666e+001 1.473159e-003 6.729803e+001 2.452541e-003 8.381387e+001 1.061271e+000 -2.327771e+001
1001050000 1.028936e+000 -1.352173e+001 1.425650e-003 7.933565e+001 2.732360e-003 7.200473e+001 1.059929e+000 -2.318595e+001
1001200000 1.030949e+000 -1.350309e+001 1.013138e-003 8.036404e+001 2.643632e-003 5.826627e+001 1.060640e+000 -2.312358e+001
1001350000 1.029747e+000 -1.358692e+001 1.250949e-003 8.061148e+001 2.362034e-003 7.641568e+001 1.062064e+000 -2.315639e+001
1001500000 1.029366e+000 -1.357083e+001 1.456757e-003 7.389361e+001 2.547457e-003 8.080901e+001 1.061926e+000 -2.300866e+001
1001650000 1.029611e+000 -1.354234e+001 1.478757e-003 8.963855e+001 2.491435e-003 8.556754e+001 1.062859e+000 -2.308467e+001
1001800000 1.028483e+000 -1.357453e+001 1.497808e-003 7.573779e+001 2.651682e-003 6.966068e+001 1.060860e+000 -2.325764e+001
1001950000 1.028392e+000 -1.365686e+001 1.469699e-003 8.303813e+001 2.166278e-003 7.820482e+001 1.061094e+000 -2.323326e+001
1002100000 1.028510e+000 -1.354745e+001 1.530353e-003 7.623939e+001 2.433103e-003 6.955118e+001 1.058832e+000 -2.313553e+001
1002250000 1.028475e+000 -1.362950e+001 1.424221e-003 8.404779e+001 2.150329e-003 8.254787e+001 1.059855e+000 -2.324833e+001
1002400000 1.029396e+000 -1.364637e+001 1.386760e-003 9.060033e+001 2.358058e-003 6.736429e+001 1.058684e+000 -2.317984e+001
1002550000 1.028129e+000 -1.362738e+001 1.338798e-003 8.542827e+001 2.689916e-003 6.437473e+001 1.061745e+000 -2.319400e+001
1002700000 1.030090e+000 -1.360098e+001 1.329110e-003 8.027893e+001 2.299344e-003 6.136760e+001 1.060910e+000 -2.311515e+001
1002850000 1.029812e+000 -1.365573e+001 1.425141e-003 7.896737e+001 2.602829e-003 6.438375e+001 1.058720e+000 -2.315704e+001
1003000000 1.029766e+000 -1.354795e+001 1.399030e-003 8.112986e+001 2.304646e-003 7.484837e+001 1.060640e+000 -2.309204e+001
1003150000 1.030299e+000 -1.364673e+001 1.275558e-003 8.188024e+001 2.817668e-003 7.508616e+001 1.059644e+000 -2.305504e+001
1003300000 1.032099e+000 -1.360962e+001 1.375538e-003 8.377591e+001 2.544613e-003 7.168470e+001 1.057607e+000 -2.325651e+001
1003450000 1.029852e+000 -1.352595e+001 1.109068e-003 8.180894e+001 2.977184e-003 7.153413e+001 1.057368e+000 -2.316870e+001
1003600000 1.030279e+000 -1.360231e+001 1.457913e-003 7.613338e+001 2.356109e-003 7.963375e+001 1.057562e+000 -2.319006e+001
1003750000 1.031019e+000 -1.361735e+001 1.209204e-003 7.612983e+001 3.014836e-003 6.709396e+001 1.058483e+000 -2.310542e+001
1003900000 1.029254e+000 -1.358908e+001 1.453807e-003 7.303909e+001 2.514898e-003 6.938348e+001 1.058455e+000 -2.322838e+001
1004050000 1.029693e+000 -1.365644e+001 1.517785e-003 8.617789e+001 2.831379e-003 6.645699e+001 1.059450e+000 -2.312037e+001
1004200000 1.029477e+000 -1.363003e+001 1.484603e-003 8.120625e+001 2.607662e-003 7.277345e+001 1.059790e+000 -2.317179e+001
1004350000 1.027696e+000 -1.359124e+001 1.402649e-003 7.312027e+001 2.136394e-003 7.028996e+001 1.060215e+000 -2.306713e+001
1004500000 1.028740e+000 -1.359249e+001 1.552546e-003 8.519320e+001 3.097615e-003 6.538024e+001 1.058206e+000 -2.316492e+001
1004650000 1.028872e+000 -1.363251e+001 1.546851e-003 7.953989e+001 2.338972e-003 8.482347e+001 1.059728e+000 -2.324284e+001
1004800000 1.030076e+000 -1.357240e+001 1.201833e-003 8.113129e+001 2.855791e-003 6.682823e+001 1.061677e+000 -2.319928e+001
1004950000 1.029470e+000 -1.355821e+001 1.450682e-003 7.922408e+001 2.741204e-003 7.048641e+001 1.059518e+000 -2.320032e+001
1005100000 1.030225e+000 -1.360626e+001 1.333876e-003 8.051368e+001 2.447746e-003 5.921453e+001 1.061108e+000 -2.316818e+001
1005250000 1.029655e+000 -1.356525e+001 1.561725e-003 8.444679e+001 1.943438e-003 7.775704e+001 1.059958e+000 -2.318710e+001
1005400000 1.028690e+000 -1.359658e+001 1.118892e-003 7.058949e+001 2.976423e-003 7.603168e+001 1.061200e+000 -2.326821e+001
1005550000 1.030061e+000 -1.364758e+001 1.443757e-003 7.186673e+001 1.841270e-003 6.513710e+001 1.061008e+000 -2.331030e+001
1005700000 1.030221e+000 -1.355107e+001 1.452411e-003 7.538668e+001 2.809498e-003 7.954458e+001 1.063037e+000 -2.321865e+001
1005850000 1.029616e+000 -1.355548e+001 1.268898e-003 8.111136e+001 2.421149e-003 8.215470e+001 1.061360e+000 -2.321322e+001
1006000000 1.030344e+000 -1.368333e+001 1.378165e-003 7.378097e+001 2.809680e-003 6.256177e+001 1.062176e+000 -2.330367e+001
1006150000 1.030815e+000 -1.358570e+001 1.558632e-003 7.947598e+001 2.886595e-003 6.891216e+001 1.059640e+000 -2.329110e+001
1006300000 1.031178e+000 -1.365752e+001 1.429930e-003 8.093450e+001 2.783282e-003 7.271793e+001 1.061370e+000 -2.321073e+001
1006450000 1.030880e+000 -1.362134e+001 1.359680e-003 8.036185e+001 2.259064e-003 7.280788e+001 1.061658e+000 -2.300977e+001
1006600000 1.030833e+000 -1.367654e+001 1.398990e-003 7.681840e+001 2.143424e-003 6.798756e+001 1.062651e+000 -2.305183e+001
1006750000 1.031123e+000 -1.370692e+001 1.456765e-003 8.016743e+001 2.344861e-003 7.884892e+001 1.062398e+000 -2.325070e+001
1006900000 1.030725e+000 -1.358339e+001 1.471554e-003 7.476992e+001 2.537601e-003 6.796075e+001 1.060901e+000 -2.327494e+001
1007050000 1.030896e+000 -1.369541e+001 1.343307e-003 6.994442e+001 2.733584e-003 7.550313e+001 1.059141e+000 -2.324038e+001
1007200000 1.029041e+000 -1.362505e+001 1.659757e-003 9.634890e+001 2.716814e-003 7.801492e+001 1.060753e+000 -2.320284e+001
1007350000 1.030295e+000 -1.354610e+001 1.544505e-003 7.864451e+001 2.434741e-003 7.456114e+001 1.059850e+000 -2.328186e+001
1007500000 1.028394e+000 -1.362531e+001 1.691447e-003 8.696714e+001 2.916472e-003 6.749149e+001 1.060048e+000 -2.311234e+001
1007650000 1.030025e+000 -1.361872e+001 1.409495e-003 8.643632e+001 2.679184e-003 6.980306e+001 1.061242e+000 -2.317823e+001
1007800000 1.030234e+000 -1.363297e+001 1.305821e-003 8.150536e+001 2.089255e-003 6.340652e+001 1.059088e+000 -2.338954e+001
1007950000 1.028947e+000 -1.363202e+001 1.396857e-003 8.033483e+001 2.458080e-003 7.206635e+001 1.061033e+000 -2.337946e+001
1008100000 1.029869e+000 -1.367441e+001 1.225608e-003 7.476571e+001 2.782391e-003 7.754380e+001 1.058216e+000 -2.328876e+001
1008250000 1.028838e+000 -1.369065e+001 1.511261e-003 7.521231e+001 2.451898e-003 6.678906e+001 1.060029e+000 -2.338072e+001
1008400000 1.028895e+000 -1.373582e+001 9.035975e-004 7.508283e+001 3.000359e-003 7.489684e+001 1.059366e+000 -2.342921e+001
1008550000 1.031040e+000 -1.374080e+001 1.737581e-003 8.139465e+001 2.696570e-003 6.336969e+001 1.060705e+000 -2.333621e+001
1008700000 1.031267e+000 -1.363838e+001 1.333610e-003 7.354845e+001 2.877262e-003 6.431212e+001 1.059067e+000 -2.333653e+001
1008850000 1.029602e+000 -1.368594e+001 1.500797e-003 7.470916e+001 2.365418e-003 6.555186e+001 1.059164e+000 -2.325964e+001
1009000000 1.030106e+000 -1.359515e+001 1.436571e-003 7.457657e+001 2.779792e-003 6.984200e+001 1.062375e+000 -2.333961e+001
1009150000 1.030069e+000 -1.359863e+001 1.429925e-003 7.745912e+001 3.147509e-003 7.591109e+001 1.059952e+000 -2.334510e+001
1009300000 1.030329e+000 -1.370267e+001 1.575093e-003 7.432095e+001 2.870545e-003 7.277128e+001 1.061910e+000 -2.336108e+001
1009450000 1.030579e+000 -1.357797e+001 1.409759e-003 8.167831e+001 2.809058e-003 6.661248e+001 1.061753e+000 -2.335433e+001
1009600000 1.028501e+000 -1.371859e+001 1.325653e-003 8.360107e+001 2.499173e-003 5.713808e+001 1.059565e+000 -2.342505e+001
1009750000 1.030011e+000 -1.367850e+001 1.397934e-003 7.454723e+001 2.620359e-003 7.381694e+001 1.060970e+000 -2.328983e+001
1009900000 1.029532e+000 -1.367734e+001 1.288486e-003 7.826445e+001 2.586906e-003 6.392302e+001 1.059458e+000 -2.332794e+001
1010050000 1.030553e+000 -1.367276e+001 1.738292e-003 7.186187e+001 2.004351e-003 6.407222e+001 1.060027e+000 -2.351975e+001
1010200000 1.029882e+000 -1.371081e+001 1.264876e-003 8.221736e+001 2.590462e-003 6.697175e+001 1.063917e+000 -2.342863e+001
1010350000 1.029609e+000 -1.382833e+001 1.146900e-003 7.268259e+001 3.106676e-003 6.748661e+001 1.062327e+000 -2.340586e+001
1010500000 1.029291e+000 -1.384243e+001 1.345780e-003 7.748054e+001 2.777791e-003 7.070939e+001 1.060441e+000 -2.336296e+001
1010650000 1.029191e+000 -1.377054e+001 1.405860e-003 8.065282e+001 2.572004e-003 8.055106e+001 1.060046e+000 -2.342790e+001
1010800000 1.030916e+000 -1.378988e+001 1.646216e-003 6.999075e+001 3.378144e-003 6.824964e+001 1.061426e+000 -2.337438e+001
1010950000 1.029113e+000 -1.373900e+001 1.443037e-003 8.257775e+001 3.060945e-003 7.061181e+001 1.059281e+000 -2.334456e+001
1011100000 1.029699e+000 -1.380240e+001 1.268402e-003 6.595876e+001 2.452688e-003 7.843699e+001 1.058895e+000 -2.327926e+001
1011250000 1.030839e+000 -1.364635e+001 1.576346e-003 8.048378e+001 2.220727e-003 6.186454e+001 1.059918e+000 -2.314063e+001
1011400000 1.029240e+000 -1.374350e+001 1.611406e-003 7.487282e+001 2.608210e-003 7.597142e+001 1.058273e+000 -2.336142e+001
1011550000 1.029373e+000 -1.374017e+001 1.416460e-003 8.378431e+001 1.719585e-003 6.999518e+001 1.057875e+000 -2.339063e+001
1011700000 1.028764e+000 -1.376203e+001 1.325061e-003 6.719230e+001 2.434460e-003 6.459943e+001 1.058712e+000 -2.344686e+001
1011850000 1.030953e+000 -1.380586e+001 1.339129e-003 7.998981e+001 2.503628e-003 8.067627e+001 1.058015e+000 -2.335317e+001
1012000000 1.030255e+000 -1.373110e+001 1.327249e-003 8.798139e+001 2.924196e-003 7.425862e+001 1.059633e+000 -2.358841e+001
1012150000 1.029575e+000 -1.380002e+001 1.433442e-003 7.900845e+001 3.035306e-003 6.855739e+001 1.060505e+000 -2.331907e+001
1012300000 1.029550e+000 -1.373274e+001 1.473124e-003 8.141257e+001 2.855184e-003 7.937634e+001 1.060056e+000 -2.329703e+001
1012450000 1.028899e+000 -1.370726e+001 1.398371e-003 7.896244e+001 2.095068e-003 6.099134e+001 1.060557e+000 -2.342805e+001
1012600000 1.028360e+000 -1.374301e+001 1.454868e-003 6.596144e+001 2.392516e-003 8.280999e+001 1.060934e+000 -2.335176e+001
1012750000 1.028600e+000 -1.372315e+001 1.268639e-003 7.436765e+001 2.374689e-003 6.081047e+001 1.061709e+000 -2.321114e+001
1012900000 1.028729e+000 -1.374919e+001 1.208937e-003 7.042464e+001 2.986190e-003 7.537036e+001 1.062826e+000 -2.330819e+001
1013050000 1.028271e+000 -1.381563e+001 1.342647e-003 7.689739e+001 2.086742e-003 7.371432e+001 1.060852e+000 -2.334386e+001
1013200000 1.029029e+000 -1.383308e+001 1.313975e-003 7.221559e+001 2.722312e-003 7.999786e+001 1.059908e+000 -2.336984e+001
1013350000 1.029202e+000 -1.383567e+001 1.216649e-003 8.415810e+001 3.098329e-003 6.907990e+001 1.059146e+000 -2.329942e+001
1013500000 1.029001e+000 -1.383095e+001 1.434373e-003 7.706246e+001 2.388968e-003 7.006044e+001 1.058067e+000 -2.336881e+001
1013650000 1.029599e+000 -1.381561e+001 1.343097e-003 9.154218e+001 3.019564e-003 6.249282e+001 1.059235e+000 -2.342580e+001
1013800000 1.029453e+000 -1.381071e+001 1.287334e-003 7.639590e+001 3.104595e-003 6.351560e+001 1.058127e+000 -2.327507e+001
1013950000 1.028723e+000 -1.382840e+001 1.444395e-003 8.100569e+001 2.511389e-003 6.591916e+001 1.061369e+000 -2.350992e+001
1014100000 1.028859e+000 -1.379410e+001 1.550637e-003 7.831046e+001 2.220836e-003 5.752238e+001 1.060333e+000 -2.339612e+001
1014250000 1.028762e+000 -1.386774e+001 1.432969e-003 8.283665e+001 2.435689e-003 7.560348e+001 1.059624e+000 -2.329500e+001
1014400000 1.031253e+000 -1.380161e+001 1.212981e-003 8.677116e+001 2.516695e-003 6.460165e+001 1.059851e+000 -2.336727e+001
1014550000 1.030799e+000 -1.376828e+001 1.465770e-003 8.078764e+001 2.506734e-003 7.005718e+001 1.061222e+000 -2.335951e+001
1014700000 1.031511e+000 -1.380228e+001 1.527422e-003 7.862238e+001 3.006491e-003 5.760293e+001 1.062108e+000 -2.341830e+001
1014850000 1.031936e+000 -1.382472e+001 1.671486e-003 8.838490e+001 2.500087e-003 7.357967e+001 1.062925e+000 -2.350257e+001
1015000000 1.032136e+000 -1.378016e+001 1.455344e-003 8.495598e+001 2.264076e-003 6.747700e+001 1.061146e+000 -2.342241e+001
1015150000 1.030012e+000 -1.385860e+001 1.329158e-003 8.470441e+001 2.257394e-003 6.922929e+001 1.060519e+000 -2.331575e+001
1015300000 1.030003e+000 -1.379084e+001 1.285743e-003 7.159619e+001 2.274148e-003 6.742239e+001 1.060749e+000 -2.333599e+001
1015450000 1.030108e+000 -1.382615e+001 1.259228e-003 7.448271e+001 2.953287e-003 7.129657e+001 1.060286e+000 -2.343614e+001
1015600000 1.029756e+000 -1.382670e+001 1.471121e-003 8.398127e+001 3.155618e-003 6.556828e+001 1.058401e+000 -2.355267e+001
1015750000 1.029787e+000 -1.387052e+001 1.558534e-003 8.669840e+001 2.670180e-003 6.760373e+001 1.057000e+000 -2.349216e+001
1015900000 1.030034e+000 -1.388292e+001 1.278859e-003 7.419772e+001 2.011088e-003 7.305801e+001 1.057169e+000 -2.350376e+001
1016050000 1.029898e+000 -1.384826e+001 1.647689e-003 8.043228e+001 2.501902e-003 6.908720e+001 1.058652e+000 -2.343896e+001
1016200000 1.029532e+000 -1.384599e+001 1.290111e-003 7.598764e+001 2.579083e-003 6.545634e+001 1.055266e+000 -2.358669e+001
1016350000 1.031026e+000 -1.382674e+001 1.618204e-003 7.521754e+001 2.709101e-003 6.837825e+001 1.055725e+000 -2.350001e+001
1016500000 1.030161e+000 -1.386237e+001 1.277840e-003 6.711249e+001 2.311044e-003 5.644239e+001 1.060735e+000 -2.343649e+001
1016650000 1.031735e+000 -1.385359e+001 1.511596e-003 7.539677e+001 2.822026e-003 6.023827e+001 1.059673e+000 -2.346815e+001
1016800000 1.031255e+000 -1.380144e+001 1.557141e-003 7.370021e+001 2.759397e-003 7.043350e+001 1.059770e+000 -2.340445e+001
1016950000 1.031117e+000 -1.381839e+001 1.170184e-003 7.574149e+001 2.977906e-003 6.807076e+001 1.062081e+000 -2.323086e+001
1017100000 1.031419e+000 -1.382939e+001 1.394563e-003 8.178099e+001 2.317425e-003 7.482083e+001 1.061449e+000 -2.330797e+001
1017250000 1.031296e+000 -1.383816e+001 1.443567e-003 7.005244e+001 3.048494e-003 8.194367e+001 1.063109e+000 -2.337218e+001
1017400000 1.032419e+000 -1.395342e+001 1.526376e-003 7.691537e+001 3.151241e-003 6.465038e+001 1.063277e+000 -2.338512e+001
1017550000 1.031368e+000 -1.390970e+001 1.396643e-003 7.209095e+001 3.065439e-003 6.764474e+001 1.058897e+000 -2.334881e+001
1017700000 1.029237e+000 -1.390498e+001 1.564166e-003 6.974265e+001 2.694014e-003 6.166371e+001 1.062110e+000 -2.350554e+001
1017850000 1.028788e+000 -1.384269e+001 1.092507e-003 8.600281e+001 2.542384e-003 6.510099e+001 1.058932e+000 -2.348758e+001
1018000000 1.028362e+000 -1.389226e+001 1.501415e-003 8.381023e+001 2.761816e-003 7.800150e+001 1.060741e+000 -2.346614e+001
1018150000 1.029445e+000 -1.384272e+001 1.490932e-003 8.074480e+001 2.947547e-003 7.627148e+001 1.060814e+000 -2.339930e+001
1018300000 1.029313e+000 -1.389320e+001 1.334102e-003 9.043471e+001 2.452335e-003 7.119612e+001 1.061141e+000 -2.347516e+001
1018450000 1.029923e+000 -1.388709e+001 1.350401e-003 8.301523e+001 2.448942e-003 6.627305e+001 1.059803e+000 -2.347248e+001
1018600000 1.031084e+000 -1.388908e+001 1.323654e-003 7.695959e+001 2.307613e-003 5.526011e+001 1.060133e+000 -2.349510e+001
1018750000 1.030285e+000 -1.390093e+001 1.152928e-003 8.281429e+001 3.078334e-003 8.443399e+001 1.061882e+000 -2.335602e+001
1018900000 1.031665e+000 -1.387243e+001 1.285802e-003 7.384044e+001 2.793170e-003 6.813878e+001 1.061826e+000 -2.334231e+001
1019050000 1.029716e+000 -1.391772e+001 1.689378e-003 7.193483e+001 2.308124e-003 6.848392e+001 1.063413e+000 -2.354084e+001
1019200000 1.029711e+000 -1.390085e+001 1.371419e-003 7.396645e+001 3.357470e-003 7.356896e+001 1.061647e+000 -2.355947e+001
1019350000 1.030364e+000 -1.391880e+001 1.404968e-003 8.706937e+001 3.263876e-003 7.055856e+001 1.061049e+000 -2.363527e+001
1019500000 1.028869e+000 -1.396839e+001 1.361648e-003 7.235615e+001 2.809468e-003 7.797776e+001 1.061789e+000 -2.361878e+001
1019650000 1.029235e+000 -1.397880e+001 1.624866e-003 6.958578e+001 2.562418e-003 5.849215e+001 1.060819e+000 -2.351642e+001
1019800000 1.030060e+000 -1.394403e+001 1.482290e-003 7.998143e+001 2.472912e-003 7.839600e+001 1.059109e+000 -2.350001e+001
1019950000 1.028583e+000 -1.390058e+001 1.627525e-003 8.466682e+001 2.189193e-003 7.144587e+001 1.059560e+000 -2.349895e+001
1020100000 1.031497e+000 -1.392541e+001 1.465386e-003 8.147479e+001 3.073687e-003 8.419758e+001 1.059508e+000 -2.354058e+001
1020250000 1.030964e+000 -1.396279e+001 1.525497e-003 8.428242e+001 2.506723e-003 7.767086e+001 1.059477e+000 -2.360500e+001
1020400000 1.029427e+000 -1.401372e+001 1.545866e-003 7.771405e+001 2.866535e-003 6.365078e+001 1.060151e+000 -2.352212e+001
1020550000 1.030114e+000 -1.393761e+001 1.259431e-003 7.289001e+001 2.415625e-003 5.608892e+001 1.064058e+000 -2.351914e+001
1020700000 1.031087e+000 -1.396332e+001 1.220381e-003 8.878638e+001 2.383532e-003 6.125094e+001 1.063298e+000 -2.353207e+001
1020850000 1.029650e+000 -1.391208e+001 1.680961e-003 9.446341e+001 2.600465e-003 5.980111e+001 1.066010e+000 -2.349217e+001
1021000000 1.028560e+000 -1.402597e+001 1.596760e-003 8.151520e+001 2.722683e-003 6.547182e+001 1.065986e+000 -2.343345e+001
1021150000 1.028557e+000 -1.398076e+001 1.570730e-003 6.506978e+001 2.566336e-003 8.354524e+001 1.064911e+000 -2.351141e+001
1021300000 1.029265e+000 -1.390250e+001 1.436915e-003 7.057668e+001 2.118507e-003 9.014190e+001 1.062878e+000 -2.372032e+001
1021450000 1.029354e+000 -1.399093e+001 1.344696e-003 8.823782e+001 3.084178e-003 7.472179e+001 1.060713e+000 -2.351718e+001
1021600000 1.027440e+000 -1.388643e+001 1.522867e-003 8.280044e+001 2.222882e-003 6.040191e+001 1.060085e+000 -2.356299e+001
1021750000 1.028051e+000 -1.392746e+001 1.698936e-003 7.933079e+001 2.269064e-003 5.723767e+001 1.058915e+000 -2.367660e+001
1021900000 1.029301e+000 -1.389015e+001 1.653864e-003 7.709442e+001 2.869338e-003 7.148181e+001 1.061102e+000 -2.344115e+001
1022050000 1.028707e+000 -1.401289e+001 1.231826e-003 7.659399e+001 2.462747e-003 7.302526e+001 1.059980e+000 -2.362378e+001
1022200000 1.029350e+000 -1.393524e+001 1.313748e-003 6.919166e+001 3.114508e-003 7.408337e+001 1.063799e+000 -2.355657e+001
1022350000 1.030133e+000 -1.398374e+001 1.522933e-003 7.968704e+001 2.850369e-003 5.322003e+001 1.062380e+000 -2.354713e+001
1022500000 1.030970e+000 -1.396131e+001 1.354925e-003 7.863103e+001 3.002857e-003 5.557465e+001 1.061522e+000 -2.367050e+001
1022650000 1.030361e+000 -1.392513e+001 1.383484e-003 7.395303e+001 2.262565e-003 7.355381e+001 1.061025e+000 -2.349176e+001
1022800000 1.029389e+000 -1.399296e+001 1.495811e-003 7.232076e+001 2.921199e-003 6.504233e+001 1.062245e+000 -2.354017e+001
1022950000 1.029886e+000 -1.406063e+001 1.683900e-003 8.452957e+001 3.080687e-003 7.146124e+001 1.061742e+000 -2.353251e+001
1023100000 1.030651e+000 -1.405218e+001 1.663681e-003 7.665376e+001 2.091184e-003 6.712120e+001 1.061571e+000 -2.359932e+001
1023250000 1.030613e+000 -1.395200e+001 1.624522e-003 8.977923e+001 2.700098e-003 8.492476e+001 1.062002e+000 -2.350425e+001
