!Agilent Technologies,N5230C,SG49000117,A.08.50.07
!Agilent N5230C: A.08.50.07
!Date: Monday, May 20, 2024 20:10:08
!Correction: S11(Full 2 Port(1,2)) 
!S21(Full 2 Port(1,2)) 
!S12(Full 2 Port(1,2)) 
!S22(Full 2 Port(1,2)) 
!S2P File: Measurements: S11, S21, S12, S22:
# Hz S  MA   R 50
1000000000 1.029631e+000 -1.495439e+001 1.603484e-003 7.609303e+001 2.664638e-003 7.053588e+001 1.060823e+000 -2.571891e+001
1000150000 1.030167e+000 -1.501902e+001 1.612347e-003 8.278854e+001 2.865554e-003 6.856681e+001 1.061951e+000 -2.570447e+001
1000300000 1.028978e+000 -1.502264e+001 1.497042e-003 8.099458e+001 2.152277e-003 5.912260e+001 1.061586e+000 -2.579874e+001
1000450000 1.029352e+000 -1.503568e+001 1.763697e-003 7.934822e+001 2.710116e-003 6.428246e+001 1.060202e+000 -2.565267e+001
1000600000 1.030483e+000 -1.498545e+001 1.457868e-003 7.658284e+001 2.917924e-003 7.092451e+001 1.060547e+000 -2.577319e+001
1000750000 1.029413e+000 -1.500940e+001 1.517770e-003 8.389799e+001 2.922599e-003 6.333936e+001 1.060669e+000 -2.557166e+001
1000900000 1.031841e+000 -1.500426e+001 1.485917e-003 7.856936e+001 3.119224e-003 6.823948e+001 1.061405e+000 -2.566239e+001
1001050000 1.029117e+000 -1.505406e+001 1.490554e-003 7.517230e+001 2.489312e-003 6.986101e+001 1.061640e+000 -2.569941e+001
1001200000 1.029181e+000 -1.505430e+001 1.659596e-003 8.293812e+001 2.754644e-003 5.900447e+001 1.061952e+000 -2.565326e+001
1001350000 1.030340e+000 -1.501908e+001 1.586168e-003 8.775272e+001 2.772735e-003 5.691540e+001 1.062693e+000 -2.572337e+001
1001500000 1.030005e+000 -1.500621e+001 1.580475e-003 8.115572e+001 2.423216e-003 6.146793e+001 1.061125e+000 -2.555329e+001
1001650000 1.029028e+000 -1.504869e+001 1.827345e-003 8.385320e+001 3.063700e-003 7.691972e+001 1.061522e+000 -2.558178e+001
1001800000 1.027298e+000 -1.502519e+001 1.580314e-003 8.349129e+001 2.536370e-003 7.577016e+001 1.061725e+000 -2.570506e+001
1001950000 1.028636e+000 -1.505171e+001 1.621677e-003 8.077641e+001 2.455853e-003 7.877746e+001 1.059163e+000 -2.567850e+001
1002100000 1.029866e+000 -1.512258e+001 1.403728e-003 8.665429e+001 2.857431e-003 6.261129e+001 1.062205e+000 -2.576603e+001
1002250000 1.027282e+000 -1.512489e+001 1.306879e-003 8.510544e+001 2.628620e-003 7.073546e+001 1.058989e+000 -2.582374e+001
1002400000 1.028449e+000 -1.498631e+001 1.684011e-003 7.570256e+001 2.735758e-003 6.270221e+001 1.059940e+000 -2.572870e+001
1002550000 1.029054e+000 -1.498290e+001 1.441148e-003 9.047241e+001 2.891368e-003 5.983004e+001 1.060725e+000 -2.566986e+001
1002700000 1.029603e+000 -1.505902e+001 1.269231e-003 7.405486e+001 2.424937e-003 6.404430e+001 1.062643e+000 -2.571293e+001
1002850000 1.030449e+000 -1.502049e+001 1.447328e-003 8.169482e+001 2.722146e-003 6.759566e+001 1.060813e+000 -2.566389e+001
1003000000 1.030119e+000 -1.506042e+001 1.298814e-003 7.886961e+001 2.487634e-003 6.726213e+001 1.059853e+000 -2.563354e+001
1003150000 1.030766e+000 -1.511052e+001 1.389717e-003 7.147475e+001 2.600658e-003 6.882111e+001 1.061181e+000 -2.576748e+001
1003300000 1.030205e+000 -1.508154e+001 1.698069e-003 8.234526e+001 2.987465e-003 7.196342e+001 1.063512e+000 -2.570763e+001
1003450000 1.030406e+000 -1.500591e+001 1.602758e-003 7.427402e+001 2.974881e-003 6.693272e+001 1.058701e+000 -2.565534e+001
1003600000 1.031469e+000 -1.503622e+001 1.405905e-003 8.152196e+001 3.008728e-003 6.501837e+001 1.061579e+000 -2.579221e+001
1003750000 1.029899e+000 -1.504186e+001 1.667953e-003 8.338755e+001 2.940255e-003 6.249624e+001 1.061886e+000 -2.561466e+001
1003900000 1.029995e+000 -1.502482e+001 1.559687e-003 8.574973e+001 2.621478e-003 6.180636e+001 1.061544e+000 -2.562965e+001
1004050000 1.028994e+000 -1.510449e+001 1.714321e-003 7.918674e+001 2.826254e-003 6.470267e+001 1.061059e+000 -2.576611e+001
1004200000 1.029725e+000 -1.513891e+001 1.665832e-003 7.347118e+001 2.426337e-003 6.392526e+001 1.059699e+000 -2.570653e+001
1004350000 1.028814e+000 -1.508634e+001 1.606153e-003 8.325124e+001 2.580662e-003 7.769210e+001 1.061908e+000 -2.565275e+001
1004500000 1.028298e+000 -1.506453e+001 1.497868e-003 7.980216e+001 2.342148e-003 5.942900e+001 1.063112e+000 -2.571474e+001
1004650000 1.029103e+000 -1.509404e+001 1.357161e-003 9.035594e+001 2.745577e-003 5.894269e+001 1.060358e+000 -2.567846e+001
1004800000 1.029198e+000 -1.497454e+001 1.459562e-003 8.224123e+001 2.468098e-003 6.475005e+001 1.060110e+000 -2.570943e+001
1004950000 1.029670e+000 -1.501328e+001 1.446670e-003 7.533606e+001 2.927244e-003 7.611537e+001 1.060620e+000 -2.566187e+001
1005100000 1.028839e+000 -1.503981e+001 1.617312e-003 8.308277e+001 2.954900e-003 7.087112e+001 1.060399e+000 -2.566800e+001
1005250000 1.029907e+000 -1.508618e+001 1.488182e-003 7.621395e+001 3.116211e-003 6.628534e+001 1.062677e+000 -2.578451e+001
1005400000 1.030815e+000 -1.502754e+001 1.445746e-003 8.264822e+001 2.834815e-003 6.720799e+001 1.064448e+000 -2.577899e+001
1005550000 1.029993e+000 -1.507178e+001 1.347674e-003 7.105621e+001 2.693623e-003 5.903854e+001 1.061460e+000 -2.581568e+001
1005700000 1.029729e+000 -1.503914e+001 1.419800e-003 7.901607e+001 2.418279e-003 7.509546e+001 1.063193e+000 -2.593708e+001
1005850000 1.029868e+000 -1.506745e+001 1.536788e-003 8.611739e+001 2.855511e-003 6.817459e+001 1.062394e+000 -2.579683e+001
1006000000 1.030566e+000 -1.511505e+001 1.311700e-003 7.654756e+001 2.300505e-003 7.595295e+001 1.060418e+000 -2.581233e+001
1006150000 1.030578e+000 -1.508104e+001 1.576174e-003 7.222113e+001 2.691357e-003 6.870061e+001 1.061798e+000 -2.585018e+001
1006300000 1.030780e+000 -1.510007e+001 1.389924e-003 8.490576e+001 2.716275e-003 6.873837e+001 1.061146e+000 -2.581604e+001
1006450000 1.028851e+000 -1.510274e+001 1.628263e-003 7.527869e+001 2.610171e-003 7.020086e+001 1.062534e+000 -2.583350e+001
1006600000 1.030568e+000 -1.522826e+001 1.537104e-003 8.555756e+001 2.772012e-003 6.643385e+001 1.060432e+000 -2.576049e+001
1006750000 1.030305e+000 -1.512002e+001 1.634826e-003 8.501295e+001 3.031038e-003 7.010499e+001 1.061964e+000 -2.571765e+001
1006900000 1.031664e+000 -1.516153e+001 1.677745e-003 7.364527e+001 3.058987e-003 5.560426e+001 1.061086e+000 -2.569932e+001
1007050000 1.029969e+000 -1.513408e+001 1.536630e-003 7.809154e+001 2.687365e-003 6.694749e+001 1.059965e+000 -2.571509e+001
1007200000 1.030556e+000 -1.508576e+001 1.429411e-003 8.409989e+001 2.753495e-003 6.250186e+001 1.060425e+000 -2.579961e+001
1007350000 1.030490e+000 -1.512289e+001 1.218379e-003 7.481073e+001 2.587722e-003 8.171457e+001 1.060387e+000 -2.573222e+001
1007500000 1.030899e+000 -1.511724e+001 1.434239e-003 7.210863e+001 2.518662e-003 7.777316e+001 1.060729e+000 -2.572213e+001
1007650000 1.029587e+000 -1.515845e+001 1.796626e-003 8.427579e+001 2.679015e-003 7.671153e+001 1.062429e+000 -2.591685e+001
1007800000 1.030332e+000 -1.514875e+001 1.499642e-003 7.534821e+001 2.578012e-003 7.776436e+001 1.061078e+000 -2.588237e+001
1007950000 1.028780e+000 -1.519780e+001 2.097016e-003 8.452137e+001 2.946332e-003 7.419787e+001 1.060470e+000 -2.594403e+001
1008100000 1.029215e+000 -1.519722e+001 1.711205e-003 7.397753e+001 2.815351e-003 6.293699e+001 1.061506e+000 -2.586493e+001
1008250000 1.029464e+000 -1.515258e+001 1.452608e-003 7.607320e+001 2.774910e-003 6.137250e+001 1.061181e+000 -2.597533e+001
1008400000 1.028476e+000 -1.521757e+001 1.538551e-003 9.081470e+001 3.355253e-003 6.646573e+001 1.061157e+000 -2.588715e+001
1008550000 1.029907e+000 -1.518380e+001 1.671532e-003 8.169598e+001 2.531648e-003 7.536427e+001 1.061486e+000 -2.583406e+001
1008700000 1.029989e+000 -1.511995e+001 1.494267e-003 7.921426e+001 2.719418e-003 6.775668e+001 1.062604e+000 -2.591092e+001
1008850000 1.030125e+000 -1.518537e+001 1.468888e-003 7.904127e+001 2.513292e-003 7.613280e+001 1.061992e+000 -2.596577e+001
1009000000 1.029258e+000 -1.512577e+001 1.582462e-003 7.554850e+001 2.624869e-003 6.511235e+001 1.062264e+000 -2.584830e+001
1009150000 1.030310e+000 -1.508109e+001 1.427609e-003 8.362901e+001 2.927699e-003 7.553255e+001 1.062300e+000 -2.586656e+001
1009300000 1.030024e+000 -1.513855e+001 1.707899e-003 8.686800e+001 2.680959e-003 6.721489e+001 1.062646e+000 -2.591102e+001
1009450000 1.030816e+000 -1.514754e+001 1.633644e-003 7.393994e+001 2.864371e-003 7.156791e+001 1.064368e+000 -2.588605e+001
1009600000 1.029013e+000 -1.520083e+001 1.365280e-003 7.900225e+001 2.840257e-003 6.796789e+001 1.061609e+000 -2.596691e+001
1009750000 1.029578e+000 -1.523811e+001 1.455616e-003 7.777370e+001 2.393181e-003 5.831244e+001 1.061824e+000 -2.594224e+001
1009900000 1.028726e+000 -1.516063e+001 1.270680e-003 7.087694e+001 2.658686e-003 5.857005e+001 1.062041e+000 -2.600298e+001
1010050000 1.028938e+000 -1.527944e+001 1.730335e-003 7.472274e+001 3.157786e-003 6.871230e+001 1.062966e+000 -2.606052e+001
1010200000 1.030144e+000 -1.525593e+001 1.473529e-003 7.928831e+001 2.465531e-003 6.012956e+001 1.062228e+000 -2.591956e+001
1010350000 1.029193e+000 -1.527275e+001 1.626305e-003 8.020780e+001 3.006600e-003 6.763589e+001 1.062860e+000 -2.593325e+001
1010500000 1.030589e+000 -1.534207e+001 1.591154e-003 7.970678e+001 3.021379e-003 6.993955e+001 1.062276e+000 -2.593057e+001
1010650000 1.030038e+000 -1.531125e+001 1.792205e-003 7.810487e+001 3.017400e-003 6.033329e+001 1.062599e+000 -2.593097e+001
1010800000 1.028894e+000 -1.526846e+001 1.545802e-003 6.915020e+001 2.816981e-003 7.246778e+001 1.061367e+000 -2.587539e+001
1010950000 1.029927e+000 -1.522145e+001 1.498352e-003 7.680980e+001 3.245678e-003 6.455266e+001 1.059663e+000 -2.590798e+001
1011100000 1.028099e+000 -1.524761e+001 1.723942e-003 7.739113e+001 2.256095e-003 7.800688e+001 1.060998e+000 -2.589282e+001
1011250000 1.029747e+000 -1.514841e+001 1.531711e-003 8.010387e+001 2.908765e-003 5.928640e+001 1.059558e+000 -2.580594e+001
1011400000 1.029339e+000 -1.517037e+001 1.595022e-003 6.864405e+001 2.461680e-003 6.999649e+001 1.060032e+000 -2.580649e+001
1011550000 1.029781e+000 -1.514189e+001 1.866099e-003 7.095498e+001 2.972535e-003 7.354703e+001 1.060174e+000 -2.585692e+001
1011700000 1.028996e+000 -1.524125e+001 1.683656e-003 7.409760e+001 3.113040e-003 7.126015e+001 1.061195e+000 -2.587120e+001
1011850000 1.030156e+000 -1.521913e+001 1.771862e-003 7.782741e+001 2.727734e-003 7.957625e+001 1.061524e+000 -2.592916e+001
1012000000 1.029062e+000 -1.526827e+001 1.603284e-003 7.169488e+001 2.998491e-003 7.476328e+001 1.059151e+000 -2.598705e+001
1012150000 1.028776e+000 -1.522559e+001 1.501461e-003 7.946273e+001 3.039562e-003 7.346228e+001 1.060796e+000 -2.585442e+001
1012300000 1.029806e+000 -1.529103e+001 1.795825e-003 7.168227e+001 3.088496e-003 5.773102e+001 1.063727e+000 -2.593856e+001
1012450000 1.029762e+000 -1.529620e+001 1.500175e-003 7.814930e+001 2.518783e-003 5.951280e+001 1.060975e+000 -2.587241e+001
1012600000 1.028650e+000 -1.524130e+001 1.579548e-003 7.983057e+001 2.626700e-003 6.337478e+001 1.061035e+000 -2.586031e+001
1012750000 1.029950e+000 -1.520409e+001 1.544424e-003 7.135666e+001 2.492685e-003 6.546420e+001 1.062727e+000 -2.574206e+001
1012900000 1.029104e+000 -1.521261e+001 1.432939e-003 6.918369e+001 3.278700e-003 7.466187e+001 1.060577e+000 -2.597192e+001
1013050000 1.028295e+000 -1.526021e+001 1.323749e-003 7.397708e+001 2.862334e-003 6.750571e+001 1.061125e+000 -2.584462e+001
1013200000 1.030138e+000 -1.523012e+001 1.297995e-003 7.035065e+001 2.680913e-003 6.774916e+001 1.060028e+000 -2.589934e+001
1013350000 1.029269e+000 -1.532194e+001 1.513653e-003 9.304562e+001 3.243599e-003 6.857704e+001 1.059189e+000 -2.578988e+001
1013500000 1.028818e+000 -1.534505e+001 1.530531e-003 8.142831e+001 2.734629e-003 6.932857e+001 1.059490e+000 -2.600386e+001
1013650000 1.029209e+000 -1.535351e+001 1.398860e-003 8.432379e+001 2.729544e-003 6.571555e+001 1.061903e+000 -2.609129e+001
1013800000 1.029662e+000 -1.527451e+001 1.608926e-003 8.768605e+001 2.555912e-003 5.890232e+001 1.061862e+000 -2.603514e+001
1013950000 1.030137e+000 -1.523485e+001 1.577986e-003 8.663914e+001 2.827225e-003 7.465790e+001 1.061099e+000 -2.602475e+001
1014100000 1.029508e+000 -1.527879e+001 1.775411e-003 7.918628e+001 2.454107e-003 6.909039e+001 1.059102e+000 -2.606710e+001
1014250000 1.031243e+000 -1.535663e+001 1.256845e-003 7.546387e+001 2.975538e-003 6.047850e+001 1.062813e+000 -2.601926e+001
1014400000 1.031295e+000 -1.526076e+001 1.599942e-003 7.869483e+001 3.040061e-003 6.737685e+001 1.063444e+000 -2.600161e+001
1014550000 1.029874e+000 -1.527425e+001 1.755672e-003 6.781063e+001 3.327013e-003 7.240776e+001 1.064550e+000 -2.604250e+001
1014700000 1.031422e+000 -1.536728e+001 1.501718e-003 7.576365e+001 3.580526e-003 6.387909e+001 1.062367e+000 -2.606112e+001
1014850000 1.030981e+000 -1.527003e+001 1.690790e-003 7.643490e+001 2.588212e-003 5.554439e+001 1.063190e+000 -2.602808e+001
1015000000 1.030064e+000 -1.535065e+001 1.707586e-003 7.782344e+001 2.679033e-003 6.871151e+001 1.062294e+000 -2.598623e+001
1015150000 1.029006e+000 -1.528980e+001 1.540033e-003 7.814455e+001 3.248311e-003 6.620588e+001 1.062296e+000 -2.592787e+001
1015300000 1.030349e+000 -1.528648e+001 1.661645e-003 7.746185e+001 3.078557e-003 7.360783e+001 1.061163e+000 -2.607305e+001
1015450000 1.029318e+000 -1.532411e+001 1.592304e-003 7.875735e+001 3.022569e-003 7.404886e+001 1.062977e+000 -2.594464e+001
1015600000 1.029575e+000 -1.531429e+001 1.504430e-003 7.136282e+001 3.089355e-003 6.778511e+001 1.057596e+000 -2.598946e+001
1015750000 1.029796e+000 -1.535125e+001 1.454228e-003 8.843887e+001 2.900509e-003 6.395827e+001 1.059507e+000 -2.613765e+001
1015900000 1.030032e+000 -1.528959e+001 1.483373e-003 6.503328e+001 3.554171e-003 5.958782e+001 1.060286e+000 -2.599979e+001
1016050000 1.028473e+000 -1.537175e+001 1.435661e-003 9.248671e+001 2.754107e-003 6.225496e+001 1.062074e+000 -2.606394e+001
1016200000 1.030814e+000 -1.538213e+001 1.395960e-003 7.197298e+001 2.794922e-003 6.056521e+001 1.060526e+000 -2.591604e+001
1016350000 1.030809e+000 -1.535216e+001 1.422632e-003 6.804751e+001 2.882180e-003 6.705988e+001 1.057464e+000 -2.600692e+001
1016500000 1.029896e+000 -1.530569e+001 1.435842e-003 7.621612e+001 3.472655e-003 7.246707e+001 1.059216e+000 -2.595934e+001
1016650000 1.031425e+000 -1.536299e+001 1.584843e-003 7.831014e+001 2.806978e-003 6.730977e+001 1.061819e+000 -2.596964e+001
1016800000 1.031316e+000 -1.534489e+001 1.625345e-003 8.236249e+001 3.636141e-003 6.098891e+001 1.061178e+000 -2.590940e+001
1016950000 1.030984e+000 -1.536097e+001 1.735052e-003 7.876566e+001 2.775169e-003 6.707738e+001 1.063333e+000 -2.596372e+001
1017100000 1.030475e+000 -1.540499e+001 1.644019e-003 7.475424e+001 2.444468e-003 6.943276e+001 1.063401e+000 -2.595734e+001
1017250000 1.032846e+000 -1.531901e+001 1.503011e-003 8.133664e+001 2.699870e-003 5.966589e+001 1.064207e+000 -2.591746e+001
1017400000 1.030394e+000 -1.538290e+001 1.713188e-003 8.000574e+001 2.784394e-003 7.609442e+001 1.064651e+000 -2.588700e+001
1017550000 1.028917e+000 -1.539756e+001 1.528799e-003 9.037724e+001 3.569387e-003 7.014949e+001 1.064678e+000 -2.594790e+001
1017700000 1.028127e+000 -1.537869e+001 1.453822e-003 8.135960e+001 3.931008e-003 6.833192e+001 1.062943e+000 -2.593289e+001
1017850000 1.028830e+000 -1.536045e+001 1.775188e-003 8.110767e+001 2.605750e-003 6.156622e+001 1.064412e+000 -2.597173e+001
1018000000 1.028312e+000 -1.543616e+001 1.446216e-003 7.600587e+001 2.871844e-003 7.205067e+001 1.062223e+000 -2.594077e+001
1018150000 1.030227e+000 -1.538813e+001 1.558370e-003 8.676237e+001 2.407209e-003 7.380950e+001 1.061470e+000 -2.592254e+001
1018300000 1.029799e+000 -1.540935e+001 1.543839e-003 7.743273e+001 2.895846e-003 6.851772e+001 1.061065e+000 -2.595578e+001
1018450000 1.030112e+000 -1.538140e+001 1.503866e-003 8.619879e+001 3.323820e-003 5.591225e+001 1.062982e+000 -2.608311e+001
1018600000 1.030643e+000 -1.541347e+001 1.404266e-003 7.633022e+001 3.365531e-003 6.881852e+001 1.062374e+000 -2.618385e+001
1018750000 1.030764e+000 -1.531594e+001 1.483235e-003 8.619302e+001 3.344250e-003 5.937315e+001 1.063415e+000 -2.599523e+001
1018900000 1.029458e+000 -1.536322e+001 1.600687e-003 8.060020e+001 2.684963e-003 6.439991e+001 1.061019e+000 -2.601153e+001
1019050000 1.030950e+000 -1.541750e+001 1.482206e-003 7.924292e+001 3.055440e-003 5.710472e+001 1.062267e+000 -2.617054e+001
1019200000 1.030980e+000 -1.537188e+001 1.649819e-003 7.403104e+001 3.721908e-003 5.277778e+001 1.062316e+000 -2.609228e+001
1019350000 1.031770e+000 -1.547563e+001 1.205223e-003 7.024709e+001 3.102298e-003 6.710680e+001 1.063893e+000 -2.606880e+001
1019500000 1.031914e+000 -1.541127e+001 1.719529e-003 7.806825e+001 2.772813e-003 5.878441e+001 1.063273e+000 -2.607160e+001
1019650000 1.030550e+000 -1.548387e+001 1.448920e-003 7.680220e+001 3.094043e-003 6.906642e+001 1.062406e+000 -2.599366e+001
1019800000 1.029915e+000 -1.544340e+001 1.685909e-003 7.424962e+001 2.891722e-003 6.046344e+001 1.059481e+000 -2.593652e+001
1019950000 1.030125e+000 -1.544805e+001 1.537082e-003 8.004879e+001 2.733851e-003 6.769919e+001 1.060758e+000 -2.615384e+001
1020100000 1.029733e+000 -1.547686e+001 1.534330e-003 8.758427e+001 3.003711e-003 5.772022e+001 1.059073e+000 -2.602295e+001
1020250000 1.030575e+000 -1.543598e+001 1.522778e-003 8.259672e+001 3.106441e-003 6.059147e+001 1.059882e+000 -2.626418e+001
1020400000 1.030923e+000 -1.545465e+001 1.646809e-003 7.136765e+001 2.465410e-003 5.629000e+001 1.062621e+000 -2.609985e+001
1020550000 1.030501e+000 -1.548542e+001 1.732793e-003 8.167222e+001 3.185629e-003 6.384063e+001 1.064775e+000 -2.623424e+001
1020700000 1.030271e+000 -1.548433e+001 1.260023e-003 7.770327e+001 2.785703e-003 7.025839e+001 1.063922e+000 -2.604746e+001
1020850000 1.029975e+000 -1.549592e+001 1.401169e-003 7.749921e+001 3.167724e-003 7.795735e+001 1.066108e+000 -2.614185e+001
1021000000 1.029523e+000 -1.548400e+001 1.561229e-003 8.129230e+001 3.290289e-003 6.235329e+001 1.066081e+000 -2.610676e+001
1021150000 1.029300e+000 -1.546648e+001 1.308523e-003 7.579237e+001 2.910564e-003 7.136832e+001 1.065170e+000 -2.609503e+001
1021300000 1.029619e+000 -1.540841e+001 1.724342e-003 7.711618e+001 3.015387e-003 6.818439e+001 1.066165e+000 -2.614202e+001
1021450000 1.029846e+000 -1.547688e+001 1.696205e-003 7.135432e+001 3.384287e-003 6.075730e+001 1.063957e+000 -2.616500e+001
1021600000 1.028099e+000 -1.538081e+001 1.577716e-003 6.452235e+001 2.851274e-003 5.898357e+001 1.061170e+000 -2.614262e+001
1021750000 1.028805e+000 -1.542357e+001 1.416845e-003 7.392036e+001 2.984266e-003 6.150314e+001 1.061643e+000 -2.636139e+001
1021900000 1.028809e+000 -1.540666e+001 1.273188e-003 8.680725e+001 3.072368e-003 5.397250e+001 1.061036e+000 -2.624206e+001
1022050000 1.028836e+000 -1.540247e+001 1.538211e-003 7.718656e+001 2.167999e-003 5.795881e+001 1.061715e+000 -2.620382e+001
1022200000 1.030455e+000 -1.546991e+001 1.641972e-003 7.047305e+001 2.434335e-003 6.606088e+001 1.060464e+000 -2.619140e+001
1022350000 1.029061e+000 -1.546696e+001 1.591320e-003 8.079155e+001 2.518471e-003 7.589033e+001 1.062786e+000 -2.611240e+001
1022500000 1.030576e+000 -1.544527e+001 1.684421e-003 7.617133e+001 2.408697e-003 8.382761e+001 1.065853e+000 -2.616582e+001
1022650000 1.030809e+000 -1.550004e+001 1.431883e-003 7.285621e+001 3.067958e-003 7.303983e+001 1.064193e+000 -2.612329e+001
1022800000 1.030828e+000 -1.548799e+001 1.557083e-003 8.140723e+001 2.652056e-003 6.602926e+001 1.063979e+000 -2.620833e+001
1022950000 1.030608e+000 -1.549618e+001 1.419778e-003 7.407441e+001 2.710269e-003 6.669339e+001 1.062009e+000 -2.615323e+001
1023100000 1.030633e+000 -1.550232e+001 1.591919e-003 8.232139e+001 3.124739e-003 6.301998e+001 1.061139e+000 -2.611093e+001
1023250000 1.030023e+000 -1.546179e+001 1.526533e-003 7.822193e+001 2.810470e-003 6.704681e+001 1.061383e+000 -2.613984e+001
