!Agilent Technologies,N5230C,SG49000117,A.08.50.07
!Agilent N5230C: A.08.50.07
!Date: Sunday, March 17, 2024 02:52:34
!Correction: S11(Off) 
!S21(Off) 
!S12(Off) 
!S22(Off) 
!S2P File: Measurements: S11, S21, S12, S22:
# Hz S  RI   R 50
300000000 6.868977e-005 1.267033e-005 -7.222647e-001 -4.674982e-001 7.324927e-005 -3.495461e-005 -7.248743e-001 -4.690326e-001
300285000 -4.017202e-005 2.649248e-005 -7.307016e-001 -4.432845e-001 6.498490e-005 7.109903e-005 -7.335952e-001 -4.444904e-001
300570000 -1.054098e-004 -1.388877e-005 -7.394843e-001 -4.192637e-001 -4.422940e-005 8.066375e-005 -7.415079e-001 -4.208535e-001
300855000 -8.111374e-005 4.955008e-005 -7.470728e-001 -3.957577e-001 4.477754e-005 2.496369e-005 -7.499785e-001 -3.970619e-001
301140000 -2.064711e-004 -6.158330e-006 -7.537478e-001 -3.715385e-001 -5.286616e-005 9.326678e-005 -7.572741e-001 -3.727171e-001
301425000 -1.000491e-004 -4.169954e-005 -7.604395e-001 -3.482092e-001 -1.607621e-005 5.662147e-005 -7.633154e-001 -3.494404e-001
301710000 -1.803919e-005 -1.788477e-005 -7.657371e-001 -3.244635e-001 2.219398e-005 -2.805087e-005 -7.686425e-001 -3.256225e-001
301995000 -5.704786e-005 4.092134e-005 -7.706953e-001 -3.007486e-001 4.974677e-005 -2.833005e-007 -7.736647e-001 -3.019840e-001
302280000 -3.762624e-005 -8.301748e-005 -7.747291e-001 -2.777010e-001 -2.911785e-005 2.662207e-005 -7.782788e-001 -2.786317e-001
302565000 1.571847e-006 -5.587895e-005 -7.784306e-001 -2.549416e-001 -1.123713e-004 -3.379729e-005 -7.813018e-001 -2.558890e-001
302850000 -5.705291e-005 -9.456976e-005 -7.815489e-001 -2.316267e-001 -5.496175e-005 8.227366e-006 -7.843987e-001 -2.325230e-001
303135000 -1.201709e-005 -3.027816e-005 -7.846794e-001 -2.093847e-001 4.605890e-006 -2.667822e-005 -7.875766e-001 -2.101147e-001
303420000 9.066825e-006 -3.619343e-005 -7.864828e-001 -1.869535e-001 8.649935e-005 -8.450152e-005 -7.892656e-001 -1.872816e-001
303705000 7.787399e-005 -1.054246e-004 -7.879947e-001 -1.647937e-001 1.080828e-005 -7.392652e-005 -7.910271e-001 -1.651379e-001
303990000 -2.401901e-005 -8.790175e-005 -7.886406e-001 -1.425649e-001 -2.461778e-005 -3.035176e-005 -7.922145e-001 -1.428757e-001
304275000 5.880428e-005 -3.929908e-005 -7.896198e-001 -1.207354e-001 -2.384341e-004 2.257638e-005 -7.921649e-001 -1.210728e-001
304560000 -3.573715e-005 7.758434e-005 -7.892925e-001 -9.861619e-002 -1.260943e-004 -8.747433e-005 -7.925360e-001 -9.919263e-002
304845000 3.526561e-005 6.500974e-005 -7.892348e-001 -7.659951e-002 -3.470358e-005 -5.498416e-005 -7.918661e-001 -7.753446e-002
305130000 -4.270512e-005 6.746037e-005 -7.884530e-001 -5.575125e-002 2.117379e-005 2.310093e-005 -7.912854e-001 -5.608181e-002
305415000 -1.304200e-005 6.050358e-005 -7.870848e-001 -3.417346e-002 8.817667e-006 2.423740e-005 -7.900158e-001 -3.439072e-002
305700000 -6.041277e-005 -9.428451e-005 -7.853188e-001 -1.326076e-002 -4.745074e-005 -5.951287e-005 -7.884222e-001 -1.371718e-002
305985000 3.921621e-005 -1.368543e-005 -7.830136e-001 7.318108e-003 4.381264e-005 1.211708e-005 -7.861314e-001 7.733780e-003
306270000 -4.788132e-005 2.029775e-005 -7.804879e-001 2.835952e-002 1.471265e-004 -1.390381e-005 -7.838960e-001 2.846351e-002
306555000 -1.124344e-004 1.095872e-005 -7.773831e-001 4.879827e-002 5.294257e-005 2.049918e-005 -7.804356e-001 4.925732e-002
306840000 3.265265e-006 8.487693e-005 -7.742538e-001 6.961519e-002 7.984497e-005 9.763845e-005 -7.773676e-001 6.969197e-002
307125000 4.601109e-005 -5.069825e-005 -7.706425e-001 8.983754e-002 1.116174e-004 5.085170e-005 -7.736059e-001 9.010524e-002
307410000 -9.079294e-005 -6.519127e-005 -7.664652e-001 1.101604e-001 3.566108e-005 4.610503e-005 -7.695116e-001 1.102212e-001
307695000 -4.504942e-005 -9.758577e-005 -7.623154e-001 1.297442e-001 -5.192775e-005 1.525140e-004 -7.652922e-001 1.302823e-001
307980000 4.468255e-005 -7.388713e-005 -7.578112e-001 1.498349e-001 1.715831e-005 6.852063e-005 -7.601464e-001 1.501475e-001
308265000 -1.899129e-005 -1.314057e-004 -7.518031e-001 1.690215e-001 -8.051028e-006 6.555997e-005 -7.547728e-001 1.701614e-001
308550000 -4.342195e-005 -5.444026e-005 -7.464529e-001 1.891959e-001 4.846399e-005 1.460213e-005 -7.496589e-001 1.897288e-001
308835000 -1.372841e-005 3.806769e-006 -7.402616e-001 2.084335e-001 -1.092038e-004 8.510920e-006 -7.437803e-001 2.091640e-001
309120000 3.481490e-005 -3.578656e-005 -7.340904e-001 2.274285e-001 2.735901e-005 9.281645e-006 -7.369824e-001 2.286031e-001
309405000 -8.632995e-005 -4.444089e-005 -7.275730e-001 2.465882e-001 1.915176e-005 -1.798911e-005 -7.306824e-001 2.479069e-001
309690000 1.431602e-005 2.378978e-005 -7.207990e-001 2.660179e-001 -8.177011e-005 7.125005e-005 -7.236567e-001 2.667331e-001
309975000 5.403318e-005 -1.136413e-004 -7.135820e-001 2.842025e-001 -2.617189e-005 -6.959467e-007 -7.163934e-001 2.858759e-001
310260000 2.892328e-005 3.998807e-005 -7.057874e-001 3.035319e-001 9.533014e-005 -9.208415e-006 -7.083055e-001 3.049497e-001
310545000 8.444521e-005 -3.820724e-005 -6.973864e-001 3.221532e-001 -2.080473e-005 2.330428e-005 -7.005451e-001 3.232472e-001
310830000 1.504677e-005 1.200655e-005 -6.899332e-001 3.409204e-001 8.563299e-005 -3.821251e-005 -6.920696e-001 3.417023e-001
311115000 -1.607885e-005 1.121801e-004 -6.807590e-001 3.590367e-001 4.624826e-005 -5.050115e-005 -6.836559e-001 3.606562e-001
311400000 9.585569e-005 -1.151934e-006 -6.715445e-001 3.775311e-001 7.530556e-005 7.458779e-006 -6.741346e-001 3.786264e-001
311685000 1.146867e-006 -8.675538e-006 -6.619934e-001 3.956586e-001 6.609251e-005 -2.054660e-005 -6.642739e-001 3.972163e-001
311970000 1.417197e-005 -9.508872e-005 -6.522977e-001 4.135552e-001 1.150718e-005 -1.876198e-005 -6.543611e-001 4.152420e-001
312255000 6.287854e-006 9.238756e-006 -6.417220e-001 4.317923e-001 2.328938e-005 -3.625939e-005 -6.444960e-001 4.333629e-001
312540000 4.239955e-006 -1.396410e-005 -6.310372e-001 4.495760e-001 1.025070e-005 -1.547160e-005 -6.333868e-001 4.513382e-001
312825000 -2.768866e-006 -9.340879e-005 -6.200107e-001 4.671409e-001 -2.571612e-005 9.009807e-006 -6.226107e-001 4.692809e-001
313110000 7.225788e-006 -1.563798e-004 -6.084166e-001 4.848471e-001 -7.873564e-005 -9.165220e-005 -6.106895e-001 4.871513e-001
313395000 -1.479816e-005 -1.109600e-004 -5.967636e-001 5.023771e-001 2.967209e-005 7.901912e-005 -5.990001e-001 5.043628e-001
313680000 3.444467e-005 -7.044031e-005 -5.841070e-001 5.202019e-001 6.998357e-005 1.905149e-005 -5.865684e-001 5.220886e-001
313965000 -7.781151e-005 -1.739617e-005 -5.712125e-001 5.368147e-001 -2.923005e-005 -1.074604e-004 -5.738646e-001 5.393143e-001
314250000 1.066478e-004 -4.671888e-005 -5.576686e-001 5.541533e-001 -1.204400e-004 -2.874951e-006 -5.600148e-001 5.559586e-001
314535000 8.034401e-005 -4.331278e-005 -5.438788e-001 5.709242e-001 -8.498631e-005 -3.701491e-005 -5.460879e-001 5.735323e-001
314820000 1.081497e-004 1.065405e-004 -5.296688e-001 5.882311e-001 -3.490429e-005 9.030370e-006 -5.321898e-001 5.900636e-001
315105000 1.905473e-005 5.039750e-005 -5.151659e-001 6.041172e-001 1.008065e-005 -2.895354e-005 -5.168054e-001 6.070179e-001
315390000 -5.160592e-005 6.015886e-005 -4.996074e-001 6.208997e-001 -1.125026e-004 -4.405865e-005 -5.015483e-001 6.236129e-001
315675000 -4.439644e-005 6.323626e-005 -4.842530e-001 6.371548e-001 3.095156e-005 -1.344214e-004 -4.859481e-001 6.398097e-001
315960000 -1.933511e-005 -1.616392e-005 -4.676582e-001 6.534232e-001 -6.119525e-005 1.677797e-004 -4.696741e-001 6.558181e-001
316245000 1.244660e-004 1.227566e-004 -4.506746e-001 6.689237e-001 1.435831e-005 -3.823579e-005 -4.524192e-001 6.718619e-001
316530000 2.440894e-005 -2.534525e-005 -4.330189e-001 6.850629e-001 -5.995859e-006 1.062402e-004 -4.348983e-001 6.876261e-001
316815000 -4.258080e-006 1.213284e-004 -4.149601e-001 7.000673e-001 -4.804632e-005 9.751751e-005 -4.167910e-001 7.026096e-001
317100000 -2.005863e-004 3.125153e-005 -3.961681e-001 7.153092e-001 -1.146343e-004 -1.630777e-005 -3.982190e-001 7.180508e-001
317385000 7.018976e-006 8.605070e-006 -3.769734e-001 7.302270e-001 6.110681e-005 -2.730375e-005 -3.782094e-001 7.330618e-001
317670000 -1.643571e-004 -2.796137e-006 -3.580384e-001 7.445242e-001 -9.315246e-006 -9.381280e-005 -3.583839e-001 7.479378e-001
317955000 5.548230e-005 -2.112362e-005 -3.367848e-001 7.591477e-001 9.831387e-005 2.706473e-005 -3.379602e-001 7.619593e-001
318240000 6.077821e-007 7.520035e-005 -3.155747e-001 7.724568e-001 1.469830e-004 -2.212111e-005 -3.169689e-001 7.754928e-001
318525000 -5.570631e-005 -1.643786e-005 -2.939501e-001 7.860306e-001 2.792653e-005 8.422419e-005 -2.946493e-001 7.891417e-001
318810000 -6.472404e-005 4.392066e-006 -2.714564e-001 7.991809e-001 7.758659e-006 -4.710849e-005 -2.730508e-001 8.020882e-001
319095000 -2.505221e-006 -1.697079e-004 -2.483088e-001 8.119039e-001 5.804833e-005 5.248540e-005 -2.493614e-001 8.149584e-001
319380000 5.696473e-005 -2.898273e-005 -2.245700e-001 8.234884e-001 3.098390e-005 2.262263e-005 -2.255190e-001 8.273239e-001
319665000 -5.531036e-005 6.217562e-006 -1.997059e-001 8.354922e-001 -2.863854e-005 -3.625562e-005 -2.003948e-001 8.383683e-001
319950000 -5.591212e-005 -7.464911e-005 -1.744485e-001 8.457293e-001 5.249668e-005 6.696892e-005 -1.751544e-001 8.497141e-001
320235000 -2.648109e-005 -4.502656e-005 -1.488321e-001 8.560632e-001 -6.977974e-005 7.277092e-005 -1.490198e-001 8.593234e-001
320520000 -7.862252e-005 -3.891661e-005 -1.221956e-001 8.664936e-001 -9.937007e-005 1.584594e-006 -1.230413e-001 8.691730e-001
320805000 -7.482013e-005 8.167762e-005 -9.452106e-002 8.747193e-001 5.625426e-005 8.415427e-005 -9.530975e-002 8.782334e-001
321090000 -7.868099e-006 -7.165007e-005 -6.627867e-002 8.830733e-001 -3.419691e-005 -1.946423e-005 -6.653441e-002 8.865837e-001
321375000 1.166153e-004 -2.365038e-005 -3.787963e-002 8.901552e-001 -7.491254e-005 -2.943117e-005 -3.809601e-002 8.936775e-001
321660000 -1.368176e-004 4.857435e-005 -8.586855e-003 8.966937e-001 -6.323508e-005 2.375422e-005 -8.615818e-003 9.002668e-001
321945000 -2.303060e-005 3.459336e-005 2.157720e-002 9.014735e-001 -4.040279e-005 -4.680128e-005 2.144926e-002 9.056363e-001
322230000 2.409365e-005 -6.617905e-005 5.220113e-002 9.064111e-001 -6.841297e-006 -1.095784e-004 5.198740e-002 9.104819e-001
322515000 -1.507028e-004 4.034380e-005 8.347129e-002 9.100417e-001 1.396266e-005 6.925222e-005 8.406907e-002 9.139377e-001
322800000 -6.984842e-005 -5.763972e-005 1.153562e-001 9.122183e-001 5.925378e-005 -2.904156e-005 1.158238e-001 9.157906e-001
323085000 -3.818170e-005 5.176093e-006 1.475180e-001 9.136133e-001 4.780748e-005 -1.009257e-004 1.483746e-001 9.166488e-001
323370000 -1.903610e-005 -1.770292e-005 1.806031e-001 9.133457e-001 -2.395708e-005 6.280839e-005 1.809229e-001 9.175500e-001
323655000 -1.859317e-005 -1.464271e-006 2.139918e-001 9.118760e-001 5.246755e-005 2.961706e-006 2.144306e-001 9.160170e-001
323940000 3.290278e-005 -2.812393e-005 2.476269e-001 9.085129e-001 1.064539e-004 -3.767129e-005 2.490349e-001 9.132162e-001
324225000 1.165765e-005 1.418614e-004 2.821603e-001 9.054146e-001 -2.658771e-005 2.437365e-005 2.824746e-001 9.091471e-001
324510000 2.667526e-005 5.215757e-006 3.163355e-001 9.000745e-001 5.866882e-005 5.087439e-005 3.178121e-001 9.037801e-001
324795000 -4.402659e-005 3.819336e-005 3.504534e-001 8.925841e-001 4.738248e-005 9.811705e-005 3.522072e-001 8.963574e-001
325080000 2.944549e-005 -9.474812e-006 3.852755e-001 8.840901e-001 -6.733638e-006 8.295153e-005 3.874289e-001 8.875973e-001
325365000 -8.604286e-005 -1.508196e-005 4.198108e-001 8.734601e-001 -8.381572e-005 -9.336170e-005 4.220368e-001 8.772245e-001
325650000 1.630474e-005 -5.852413e-006 4.553084e-001 8.621992e-001 -5.004536e-006 3.917856e-005 4.564583e-001 8.651733e-001
325935000 8.961443e-005 -2.989204e-005 4.894394e-001 8.479261e-001 3.157261e-007 2.253814e-005 4.916559e-001 8.517400e-001
326220000 6.931539e-005 -2.657879e-005 5.234857e-001 8.327650e-001 6.133877e-005 4.408605e-005 5.255620e-001 8.368648e-001
326505000 9.631117e-005 9.390077e-005 5.573133e-001 8.158522e-001 2.851177e-005 -6.094039e-007 5.596597e-001 8.195789e-001
326790000 1.099615e-004 -8.395703e-005 5.904182e-001 7.977428e-001 5.928462e-005 -4.416068e-005 5.930839e-001 8.008511e-001
327075000 4.362527e-005 4.234848e-005 6.237732e-001 7.769957e-001 4.972902e-006 6.893135e-005 6.262906e-001 7.805055e-001
327360000 1.050535e-004 1.066730e-004 6.555989e-001 7.549393e-001 4.664292e-005 -9.654579e-005 6.580540e-001 7.584434e-001
327645000 -1.110999e-005 4.509021e-006 6.868142e-001 7.312644e-001 5.429910e-005 -8.731528e-005 6.892784e-001 7.344232e-001
327930000 -1.059320e-004 1.641191e-005 7.169560e-001 7.064676e-001 -3.353261e-009 -5.188049e-005 7.195324e-001 7.090086e-001
328215000 -4.781338e-005 4.087316e-005 7.459705e-001 6.786818e-001 -1.922281e-005 4.293245e-005 7.488493e-001 6.823395e-001
328500000 1.240730e-004 -3.251428e-005 7.739033e-001 6.512163e-001 1.853668e-005 1.261755e-004 7.774254e-001 6.535119e-001
328785000 6.990574e-005 -5.262419e-005 8.006866e-001 6.205088e-001 8.263397e-005 6.054589e-005 8.035571e-001 6.240220e-001
329070000 7.565543e-005 1.618387e-005 8.259566e-001 5.892422e-001 -1.348571e-004 4.341476e-005 8.294004e-001 5.920019e-001
329355000 1.805887e-005 3.391285e-005 8.505476e-001 5.568981e-001 2.175079e-005 6.811952e-005 8.533917e-001 5.586958e-001
329640000 -2.475540e-005 3.887372e-005 8.715227e-001 5.234189e-001 2.403076e-006 6.420324e-005 8.762270e-001 5.254405e-001
329925000 9.658738e-005 -1.392595e-005 8.927534e-001 4.875821e-001 -2.044791e-005 -1.534119e-005 8.967535e-001 4.900842e-001
330210000 -2.227678e-005 1.276912e-004 9.118093e-001 4.520875e-001 1.680546e-005 -1.590388e-005 9.150686e-001 4.541480e-001
330495000 5.295167e-005 -3.381504e-005 9.282783e-001 4.148982e-001 -6.044913e-006 -6.515816e-005 9.326321e-001 4.169618e-001
330780000 -7.824208e-006 -3.045808e-005 9.436185e-001 3.781633e-001 6.883384e-005 9.738238e-005 9.477524e-001 3.792633e-001
331065000 -7.604818e-005 -7.503895e-006 9.569706e-001 3.400102e-001 -4.463850e-005 -3.081563e-005 9.614313e-001 3.407942e-001
331350000 -2.209112e-005 -5.394355e-005 9.680904e-001 3.013508e-001 -1.110700e-004 1.632568e-005 9.727150e-001 3.027352e-001
331635000 3.005150e-005 -4.233201e-005 9.775934e-001 2.619859e-001 5.236518e-005 -1.356033e-004 9.820359e-001 2.636615e-001
331920000 -1.134269e-005 -6.348145e-005 9.848940e-001 2.229361e-001 5.287731e-006 -3.081818e-005 9.892633e-001 2.241573e-001
332205000 7.575716e-005 -6.412909e-005 9.902238e-001 1.843700e-001 -1.380292e-005 1.415881e-005 9.948046e-001 1.846562e-001
332490000 5.201983e-005 -5.293939e-005 9.943135e-001 1.449253e-001 3.307314e-005 -1.487885e-005 9.985912e-001 1.454969e-001
332775000 -4.845008e-005 -5.575274e-005 9.961395e-001 1.054808e-001 5.900012e-006 5.072688e-005 1.000475e+000 1.059740e-001
333060000 8.428140e-005 -6.085911e-005 9.966232e-001 6.695793e-002 2.089622e-005 5.751379e-005 1.000360e+000 6.723891e-002
333345000 1.314610e-004 -2.786431e-005 9.940967e-001 2.815167e-002 1.159721e-004 7.451985e-005 9.982347e-001 2.785585e-002
333630000 1.344139e-005 5.714517e-005 9.909645e-001 -9.765151e-003 3.101850e-005 -2.907060e-005 9.952150e-001 -9.588221e-003
333915000 -1.124357e-006 -1.053620e-004 9.856125e-001 -4.757898e-002 2.949522e-005 -5.862771e-006 9.901272e-001 -4.790217e-002
334200000 -1.389478e-005 -4.021653e-005 9.785860e-001 -8.389919e-002 3.335207e-005 1.138727e-005 9.829139e-001 -8.415164e-002
334485000 1.727597e-005 -1.884836e-005 9.700110e-001 -1.197920e-001 -7.634994e-006 -3.155134e-005 9.746493e-001 -1.199226e-001
334770000 8.674678e-005 -1.064051e-004 9.603121e-001 -1.555667e-001 -3.106726e-005 8.938297e-006 9.642953e-001 -1.556598e-001
335055000 -1.073466e-004 -1.058301e-004 9.487988e-001 -1.887771e-001 -1.201666e-004 1.026669e-004 9.529102e-001 -1.901996e-001
335340000 2.638527e-005 1.648456e-006 9.364221e-001 -2.227333e-001 -8.843167e-005 5.740246e-005 9.401861e-001 -2.231874e-001
335625000 1.641046e-004 -1.196704e-005 9.223962e-001 -2.548204e-001 -6.435130e-005 1.089979e-004 9.261093e-001 -2.554651e-001
335910000 9.376931e-005 1.527121e-005 9.076871e-001 -2.856806e-001 -2.242200e-005 -1.757000e-006 9.109962e-001 -2.874358e-001
336195000 1.460041e-004 1.651939e-005 8.916131e-001 -3.163338e-001 -3.924662e-005 1.500513e-005 8.956816e-001 -3.181795e-001
336480000 -8.796286e-005 1.707774e-005 8.747765e-001 -3.455450e-001 -1.319132e-004 8.998993e-005 8.784326e-001 -3.468090e-001
336765000 -7.200632e-005 1.235614e-004 8.563119e-001 -3.736348e-001 -1.687082e-005 5.546676e-005 8.604761e-001 -3.744376e-001
337050000 -1.003911e-004 7.274545e-005 8.379670e-001 -4.006177e-001 -5.684717e-005 6.264236e-005 8.415467e-001 -4.021378e-001
337335000 -3.427831e-005 2.458668e-005 8.179467e-001 -4.261167e-001 -1.602957e-005 9.258383e-005 8.222043e-001 -4.281533e-001
337620000 5.920994e-005 2.438730e-005 7.986425e-001 -4.510717e-001 6.121266e-005 -4.096924e-005 8.018758e-001 -4.525762e-001
337905000 9.983112e-005 2.791239e-005 7.778943e-001 -4.747776e-001 -5.518832e-005 -2.311446e-005 7.816777e-001 -4.768954e-001
338190000 1.552949e-005 -1.267268e-004 7.575334e-001 -4.967843e-001 -1.185323e-005 -1.561198e-005 7.607074e-001 -4.990308e-001
338475000 -4.270050e-005 -2.039741e-006 7.356857e-001 -5.191625e-001 -7.072080e-005 -2.306380e-005 7.389383e-001 -5.202129e-001
338760000 5.375264e-005 1.118431e-004 7.141395e-001 -5.389622e-001 1.477896e-004 -5.924289e-005 7.171697e-001 -5.409701e-001
339045000 1.373262e-005 3.405982e-005 6.914796e-001 -5.581229e-001 -9.381696e-008 -4.726865e-005 6.950129e-001 -5.607759e-001
339330000 -6.232668e-005 2.642338e-005 6.691589e-001 -5.759256e-001 3.981882e-005 -1.643857e-005 6.721083e-001 -5.787789e-001
339615000 4.056691e-005 9.234083e-005 6.458798e-001 -5.936056e-001 6.505160e-005 -1.123312e-005 6.495197e-001 -5.962511e-001
339900000 -2.661843e-005 -3.401837e-005 6.238605e-001 -6.103423e-001 6.000168e-005 4.314832e-005 6.259883e-001 -6.125403e-001
340185000 -6.785387e-005 2.262968e-005 6.011178e-001 -6.255353e-001 -2.360685e-005 3.208628e-005 6.033886e-001 -6.279982e-001
340470000 -2.252761e-005 -5.999420e-005 5.776876e-001 -6.399484e-001 8.020190e-005 -3.841056e-006 5.796739e-001 -6.425728e-001
340755000 -2.671422e-005 -3.917643e-005 5.543925e-001 -6.529980e-001 -9.099313e-005 9.250916e-007 5.572982e-001 -6.558164e-001
341040000 1.273658e-004 -5.847714e-005 5.312994e-001 -6.657965e-001 -5.081351e-005 1.720776e-004 5.334337e-001 -6.688462e-001
341325000 -1.810979e-006 -2.287351e-005 5.082218e-001 -6.776793e-001 5.173744e-006 -3.726982e-005 5.095916e-001 -6.807600e-001
341610000 -1.941668e-007 7.314573e-005 4.845920e-001 -6.888977e-001 5.001774e-005 -1.504734e-005 4.868857e-001 -6.912479e-001
341895000 1.611218e-005 1.984698e-005 4.610733e-001 -6.990120e-001 6.914182e-005 -4.750005e-005 4.637053e-001 -7.019770e-001
342180000 4.643762e-005 7.028931e-005 4.383918e-001 -7.086765e-001 1.069506e-004 -1.103297e-004 4.402742e-001 -7.112719e-001
342465000 -7.511731e-005 -1.171802e-004 4.151754e-001 -7.171977e-001 1.754493e-005 1.476926e-004 4.166377e-001 -7.203900e-001
342750000 -8.556339e-005 5.944482e-005 3.920926e-001 -7.247440e-001 5.233803e-005 -1.014602e-004 3.941837e-001 -7.280092e-001
343035000 -3.841842e-005 9.432452e-005 3.693354e-001 -7.323590e-001 3.217494e-005 -2.123157e-005 3.709392e-001 -7.356278e-001
343320000 4.185541e-006 4.540485e-005 3.466536e-001 -7.393547e-001 2.083984e-005 3.404389e-005 3.479681e-001 -7.424324e-001
343605000 -4.055953e-005 1.201356e-004 3.240267e-001 -7.450745e-001 1.459507e-004 -8.943700e-005 3.250388e-001 -7.481791e-001
343890000 -4.784258e-005 -1.592271e-004 3.013744e-001 -7.501359e-001 -1.204935e-004 1.012490e-004 3.022359e-001 -7.536917e-001
