!Agilent Technologies,N5230C,SG49000117,A.08.50.07
!Agilent N5230C: A.08.50.07
!Date: Sunday, March 17, 2024 01:27:42
!Correction: S11(Off) 
!S21(Off) 
!S12(Off) 
!S22(Off) 
!S2P File: Measurements: S11, S21, S12, S22:
# Hz S  RI   R 50
300000000 -6.583888e-006 5.717438e-005 -6.262709e-001 -6.454265e-001 -3.195565e-005 3.853688e-005 -6.287899e-001 -6.477288e-001
300285000 -3.364179e-006 -5.301250e-005 -6.418588e-001 -6.217795e-001 8.504800e-006 6.341271e-005 -6.441751e-001 -6.246706e-001
300570000 6.865792e-005 -7.839149e-005 -6.559085e-001 -5.984595e-001 2.362826e-005 -1.137627e-005 -6.580209e-001 -6.007233e-001
300855000 2.827909e-005 -5.986812e-005 -6.690430e-001 -5.749392e-001 -9.135837e-006 -7.094673e-005 -6.715918e-001 -5.770713e-001
301140000 -6.239115e-005 -2.990096e-005 -6.816931e-001 -5.512379e-001 -1.229723e-005 3.015926e-006 -6.843048e-001 -5.530962e-001
301425000 -7.595574e-005 -1.667941e-005 -6.943423e-001 -5.276334e-001 -1.627915e-005 1.039795e-005 -6.960070e-001 -5.300989e-001
301710000 -4.600611e-006 4.339701e-005 -7.050004e-001 -5.039213e-001 -2.529433e-005 -2.263628e-005 -7.071242e-001 -5.061424e-001
301995000 -1.675648e-004 3.528913e-005 -7.149476e-001 -4.805125e-001 -1.394013e-005 8.520105e-005 -7.175419e-001 -4.822852e-001
302280000 -4.124052e-006 -7.615493e-005 -7.242864e-001 -4.568999e-001 -2.471537e-005 3.437583e-005 -7.269006e-001 -4.584793e-001
302565000 -5.433569e-005 5.819007e-005 -7.324440e-001 -4.334334e-001 4.879837e-005 7.278702e-006 -7.353250e-001 -4.352997e-001
302850000 -2.292030e-005 -6.175793e-005 -7.406044e-001 -4.103878e-001 -5.234077e-006 8.540484e-005 -7.437478e-001 -4.118009e-001
303135000 -8.343556e-005 1.156505e-004 -7.480403e-001 -3.867070e-001 -4.026947e-005 -9.937390e-006 -7.507489e-001 -3.886420e-001
303420000 3.575039e-005 -2.123236e-005 -7.548397e-001 -3.640416e-001 -7.880215e-005 -7.262012e-006 -7.574975e-001 -3.649732e-001
303705000 -5.617037e-005 -2.322532e-005 -7.612478e-001 -3.409674e-001 4.430549e-005 4.921882e-006 -7.638242e-001 -3.415571e-001
303990000 -5.978060e-005 -1.672840e-004 -7.662550e-001 -3.177074e-001 -1.679597e-005 -5.812301e-005 -7.686924e-001 -3.185294e-001
304275000 -8.434692e-006 -5.864749e-006 -7.709570e-001 -2.950185e-001 -2.121105e-005 -7.062626e-005 -7.737283e-001 -2.962469e-001
304560000 5.596884e-006 -8.193475e-005 -7.755027e-001 -2.723901e-001 4.479080e-005 3.987826e-005 -7.781762e-001 -2.732070e-001
304845000 7.927830e-005 -3.337247e-005 -7.787649e-001 -2.500282e-001 4.654119e-005 1.161159e-004 -7.819916e-001 -2.504888e-001
305130000 6.775083e-005 5.890181e-005 -7.819449e-001 -2.274119e-001 7.878240e-005 4.257283e-005 -7.853783e-001 -2.284775e-001
305415000 -2.522056e-005 -8.547909e-006 -7.844226e-001 -2.059235e-001 4.180039e-005 -4.530748e-005 -7.878390e-001 -2.058962e-001
305700000 8.849521e-006 -7.760266e-005 -7.871643e-001 -1.831579e-001 7.344852e-005 -1.908640e-006 -7.898917e-001 -1.839821e-001
305985000 1.762744e-005 6.041856e-005 -7.883704e-001 -1.612387e-001 1.123633e-005 6.036735e-005 -7.912849e-001 -1.617478e-001
306270000 6.413784e-005 -1.002254e-004 -7.892648e-001 -1.400014e-001 -7.765288e-005 4.263441e-005 -7.924958e-001 -1.401624e-001
306555000 -1.341466e-006 7.009328e-005 -7.906293e-001 -1.181711e-001 -4.541270e-005 -5.317015e-005 -7.929755e-001 -1.187530e-001
306840000 -9.583875e-005 -4.002593e-005 -7.900237e-001 -9.693360e-002 5.093727e-005 1.177288e-004 -7.938646e-001 -9.715485e-002
307125000 9.531027e-005 7.838063e-006 -7.900443e-001 -7.548250e-002 9.474943e-005 5.072926e-005 -7.933786e-001 -7.566148e-002
307410000 -1.631909e-005 1.056321e-004 -7.896761e-001 -5.474564e-002 -1.053308e-005 3.250700e-005 -7.924912e-001 -5.498768e-002
307695000 -1.031843e-004 5.040429e-005 -7.883917e-001 -3.329577e-002 6.744864e-005 7.197088e-005 -7.911302e-001 -3.371954e-002
307980000 -6.318054e-005 -1.194176e-005 -7.872299e-001 -1.250231e-002 -6.606241e-005 3.547173e-005 -7.903274e-001 -1.239754e-002
308265000 1.287893e-005 -5.261570e-005 -7.849044e-001 7.829326e-003 -2.603791e-005 3.464278e-005 -7.879736e-001 7.849114e-003
308550000 -3.227802e-005 4.172777e-006 -7.828029e-001 2.810768e-002 -1.351552e-004 4.796622e-005 -7.857980e-001 2.858967e-002
308835000 2.001855e-004 -6.248065e-005 -7.805920e-001 4.894874e-002 -2.534440e-005 -1.303487e-005 -7.834524e-001 4.914249e-002
309120000 1.135155e-004 -1.690207e-004 -7.779316e-001 6.902345e-002 1.152472e-005 6.671828e-005 -7.802880e-001 6.900810e-002
309405000 4.742411e-005 9.354197e-005 -7.741846e-001 8.919001e-002 -3.014634e-005 -2.014830e-005 -7.771401e-001 8.957860e-002
309690000 5.923100e-005 4.097580e-005 -7.705384e-001 1.089997e-001 -5.153409e-005 6.754856e-005 -7.732403e-001 1.095771e-001
309975000 5.564627e-006 -1.065319e-004 -7.663309e-001 1.292265e-001 8.974817e-005 6.135290e-005 -7.691221e-001 1.296468e-001
310260000 1.174314e-004 6.188281e-005 -7.615742e-001 1.490235e-001 5.382780e-006 -3.396888e-005 -7.652464e-001 1.492301e-001
310545000 -2.964446e-005 -4.451503e-005 -7.574011e-001 1.682252e-001 1.278553e-005 -3.869725e-005 -7.608213e-001 1.692297e-001
310830000 -4.841442e-005 3.025642e-005 -7.517688e-001 1.880104e-001 5.918096e-005 -7.883279e-006 -7.551586e-001 1.889285e-001
311115000 -5.024376e-008 2.789130e-006 -7.462907e-001 2.070794e-001 1.643478e-005 -9.063420e-005 -7.495769e-001 2.079061e-001
311400000 -4.759518e-005 1.609564e-005 -7.408263e-001 2.268811e-001 -3.019885e-005 5.784793e-005 -7.434347e-001 2.274633e-001
311685000 -3.495512e-005 4.226568e-005 -7.340536e-001 2.456977e-001 -4.345197e-005 1.071450e-004 -7.373615e-001 2.467714e-001
311970000 -3.587210e-005 2.512368e-005 -7.281485e-001 2.650523e-001 -8.011586e-005 3.715728e-005 -7.304873e-001 2.657320e-001
312255000 -5.482358e-005 -8.360449e-005 -7.209249e-001 2.841491e-001 1.191207e-004 2.011318e-006 -7.234690e-001 2.853868e-001
312540000 1.378692e-005 -1.098694e-004 -7.137356e-001 3.028346e-001 -3.054537e-005 7.678602e-006 -7.164233e-001 3.041447e-001
312825000 -6.120565e-005 -8.675021e-005 -7.065576e-001 3.216778e-001 2.454909e-005 5.316140e-005 -7.088452e-001 3.233808e-001
313110000 1.318215e-004 -4.379740e-005 -6.983454e-001 3.401888e-001 -2.388122e-005 -1.304441e-004 -7.011931e-001 3.417729e-001
313395000 1.354189e-004 -2.984995e-005 -6.897447e-001 3.592177e-001 -1.086626e-004 -1.061379e-004 -6.925439e-001 3.605075e-001
313680000 -6.199021e-005 1.703752e-005 -6.806837e-001 3.782095e-001 5.538143e-006 9.675635e-005 -6.838323e-001 3.795890e-001
313965000 9.991890e-005 2.365520e-005 -6.724138e-001 3.964749e-001 -8.863192e-005 3.704875e-005 -6.743139e-001 3.980511e-001
314250000 1.633031e-005 6.211130e-006 -6.622840e-001 4.148250e-001 2.158165e-005 -3.879229e-006 -6.648947e-001 4.165802e-001
314535000 3.984836e-005 1.872722e-005 -6.527707e-001 4.333600e-001 4.390686e-005 3.425760e-005 -6.548518e-001 4.348917e-001
314820000 -5.982273e-005 1.398773e-006 -6.421428e-001 4.515787e-001 6.423582e-006 -7.968480e-005 -6.442422e-001 4.528577e-001
315105000 1.409387e-006 1.262828e-005 -6.310473e-001 4.694906e-001 3.167548e-005 -1.177028e-004 -6.339653e-001 4.713235e-001
315390000 5.237873e-005 -8.603428e-006 -6.204485e-001 4.876110e-001 3.653208e-005 -2.505169e-005 -6.226113e-001 4.894089e-001
315675000 -1.125300e-005 9.391589e-005 -6.083803e-001 5.056374e-001 -2.562673e-005 3.087350e-005 -6.108618e-001 5.080512e-001
315960000 -7.368152e-006 -1.530403e-005 -5.960586e-001 5.234218e-001 1.584744e-005 -6.185250e-005 -5.982892e-001 5.253977e-001
316245000 3.119311e-005 9.037657e-006 -5.834450e-001 5.414676e-001 1.967781e-005 -1.061582e-004 -5.862934e-001 5.434341e-001
316530000 6.830856e-005 -9.063337e-005 -5.705006e-001 5.592242e-001 -4.637257e-005 -3.596372e-005 -5.723847e-001 5.615483e-001
316815000 7.139651e-005 -5.904119e-005 -5.564627e-001 5.762725e-001 2.466455e-005 3.058095e-005 -5.583897e-001 5.786362e-001
317100000 9.836759e-006 -3.624618e-005 -5.424676e-001 5.936794e-001 5.906595e-006 6.778068e-005 -5.445523e-001 5.962406e-001
317385000 9.888716e-005 2.116974e-005 -5.281557e-001 6.109189e-001 -1.103220e-004 5.528458e-005 -5.303616e-001 6.139138e-001
317670000 1.466090e-005 -3.413797e-005 -5.124780e-001 6.283317e-001 1.061918e-004 1.549728e-004 -5.145224e-001 6.305692e-001
317955000 -4.089436e-005 6.493201e-005 -4.968618e-001 6.454060e-001 4.255016e-006 4.291971e-005 -4.988744e-001 6.475570e-001
318240000 6.319723e-005 4.602701e-005 -4.808401e-001 6.619181e-001 -8.254125e-005 5.596118e-005 -4.826001e-001 6.647804e-001
318525000 -3.746972e-005 3.524595e-005 -4.634809e-001 6.779957e-001 -3.853275e-005 8.568699e-005 -4.651193e-001 6.812410e-001
318810000 -4.357714e-005 4.113414e-005 -4.460252e-001 6.948705e-001 6.232325e-006 6.344618e-005 -4.480855e-001 6.975260e-001
319095000 1.906704e-004 -1.240845e-004 -4.282989e-001 7.107430e-001 -4.775676e-005 -5.181311e-005 -4.298500e-001 7.137284e-001
319380000 4.989752e-005 -9.142184e-006 -4.092165e-001 7.269011e-001 3.903957e-005 -2.735429e-005 -4.112841e-001 7.297705e-001
319665000 -1.140379e-005 -5.398765e-006 -3.896455e-001 7.424555e-001 9.847454e-006 -1.335629e-004 -3.915529e-001 7.450623e-001
319950000 -5.860997e-005 -6.914294e-005 -3.692534e-001 7.573489e-001 -7.633633e-006 -2.094111e-005 -3.708252e-001 7.603830e-001
320235000 1.344004e-004 -9.700638e-005 -3.492098e-001 7.723932e-001 -6.548254e-005 2.038974e-005 -3.502169e-001 7.752850e-001
320520000 3.082345e-005 -5.236881e-005 -3.270444e-001 7.867450e-001 -2.488791e-005 6.165176e-005 -3.289931e-001 7.905176e-001
320805000 5.563205e-005 -3.360690e-005 -3.052174e-001 8.008982e-001 7.648621e-005 -3.894742e-005 -3.066601e-001 8.046538e-001
321090000 1.212523e-004 1.496511e-004 -2.821087e-001 8.147729e-001 4.929124e-006 -3.906723e-005 -2.833850e-001 8.183521e-001
321375000 -9.821923e-005 1.300611e-005 -2.585874e-001 8.283867e-001 -3.138287e-005 -1.244939e-005 -2.598831e-001 8.311444e-001
321660000 -2.288598e-005 6.393232e-005 -2.340686e-001 8.407617e-001 -1.352994e-005 -5.232043e-005 -2.349660e-001 8.441846e-001
321945000 -5.964501e-005 -3.555487e-006 -2.087870e-001 8.526801e-001 2.147440e-005 1.540296e-004 -2.099483e-001 8.566546e-001
322230000 9.567888e-006 -2.013608e-005 -1.832090e-001 8.646764e-001 -7.842261e-005 5.843061e-005 -1.837602e-001 8.680683e-001
322515000 -8.964657e-005 -1.096278e-005 -1.565782e-001 8.749005e-001 -9.380102e-005 2.408547e-005 -1.572730e-001 8.792064e-001
322800000 -1.914460e-005 5.841731e-005 -1.292416e-001 8.856863e-001 3.303028e-005 -7.032520e-006 -1.297891e-001 8.890398e-001
323085000 4.827774e-005 4.211719e-005 -1.015314e-001 8.950273e-001 -8.248982e-005 -3.512909e-005 -1.016309e-001 8.985386e-001
323370000 -9.052395e-005 5.097647e-005 -7.248185e-002 9.032711e-001 2.869718e-005 -8.918898e-005 -7.228757e-002 9.077457e-001
323655000 -1.355854e-005 3.368139e-005 -4.239441e-002 9.105912e-001 -2.657664e-005 5.412640e-005 -4.291513e-002 9.149269e-001
323940000 -5.207819e-005 -1.295432e-005 -1.262341e-002 9.179546e-001 8.079348e-005 9.845860e-006 -1.196328e-002 9.223377e-001
324225000 1.482830e-005 1.232754e-005 1.881997e-002 9.242012e-001 -8.447851e-005 -3.743328e-005 1.863951e-002 9.277289e-001
324510000 1.014648e-004 1.131623e-004 5.025890e-002 9.289048e-001 3.137675e-005 -2.656312e-006 5.058258e-002 9.329072e-001
324795000 5.863965e-005 1.042538e-004 8.304665e-002 9.325335e-001 4.964129e-005 2.111888e-005 8.308342e-002 9.366311e-001
325080000 7.356948e-005 -5.971438e-005 1.157259e-001 9.344505e-001 -3.784472e-006 1.121141e-005 1.159239e-001 9.387431e-001
325365000 3.484192e-005 1.828114e-005 1.487992e-001 9.362761e-001 9.388697e-006 1.768207e-005 1.497337e-001 9.397694e-001
325650000 -2.706315e-005 1.467153e-005 1.832828e-001 9.359595e-001 -2.851015e-005 4.741892e-005 1.839557e-001 9.397786e-001
325935000 -5.128644e-005 2.633735e-005 2.172953e-001 9.347920e-001 -3.678030e-006 -3.318705e-005 2.188153e-001 9.387074e-001
326220000 5.378277e-005 -5.127786e-005 2.523427e-001 9.316934e-001 -3.500767e-006 5.700564e-005 2.539813e-001 9.352335e-001
326505000 -2.730621e-005 4.231344e-005 2.877276e-001 9.267644e-001 -1.473692e-005 -1.842215e-005 2.894756e-001 9.312969e-001
326790000 -9.600306e-005 7.102725e-005 3.229372e-001 9.214234e-001 -6.647573e-005 -6.205258e-007 3.247459e-001 9.255061e-001
327075000 6.406273e-005 2.243603e-005 3.590310e-001 9.135427e-001 -1.029328e-004 7.222659e-006 3.596999e-001 9.182430e-001
327360000 5.149218e-005 -9.066128e-005 3.943106e-001 9.052165e-001 -1.097179e-004 8.521923e-005 3.966770e-001 9.089257e-001
327645000 2.639183e-005 3.366176e-005 4.294489e-001 8.938677e-001 -9.946198e-005 -3.492341e-005 4.322530e-001 8.981217e-001
327930000 3.266336e-005 -5.343416e-006 4.657901e-001 8.817003e-001 -1.104330e-004 -3.943631e-005 4.669622e-001 8.855662e-001
328215000 -5.459332e-005 -2.348060e-005 5.011228e-001 8.672969e-001 2.496519e-005 3.051943e-005 5.033136e-001 8.706154e-001
328500000 -1.331836e-005 6.313772e-007 5.357572e-001 8.511416e-001 -9.161775e-005 -5.637656e-005 5.382943e-001 8.544778e-001
328785000 -3.531528e-005 1.037898e-004 5.698224e-001 8.329877e-001 -6.242305e-005 1.081341e-005 5.729032e-001 8.369896e-001
329070000 -2.859694e-005 1.713786e-005 6.042998e-001 8.141818e-001 4.014383e-005 -3.656934e-005 6.070856e-001 8.169467e-001
329355000 -1.137707e-004 -3.442484e-005 6.372646e-001 7.924225e-001 4.343079e-005 7.417168e-005 6.403227e-001 7.958902e-001
329640000 2.527929e-005 -3.778635e-005 6.697475e-001 7.691553e-001 -5.399611e-005 1.105033e-004 6.733363e-001 7.733600e-001
329925000 -1.024467e-004 -2.549501e-005 7.011582e-001 7.445237e-001 3.463477e-007 -2.482923e-005 7.049370e-001 7.480775e-001
330210000 -7.616559e-005 -1.532030e-005 7.322887e-001 7.184415e-001 1.055034e-005 6.799677e-005 7.351933e-001 7.216578e-001
330495000 2.196576e-005 1.797717e-005 7.619771e-001 6.905257e-001 -4.493661e-005 2.765276e-005 7.650183e-001 6.933894e-001
330780000 3.510326e-005 -1.152053e-004 7.894204e-001 6.613798e-001 9.163795e-006 -2.151192e-005 7.926424e-001 6.639410e-001
331065000 6.171328e-005 -5.380901e-006 8.163711e-001 6.305900e-001 -6.667990e-005 2.850144e-005 8.198118e-001 6.330984e-001
331350000 -1.612466e-005 -2.377061e-005 8.412300e-001 5.981643e-001 -1.175038e-004 -3.344429e-005 8.445061e-001 6.009359e-001
331635000 -4.316329e-005 8.605685e-005 8.651075e-001 5.654213e-001 -9.631320e-006 -1.685922e-005 8.688275e-001 5.673556e-001
331920000 -7.267165e-005 -7.029835e-006 8.871926e-001 5.296207e-001 1.643109e-005 -6.008570e-005 8.907903e-001 5.322459e-001
332205000 5.348890e-005 -3.617480e-005 9.073784e-001 4.946383e-001 1.189677e-004 -1.292895e-005 9.112118e-001 4.964307e-001
332490000 -1.001171e-004 7.129437e-005 9.260911e-001 4.583486e-001 6.557909e-005 -4.236344e-005 9.299260e-001 4.599152e-001
332775000 -7.470151e-005 -8.855513e-006 9.420496e-001 4.202535e-001 7.019262e-005 1.252829e-004 9.461824e-001 4.228964e-001
333060000 -6.816856e-005 -3.177146e-005 9.573458e-001 3.827295e-001 -8.703872e-006 9.734011e-006 9.609600e-001 3.842487e-001
333345000 -1.301297e-004 2.358578e-005 9.697628e-001 3.442393e-001 5.151667e-006 -9.339828e-005 9.736118e-001 3.451931e-001
333630000 -5.153226e-005 5.994112e-005 9.804556e-001 3.054678e-001 5.096600e-005 -1.796546e-005 9.846436e-001 3.058721e-001
333915000 -1.121059e-004 4.847496e-005 9.897517e-001 2.660996e-001 -1.757745e-005 1.446732e-004 9.933321e-001 2.672187e-001
334200000 -9.013521e-005 6.784857e-005 9.962023e-001 2.262594e-001 6.939150e-005 -7.213600e-005 1.000478e+000 2.271454e-001
334485000 -1.839049e-005 8.588413e-005 1.002236e+000 1.869302e-001 3.561666e-006 -3.926579e-005 1.006140e+000 1.882174e-001
334770000 -4.101589e-005 -1.422198e-004 1.004598e+000 1.483454e-001 2.326240e-005 1.147756e-004 1.009163e+000 1.488001e-001
335055000 -5.421850e-005 1.117299e-004 1.006310e+000 1.084029e-001 -5.849013e-005 -3.225488e-005 1.010918e+000 1.094763e-001
335340000 -5.212939e-005 -3.312887e-005 1.005497e+000 6.974504e-002 1.868788e-004 -4.138866e-005 1.009992e+000 7.018254e-002
335625000 -7.101416e-006 1.176473e-004 1.003167e+000 3.218640e-002 5.317082e-005 3.904973e-005 1.007763e+000 3.230479e-002
335910000 4.750558e-006 5.639718e-006 9.994222e-001 -5.785982e-003 1.271312e-005 -1.415169e-005 1.004047e+000 -5.692265e-003
336195000 3.441312e-005 -3.305764e-005 9.938406e-001 -4.302417e-002 2.454205e-005 6.738718e-005 9.976256e-001 -4.328480e-002
336480000 1.107319e-005 5.423689e-005 9.864351e-001 -7.923926e-002 2.773038e-005 1.069324e-004 9.906840e-001 -7.931413e-002
336765000 8.814905e-005 -5.944586e-005 9.783637e-001 -1.151343e-001 4.337148e-005 7.892140e-005 9.817932e-001 -1.152012e-001
337050000 -6.247209e-006 -2.203243e-005 9.683257e-001 -1.497699e-001 1.442650e-005 9.616585e-005 9.725350e-001 -1.501029e-001
337335000 6.808139e-005 -3.751633e-005 9.564596e-001 -1.834373e-001 1.319487e-005 9.707486e-005 9.602238e-001 -1.839724e-001
337620000 -5.374088e-006 6.969363e-005 9.443817e-001 -2.160950e-001 -1.020933e-004 1.165087e-005 9.479381e-001 -2.171431e-001
337905000 -3.072515e-006 -1.115275e-005 9.298905e-001 -2.474220e-001 -8.192302e-006 4.256848e-005 9.341334e-001 -2.488823e-001
338190000 1.503264e-005 -4.145812e-005 9.150183e-001 -2.785756e-001 -6.168189e-005 -1.139589e-004 9.200320e-001 -2.804145e-001
338475000 1.498623e-005 -1.372967e-004 9.001773e-001 -3.091351e-001 -4.015518e-005 1.311339e-004 9.036201e-001 -3.102768e-001
338760000 7.208289e-005 -1.350270e-005 8.836247e-001 -3.381194e-001 -9.459672e-005 1.499088e-005 8.871222e-001 -3.391158e-001
339045000 8.137644e-007 -1.255147e-005 8.659757e-001 -3.660510e-001 1.430522e-005 4.008358e-005 8.696287e-001 -3.671666e-001
339330000 -1.341443e-005 5.865099e-005 8.479720e-001 -3.923861e-001 2.185986e-006 1.530399e-005 8.515482e-001 -3.942767e-001
339615000 1.100119e-004 3.060740e-005 8.290091e-001 -4.177614e-001 -7.392608e-006 5.071403e-005 8.330489e-001 -4.197943e-001
339900000 -6.535533e-005 3.287074e-005 8.094108e-001 -4.423745e-001 6.009523e-005 1.778269e-005 8.128539e-001 -4.445209e-001
340185000 -1.499611e-005 -1.418634e-005 7.895933e-001 -4.657544e-001 1.158993e-004 -3.349742e-005 7.928024e-001 -4.675291e-001
340470000 -8.437730e-005 4.822485e-005 7.688656e-001 -4.880178e-001 4.416292e-005 -7.988223e-005 7.723884e-001 -4.895635e-001
340755000 -1.053509e-004 7.672711e-005 7.482436e-001 -5.097923e-001 4.125522e-005 -5.293383e-005 7.511262e-001 -5.117550e-001
341040000 -3.873087e-005 2.564613e-005 7.268078e-001 -5.302065e-001 -1.342773e-005 5.927286e-005 7.297990e-001 -5.321006e-001
341325000 -3.844759e-005 -3.582034e-005 7.049626e-001 -5.495737e-001 -3.382616e-005 4.296095e-005 7.081112e-001 -5.516072e-001
341610000 1.393914e-005 -4.289760e-005 6.835296e-001 -5.671747e-001 1.910380e-005 9.903550e-005 6.860011e-001 -5.702301e-001
341895000 -3.261437e-005 -1.452644e-005 6.613644e-001 -5.853063e-001 3.177941e-005 -2.620952e-006 6.638255e-001 -5.874435e-001
342180000 4.335445e-005 1.085333e-006 6.388690e-001 -6.010720e-001 -2.441182e-005 -1.649372e-005 6.414037e-001 -6.039185e-001
342465000 -8.167505e-006 -3.302865e-005 6.167568e-001 -6.170800e-001 2.319176e-005 1.918788e-005 6.191235e-001 -6.200056e-001
342750000 3.256456e-005 1.568328e-005 5.939136e-001 -6.317643e-001 -1.243007e-004 -1.067701e-004 5.965360e-001 -6.342992e-001
343035000 1.076227e-005 1.954504e-005 5.714306e-001 -6.457619e-001 2.831771e-005 1.479481e-005 5.741421e-001 -6.481733e-001
343320000 8.179990e-005 5.047139e-006 5.491380e-001 -6.587627e-001 -2.196653e-005 -1.068559e-004 5.510191e-001 -6.613428e-001
343605000 4.942732e-005 4.568652e-005 5.259702e-001 -6.709234e-001 4.752395e-006 -3.567662e-005 5.287307e-001 -6.738408e-001
343890000 1.572436e-005 1.796186e-005 5.034102e-001 -6.825865e-001 -4.139170e-005 -1.945018e-005 5.057523e-001 -6.858782e-001
