!Agilent Technologies,N5230C,SG49000117,A.08.50.07
!Agilent N5230C: A.08.50.07
!Date: Sunday, March 17, 2024 02:57:06
!Correction: S11(Off) 
!S21(Off) 
!S12(Off) 
!S22(Off) 
!S2P File: Measurements: S11, S21, S12, S22:
# Hz S  RI   R 50
300000000 -6.739662e-006 -1.060409e-004 -6.723107e-001 -5.748392e-001 -1.011557e-004 7.148671e-005 -6.748278e-001 -5.768273e-001
300285000 -6.871844e-006 -2.421151e-005 -6.848933e-001 -5.515348e-001 7.728444e-005 -9.382712e-005 -6.876884e-001 -5.528649e-001
300570000 7.545536e-005 2.385031e-005 -6.973695e-001 -5.271105e-001 1.016250e-005 -1.173838e-006 -6.991116e-001 -5.291511e-001
300855000 4.276809e-005 6.808461e-006 -7.078403e-001 -5.028944e-001 -2.637895e-005 -7.337231e-005 -7.104037e-001 -5.053220e-001
301140000 9.459122e-005 -3.929155e-005 -7.176101e-001 -4.793513e-001 3.358781e-006 7.670666e-006 -7.203096e-001 -4.810209e-001
301425000 5.564563e-005 2.464591e-005 -7.270890e-001 -4.552123e-001 -1.321191e-005 -1.394561e-004 -7.301933e-001 -4.569345e-001
301710000 1.315730e-004 -6.344623e-005 -7.359959e-001 -4.317724e-001 -1.493575e-005 -4.782933e-005 -7.386490e-001 -4.334064e-001
301995000 -5.472426e-005 6.237404e-005 -7.437438e-001 -4.079105e-001 8.799535e-005 1.024158e-005 -7.468228e-001 -4.096435e-001
302280000 6.170982e-006 -4.508746e-005 -7.511153e-001 -3.844202e-001 6.114283e-005 -7.648289e-005 -7.538617e-001 -3.860518e-001
302565000 -7.240809e-005 -8.195609e-005 -7.580451e-001 -3.616109e-001 6.026000e-005 -1.734194e-005 -7.608446e-001 -3.624152e-001
302850000 -7.214591e-005 -1.759506e-005 -7.637008e-001 -3.378468e-001 3.193037e-005 -2.649691e-005 -7.664414e-001 -3.389222e-001
303135000 5.152296e-005 1.358658e-005 -7.687527e-001 -3.149152e-001 -4.458601e-005 -1.224667e-005 -7.716417e-001 -3.160156e-001
303420000 -5.919556e-005 4.807482e-005 -7.739987e-001 -2.917168e-001 5.915717e-005 -6.639999e-005 -7.765881e-001 -2.926852e-001
303705000 -3.790259e-005 -7.046506e-006 -7.778808e-001 -2.687548e-001 2.708463e-005 -5.233562e-006 -7.807281e-001 -2.698954e-001
303990000 8.553761e-005 4.414527e-005 -7.814699e-001 -2.462775e-001 -4.389156e-005 5.105305e-005 -7.839008e-001 -2.471003e-001
304275000 5.377410e-005 -7.240882e-005 -7.844195e-001 -2.236567e-001 5.646510e-006 -1.917667e-004 -7.868884e-001 -2.242868e-001
304560000 6.472444e-005 1.453044e-005 -7.870585e-001 -2.013424e-001 1.285906e-005 -2.146388e-005 -7.897194e-001 -2.017163e-001
304845000 1.410819e-004 6.466715e-005 -7.887627e-001 -1.791742e-001 3.853956e-005 -3.549182e-005 -7.919031e-001 -1.799276e-001
305130000 4.572998e-005 1.270458e-005 -7.896929e-001 -1.567715e-001 9.007794e-005 9.546371e-005 -7.934036e-001 -1.573793e-001
305415000 6.507639e-005 -2.567837e-005 -7.908254e-001 -1.349584e-001 9.760842e-005 3.190256e-005 -7.942660e-001 -1.355086e-001
305700000 -4.127597e-005 -5.485174e-005 -7.919011e-001 -1.131192e-001 -1.522389e-004 1.154392e-004 -7.949497e-001 -1.138384e-001
305985000 5.129938e-006 3.576083e-005 -7.921088e-001 -9.163538e-002 -1.426412e-004 1.228007e-005 -7.943809e-001 -9.249007e-002
306270000 -1.140030e-004 2.688887e-005 -7.909656e-001 -7.061486e-002 3.756753e-005 3.015349e-005 -7.942327e-001 -7.082348e-002
306555000 2.969208e-005 2.121276e-005 -7.907008e-001 -4.920447e-002 -1.338532e-004 4.519971e-005 -7.931133e-001 -4.957377e-002
306840000 5.777163e-005 -2.564953e-006 -7.893324e-001 -2.791351e-002 -1.741734e-005 8.648373e-006 -7.920064e-001 -2.842368e-002
307125000 7.373549e-005 9.050890e-005 -7.867790e-001 -7.145939e-003 -5.767654e-005 1.864594e-005 -7.903476e-001 -7.642647e-003
307410000 8.772559e-005 1.006422e-004 -7.856444e-001 1.330685e-002 9.919308e-007 -4.860222e-005 -7.884004e-001 1.365059e-002
307695000 4.003083e-005 4.665345e-005 -7.827898e-001 3.427386e-002 -6.540246e-005 -1.847444e-005 -7.856274e-001 3.400217e-002
307980000 -8.434727e-005 3.996195e-005 -7.801387e-001 5.458827e-002 6.898306e-005 5.424668e-005 -7.829055e-001 5.506558e-002
308265000 -2.265139e-005 2.124848e-005 -7.767473e-001 7.465896e-002 -5.654277e-005 -1.215027e-005 -7.795818e-001 7.482935e-002
308550000 -3.647263e-005 -6.428619e-005 -7.734100e-001 9.456302e-002 2.538329e-005 -8.547931e-006 -7.758422e-001 9.550744e-002
308835000 -8.627037e-005 -8.830184e-005 -7.692750e-001 1.152387e-001 -4.910368e-005 -4.283651e-005 -7.718492e-001 1.154708e-001
309120000 1.618999e-005 -1.961432e-005 -7.648242e-001 1.347618e-001 4.004307e-005 -1.714632e-005 -7.674410e-001 1.353421e-001
309405000 -1.715058e-005 -7.714547e-005 -7.600750e-001 1.545968e-001 -2.542182e-005 1.731165e-005 -7.630209e-001 1.555866e-001
309690000 -6.654024e-005 -5.324888e-005 -7.552248e-001 1.744291e-001 7.334396e-005 1.170875e-004 -7.584636e-001 1.750037e-001
309975000 1.917042e-005 -7.480603e-005 -7.496068e-001 1.940494e-001 3.161551e-005 2.052227e-006 -7.525049e-001 1.945622e-001
310260000 1.063965e-004 -1.606397e-005 -7.438019e-001 2.135778e-001 2.675093e-005 -6.400121e-006 -7.469277e-001 2.145109e-001
310545000 -3.479019e-005 -1.424456e-005 -7.379741e-001 2.323683e-001 9.581778e-005 -9.988586e-005 -7.403904e-001 2.335442e-001
310830000 1.032831e-004 1.060216e-004 -7.313107e-001 2.519646e-001 -1.729682e-005 2.791564e-005 -7.342425e-001 2.528674e-001
311115000 1.175137e-004 1.260188e-005 -7.247197e-001 2.712868e-001 3.607296e-005 5.837016e-005 -7.278885e-001 2.715072e-001
311400000 -1.240403e-004 1.273017e-004 -7.174553e-001 2.899296e-001 2.821639e-005 5.682119e-005 -7.206231e-001 2.909804e-001
311685000 -7.625654e-005 8.441763e-005 -7.097008e-001 3.087570e-001 -1.135923e-004 2.762270e-005 -7.130666e-001 3.099624e-001
311970000 -2.006362e-005 -6.768967e-005 -7.018231e-001 3.275935e-001 -2.136010e-005 -8.111612e-005 -7.047191e-001 3.285952e-001
312255000 -3.481203e-005 -6.142852e-005 -6.935940e-001 3.460585e-001 -2.651642e-005 3.492590e-005 -6.964973e-001 3.471635e-001
312540000 5.554534e-006 -5.901497e-005 -6.849650e-001 3.651861e-001 5.242413e-005 -1.893745e-004 -6.874182e-001 3.661460e-001
312825000 -6.770375e-005 -6.773065e-005 -6.761885e-001 3.837860e-001 5.274939e-005 -1.124225e-005 -6.788184e-001 3.851345e-001
313110000 -1.599848e-004 4.154807e-005 -6.667424e-001 4.015600e-001 3.369739e-005 1.329380e-004 -6.694496e-001 4.033342e-001
313395000 -3.205684e-005 -1.168655e-005 -6.565012e-001 4.198388e-001 7.958647e-005 8.047188e-006 -6.592845e-001 4.218750e-001
313680000 -1.551854e-005 6.314247e-005 -6.471500e-001 4.386846e-001 9.822841e-005 6.699846e-006 -6.490495e-001 4.403720e-001
313965000 -8.672875e-005 -2.947125e-005 -6.361391e-001 4.562344e-001 -1.519374e-005 1.775820e-005 -6.386772e-001 4.578530e-001
314250000 8.067655e-006 -9.680873e-005 -6.248914e-001 4.744416e-001 4.572598e-005 -3.086374e-005 -6.276786e-001 4.765576e-001
314535000 -5.032859e-005 1.222891e-004 -6.134838e-001 4.922059e-001 1.649406e-004 3.390943e-005 -6.162320e-001 4.941060e-001
314820000 3.676246e-005 5.547558e-005 -6.017843e-001 5.097060e-001 2.852301e-006 1.198789e-004 -6.038712e-001 5.119568e-001
315105000 6.051454e-005 2.097931e-005 -5.892423e-001 5.274953e-001 3.903257e-005 -9.698109e-005 -5.917378e-001 5.300412e-001
315390000 8.086272e-005 2.305287e-005 -5.764351e-001 5.454518e-001 -1.601820e-006 -8.942104e-006 -5.790299e-001 5.476321e-001
315675000 -8.093242e-006 -3.156527e-005 -5.630533e-001 5.625373e-001 -4.030151e-005 -1.049839e-004 -5.652653e-001 5.647832e-001
315960000 1.831663e-005 3.834374e-005 -5.490605e-001 5.799932e-001 1.144855e-004 -3.566966e-005 -5.511038e-001 5.826579e-001
316245000 -3.431522e-005 2.194064e-005 -5.346826e-001 5.970204e-001 3.825410e-005 7.485892e-005 -5.368515e-001 5.997391e-001
316530000 -3.090793e-005 6.245191e-005 -5.197694e-001 6.144307e-001 2.024722e-005 -3.079377e-005 -5.220116e-001 6.162955e-001
316815000 1.065306e-004 6.088791e-005 -5.045820e-001 6.312494e-001 -1.442568e-005 3.967087e-005 -5.065687e-001 6.338868e-001
317100000 -8.225367e-005 -2.149474e-005 -4.890614e-001 6.479212e-001 2.986664e-005 -1.240394e-005 -4.903062e-001 6.505327e-001
317385000 -5.125443e-005 -5.490800e-005 -4.716463e-001 6.640913e-001 2.292994e-005 -6.968725e-005 -4.737072e-001 6.665787e-001
317670000 -5.158281e-005 -7.204425e-005 -4.554707e-001 6.805678e-001 -5.976516e-007 -2.494616e-006 -4.569800e-001 6.826370e-001
317955000 -5.054849e-005 1.211628e-005 -4.369630e-001 6.963956e-001 4.782442e-005 7.796654e-005 -4.389165e-001 6.991341e-001
318240000 2.258325e-005 1.456870e-005 -4.186780e-001 7.122791e-001 1.262758e-005 4.431474e-005 -4.203203e-001 7.151871e-001
318525000 -4.015199e-005 7.255769e-006 -4.000096e-001 7.273805e-001 2.441828e-005 4.498824e-006 -4.012666e-001 7.307727e-001
318810000 4.156823e-005 6.083463e-005 -3.804979e-001 7.427369e-001 -6.071794e-005 5.617606e-005 -3.821671e-001 7.456993e-001
319095000 -6.704658e-005 -4.963714e-005 -3.609205e-001 7.573983e-001 -2.648881e-005 1.900784e-005 -3.619520e-001 7.607782e-001
319380000 7.425163e-006 -5.694369e-005 -3.394442e-001 7.727989e-001 9.977768e-005 9.770305e-005 -3.410060e-001 7.755782e-001
319665000 1.761363e-005 5.767031e-005 -3.174083e-001 7.863542e-001 9.769959e-005 1.390090e-004 -3.186872e-001 7.892668e-001
319950000 -1.096083e-004 -1.255054e-004 -2.956801e-001 8.002402e-001 1.943858e-005 6.495732e-005 -2.965640e-001 8.032970e-001
320235000 -4.460177e-005 -4.224331e-005 -2.725021e-001 8.132297e-001 1.159227e-004 -9.790650e-005 -2.736399e-001 8.170968e-001
320520000 1.007385e-005 4.800879e-005 -2.490481e-001 8.263862e-001 1.148738e-005 3.597647e-006 -2.495342e-001 8.298828e-001
320805000 -4.895703e-005 8.176552e-005 -2.240610e-001 8.386663e-001 1.254238e-005 7.408841e-005 -2.252506e-001 8.425499e-001
321090000 4.481514e-005 9.668202e-005 -1.989129e-001 8.503781e-001 -8.925599e-006 1.132422e-005 -2.001807e-001 8.537256e-001
321375000 -2.691760e-005 -4.990956e-006 -1.732814e-001 8.618088e-001 2.274606e-005 -5.668055e-005 -1.743464e-001 8.654300e-001
321660000 -4.703071e-005 -6.933114e-005 -1.468467e-001 8.724771e-001 -2.100966e-005 -5.982700e-005 -1.475852e-001 8.757074e-001
321945000 -1.662230e-005 3.577929e-005 -1.193048e-001 8.824083e-001 1.149909e-004 -1.004140e-005 -1.201767e-001 8.858333e-001
322230000 -8.461886e-005 -2.908240e-005 -9.163372e-002 8.913787e-001 2.404548e-005 -1.545511e-004 -9.168120e-002 8.947663e-001
322515000 3.769929e-005 -9.228022e-005 -6.223743e-002 8.991106e-001 5.820941e-005 -1.429719e-005 -6.282976e-002 9.034218e-001
322800000 9.833801e-005 -2.386003e-005 -3.335684e-002 9.065244e-001 -7.785435e-005 -4.906531e-005 -3.348824e-002 9.105062e-001
323085000 5.311206e-005 -3.283816e-005 -3.053772e-003 9.134071e-001 -6.188580e-005 5.465864e-005 -3.098653e-003 9.173376e-001
323370000 -1.261382e-005 -6.995467e-005 2.755375e-002 9.185655e-001 2.491295e-006 5.436927e-005 2.777767e-002 9.224581e-001
323655000 6.344373e-005 -1.250483e-004 5.936874e-002 9.232231e-001 -2.959611e-005 3.962199e-005 5.948484e-002 9.273024e-001
323940000 7.789698e-005 -5.744206e-005 9.156916e-002 9.266624e-001 -3.516591e-005 -2.067092e-005 9.142873e-002 9.305476e-001
324225000 3.899457e-006 -5.160281e-005 1.245610e-001 9.284727e-001 1.773905e-005 -5.608815e-005 1.245924e-001 9.325929e-001
324510000 6.389032e-005 -3.332436e-005 1.577999e-001 9.295547e-001 -1.023228e-004 -6.778747e-005 1.580207e-001 9.333717e-001
324795000 2.853677e-005 2.261851e-005 1.911919e-001 9.292966e-001 -3.669191e-005 8.631533e-005 1.916447e-001 9.331022e-001
325080000 3.396914e-005 -1.332679e-005 2.251967e-001 9.276137e-001 -1.183563e-004 -1.776101e-005 2.263155e-001 9.315035e-001
325365000 -4.125149e-005 2.281715e-005 2.600980e-001 9.245847e-001 1.286785e-005 1.582184e-005 2.608092e-001 9.284734e-001
325650000 -1.882489e-005 -4.286494e-005 2.945892e-001 9.194535e-001 -1.264529e-004 6.099628e-005 2.963192e-001 9.230742e-001
325935000 -1.977641e-005 2.131081e-005 3.303947e-001 9.135938e-001 -5.100307e-005 -1.196860e-004 3.311869e-001 9.176302e-001
326220000 -6.650649e-005 2.299201e-006 3.652946e-001 9.054407e-001 -4.800030e-005 1.721333e-006 3.672883e-001 9.096409e-001
326505000 1.467789e-005 1.232165e-004 4.013296e-001 8.963503e-001 2.410782e-006 -1.588367e-005 4.023041e-001 8.999460e-001
326790000 -1.961846e-005 -1.597061e-005 4.362048e-001 8.853501e-001 8.936394e-005 1.481976e-005 4.378767e-001 8.892728e-001
327075000 -3.738015e-005 -6.014762e-005 4.713471e-001 8.722516e-001 -3.352829e-005 1.448342e-005 4.734167e-001 8.765054e-001
327360000 1.205524e-005 -5.154099e-005 5.067245e-001 8.581356e-001 4.821988e-005 -2.210827e-005 5.088723e-001 8.618478e-001
327645000 -4.146654e-005 -3.283458e-005 5.412840e-001 8.417317e-001 -7.139805e-005 -5.678954e-005 5.431107e-001 8.451533e-001
327930000 2.141632e-006 1.520591e-005 5.758168e-001 8.237553e-001 -2.769913e-005 -5.847798e-005 5.781218e-001 8.272123e-001
328215000 1.279607e-004 -1.132815e-004 6.092362e-001 8.039652e-001 -7.351430e-005 3.421707e-005 6.119435e-001 8.075994e-001
328500000 3.072134e-005 2.277262e-005 6.423674e-001 7.826633e-001 -6.307720e-005 -5.871413e-005 6.450593e-001 7.866521e-001
328785000 -1.765945e-005 9.382737e-005 6.744626e-001 7.594447e-001 -8.833022e-005 -1.330956e-005 6.771348e-001 7.631592e-001
329070000 2.499591e-005 1.358916e-005 7.053865e-001 7.351747e-001 1.235808e-005 2.511780e-005 7.087595e-001 7.378827e-001
329355000 1.816474e-005 -6.039703e-005 7.362266e-001 7.083891e-001 2.958653e-005 -1.074956e-004 7.385461e-001 7.117546e-001
329640000 1.106897e-005 2.309332e-006 7.651005e-001 6.803795e-001 -8.767604e-006 -4.642947e-005 7.679636e-001 6.836805e-001
329925000 -2.355930e-005 3.657155e-005 7.922663e-001 6.513627e-001 1.019912e-005 4.003919e-005 7.963500e-001 6.542194e-001
330210000 -5.302881e-005 2.911509e-006 8.190044e-001 6.194488e-001 -8.204173e-005 6.371350e-006 8.231154e-001 6.226780e-001
330495000 -9.162568e-005 6.439812e-005 8.445221e-001 5.877151e-001 1.453587e-005 -1.950696e-005 8.478355e-001 5.907938e-001
330780000 -6.955006e-005 -8.181031e-005 8.677145e-001 5.536480e-001 1.119898e-004 -2.626480e-005 8.709437e-001 5.566688e-001
331065000 1.234929e-005 -5.020602e-005 8.893704e-001 5.192423e-001 6.043015e-005 -1.052318e-004 8.934609e-001 5.217888e-001
331350000 -1.471061e-006 -3.390133e-005 9.097739e-001 4.841307e-001 -7.622474e-005 5.304861e-005 9.129074e-001 4.861779e-001
331635000 1.143964e-004 -3.154607e-005 9.274830e-001 4.469183e-001 7.866314e-005 -4.915389e-006 9.314227e-001 4.486981e-001
331920000 -4.146783e-005 5.579579e-005 9.435200e-001 4.099609e-001 2.145852e-005 5.697122e-005 9.477469e-001 4.119161e-001
332205000 4.958442e-005 -2.394407e-005 9.579220e-001 3.723300e-001 -1.315700e-005 3.769984e-007 9.623195e-001 3.725974e-001
332490000 6.947578e-005 -1.218054e-005 9.708763e-001 3.332226e-001 -3.946335e-005 3.308828e-005 9.750554e-001 3.344454e-001
332775000 1.062070e-004 -5.247847e-005 9.809970e-001 2.938912e-001 9.460887e-005 4.119533e-005 9.856030e-001 2.946789e-001
333060000 -6.162604e-005 -6.186770e-006 9.899396e-001 2.541765e-001 3.346051e-006 7.731593e-005 9.937277e-001 2.557608e-001
333345000 2.667120e-005 -2.176069e-005 9.969039e-001 2.153593e-001 4.495396e-005 -3.131570e-005 1.000664e+000 2.159918e-001
333630000 -7.698906e-006 -2.600194e-006 1.001646e+000 1.757456e-001 4.019688e-005 -7.580468e-005 1.006196e+000 1.763720e-001
333915000 -5.726869e-006 8.443388e-005 1.003760e+000 1.360196e-001 -5.024689e-005 8.752110e-005 1.008677e+000 1.367799e-001
334200000 -8.847857e-006 -1.226063e-004 1.005192e+000 9.688035e-002 -4.023589e-005 8.798987e-006 1.009772e+000 9.744544e-002
334485000 5.378934e-005 -1.205305e-004 1.003992e+000 5.841611e-002 -2.878320e-005 2.884068e-005 1.009095e+000 5.803628e-002
334770000 7.532618e-005 -4.890559e-005 1.002080e+000 1.989045e-002 -1.614775e-006 -2.588250e-005 1.005894e+000 2.008529e-002
335055000 4.583087e-005 -8.530841e-005 9.976456e-001 -1.814724e-002 -1.646362e-005 -1.304171e-005 1.001819e+000 -1.835305e-002
335340000 2.118767e-006 -5.870033e-005 9.911237e-001 -5.519680e-002 5.736103e-005 -6.188863e-005 9.962589e-001 -5.560952e-002
335625000 -3.656033e-005 7.042156e-005 9.838735e-001 -9.153309e-002 3.348556e-006 -1.594447e-004 9.888761e-001 -9.120530e-002
335910000 8.676341e-005 2.086794e-005 9.748788e-001 -1.266952e-001 9.125477e-005 -4.851018e-005 9.790781e-001 -1.272294e-001
336195000 -2.214939e-005 8.106812e-005 9.647608e-001 -1.615082e-001 1.920998e-005 2.714021e-005 9.692047e-001 -1.627539e-001
336480000 3.587225e-005 -3.507932e-005 9.530123e-001 -1.955750e-001 3.388028e-005 -3.409011e-005 9.569906e-001 -1.964007e-001
336765000 -6.438350e-005 -4.163972e-005 9.398990e-001 -2.284224e-001 3.945534e-005 -8.337537e-005 9.445068e-001 -2.295407e-001
337050000 -1.203544e-004 3.648061e-005 9.263941e-001 -2.602393e-001 -3.848292e-005 -9.565537e-007 9.301193e-001 -2.616686e-001
337335000 -5.800156e-006 -7.721048e-005 9.111825e-001 -2.913495e-001 6.511321e-005 -6.991848e-005 9.150794e-001 -2.928924e-001
337620000 -6.149960e-005 1.453682e-004 8.948024e-001 -3.214768e-001 5.019819e-005 7.158296e-006 8.986834e-001 -3.223638e-001
337905000 -8.093901e-005 2.308827e-005 8.771352e-001 -3.498426e-001 1.076688e-004 1.710146e-005 8.807582e-001 -3.518207e-001
338190000 -1.446487e-006 9.916151e-005 8.600768e-001 -3.771773e-001 4.986478e-006 -1.746813e-005 8.635735e-001 -3.793656e-001
338475000 -1.326670e-005 -8.212384e-006 8.414351e-001 -4.040730e-001 -2.856971e-006 5.358945e-005 8.446045e-001 -4.059718e-001
338760000 -4.112037e-005 -1.024271e-005 8.221750e-001 -4.294640e-001 -1.471947e-005 3.904043e-005 8.251351e-001 -4.312863e-001
339045000 -2.276095e-005 1.281782e-005 8.017764e-001 -4.542286e-001 -1.070688e-004 -5.617894e-005 8.052765e-001 -4.560761e-001
339330000 -2.010689e-005 1.077902e-004 7.813498e-001 -4.775975e-001 1.503974e-004 1.482732e-005 7.850029e-001 -4.790257e-001
339615000 -8.750213e-005 -2.148601e-006 7.601694e-001 -4.998523e-001 3.738198e-005 -8.188107e-005 7.636694e-001 -5.015142e-001
339900000 -3.102471e-005 -5.837831e-005 7.391578e-001 -5.210230e-001 -2.713554e-005 -1.225767e-004 7.423457e-001 -5.229463e-001
340185000 -2.073335e-005 3.718280e-005 7.175297e-001 -5.407735e-001 7.211970e-006 -3.310427e-005 7.210304e-001 -5.430760e-001
340470000 6.319558e-006 2.579748e-006 6.959918e-001 -5.597227e-001 -6.343394e-005 -1.094272e-004 6.983017e-001 -5.622837e-001
340755000 4.441863e-005 -4.405598e-005 6.731362e-001 -5.783321e-001 -7.627764e-005 4.129051e-005 6.761385e-001 -5.801058e-001
341040000 9.610693e-006 -7.909488e-005 6.507621e-001 -5.955905e-001 5.118395e-005 1.893021e-005 6.533935e-001 -5.978182e-001
341325000 9.320341e-005 -1.508783e-004 6.286244e-001 -6.111833e-001 6.955140e-005 7.211675e-005 6.310533e-001 -6.141470e-001
341610000 5.021075e-005 4.968600e-005 6.054030e-001 -6.266844e-001 -7.228534e-005 4.197147e-005 6.076633e-001 -6.291448e-001
341895000 2.379395e-005 1.514426e-005 5.825969e-001 -6.407676e-001 -4.708935e-005 3.831577e-005 5.852044e-001 -6.439151e-001
342180000 2.372852e-005 -3.402820e-006 5.592201e-001 -6.545191e-001 -2.518595e-005 1.145021e-004 5.623645e-001 -6.573297e-001
342465000 -3.338260e-005 -1.124741e-004 5.367048e-001 -6.668589e-001 -4.612235e-005 1.756385e-005 5.388931e-001 -6.695747e-001
342750000 -3.504934e-005 -3.062912e-005 5.138847e-001 -6.786407e-001 -5.975365e-005 -2.717241e-005 5.160133e-001 -6.817347e-001
343035000 1.317359e-005 -1.914828e-005 4.907879e-001 -6.894554e-001 -4.711293e-005 6.409922e-005 4.926900e-001 -6.929610e-001
343320000 -1.803574e-005 2.475210e-005 4.677069e-001 -7.005531e-001 -6.168009e-005 -1.615407e-005 4.699065e-001 -7.032657e-001
343605000 2.432390e-005 -1.973984e-005 4.448957e-001 -7.099843e-001 -1.436490e-004 9.215501e-007 4.463420e-001 -7.127416e-001
343890000 9.385776e-005 2.637769e-005 4.221711e-001 -7.181844e-001 3.181706e-005 5.505106e-005 4.238296e-001 -7.217374e-001
