!Agilent Technologies,N5230C,SG49000117,A.08.50.07
!Agilent N5230C: A.08.50.07
!Date: Sunday, March 17, 2024 02:56:12
!Correction: S11(Off) 
!S21(Off) 
!S12(Off) 
!S22(Off) 
!S2P File: Measurements: S11, S21, S12, S22:
# Hz S  RI   R 50
300000000 -3.179455e-005 1.041064e-004 -6.872694e-001 -5.478660e-001 -5.866764e-005 5.974191e-005 -6.896655e-001 -5.501002e-001
300285000 2.541707e-005 3.238851e-005 -6.992561e-001 -5.240703e-001 1.987984e-005 3.741763e-005 -7.015339e-001 -5.264413e-001
300570000 1.118156e-005 2.327018e-005 -7.100396e-001 -5.001032e-001 -8.486614e-005 1.542296e-004 -7.120559e-001 -5.023491e-001
300855000 -5.738320e-005 -2.643921e-005 -7.197353e-001 -4.763341e-001 -4.188963e-005 -1.208473e-004 -7.224793e-001 -4.785164e-001
301140000 -5.578893e-005 -4.050192e-005 -7.292261e-001 -4.524023e-001 5.110021e-005 5.234216e-005 -7.314566e-001 -4.542181e-001
301425000 1.766386e-005 -3.928229e-005 -7.375485e-001 -4.290062e-001 -2.980274e-005 -7.549168e-005 -7.404575e-001 -4.301977e-001
301710000 -2.177914e-005 -1.802063e-005 -7.457796e-001 -4.043958e-001 3.661478e-005 -6.354118e-005 -7.482724e-001 -4.064787e-001
301995000 1.486366e-006 -6.402658e-006 -7.525877e-001 -3.815882e-001 -2.652045e-005 8.612989e-007 -7.556292e-001 -3.826440e-001
302280000 -3.516880e-005 -2.012973e-005 -7.590594e-001 -3.575760e-001 3.752793e-006 -4.560335e-005 -7.620069e-001 -3.595943e-001
302565000 -1.730946e-005 -3.202183e-005 -7.649861e-001 -3.341520e-001 5.614641e-005 -2.419063e-005 -7.676231e-001 -3.358223e-001
302850000 -2.255097e-006 2.484491e-006 -7.699386e-001 -3.114291e-001 5.159438e-005 -2.675371e-005 -7.731814e-001 -3.121912e-001
303135000 -8.903899e-006 4.735246e-006 -7.748415e-001 -2.883231e-001 3.096127e-005 -1.762433e-005 -7.778038e-001 -2.892599e-001
303420000 1.112208e-004 4.654003e-005 -7.784522e-001 -2.652176e-001 -5.686462e-005 -4.807336e-005 -7.816067e-001 -2.660314e-001
303705000 -2.588970e-005 -4.827796e-005 -7.822734e-001 -2.426968e-001 2.378164e-005 4.127472e-005 -7.849482e-001 -2.434985e-001
303990000 3.121485e-005 4.858529e-006 -7.849066e-001 -2.196725e-001 6.443862e-005 1.587902e-004 -7.878467e-001 -2.209936e-001
304275000 -2.649002e-005 -1.527366e-005 -7.871365e-001 -1.976637e-001 -8.330392e-006 1.309722e-005 -7.905732e-001 -1.983525e-001
304560000 -8.819472e-005 -2.199348e-005 -7.892692e-001 -1.753761e-001 6.305840e-005 9.550724e-006 -7.922825e-001 -1.762686e-001
304845000 -7.575373e-005 1.247843e-005 -7.906200e-001 -1.528615e-001 2.327804e-005 -1.076610e-005 -7.938626e-001 -1.537611e-001
305130000 -4.469707e-005 -7.547013e-005 -7.914476e-001 -1.317271e-001 -1.991669e-005 -1.351032e-005 -7.946110e-001 -1.318689e-001
305415000 -6.896667e-005 -8.818812e-005 -7.916105e-001 -1.091753e-001 -8.714235e-005 -6.943214e-005 -7.943630e-001 -1.099347e-001
305700000 -3.356488e-005 1.646737e-005 -7.916811e-001 -8.772130e-002 -9.561419e-005 -8.437954e-005 -7.945580e-001 -8.823881e-002
305985000 1.213927e-005 -9.813621e-005 -7.911457e-001 -6.673011e-002 -1.117698e-005 -3.647196e-005 -7.941061e-001 -6.723873e-002
306270000 3.650126e-005 -1.305971e-004 -7.899531e-001 -4.497552e-002 1.098920e-004 -1.762555e-006 -7.932519e-001 -4.544834e-002
306555000 -2.467809e-005 2.774595e-006 -7.886494e-001 -2.372945e-002 2.005612e-006 6.599349e-005 -7.915911e-001 -2.428729e-002
306840000 5.110200e-005 -6.188413e-005 -7.868548e-001 -3.232051e-003 -5.892682e-005 -5.319964e-005 -7.899597e-001 -3.170131e-003
307125000 7.495735e-005 -7.328072e-005 -7.848321e-001 1.765341e-002 8.719695e-006 9.996296e-005 -7.874765e-001 1.747068e-002
307410000 3.476545e-005 8.011593e-005 -7.823793e-001 3.869917e-002 -1.022491e-006 7.275234e-005 -7.854151e-001 3.895580e-002
307695000 -7.693380e-005 6.471860e-005 -7.794350e-001 5.895908e-002 8.143739e-005 -4.855658e-005 -7.820225e-001 5.866387e-002
307980000 6.681825e-005 7.023783e-005 -7.757977e-001 7.883367e-002 1.803669e-006 3.774075e-005 -7.785550e-001 7.948222e-002
308265000 -3.978938e-005 2.539462e-006 -7.720701e-001 9.898859e-002 -1.040114e-004 4.949282e-005 -7.748869e-001 9.931198e-002
308550000 -4.740423e-006 5.906121e-005 -7.676211e-001 1.194100e-001 3.686245e-005 6.561829e-006 -7.712154e-001 1.200141e-001
308835000 -2.875718e-005 -8.409900e-005 -7.637704e-001 1.393405e-001 4.000694e-005 3.782660e-005 -7.669853e-001 1.396720e-001
309120000 -5.306485e-005 -7.048442e-005 -7.584764e-001 1.586664e-001 -1.981916e-005 -2.976572e-005 -7.618242e-001 1.594211e-001
309405000 -9.272933e-005 -6.768472e-006 -7.534437e-001 1.786806e-001 3.588525e-005 -6.998095e-005 -7.565284e-001 1.790657e-001
309690000 -5.029308e-005 5.176343e-005 -7.483791e-001 1.978247e-001 3.627151e-005 -1.681841e-005 -7.507404e-001 1.989950e-001
309975000 -7.490087e-006 -1.707965e-005 -7.423175e-001 2.174279e-001 3.103870e-005 -4.021374e-005 -7.450261e-001 2.180737e-001
310260000 4.608072e-005 -1.178397e-005 -7.354862e-001 2.368376e-001 5.176111e-005 4.461279e-006 -7.388109e-001 2.374412e-001
310545000 7.991143e-005 -5.050344e-005 -7.289358e-001 2.556892e-001 8.584133e-005 1.013603e-004 -7.322825e-001 2.570167e-001
310830000 8.884004e-006 -1.650854e-006 -7.226100e-001 2.750044e-001 -2.524025e-005 -2.000302e-005 -7.250351e-001 2.765196e-001
311115000 5.121726e-005 -1.020034e-004 -7.152128e-001 2.935220e-001 6.980915e-006 -3.189991e-005 -7.182255e-001 2.950111e-001
311400000 -2.723585e-005 3.362957e-005 -7.081226e-001 3.128192e-001 7.569718e-005 3.925250e-005 -7.103724e-001 3.140789e-001
311685000 4.277264e-005 -2.380570e-006 -6.995855e-001 3.316277e-001 -2.689992e-005 2.883353e-005 -7.023616e-001 3.327719e-001
311970000 -2.813028e-005 -8.106720e-005 -6.911439e-001 3.499034e-001 -1.782158e-004 -4.583743e-005 -6.934409e-001 3.518052e-001
312255000 1.720853e-005 -4.705307e-006 -6.822208e-001 3.686166e-001 -3.166757e-005 9.101423e-005 -6.845729e-001 3.700182e-001
312540000 -5.445538e-005 -3.040287e-005 -6.734384e-001 3.873021e-001 -1.691471e-004 -8.146673e-005 -6.750463e-001 3.883924e-001
312825000 -9.222726e-005 -5.413005e-006 -6.630950e-001 4.050895e-001 -5.105995e-006 -2.758563e-005 -6.663231e-001 4.065470e-001
313110000 6.702616e-005 1.756234e-005 -6.536599e-001 4.235123e-001 -1.148236e-006 3.916099e-007 -6.560311e-001 4.251341e-001
313395000 -8.388323e-005 -4.278440e-005 -6.433404e-001 4.415849e-001 5.208885e-005 -4.529922e-005 -6.461563e-001 4.435744e-001
313680000 -3.407584e-006 2.334724e-006 -6.322294e-001 4.596662e-001 5.737396e-005 -4.894776e-006 -6.349739e-001 4.615666e-001
313965000 9.977307e-006 4.072050e-005 -6.212336e-001 4.777154e-001 -7.290849e-006 1.574916e-005 -6.236741e-001 4.794303e-001
314250000 -1.803563e-004 -1.483167e-005 -6.095946e-001 4.954730e-001 2.876859e-005 4.393022e-005 -6.123225e-001 4.973129e-001
314535000 1.694637e-005 -1.015088e-004 -5.974143e-001 5.128501e-001 3.809679e-005 1.114455e-005 -5.998107e-001 5.153513e-001
314820000 8.125844e-005 -9.567062e-005 -5.848466e-001 5.306901e-001 3.725472e-005 5.212603e-005 -5.871940e-001 5.330822e-001
315105000 1.767664e-005 -1.081636e-004 -5.720178e-001 5.479117e-001 -4.927697e-006 1.106050e-005 -5.745943e-001 5.505217e-001
315390000 -2.663883e-005 -4.574285e-005 -5.590159e-001 5.659014e-001 -4.341289e-006 -1.917251e-006 -5.612010e-001 5.682180e-001
315675000 6.390554e-005 -5.649473e-007 -5.444164e-001 5.826728e-001 -4.677890e-005 -8.138066e-005 -5.467903e-001 5.853014e-001
315960000 -2.618807e-005 -1.137998e-005 -5.300276e-001 5.997113e-001 1.431945e-004 -8.749957e-005 -5.321420e-001 6.021377e-001
316245000 4.071703e-005 3.960514e-005 -5.150548e-001 6.167871e-001 1.266331e-004 -1.096495e-005 -5.169757e-001 6.184425e-001
316530000 -6.924757e-005 -1.132064e-004 -4.993293e-001 6.335244e-001 1.836209e-005 -8.820042e-005 -5.018824e-001 6.355025e-001
316815000 -3.922309e-007 4.923467e-005 -4.840028e-001 6.498992e-001 -2.626684e-005 1.089073e-004 -4.855402e-001 6.519158e-001
317100000 -2.723544e-005 -1.903846e-005 -4.666887e-001 6.660231e-001 -4.657518e-005 7.933024e-005 -4.686500e-001 6.687956e-001
317385000 -1.434453e-004 6.694969e-005 -4.500282e-001 6.823094e-001 1.473616e-005 9.699262e-005 -4.516595e-001 6.847713e-001
317670000 -3.554134e-005 1.964996e-005 -4.319638e-001 6.980405e-001 -3.335618e-005 1.027995e-005 -4.331588e-001 7.010686e-001
317955000 -7.630297e-006 9.272085e-007 -4.133634e-001 7.137969e-001 -1.281156e-006 -2.226484e-005 -4.150500e-001 7.166792e-001
318240000 -5.626066e-005 -1.115831e-004 -3.945432e-001 7.292980e-001 -4.512784e-005 -2.844821e-005 -3.957992e-001 7.319133e-001
318525000 7.888820e-005 -9.320452e-005 -3.743301e-001 7.443323e-001 -5.051538e-005 8.599080e-005 -3.758381e-001 7.471672e-001
318810000 -4.680990e-006 -1.414673e-004 -3.543782e-001 7.588450e-001 -6.720879e-005 5.241493e-005 -3.562672e-001 7.619415e-001
319095000 -3.415920e-005 -1.137796e-004 -3.336163e-001 7.735174e-001 2.530867e-005 -5.834784e-005 -3.350728e-001 7.764297e-001
319380000 -8.766792e-005 1.915174e-005 -3.120391e-001 7.871056e-001 1.400696e-005 -3.421177e-005 -3.130973e-001 7.907028e-001
319665000 4.924426e-005 6.722567e-005 -2.897084e-001 8.011014e-001 -5.286206e-005 3.721967e-005 -2.905550e-001 8.043387e-001
319950000 2.640663e-005 2.812866e-005 -2.662621e-001 8.141143e-001 2.827324e-005 -1.960815e-005 -2.673924e-001 8.175164e-001
320235000 2.416082e-005 -3.961990e-005 -2.425061e-001 8.271037e-001 -1.459501e-004 -4.522719e-005 -2.435770e-001 8.296497e-001
320520000 1.259571e-004 7.236176e-005 -2.180588e-001 8.389592e-001 -5.999680e-006 9.251970e-005 -2.193520e-001 8.424343e-001
320805000 1.735101e-004 -9.085002e-007 -1.924358e-001 8.509290e-001 -5.717343e-006 -2.380418e-005 -1.939769e-001 8.538957e-001
321090000 2.863624e-005 1.019921e-004 -1.674442e-001 8.613370e-001 -2.071679e-006 -1.684672e-004 -1.676426e-001 8.646730e-001
321375000 -5.994084e-005 1.454807e-004 -1.407380e-001 8.716024e-001 -2.805750e-005 4.294745e-007 -1.409023e-001 8.754624e-001
321660000 -9.418343e-005 -6.404010e-005 -1.128970e-001 8.813313e-001 1.426518e-004 4.163059e-005 -1.131776e-001 8.846694e-001
321945000 -7.862464e-005 4.415383e-005 -8.489205e-002 8.901367e-001 9.887481e-005 -4.606658e-006 -8.525725e-002 8.938909e-001
322230000 -3.102216e-005 -2.528528e-005 -5.602538e-002 8.979632e-001 4.438002e-005 1.776304e-006 -5.666518e-002 9.014128e-001
322515000 -4.359609e-005 -3.448042e-005 -2.671845e-002 9.051560e-001 1.164583e-004 4.772658e-005 -2.677233e-002 9.085897e-001
322800000 5.076694e-005 -6.193065e-006 4.052314e-003 9.120203e-001 -8.723426e-005 5.775944e-005 3.694319e-003 9.159458e-001
323085000 4.269513e-005 4.514910e-005 3.442942e-002 9.171367e-001 1.688308e-005 2.873483e-005 3.451226e-002 9.204514e-001
323370000 -1.676689e-005 -7.706608e-005 6.583738e-002 9.206186e-001 3.405774e-005 -2.931290e-005 6.651684e-002 9.250961e-001
323655000 -7.411237e-006 -2.941119e-005 9.775371e-002 9.237806e-001 1.075288e-004 2.486353e-005 9.770658e-002 9.273587e-001
323940000 -1.061954e-004 -7.849568e-005 1.305607e-001 9.258391e-001 7.547179e-005 -3.366460e-005 1.305602e-001 9.300545e-001
324225000 -9.667170e-006 -3.818251e-005 1.641176e-001 9.268314e-001 -5.768955e-005 2.978443e-005 1.648056e-001 9.309450e-001
324510000 3.882970e-005 -6.537891e-006 1.976426e-001 9.261519e-001 1.179880e-005 -8.115354e-005 1.984508e-001 9.303713e-001
324795000 1.693125e-005 2.143660e-005 2.315458e-001 9.240016e-001 -1.051041e-004 -8.995723e-005 2.325460e-001 9.273708e-001
325080000 4.932096e-005 1.291950e-004 2.657935e-001 9.205363e-001 -6.176692e-005 -9.137822e-005 2.670509e-001 9.243838e-001
325365000 7.928996e-005 7.665054e-005 3.014597e-001 9.155591e-001 -1.000493e-004 2.429195e-005 3.024635e-001 9.197145e-001
325650000 4.508173e-005 4.788836e-005 3.357110e-001 9.086586e-001 1.153894e-004 1.368918e-005 3.374724e-001 9.132769e-001
325935000 4.682133e-005 7.084449e-005 3.710049e-001 9.011672e-001 -1.877639e-005 1.249688e-005 3.725106e-001 9.049253e-001
326220000 -1.539104e-005 1.220758e-004 4.065387e-001 8.911419e-001 -3.164475e-005 -1.036497e-004 4.078731e-001 8.950495e-001
326505000 -9.739782e-005 1.263241e-005 4.414711e-001 8.805628e-001 -5.148444e-005 2.401355e-005 4.437952e-001 8.838634e-001
326790000 5.458479e-005 2.291139e-006 4.767785e-001 8.672734e-001 1.553743e-005 -6.937978e-005 4.791539e-001 8.707650e-001
327075000 -6.255501e-005 1.897151e-005 5.121317e-001 8.530222e-001 -2.425422e-005 2.585936e-006 5.137126e-001 8.559913e-001
327360000 1.038551e-004 -3.821147e-005 5.464355e-001 8.362026e-001 -2.362738e-005 -1.066442e-004 5.483986e-001 8.396141e-001
327645000 2.093848e-005 -8.845977e-005 5.804337e-001 8.179798e-001 2.371120e-005 -7.702190e-005 5.829002e-001 8.215715e-001
327930000 -3.977583e-005 8.612176e-006 6.144902e-001 7.980207e-001 2.097532e-005 -1.409397e-005 6.166295e-001 8.014570e-001
328215000 9.161326e-006 5.145745e-005 6.469775e-001 7.763389e-001 -5.191097e-006 -8.129928e-005 6.492999e-001 7.804354e-001
328500000 -4.909998e-005 -1.139022e-005 6.786793e-001 7.532260e-001 -4.489550e-005 -5.128607e-005 6.817536e-001 7.569278e-001
328785000 -1.128412e-006 -4.469016e-005 7.089649e-001 7.284379e-001 5.961048e-005 1.051539e-005 7.131104e-001 7.314610e-001
329070000 -1.219425e-004 -6.997091e-006 7.398703e-001 7.018689e-001 2.008848e-005 -1.338135e-004 7.430783e-001 7.052761e-001
329355000 -8.048273e-005 2.846897e-005 7.685439e-001 6.735108e-001 6.188025e-005 2.478518e-005 7.715915e-001 6.755124e-001
329640000 4.530478e-005 -1.906370e-005 7.960331e-001 6.436343e-001 1.565962e-005 2.893467e-005 7.997655e-001 6.464096e-001
329925000 1.955852e-005 -7.106973e-005 8.223047e-001 6.122515e-001 -1.131101e-004 -6.909137e-005 8.263677e-001 6.151891e-001
330210000 -5.293849e-005 -4.078716e-005 8.470040e-001 5.806224e-001 -5.469119e-005 3.407307e-005 8.503927e-001 5.831701e-001
330495000 -4.170927e-005 8.138137e-005 8.699341e-001 5.462282e-001 -4.334895e-005 -5.223019e-005 8.740975e-001 5.488771e-001
330780000 5.736923e-005 -2.769075e-005 8.920379e-001 5.117225e-001 -4.787607e-005 2.808139e-005 8.955049e-001 5.136700e-001
331065000 -6.669522e-005 -1.693744e-005 9.119257e-001 4.758165e-001 4.316153e-005 -1.015157e-004 9.149597e-001 4.782621e-001
331350000 4.783544e-005 -4.206967e-005 9.289449e-001 4.389532e-001 5.923164e-005 1.434305e-005 9.330952e-001 4.412415e-001
331635000 4.529182e-005 2.637398e-005 9.454796e-001 4.017119e-001 2.712781e-005 -9.344273e-005 9.490473e-001 4.036901e-001
331920000 1.547719e-005 -4.962963e-005 9.591334e-001 3.635537e-001 1.394317e-004 9.415011e-005 9.638697e-001 3.649680e-001
332205000 2.426070e-006 -7.101642e-005 9.717245e-001 3.247882e-001 -5.411269e-005 4.560835e-005 9.759525e-001 3.259877e-001
332490000 -8.621634e-005 -1.740111e-005 9.821222e-001 2.850964e-001 1.076488e-004 -1.340437e-004 9.860729e-001 2.865438e-001
332775000 -1.962138e-005 1.228698e-004 9.903760e-001 2.460444e-001 4.793350e-005 -1.087752e-005 9.948601e-001 2.472780e-001
333060000 -2.066203e-005 4.274777e-005 9.961651e-001 2.068506e-001 -1.549676e-004 -7.128902e-006 1.000970e+000 2.078300e-001
333345000 -9.356932e-005 7.361409e-005 1.000920e+000 1.671002e-001 1.920631e-005 -7.043402e-005 1.005643e+000 1.680382e-001
333630000 1.296939e-005 4.168228e-005 1.003534e+000 1.275003e-001 -6.423224e-005 5.250836e-005 1.008439e+000 1.285455e-001
333915000 -2.642859e-005 -1.701426e-004 1.004568e+000 8.812418e-002 -1.429527e-004 -7.942193e-005 1.008810e+000 8.949992e-002
334200000 4.620736e-006 -2.203259e-005 1.002931e+000 5.033854e-002 2.579934e-005 5.598865e-005 1.007626e+000 5.005307e-002
334485000 3.521208e-005 -3.384600e-005 1.000646e+000 1.181680e-002 -4.181222e-006 -8.079035e-005 1.004577e+000 1.201707e-002
334770000 8.397435e-005 -8.292119e-005 9.955111e-001 -2.631950e-002 -4.557864e-005 -1.832693e-005 1.000025e+000 -2.622755e-002
335055000 -1.636414e-004 -8.166383e-005 9.894607e-001 -6.318928e-002 3.392679e-005 1.512218e-004 9.942436e-001 -6.369134e-002
335340000 6.699297e-006 -5.281795e-005 9.818761e-001 -9.934136e-002 -2.962134e-005 -6.717609e-005 9.864007e-001 -9.975428e-002
335625000 -2.424027e-005 3.843970e-005 9.726838e-001 -1.343984e-001 3.329402e-005 -5.074889e-005 9.770175e-001 -1.352419e-001
335910000 1.081481e-004 5.079769e-006 9.617096e-001 -1.696395e-001 -6.667473e-005 -3.274406e-005 9.662988e-001 -1.709789e-001
336195000 5.253615e-005 2.407973e-005 9.506472e-001 -2.032481e-001 3.266861e-005 5.726046e-005 9.536409e-001 -2.038513e-001
336480000 -2.601447e-005 -4.670995e-005 9.366614e-001 -2.362398e-001 3.884389e-005 8.889685e-005 9.406602e-001 -2.374149e-001
336765000 -9.716856e-005 -4.322189e-005 9.229836e-001 -2.675278e-001 1.384310e-005 7.211091e-005 9.262961e-001 -2.690370e-001
337050000 6.777081e-005 1.140667e-006 9.065306e-001 -2.983573e-001 -2.889599e-006 1.378231e-005 9.111685e-001 -3.001562e-001
337335000 -2.279410e-005 -6.279915e-005 8.905157e-001 -3.282312e-001 1.543538e-004 4.294937e-005 8.942856e-001 -3.294990e-001
337620000 -3.487501e-005 7.399872e-005 8.726173e-001 -3.566403e-001 1.002709e-004 -4.424298e-005 8.768209e-001 -3.586474e-001
337905000 -1.169531e-005 9.575689e-005 8.548914e-001 -3.847796e-001 3.026103e-005 9.390371e-005 8.582667e-001 -3.858039e-001
338190000 2.889019e-005 8.404747e-005 8.362556e-001 -4.108969e-001 4.205821e-005 -6.661652e-005 8.399761e-001 -4.128617e-001
338475000 1.908148e-005 6.328599e-006 8.166857e-001 -4.361657e-001 -3.070703e-006 1.451581e-005 8.197034e-001 -4.381258e-001
338760000 -3.186032e-005 3.330693e-005 7.961423e-001 -4.596495e-001 1.863964e-005 1.082387e-004 8.001221e-001 -4.619608e-001
339045000 -4.766788e-005 -5.055751e-005 7.759752e-001 -4.832844e-001 4.361988e-005 6.280575e-005 7.795199e-001 -4.855075e-001
339330000 4.390356e-005 1.250263e-004 7.551477e-001 -5.051718e-001 4.821699e-005 -9.819135e-005 7.575116e-001 -5.074604e-001
339615000 -3.191125e-005 8.956351e-005 7.334528e-001 -5.264841e-001 2.651783e-005 -8.532599e-005 7.366473e-001 -5.285423e-001
339900000 -6.265238e-005 2.338793e-005 7.115033e-001 -5.465246e-001 3.322810e-005 -4.099398e-005 7.147384e-001 -5.485557e-001
340185000 -9.514194e-005 5.018919e-005 6.894603e-001 -5.657782e-001 -4.773590e-005 -1.740922e-005 6.926233e-001 -5.670903e-001
340470000 -7.543198e-005 -2.240580e-005 6.667609e-001 -5.827916e-001 -1.179454e-004 -4.601581e-005 6.694384e-001 -5.855497e-001
340755000 -4.089402e-005 -4.617044e-005 6.442800e-001 -6.002969e-001 2.774260e-005 -4.160375e-005 6.471732e-001 -6.028944e-001
341040000 4.412679e-005 -4.064054e-005 6.218215e-001 -6.159348e-001 -1.671754e-006 -3.982137e-005 6.241749e-001 -6.183046e-001
341325000 -8.833103e-006 -6.686082e-005 5.984781e-001 -6.307127e-001 3.118937e-005 -1.015849e-004 6.016409e-001 -6.335310e-001
341610000 -8.142958e-006 -5.571010e-005 5.756079e-001 -6.448842e-001 4.107971e-005 -3.555863e-005 5.782558e-001 -6.475925e-001
341895000 1.102236e-004 5.698687e-005 5.524710e-001 -6.585304e-001 -4.677871e-005 -7.015131e-005 5.550457e-001 -6.611176e-001
342180000 -1.145750e-005 -3.226548e-005 5.293180e-001 -6.707312e-001 -1.482956e-005 -7.404198e-005 5.318863e-001 -6.733814e-001
342465000 -5.739580e-005 -3.465457e-005 5.062225e-001 -6.822212e-001 -2.250507e-005 -5.475948e-006 5.084535e-001 -6.851385e-001
342750000 -3.182296e-005 4.450416e-005 4.833175e-001 -6.929508e-001 -1.059911e-005 1.752502e-005 4.855905e-001 -6.963001e-001
343035000 3.084919e-005 5.527622e-005 4.602528e-001 -7.033414e-001 -8.280430e-005 5.581624e-005 4.622964e-001 -7.062159e-001
343320000 -6.133978e-005 7.409322e-006 4.374612e-001 -7.129159e-001 -8.116798e-005 -1.761845e-005 4.390437e-001 -7.152991e-001
343605000 -1.299035e-005 -2.097435e-005 4.145899e-001 -7.211750e-001 -4.612788e-005 -7.506357e-005 4.162327e-001 -7.239050e-001
343890000 -5.958853e-005 -4.821836e-005 3.919642e-001 -7.294061e-001 -2.460404e-005 -5.017629e-005 3.932208e-001 -7.322007e-001
