!Agilent Technologies,N5230C,SG49000117,A.08.50.07
!Agilent N5230C: A.08.50.07
!Date: Sunday, March 17, 2024 02:53:45
!Correction: S11(Off) 
!S21(Off) 
!S12(Off) 
!S22(Off) 
!S2P File: Measurements: S11, S21, S12, S22:
# Hz S  RI   R 50
300000000 4.489650e-005 7.514303e-005 -7.114770e-001 -4.948181e-001 9.827668e-006 1.254179e-005 -7.138997e-001 -4.967240e-001
300285000 8.974029e-005 2.234973e-005 -7.214761e-001 -4.710525e-001 -2.862062e-005 8.764109e-005 -7.241700e-001 -4.725423e-001
300570000 -4.506590e-005 -5.420377e-006 -7.303721e-001 -4.466890e-001 3.470150e-006 5.763410e-005 -7.329507e-001 -4.483845e-001
300855000 3.519339e-005 1.664757e-005 -7.391090e-001 -4.226742e-001 3.101315e-006 -4.529014e-005 -7.413353e-001 -4.243042e-001
301140000 -4.052346e-006 8.221540e-005 -7.460983e-001 -3.989479e-001 -8.925288e-005 4.888775e-005 -7.491820e-001 -4.011091e-001
301425000 -6.032112e-005 -4.089735e-006 -7.534931e-001 -3.751676e-001 -3.080914e-006 3.010946e-005 -7.562519e-001 -3.767115e-001
301710000 -1.016003e-004 3.639069e-005 -7.596002e-001 -3.518919e-001 -5.709830e-006 -1.492572e-004 -7.625924e-001 -3.527970e-001
301995000 -7.726366e-005 8.211305e-005 -7.657639e-001 -3.285227e-001 -5.989821e-005 3.420309e-006 -7.682884e-001 -3.299112e-001
302280000 1.229689e-005 3.140886e-005 -7.706243e-001 -3.052859e-001 -5.332810e-005 -1.301962e-005 -7.732161e-001 -3.061324e-001
302565000 8.182230e-005 -1.299755e-004 -7.752015e-001 -2.816949e-001 3.034743e-005 -7.230789e-005 -7.778442e-001 -2.832621e-001
302850000 -1.160737e-004 -8.162205e-005 -7.783587e-001 -2.587785e-001 -2.460216e-005 6.653465e-005 -7.814404e-001 -2.595423e-001
303135000 -5.226616e-005 -1.115370e-004 -7.821004e-001 -2.360183e-001 2.672414e-005 -1.422758e-005 -7.851894e-001 -2.371445e-001
303420000 -5.383542e-006 1.086506e-005 -7.848588e-001 -2.131038e-001 4.271236e-008 3.798553e-005 -7.874689e-001 -2.142701e-001
303705000 6.777616e-005 -1.219519e-004 -7.869620e-001 -1.912648e-001 4.750543e-005 -1.053126e-005 -7.895038e-001 -1.917147e-001
303990000 -3.863445e-005 -2.484220e-005 -7.886201e-001 -1.685371e-001 8.427649e-005 8.180110e-005 -7.910550e-001 -1.695698e-001
304275000 -1.798541e-005 -6.787921e-005 -7.892681e-001 -1.465116e-001 -3.365781e-005 2.003420e-005 -7.929193e-001 -1.470886e-001
304560000 -4.979959e-005 -2.742451e-005 -7.900405e-001 -1.242698e-001 -6.811266e-005 4.542456e-005 -7.931200e-001 -1.255140e-001
304845000 -4.388975e-005 -8.964418e-005 -7.904325e-001 -1.031312e-001 -1.326072e-005 2.567274e-005 -7.933543e-001 -1.034048e-001
305130000 8.800196e-005 -2.857844e-006 -7.900429e-001 -8.140758e-002 8.071052e-005 -3.473649e-005 -7.927404e-001 -8.155356e-002
305415000 -4.983740e-005 -9.713969e-006 -7.895001e-001 -5.986591e-002 -1.748246e-005 4.363778e-005 -7.925667e-001 -6.058322e-002
305700000 3.611796e-005 1.055680e-004 -7.879844e-001 -3.887526e-002 -8.956317e-005 1.124314e-005 -7.912893e-001 -3.843488e-002
305985000 1.069809e-005 1.719213e-006 -7.867016e-001 -1.744644e-002 -5.836739e-005 3.175677e-005 -7.900483e-001 -1.748903e-002
306270000 1.369407e-005 3.864770e-005 -7.849258e-001 3.724528e-003 -5.417404e-005 5.842314e-005 -7.876135e-001 3.485441e-003
306555000 3.342729e-005 -2.500416e-005 -7.821331e-001 2.433094e-002 2.595460e-005 2.993960e-005 -7.851357e-001 2.405475e-002
306840000 -2.790677e-005 -5.047769e-005 -7.794209e-001 4.442365e-002 -5.995385e-005 -1.120371e-004 -7.821907e-001 4.507008e-002
307125000 -9.239989e-005 2.819474e-007 -7.758248e-001 6.521012e-002 -5.425117e-006 2.701947e-005 -7.792811e-001 6.569967e-002
307410000 -4.202863e-005 -9.429301e-006 -7.730634e-001 8.512197e-002 1.033314e-005 -1.852183e-005 -7.755733e-001 8.614983e-002
307695000 -4.491607e-005 2.078199e-005 -7.688085e-001 1.059709e-001 -1.530382e-005 3.583992e-005 -7.714107e-001 1.061646e-001
307980000 8.956016e-005 6.832745e-005 -7.646497e-001 1.257005e-001 -2.118086e-005 -2.538731e-005 -7.672415e-001 1.260493e-001
308265000 -1.009325e-005 -8.969882e-005 -7.595326e-001 1.455131e-001 2.325007e-006 4.112610e-006 -7.624680e-001 1.462238e-001
308550000 -5.145780e-005 8.575869e-005 -7.547478e-001 1.656780e-001 7.893095e-005 -4.411605e-005 -7.578552e-001 1.662295e-001
308835000 8.019796e-007 7.372619e-005 -7.494670e-001 1.849880e-001 8.787304e-005 7.654455e-005 -7.522891e-001 1.859549e-001
309120000 -3.639905e-005 -6.241961e-005 -7.435212e-001 2.042835e-001 1.265037e-005 5.126553e-005 -7.463082e-001 2.049955e-001
309405000 -9.660225e-005 2.041688e-005 -7.372442e-001 2.236885e-001 -4.830255e-005 1.253756e-005 -7.404898e-001 2.250116e-001
309690000 -3.952015e-005 3.458415e-005 -7.309889e-001 2.428610e-001 3.803052e-005 9.328479e-005 -7.338653e-001 2.438911e-001
309975000 -3.512381e-005 2.760606e-005 -7.244048e-001 2.620456e-001 7.280860e-006 -6.564609e-006 -7.271535e-001 2.630025e-001
310260000 -1.284000e-005 -4.191587e-005 -7.166302e-001 2.802767e-001 4.569115e-005 3.871746e-005 -7.195348e-001 2.821519e-001
310545000 6.777891e-006 1.161695e-005 -7.095751e-001 2.997092e-001 3.235049e-005 -6.950809e-005 -7.123079e-001 3.005951e-001
310830000 8.133731e-005 1.803644e-004 -7.013040e-001 3.186429e-001 -3.721246e-005 -1.048452e-005 -7.044148e-001 3.198320e-001
311115000 -2.194209e-005 -8.496392e-005 -6.930997e-001 3.368641e-001 -4.065314e-005 5.032346e-005 -6.959469e-001 3.380694e-001
311400000 -4.944888e-005 1.270400e-005 -6.844672e-001 3.554887e-001 -2.032798e-005 -3.163003e-005 -6.872120e-001 3.575960e-001
311685000 3.206167e-005 5.389199e-005 -6.752574e-001 3.742401e-001 3.762667e-006 -5.407903e-005 -6.778619e-001 3.752132e-001
311970000 -1.468979e-004 4.799007e-005 -6.660496e-001 3.923329e-001 -6.052597e-005 -1.041922e-004 -6.689572e-001 3.936512e-001
312255000 1.987721e-005 4.409805e-005 -6.562008e-001 4.108959e-001 -4.037393e-005 -9.214522e-005 -6.590050e-001 4.122139e-001
312540000 -5.720094e-005 -1.561077e-005 -6.462111e-001 4.287755e-001 4.179924e-005 -1.136893e-004 -6.485727e-001 4.301534e-001
312825000 -5.167077e-006 3.174997e-005 -6.354707e-001 4.467693e-001 6.146158e-005 -5.503483e-005 -6.379662e-001 4.482625e-001
313110000 -4.362871e-005 -7.485737e-006 -6.246555e-001 4.648100e-001 -2.017412e-006 -4.488954e-005 -6.273654e-001 4.659927e-001
313395000 -4.891864e-005 -8.403281e-005 -6.133354e-001 4.821250e-001 -2.453873e-005 -6.177323e-005 -6.154866e-001 4.842210e-001
313680000 -2.495851e-005 8.032926e-005 -6.012619e-001 4.995504e-001 4.376555e-005 3.141996e-005 -6.036428e-001 5.017984e-001
313965000 -5.448089e-005 -7.498376e-006 -5.888637e-001 5.175259e-001 5.925754e-006 3.729626e-005 -5.916832e-001 5.192347e-001
314250000 4.885695e-005 -1.233685e-005 -5.762421e-001 5.348223e-001 3.205488e-005 6.124737e-005 -5.784726e-001 5.363278e-001
314535000 -7.067790e-005 -5.679491e-005 -5.634186e-001 5.513795e-001 -5.706702e-005 -5.287998e-005 -5.653684e-001 5.539529e-001
314820000 1.329425e-005 -5.549208e-005 -5.494927e-001 5.689086e-001 -6.109759e-005 -7.457031e-005 -5.516667e-001 5.711695e-001
315105000 -1.306149e-006 -4.353752e-005 -5.352554e-001 5.855886e-001 -1.554606e-004 -7.669327e-005 -5.368672e-001 5.874945e-001
315390000 4.643528e-005 7.947441e-005 -5.203633e-001 6.025755e-001 -7.415382e-005 2.174756e-005 -5.226501e-001 6.050000e-001
315675000 -5.662157e-005 3.142289e-005 -5.054728e-001 6.192030e-001 -1.279951e-005 4.043007e-005 -5.077071e-001 6.218618e-001
315960000 8.240512e-005 -5.724890e-005 -4.896703e-001 6.363261e-001 3.091364e-005 -3.864749e-005 -4.920550e-001 6.381273e-001
316245000 1.228011e-005 -1.058045e-005 -4.735284e-001 6.515234e-001 1.106565e-005 -8.100279e-006 -4.753194e-001 6.547611e-001
316530000 -4.857129e-005 -5.000515e-005 -4.568693e-001 6.681361e-001 8.323575e-006 -7.012126e-005 -4.586430e-001 6.705682e-001
316815000 2.485465e-005 9.779305e-005 -4.395010e-001 6.837848e-001 -3.190852e-005 6.628891e-006 -4.416285e-001 6.868254e-001
317100000 -2.477457e-006 1.023507e-005 -4.208496e-001 6.996191e-001 1.671994e-005 -4.370408e-005 -4.232367e-001 7.018173e-001
317385000 -7.953956e-005 -6.531819e-005 -4.025539e-001 7.150576e-001 -1.497478e-005 -5.174412e-005 -4.046411e-001 7.171493e-001
317670000 -7.032655e-005 -8.234605e-005 -3.836232e-001 7.294356e-001 6.528723e-005 -4.690525e-005 -3.854626e-001 7.324653e-001
317955000 -6.269459e-005 1.156828e-005 -3.637815e-001 7.442691e-001 -4.699728e-005 -6.144535e-005 -3.654493e-001 7.472250e-001
318240000 3.304227e-005 -5.200476e-006 -3.437065e-001 7.585300e-001 -1.228966e-005 7.468744e-005 -3.450511e-001 7.617320e-001
318525000 1.068150e-004 -6.971798e-005 -3.222538e-001 7.728847e-001 -8.944082e-005 1.052138e-004 -3.233917e-001 7.761032e-001
318810000 -6.684982e-006 4.398317e-005 -3.007931e-001 7.863742e-001 3.571999e-005 4.279137e-005 -3.016080e-001 7.898293e-001
319095000 2.796064e-005 -4.034894e-005 -2.780558e-001 7.995881e-001 -1.600465e-005 -4.656476e-007 -2.792861e-001 8.030866e-001
319380000 2.489557e-005 -1.963614e-005 -2.557255e-001 8.124669e-001 -1.001108e-005 -8.224953e-005 -2.561717e-001 8.152340e-001
319665000 9.350359e-005 -8.753498e-007 -2.312052e-001 8.244519e-001 -2.093772e-005 -4.015740e-005 -2.320006e-001 8.280089e-001
319950000 9.056382e-005 4.052597e-005 -2.071290e-001 8.359351e-001 -1.121306e-005 -1.925373e-005 -2.075987e-001 8.401018e-001
320235000 6.341253e-005 -2.815684e-005 -1.813596e-001 8.471030e-001 -7.984228e-005 1.158764e-005 -1.823555e-001 8.512261e-001
320520000 -3.029031e-005 1.020239e-004 -1.561098e-001 8.582075e-001 -3.020413e-005 -1.133102e-004 -1.558767e-001 8.616034e-001
320805000 1.974854e-005 -6.075534e-005 -1.293977e-001 8.680196e-001 -3.637145e-006 -6.825558e-005 -1.293493e-001 8.715310e-001
321090000 -3.168219e-005 -7.368745e-005 -1.014350e-001 8.771777e-001 -9.007661e-005 9.354506e-005 -1.023112e-001 8.806301e-001
321375000 3.510532e-005 -1.813699e-005 -7.384299e-002 8.856106e-001 -6.798658e-005 3.742144e-005 -7.391734e-002 8.891789e-001
321660000 -4.978100e-005 5.052497e-005 -4.486224e-002 8.927341e-001 -2.804999e-005 3.814457e-005 -4.490066e-002 8.967501e-001
321945000 -8.449751e-005 -3.594678e-005 -1.560351e-002 9.002396e-001 2.430459e-005 -6.337378e-005 -1.537980e-002 9.031584e-001
322230000 -1.436983e-005 -2.002302e-005 1.418703e-002 9.058911e-001 4.690767e-005 3.465866e-005 1.475338e-002 9.093034e-001
322515000 -1.736078e-004 4.339758e-005 4.565851e-002 9.103739e-001 -2.952054e-005 5.243772e-005 4.513975e-002 9.144921e-001
322800000 -4.448742e-005 -4.271423e-006 7.651514e-002 9.141384e-001 -1.436601e-004 -7.920728e-005 7.751741e-002 9.178426e-001
323085000 -5.438919e-005 -8.314549e-005 1.086368e-001 9.163973e-001 -3.117284e-005 3.813483e-005 1.089237e-001 9.203622e-001
323370000 -4.610511e-005 -8.733294e-006 1.410501e-001 9.180942e-001 -1.348949e-004 2.075783e-005 1.411691e-001 9.220171e-001
323655000 -1.249547e-005 -1.880679e-005 1.741330e-001 9.187930e-001 5.447348e-005 1.144604e-006 1.749786e-001 9.217908e-001
323940000 -6.044290e-005 -1.056869e-004 2.079716e-001 9.174130e-001 2.564054e-005 -4.142134e-005 2.085834e-001 9.211259e-001
324225000 4.322366e-005 -5.041681e-005 2.416530e-001 9.143883e-001 3.377208e-006 -3.828113e-005 2.426149e-001 9.182072e-001
324510000 7.617866e-006 -4.644527e-006 2.758663e-001 9.111722e-001 -6.415118e-006 -5.099073e-005 2.769592e-001 9.148073e-001
324795000 6.833133e-005 -5.377389e-005 3.107592e-001 9.050894e-001 -1.061939e-005 -1.943343e-005 3.121829e-001 9.095942e-001
325080000 1.279163e-004 -1.265861e-005 3.446071e-001 8.987874e-001 1.121444e-004 -1.019718e-005 3.464039e-001 9.029723e-001
325365000 4.676857e-005 4.275035e-005 3.797261e-001 8.908125e-001 2.800996e-006 6.498682e-005 3.813313e-001 8.941607e-001
325650000 3.037381e-005 -9.304794e-005 4.151019e-001 8.799943e-001 -3.938394e-005 4.311845e-005 4.169266e-001 8.840842e-001
325935000 -1.263551e-004 3.114464e-005 4.498098e-001 8.689272e-001 -7.178438e-007 -2.965880e-005 4.517155e-001 8.717318e-001
326220000 7.127530e-005 1.824082e-005 4.843468e-001 8.554370e-001 -1.741454e-005 -1.141174e-005 4.864784e-001 8.589162e-001
326505000 7.589473e-006 6.497375e-005 5.190528e-001 8.403052e-001 1.801320e-005 -9.140202e-005 5.216987e-001 8.438665e-001
326790000 -5.313215e-005 5.658084e-005 5.531161e-001 8.235970e-001 -4.948804e-006 -3.042117e-005 5.550776e-001 8.276131e-001
327075000 -8.033337e-005 3.471937e-005 5.870106e-001 8.053868e-001 5.465177e-005 9.142346e-005 5.891646e-001 8.092501e-001
327360000 8.301303e-006 6.138341e-005 6.193395e-001 7.849725e-001 4.693518e-005 -1.246643e-004 6.222096e-001 7.887032e-001
327645000 2.929602e-005 -4.171787e-005 6.516653e-001 7.633520e-001 -3.056676e-005 8.756696e-006 6.551564e-001 7.660487e-001
327930000 -2.563977e-005 1.272294e-004 6.839685e-001 7.395397e-001 -9.213786e-006 1.912161e-005 6.863278e-001 7.430962e-001
328215000 -3.294119e-005 -2.027079e-005 7.138772e-001 7.143753e-001 5.311523e-005 -9.591640e-006 7.167930e-001 7.178127e-001
328500000 -9.222937e-005 5.685258e-005 7.438496e-001 6.880958e-001 6.566949e-005 3.111937e-005 7.464213e-001 6.910232e-001
328785000 7.729426e-005 2.006280e-005 7.716007e-001 6.593251e-001 -9.321253e-005 5.319802e-005 7.747792e-001 6.627448e-001
329070000 -1.664422e-006 1.759918e-004 7.986205e-001 6.302077e-001 2.686286e-005 -7.015382e-005 8.022981e-001 6.321169e-001
329355000 5.263333e-005 4.008607e-005 8.247698e-001 5.978600e-001 6.823827e-006 -1.418958e-005 8.286305e-001 6.002634e-001
329640000 -8.687418e-005 7.185916e-005 8.486399e-001 5.659615e-001 -8.708117e-007 -5.480179e-006 8.522240e-001 5.682594e-001
329925000 -3.889569e-006 4.970139e-005 8.716489e-001 5.324260e-001 -1.175711e-005 7.858530e-006 8.749844e-001 5.342332e-001
330210000 -2.136340e-005 -4.668456e-005 8.924857e-001 4.969614e-001 -2.595945e-005 -8.198292e-005 8.957387e-001 4.996942e-001
330495000 1.150824e-004 3.667897e-005 9.106680e-001 4.616171e-001 -1.137468e-005 5.384997e-005 9.155017e-001 4.634048e-001
330780000 -8.532003e-005 -1.031152e-005 9.288090e-001 4.246078e-001 9.292342e-005 -1.018991e-005 9.323669e-001 4.260861e-001
331065000 -8.609132e-005 1.121100e-004 9.443257e-001 3.867266e-001 3.077199e-005 -1.170229e-004 9.487112e-001 3.890021e-001
331350000 6.804096e-005 2.790960e-005 9.578303e-001 3.487642e-001 -3.097151e-005 7.600791e-005 9.618163e-001 3.501059e-001
331635000 6.474653e-005 -1.773337e-005 9.694260e-001 3.103176e-001 3.980908e-005 1.185680e-006 9.736736e-001 3.115668e-001
331920000 -4.252962e-005 5.955934e-005 9.793714e-001 2.715810e-001 -2.096868e-005 5.923730e-005 9.834002e-001 2.721616e-001
332205000 5.982900e-005 4.808058e-005 9.870737e-001 2.319782e-001 -3.823952e-005 -1.159146e-004 9.912272e-001 2.335583e-001
332490000 8.183893e-006 1.238488e-005 9.927652e-001 1.923713e-001 3.556474e-005 2.148086e-005 9.975147e-001 1.937063e-001
332775000 7.961728e-005 2.250741e-005 9.969957e-001 1.536035e-001 -3.711730e-005 -6.761328e-005 1.001209e+000 1.541620e-001
333060000 1.826839e-005 -2.090965e-005 9.987338e-001 1.144234e-001 -3.418797e-005 8.378939e-006 1.003462e+000 1.146380e-001
333345000 3.535556e-005 -2.202486e-005 9.991568e-001 7.566004e-002 4.258071e-006 -7.636641e-005 1.003736e+000 7.516025e-002
333630000 4.463196e-005 3.528260e-005 9.977533e-001 3.679315e-002 -1.004917e-004 -5.145324e-005 1.002144e+000 3.673419e-002
333915000 1.663395e-005 2.360908e-005 9.941472e-001 -1.431200e-003 3.849046e-005 4.878952e-005 9.986658e-001 -1.825762e-003
334200000 1.255571e-004 -2.981683e-005 9.898981e-001 -3.853719e-002 -2.762307e-005 4.049546e-005 9.935418e-001 -3.945618e-002
334485000 7.489909e-005 -7.311195e-006 9.830666e-001 -7.587646e-002 -1.177051e-004 -1.724798e-005 9.867054e-001 -7.689501e-002
334770000 -4.273540e-005 8.137617e-005 9.748519e-001 -1.122730e-001 1.119166e-005 8.548468e-005 9.789499e-001 -1.123148e-001
335055000 4.154805e-005 1.970706e-005 9.648265e-001 -1.476430e-001 -4.430090e-005 -7.976288e-005 9.692376e-001 -1.480783e-001
335340000 -4.303124e-005 7.053179e-006 9.537566e-001 -1.823606e-001 -7.449372e-005 -9.250810e-005 9.581491e-001 -1.829340e-001
335625000 1.157462e-004 -1.259272e-005 9.407762e-001 -2.155460e-001 1.705577e-005 5.160064e-006 9.458612e-001 -2.164144e-001
335910000 2.595090e-005 1.710170e-005 9.282427e-001 -2.476044e-001 -2.236923e-005 8.133226e-005 9.321831e-001 -2.491423e-001
336195000 -3.944213e-005 6.302339e-005 9.130418e-001 -2.796727e-001 5.691121e-005 2.268698e-005 9.170827e-001 -2.800405e-001
336480000 4.783921e-005 4.243329e-005 8.975991e-001 -3.099430e-001 -9.390892e-005 1.495327e-005 9.011709e-001 -3.108097e-001
336765000 -7.469438e-005 -2.742276e-005 8.807218e-001 -3.395430e-001 -5.363826e-005 9.897246e-005 8.844358e-001 -3.409908e-001
337050000 3.748015e-005 6.406060e-005 8.633570e-001 -3.674106e-001 -3.112296e-005 4.468175e-005 8.666569e-001 -3.688730e-001
337335000 -2.529506e-005 1.112450e-004 8.450082e-001 -3.944509e-001 -2.116325e-005 -4.659820e-005 8.485785e-001 -3.964616e-001
337620000 -6.744943e-005 -5.131059e-005 8.257857e-001 -4.209719e-001 -3.078456e-005 -8.343572e-005 8.289446e-001 -4.225104e-001
337905000 3.266741e-005 3.599866e-005 8.056170e-001 -4.463189e-001 -1.330284e-005 2.118904e-005 8.094482e-001 -4.473024e-001
338190000 -1.067040e-005 -2.453881e-005 7.854957e-001 -4.693101e-001 -1.633225e-005 3.418692e-005 7.887102e-001 -4.712127e-001
338475000 -1.727072e-006 1.518449e-005 7.644101e-001 -4.921404e-001 -2.630648e-005 -6.936476e-006 7.674284e-001 -4.942297e-001
338760000 -1.366151e-005 1.074233e-004 7.432165e-001 -5.137649e-001 -4.972352e-005 1.031911e-004 7.462621e-001 -5.158988e-001
339045000 -2.486382e-005 3.164008e-005 7.212483e-001 -5.345336e-001 -6.855762e-006 3.006159e-005 7.242724e-001 -5.366116e-001
339330000 3.520209e-005 4.782264e-005 6.989927e-001 -5.536048e-001 -6.126211e-005 -6.076291e-005 7.023043e-001 -5.566326e-001
339615000 4.501491e-005 -3.550937e-005 6.767542e-001 -5.724108e-001 3.708657e-005 -7.627124e-005 6.802029e-001 -5.744659e-001
339900000 2.361701e-005 -8.946178e-005 6.545007e-001 -5.898911e-001 4.900690e-005 -1.114646e-004 6.571270e-001 -5.920642e-001
340185000 8.595735e-005 -1.015473e-005 6.311973e-001 -6.062450e-001 -1.087726e-005 4.104449e-006 6.344200e-001 -6.089325e-001
340470000 8.318303e-005 6.290439e-005 6.085395e-001 -6.222740e-001 -5.557064e-005 3.652678e-005 6.112449e-001 -6.247607e-001
340755000 -2.153600e-005 6.335841e-005 5.853940e-001 -6.373122e-001 -1.628154e-005 8.748419e-007 5.879586e-001 -6.390123e-001
341040000 8.028967e-006 1.068163e-004 5.624421e-001 -6.500538e-001 2.909932e-006 -2.108095e-005 5.649172e-001 -6.531747e-001
341325000 1.680419e-005 1.023856e-004 5.390059e-001 -6.635932e-001 5.158279e-005 7.255863e-005 5.414887e-001 -6.663632e-001
341610000 2.667470e-005 8.298931e-005 5.160910e-001 -6.755500e-001 -6.262788e-005 2.255602e-005 5.184755e-001 -6.779503e-001
341895000 -1.083888e-004 -1.562549e-005 4.926078e-001 -6.864183e-001 2.751818e-005 1.605061e-005 4.945061e-001 -6.896612e-001
342180000 6.155849e-005 8.478629e-005 4.693414e-001 -6.970350e-001 -1.324735e-005 -2.186468e-005 4.713950e-001 -6.999873e-001
342465000 -9.429770e-005 -4.917921e-005 4.465452e-001 -7.065030e-001 -5.286131e-005 1.185184e-004 4.482697e-001 -7.094322e-001
342750000 4.273178e-005 -5.002819e-005 4.234311e-001 -7.157429e-001 2.354901e-005 -6.585776e-005 4.255195e-001 -7.182919e-001
343035000 -3.020356e-005 -3.949519e-005 4.006127e-001 -7.242215e-001 3.876984e-005 6.625839e-005 4.027121e-001 -7.271004e-001
343320000 -5.780518e-005 -1.404311e-004 3.777576e-001 -7.313487e-001 -1.142031e-005 5.956465e-005 3.790531e-001 -7.342470e-001
343605000 7.437361e-005 -5.611618e-006 3.547429e-001 -7.382979e-001 1.192496e-006 -5.307253e-005 3.563000e-001 -7.415542e-001
343890000 3.898353e-005 2.986418e-005 3.319345e-001 -7.447814e-001 -4.090990e-006 -1.550119e-004 3.332554e-001 -7.477314e-001
