!Agilent Technologies,N5230C,SG49000117,A.08.50.07
!Agilent N5230C: A.08.50.07
!Date: Monday, March 18, 2024 17:53:25
!Correction: S11(Off) 
!S21(Off) 
!S12(Off) 
!S22(Full 1 Port(2)) 
!S2P File: Measurements: S11, S21, S12, S22:
# Hz S  RI   R 50
300000000 2.815428e-005 -1.857331e-005 -5.932781e-001 -6.739515e-001 8.848185e-005 9.579150e-005 1.003674e+000 -7.793754e-002
300285000 -1.483265e-005 -4.180735e-005 -6.099759e-001 -6.520495e-001 -7.365387e-005 1.255313e-004 1.003161e+000 -7.554995e-002
300570000 3.913124e-005 -5.564064e-005 -6.251006e-001 -6.289939e-001 -1.262333e-005 -5.827128e-006 1.004745e+000 -7.628912e-002
300855000 5.083338e-005 -6.017108e-005 -6.403247e-001 -6.055610e-001 -2.334718e-005 3.189557e-005 1.004382e+000 -7.624319e-002
301140000 -9.473933e-006 7.403932e-005 -6.534720e-001 -5.825346e-001 -1.732853e-004 8.910504e-005 1.004145e+000 -7.702549e-002
301425000 -4.040288e-005 -8.891816e-006 -6.670414e-001 -5.595204e-001 -1.460311e-005 2.994493e-005 1.005163e+000 -7.657783e-002
301710000 -5.947691e-005 -7.486077e-005 -6.788028e-001 -5.356683e-001 -6.949333e-006 -9.915813e-005 1.004836e+000 -7.870191e-002
301995000 -7.405487e-005 1.401120e-006 -6.904363e-001 -5.130280e-001 4.544422e-005 3.102065e-006 1.003951e+000 -7.595430e-002
302280000 -1.262198e-004 -4.137458e-005 -7.009463e-001 -4.899405e-001 -7.197755e-005 -1.136221e-004 1.005902e+000 -7.722180e-002
302565000 -4.717145e-005 -1.570221e-005 -7.105042e-001 -4.666556e-001 1.399021e-004 2.622038e-005 1.005291e+000 -7.684228e-002
302850000 -2.256753e-005 -3.507380e-005 -7.197683e-001 -4.436208e-001 1.368270e-004 -6.571043e-006 1.003345e+000 -7.673645e-002
303135000 -1.231129e-005 -2.927256e-005 -7.278870e-001 -4.200848e-001 5.152818e-005 -9.194236e-005 1.004529e+000 -7.688184e-002
303420000 4.020327e-005 2.478255e-005 -7.351136e-001 -3.972698e-001 -2.370243e-005 7.349981e-005 1.003856e+000 -7.746939e-002
303705000 1.433102e-004 2.808386e-005 -7.424539e-001 -3.749307e-001 1.664983e-004 6.128118e-005 1.005989e+000 -7.757662e-002
303990000 1.586862e-005 3.028600e-005 -7.494906e-001 -3.519247e-001 7.878392e-005 -2.660863e-005 1.005152e+000 -7.733852e-002
304275000 1.221460e-004 -6.350342e-005 -7.549119e-001 -3.290796e-001 -5.744142e-005 1.155953e-004 1.003268e+000 -7.818245e-002
304560000 7.562855e-006 -5.863604e-006 -7.601343e-001 -3.064751e-001 2.883395e-005 8.732695e-005 1.003672e+000 -7.743926e-002
304845000 4.578292e-005 2.009843e-005 -7.650276e-001 -2.844048e-001 -1.171835e-005 7.572578e-005 1.004460e+000 -7.724679e-002
305130000 1.486706e-004 2.041287e-005 -7.687921e-001 -2.622941e-001 1.047365e-004 6.558347e-005 1.003606e+000 -7.789975e-002
305415000 3.352142e-005 5.139624e-005 -7.723281e-001 -2.395890e-001 -1.746396e-005 3.128673e-005 1.004736e+000 -7.716752e-002
305700000 -7.891112e-005 1.787216e-005 -7.749718e-001 -2.175684e-001 -4.667962e-005 1.177666e-005 1.004045e+000 -7.766318e-002
305985000 -3.575389e-006 3.331228e-005 -7.777324e-001 -1.961703e-001 -2.323786e-005 -2.183074e-005 1.005249e+000 -7.757174e-002
306270000 1.059801e-005 5.952781e-006 -7.796436e-001 -1.740461e-001 1.574108e-004 -1.167158e-004 1.005963e+000 -7.770707e-002
306555000 -2.438799e-005 -7.846799e-005 -7.812608e-001 -1.528786e-001 -1.230749e-004 4.376423e-005 1.006409e+000 -7.864910e-002
306840000 -4.306131e-005 -5.015136e-005 -7.818507e-001 -1.315525e-001 -4.900617e-005 -1.356360e-005 1.003506e+000 -7.819092e-002
307125000 -6.961954e-005 -6.804978e-005 -7.827908e-001 -1.103583e-001 1.672314e-005 -1.207506e-004 1.006497e+000 -7.754347e-002
307410000 -2.381559e-005 -4.166587e-005 -7.828397e-001 -8.931655e-002 -4.940793e-005 6.657487e-005 1.006435e+000 -7.766088e-002
307695000 3.247965e-005 2.616988e-005 -7.830146e-001 -6.799487e-002 5.468730e-005 -3.089183e-005 1.006417e+000 -7.891581e-002
307980000 6.186214e-005 -1.462949e-005 -7.819306e-001 -4.717865e-002 1.995943e-004 -6.141105e-005 1.003966e+000 -7.868375e-002
308265000 -4.394651e-005 2.029918e-005 -7.811239e-001 -2.675226e-002 9.663498e-005 -9.478462e-005 1.004661e+000 -7.993551e-002
308550000 7.991928e-007 -7.925785e-005 -7.796132e-001 -6.276411e-003 1.152292e-004 -7.288429e-005 1.004405e+000 -7.879585e-002
308835000 5.671899e-005 1.421838e-006 -7.778058e-001 1.464264e-002 -1.984896e-005 -4.633984e-006 1.004604e+000 -7.900897e-002
309120000 7.743428e-007 -9.288170e-005 -7.754659e-001 3.456457e-002 1.110257e-004 9.346288e-005 1.006507e+000 -7.951701e-002
309405000 -1.000268e-004 1.385163e-005 -7.728202e-001 5.451130e-002 2.092078e-007 1.981438e-005 1.006262e+000 -7.925340e-002
309690000 6.769849e-006 -5.717933e-005 -7.701473e-001 7.454290e-002 8.565047e-006 4.848952e-005 1.007106e+000 -7.854524e-002
309975000 -3.088407e-005 2.248436e-005 -7.669574e-001 9.436324e-002 -6.668903e-005 4.764237e-005 1.004849e+000 -7.824497e-002
310260000 -1.699509e-005 6.521895e-005 -7.628586e-001 1.143856e-001 -6.936381e-005 1.281639e-005 1.007050e+000 -7.816833e-002
310545000 2.657496e-005 -9.471003e-005 -7.585060e-001 1.343097e-001 -7.367251e-005 -3.774845e-006 1.005741e+000 -7.935609e-002
310830000 -4.312267e-005 -4.618742e-005 -7.539173e-001 1.534350e-001 -7.778617e-005 -4.537837e-005 1.006991e+000 -7.855873e-002
311115000 -1.122244e-004 1.167809e-004 -7.499674e-001 1.734105e-001 -6.313463e-005 -3.011370e-005 1.005208e+000 -7.919253e-002
311400000 -7.308652e-005 8.742591e-005 -7.446916e-001 1.927784e-001 -2.936341e-005 -8.678362e-005 1.005257e+000 -7.940407e-002
311685000 -9.550942e-006 1.575217e-005 -7.391472e-001 2.115814e-001 1.840678e-005 -1.169551e-004 1.005340e+000 -7.971450e-002
311970000 2.727207e-005 -3.967632e-005 -7.330174e-001 2.305936e-001 1.807388e-005 -1.093478e-004 1.004442e+000 -7.995783e-002
312255000 3.269564e-005 2.791534e-005 -7.270235e-001 2.500366e-001 -8.313774e-005 -4.972098e-005 1.004655e+000 -7.828008e-002
312540000 -3.214676e-005 -7.707327e-005 -7.206106e-001 2.690665e-001 -4.968105e-005 -4.554073e-005 1.004550e+000 -7.958338e-002
312825000 9.881278e-006 7.733570e-007 -7.136479e-001 2.881059e-001 1.331961e-005 -1.778020e-004 1.005697e+000 -8.034080e-002
313110000 9.134431e-005 7.926403e-006 -7.062014e-001 3.064030e-001 3.273399e-005 -2.297516e-005 1.005161e+000 -7.986434e-002
313395000 -2.959764e-005 3.876053e-005 -6.984792e-001 3.251694e-001 1.230056e-004 6.285562e-005 1.004289e+000 -7.953677e-002
313680000 1.635910e-005 9.514289e-005 -6.908804e-001 3.437726e-001 1.268065e-004 -4.267987e-005 1.005725e+000 -7.936289e-002
313965000 2.582718e-005 1.456154e-004 -6.821696e-001 3.626915e-001 8.742444e-005 -3.378287e-005 1.006613e+000 -8.044201e-002
314250000 5.401094e-005 1.542052e-004 -6.733122e-001 3.811507e-001 1.915622e-005 4.173493e-005 1.004874e+000 -8.008703e-002
314535000 3.526355e-005 3.189857e-005 -6.645330e-001 3.992693e-001 4.640733e-005 1.163038e-005 1.005646e+000 -8.048882e-002
314820000 -3.969330e-005 4.128598e-005 -6.546506e-001 4.177454e-001 -8.070187e-006 -1.641453e-005 1.004976e+000 -8.119197e-002
315105000 -1.540355e-005 7.553478e-005 -6.450131e-001 4.357506e-001 4.082510e-005 7.250534e-005 1.003352e+000 -8.111749e-002
315390000 8.606452e-006 3.539626e-005 -6.345336e-001 4.536988e-001 4.990639e-005 4.385395e-005 1.005885e+000 -8.074851e-002
315675000 2.589728e-006 -6.402788e-005 -6.238766e-001 4.718787e-001 4.809724e-005 5.696983e-005 1.003788e+000 -7.973191e-002
315960000 4.766903e-005 1.488735e-005 -6.121671e-001 4.898489e-001 -7.511524e-005 1.278977e-005 1.004309e+000 -8.093944e-002
316245000 1.293840e-004 -3.258812e-005 -6.000223e-001 5.081523e-001 -1.160867e-004 -7.722536e-005 1.004642e+000 -8.030695e-002
316530000 8.100893e-005 -7.700345e-005 -5.882412e-001 5.257854e-001 5.245834e-006 1.225168e-005 1.004924e+000 -8.118097e-002
316815000 8.052820e-006 1.067658e-005 -5.756231e-001 5.433911e-001 4.271675e-006 -1.191250e-004 1.004695e+000 -7.903793e-002
317100000 4.655740e-005 2.035913e-005 -5.624015e-001 5.605576e-001 -3.525952e-005 -5.592304e-005 1.004146e+000 -7.951255e-002
317385000 -8.663663e-005 -7.388869e-006 -5.486664e-001 5.783326e-001 3.674935e-005 -2.183145e-005 1.005356e+000 -7.994536e-002
317670000 4.076225e-006 1.019160e-004 -5.344495e-001 5.955375e-001 3.663675e-005 8.727983e-005 1.006987e+000 -7.991523e-002
317955000 -1.050100e-004 -9.591591e-005 -5.195990e-001 6.132698e-001 4.305552e-005 -1.165638e-005 1.006990e+000 -7.965947e-002
318240000 -5.811242e-005 1.187017e-005 -5.038933e-001 6.296058e-001 -1.206944e-004 4.832912e-005 1.006050e+000 -8.105349e-002
318525000 2.321978e-005 -3.180776e-005 -4.881684e-001 6.467701e-001 4.710520e-005 1.013112e-004 1.005806e+000 -7.995960e-002
318810000 9.898571e-006 -4.513406e-005 -4.719976e-001 6.632966e-001 -7.325974e-005 4.886695e-005 1.005947e+000 -8.072200e-002
319095000 2.156213e-006 -2.735892e-005 -4.551410e-001 6.799033e-001 4.380703e-005 1.188885e-004 1.006005e+000 -8.033065e-002
319380000 5.682776e-005 -5.152193e-005 -4.376504e-001 6.956142e-001 -3.588703e-005 5.707437e-005 1.005159e+000 -8.179517e-002
319665000 4.217687e-005 -1.841961e-005 -4.188716e-001 7.117726e-001 6.841897e-006 -2.418622e-005 1.006879e+000 -8.104250e-002
319950000 -6.422516e-005 -1.106921e-005 -4.001283e-001 7.276469e-001 -3.518163e-006 1.491557e-005 1.004407e+000 -8.269072e-002
320235000 3.540744e-005 1.130155e-005 -3.802038e-001 7.429157e-001 -1.191323e-004 2.728370e-005 1.006163e+000 -8.259548e-002
320520000 -4.277933e-005 -6.614356e-005 -3.601462e-001 7.576267e-001 -1.080639e-004 -8.144713e-005 1.005296e+000 -8.073679e-002
320805000 2.714528e-005 4.060807e-005 -3.388101e-001 7.723511e-001 4.704688e-005 9.325732e-007 1.005136e+000 -8.167386e-002
321090000 1.065575e-004 -9.008704e-006 -3.175401e-001 7.865846e-001 -4.224302e-006 4.450313e-005 1.004781e+000 -8.064615e-002
321375000 -7.970691e-006 1.007663e-004 -2.951681e-001 8.006091e-001 -4.275749e-005 -2.108032e-005 1.004680e+000 -8.254277e-002
321660000 1.335414e-004 -8.560487e-005 -2.718060e-001 8.142038e-001 1.230804e-004 -8.938675e-005 1.005126e+000 -8.253715e-002
321945000 6.170197e-005 1.705301e-005 -2.483797e-001 8.265554e-001 -6.996816e-006 1.904173e-004 1.004459e+000 -8.391451e-002
322230000 3.617675e-005 5.798026e-006 -2.243877e-001 8.396403e-001 6.137822e-005 1.032044e-004 1.004291e+000 -8.311517e-002
322515000 4.977224e-005 -3.410797e-005 -1.985124e-001 8.512227e-001 -4.804293e-005 1.242392e-004 1.003827e+000 -8.263667e-002
322800000 -3.823655e-005 7.680231e-005 -1.722811e-001 8.621917e-001 5.149432e-005 -4.993464e-005 1.007041e+000 -8.208395e-002
323085000 5.131273e-006 8.477206e-006 -1.456106e-001 8.734238e-001 -2.068368e-005 6.382390e-005 1.005721e+000 -8.208803e-002
323370000 5.107358e-007 3.359741e-005 -1.182250e-001 8.829713e-001 1.634212e-005 -3.245999e-005 1.006720e+000 -8.378457e-002
323655000 -1.297451e-005 -2.103418e-005 -9.012752e-002 8.914533e-001 -9.990707e-006 -7.843041e-005 1.005224e+000 -8.255468e-002
323940000 5.182825e-005 -9.395026e-005 -6.127019e-002 9.001189e-001 -3.998296e-005 1.574278e-005 1.005817e+000 -8.334160e-002
324225000 -7.412247e-005 4.443245e-005 -3.095553e-002 9.069471e-001 2.174996e-005 -5.655963e-005 1.003353e+000 -8.177354e-002
324510000 -4.775445e-005 -1.045421e-005 -1.129700e-003 9.138837e-001 4.929184e-005 -1.312706e-004 1.006779e+000 -8.477502e-002
324795000 2.690555e-005 -1.384069e-004 3.048122e-002 9.194211e-001 1.147469e-005 -3.927528e-005 1.004803e+000 -8.330099e-002
325080000 6.189075e-006 -2.670000e-005 6.197020e-002 9.230701e-001 6.894414e-005 1.948445e-005 1.004866e+000 -8.279508e-002
325365000 -2.636341e-005 -6.094232e-006 9.449767e-002 9.267324e-001 7.906980e-005 -1.602681e-005 1.004895e+000 -8.221061e-002
325650000 4.833726e-005 1.006654e-004 1.277334e-001 9.278482e-001 1.417931e-005 1.631698e-007 1.005541e+000 -8.244149e-002
325935000 3.658934e-005 -7.301119e-005 1.611278e-001 9.287982e-001 1.008519e-004 -4.734170e-005 1.004833e+000 -8.421960e-002
326220000 -6.306319e-006 -6.996081e-005 1.946015e-001 9.279712e-001 2.901828e-005 -6.627542e-006 1.005293e+000 -8.298604e-002
326505000 4.803893e-005 6.040755e-005 2.290587e-001 9.261472e-001 -3.571162e-005 2.469650e-005 1.005714e+000 -8.390786e-002
326790000 2.184963e-005 3.986726e-005 2.632304e-001 9.225030e-001 -2.861558e-005 1.671792e-005 1.003690e+000 -8.339448e-002
327075000 -5.161513e-005 9.781584e-005 2.983950e-001 9.177513e-001 8.920419e-006 2.120796e-005 1.004462e+000 -8.354316e-002
327360000 -1.010490e-005 3.723883e-005 3.339800e-001 9.107033e-001 9.169386e-005 1.280992e-005 1.005677e+000 -8.390915e-002
327645000 -4.782202e-005 -1.185724e-006 3.687243e-001 9.027238e-001 -1.487032e-004 1.831456e-005 1.005492e+000 -8.448409e-002
327930000 -2.893535e-005 3.893810e-005 4.043314e-001 8.930252e-001 -6.166424e-005 6.558372e-005 1.003798e+000 -8.394120e-002
328215000 -1.876682e-005 3.393081e-005 4.393052e-001 8.820232e-001 5.178043e-005 -1.180419e-005 1.005091e+000 -8.387407e-002
328500000 -5.234072e-005 -8.479366e-006 4.750718e-001 8.682023e-001 -6.207237e-005 -6.910361e-005 1.004252e+000 -8.432969e-002
328785000 5.486143e-005 -2.033986e-005 5.087506e-001 8.532810e-001 6.634556e-005 3.351418e-005 1.004465e+000 -8.480663e-002
329070000 6.833360e-005 -8.881285e-006 5.438703e-001 8.368517e-001 1.711221e-005 -1.694697e-005 1.004645e+000 -8.441613e-002
329355000 3.402090e-005 4.248948e-005 5.776937e-001 8.181953e-001 -3.477297e-005 4.125799e-005 1.005138e+000 -8.516337e-002
329640000 3.175061e-005 -2.401626e-006 6.107764e-001 7.981310e-001 -5.049935e-005 -5.080499e-005 1.004841e+000 -8.481842e-002
329925000 -9.959483e-005 3.639055e-005 6.432768e-001 7.766119e-001 -7.565423e-005 3.886504e-005 1.004593e+000 -8.510718e-002
330210000 1.780901e-005 5.746591e-005 6.748515e-001 7.527541e-001 -3.010949e-005 -1.765198e-005 1.004422e+000 -8.463478e-002
330495000 -9.605889e-005 5.603655e-005 7.061011e-001 7.274191e-001 1.051804e-005 -4.205167e-005 1.003681e+000 -8.433448e-002
330780000 -1.573817e-005 -5.199166e-005 7.356044e-001 7.010791e-001 -1.399793e-004 2.814558e-005 1.004848e+000 -8.495475e-002
331065000 -2.669388e-005 9.848954e-005 7.639902e-001 6.726211e-001 -1.577298e-006 7.580903e-005 1.003249e+000 -8.425480e-002
331350000 1.498653e-005 2.463750e-005 7.905293e-001 6.435392e-001 5.633076e-006 4.939845e-005 1.004309e+000 -8.502775e-002
331635000 1.984688e-005 4.731907e-006 8.167589e-001 6.125693e-001 -8.793960e-005 -1.658116e-005 1.005466e+000 -8.444581e-002
331920000 6.243609e-005 3.944550e-005 8.407199e-001 5.803030e-001 2.217127e-005 -1.123610e-004 1.004641e+000 -8.430209e-002
332205000 4.931413e-005 -1.152542e-004 8.635591e-001 5.472713e-001 3.560072e-005 1.527744e-005 1.004056e+000 -8.659859e-002
332490000 -1.410195e-005 -8.260700e-006 8.840478e-001 5.121145e-001 9.770012e-005 1.254376e-005 1.004435e+000 -8.485273e-002
332775000 -2.320135e-005 -7.565098e-005 9.037686e-001 4.770375e-001 1.274546e-004 -2.816184e-005 1.005301e+000 -8.505743e-002
333060000 2.133673e-005 1.346068e-005 9.206181e-001 4.403137e-001 -4.162180e-005 4.977037e-005 1.004755e+000 -8.476587e-002
333345000 1.057387e-004 9.393930e-005 9.365240e-001 4.032452e-001 1.486312e-005 4.077088e-005 1.005581e+000 -8.403440e-002
333630000 -1.668770e-005 -3.485644e-005 9.503524e-001 3.652008e-001 3.322466e-005 5.480941e-005 1.004978e+000 -8.558931e-002
333915000 2.167117e-005 1.718632e-006 9.621906e-001 3.279889e-001 -4.415207e-005 -3.949206e-006 1.004691e+000 -8.543160e-002
334200000 2.750360e-005 2.930424e-005 9.721600e-001 2.889103e-001 1.912720e-005 -7.051196e-006 1.005136e+000 -8.621950e-002
334485000 7.109544e-005 -8.229780e-005 9.809482e-001 2.502980e-001 -1.035763e-005 -5.110148e-005 1.003983e+000 -8.541756e-002
334770000 7.144221e-005 -3.265061e-005 9.869902e-001 2.117196e-001 -9.006579e-005 5.163544e-005 1.005340e+000 -8.608830e-002
335055000 6.406227e-005 1.386035e-005 9.907918e-001 1.730563e-001 8.529296e-005 1.650945e-004 1.005528e+000 -8.469235e-002
335340000 -1.014430e-004 -4.289170e-005 9.930649e-001 1.349851e-001 -1.117186e-004 2.373327e-006 1.005778e+000 -8.734185e-002
335625000 3.406060e-005 -3.416592e-005 9.941842e-001 9.627241e-002 1.347698e-004 5.108133e-005 1.004830e+000 -8.703000e-002
335910000 -3.996831e-005 1.305821e-004 9.927376e-001 5.844728e-002 -2.004203e-005 3.434507e-005 1.006313e+000 -8.533830e-002
336195000 5.498167e-005 -2.700987e-005 9.897172e-001 2.127011e-002 -4.021835e-005 4.368697e-005 1.003633e+000 -8.633289e-002
336480000 -2.238733e-005 -3.351984e-005 9.856613e-001 -1.569308e-002 -1.452249e-005 1.105179e-004 1.004909e+000 -8.641971e-002
336765000 -3.831609e-006 9.038539e-005 9.800888e-001 -5.186807e-002 -4.424472e-005 -2.649006e-005 1.005290e+000 -8.643103e-002
337050000 1.860462e-005 4.432442e-005 9.725931e-001 -8.773172e-002 -1.364008e-004 7.616193e-005 1.004878e+000 -8.564379e-002
337335000 2.465486e-005 -2.085061e-005 9.638262e-001 -1.221380e-001 1.492000e-004 -4.591268e-006 1.004400e+000 -8.757492e-002
337620000 9.937069e-006 4.413632e-005 9.537027e-001 -1.557373e-001 2.541248e-005 -7.511318e-005 1.004176e+000 -8.816419e-002
337905000 -2.005346e-005 1.000720e-004 9.420838e-001 -1.884285e-001 -8.648953e-005 -5.294637e-005 1.003146e+000 -8.561274e-002
338190000 2.724122e-005 3.605337e-005 9.297690e-001 -2.211443e-001 7.948562e-005 1.664089e-005 1.004356e+000 -8.752157e-002
338475000 3.198864e-005 1.198773e-004 9.156236e-001 -2.520055e-001 4.052139e-005 -2.057510e-005 1.005391e+000 -8.571195e-002
338760000 -5.251809e-005 -3.129019e-006 9.012395e-001 -2.824644e-001 -1.656005e-005 4.124058e-005 1.004197e+000 -8.673611e-002
339045000 -1.103142e-004 7.424463e-005 8.856481e-001 -3.111925e-001 -8.427079e-005 -8.121743e-005 1.004522e+000 -8.673674e-002
339330000 -7.409306e-005 -1.529565e-005 8.688172e-001 -3.398003e-001 -8.357011e-005 -3.365695e-005 1.005660e+000 -8.514839e-002
339615000 -1.272783e-004 -8.703593e-005 8.522483e-001 -3.665739e-001 -4.357388e-005 2.583377e-005 1.005895e+000 -8.774827e-002
339900000 1.934491e-005 3.178860e-005 8.335510e-001 -3.924454e-001 -5.204993e-005 -6.296710e-005 1.004085e+000 -8.797497e-002
340185000 -2.363336e-005 -4.096088e-005 8.148351e-001 -4.177946e-001 8.710790e-005 -8.907935e-005 1.005958e+000 -8.746805e-002
340470000 -9.834586e-006 -4.693388e-006 7.961887e-001 -4.413262e-001 1.058576e-005 3.963697e-005 1.006107e+000 -8.651571e-002
340755000 7.178890e-005 -9.188694e-005 7.765232e-001 -4.645068e-001 -2.786146e-005 8.201841e-005 1.005211e+000 -8.828051e-002
341040000 2.686741e-005 9.994855e-005 7.566316e-001 -4.860227e-001 1.306349e-004 -1.257231e-004 1.004649e+000 -8.796795e-002
341325000 8.494995e-006 3.145435e-006 7.359453e-001 -5.072681e-001 -6.067706e-005 -1.799707e-004 1.005707e+000 -8.612622e-002
341610000 8.813953e-005 6.672142e-005 7.148724e-001 -5.269141e-001 9.936780e-005 -6.242432e-006 1.006490e+000 -8.762506e-002
341895000 1.652585e-005 -5.988421e-005 6.934510e-001 -5.461600e-001 -6.015467e-005 3.458772e-005 1.004490e+000 -8.831804e-002
342180000 -9.272602e-006 -5.376909e-006 6.724291e-001 -5.641093e-001 6.504026e-005 -4.952810e-005 1.005776e+000 -8.774962e-002
342465000 4.798446e-005 3.324775e-005 6.503726e-001 -5.807730e-001 1.028066e-004 2.789764e-005 1.005162e+000 -8.769301e-002
342750000 -9.160673e-005 -6.864160e-005 6.286392e-001 -5.972736e-001 7.777286e-005 -2.105080e-005 1.006910e+000 -8.680731e-002
343035000 -3.013367e-005 3.418104e-006 6.065738e-001 -6.119189e-001 -1.391226e-004 9.990233e-005 1.003961e+000 -8.908211e-002
343320000 1.604734e-005 1.583868e-006 5.848660e-001 -6.265851e-001 -4.282711e-005 -2.463457e-005 1.004234e+000 -8.849425e-002
343605000 -7.297086e-005 -5.613956e-005 5.623271e-001 -6.403785e-001 -7.356511e-005 1.122067e-004 1.005674e+000 -8.896916e-002
343890000 2.429203e-005 2.740469e-005 5.395313e-001 -6.533907e-001 -7.961418e-005 2.433304e-005 1.006305e+000 -8.978963e-002
