!Agilent Technologies,N5230C,SG49000117,A.08.50.07
!Agilent N5230C: A.08.50.07
!Date: Monday, March 18, 2024 17:55:13
!Correction: S11(Off) 
!S21(Off) 
!S12(Off) 
!S22(Full 1 Port(2)) 
!S2P File: Measurements: S11, S21, S12, S22:
# Hz S  RI   R 50
300000000 -1.593451e-005 9.679110e-005 -5.984631e-001 -6.739319e-001 6.342115e-005 -6.763666e-005 1.012002e+000 -8.574373e-002
300285000 -3.332092e-005 3.313155e-005 -6.149997e-001 -6.518571e-001 -4.421519e-005 3.347333e-005 1.012468e+000 -8.644927e-002
300570000 -4.736153e-005 -1.088676e-004 -6.307899e-001 -6.287770e-001 -8.717698e-006 -1.558701e-004 1.013400e+000 -8.715735e-002
300855000 -5.692461e-005 -2.619588e-005 -6.459214e-001 -6.048883e-001 -1.188447e-005 1.160990e-006 1.013768e+000 -8.555973e-002
301140000 -3.725131e-005 3.111851e-005 -6.590768e-001 -5.822753e-001 -5.149277e-005 -2.812801e-005 1.012751e+000 -8.623982e-002
301425000 -4.821695e-005 -2.249932e-005 -6.721043e-001 -5.585968e-001 -1.059793e-004 8.129873e-005 1.014274e+000 -8.603600e-002
301710000 -2.889287e-005 -8.286724e-005 -6.843075e-001 -5.348602e-001 1.010157e-004 5.274863e-005 1.014050e+000 -8.784102e-002
301995000 -3.309718e-005 -5.312034e-005 -6.955155e-001 -5.119002e-001 1.086862e-004 5.247111e-005 1.013043e+000 -8.650377e-002
302280000 1.257531e-004 5.036962e-005 -7.056703e-001 -4.885406e-001 8.874530e-005 -7.014423e-005 1.013574e+000 -8.615692e-002
302565000 -6.528361e-005 -1.660384e-005 -7.156485e-001 -4.651955e-001 8.436071e-005 -1.899936e-005 1.014230e+000 -8.804341e-002
302850000 6.271354e-005 2.325843e-007 -7.244331e-001 -4.417842e-001 -2.581580e-005 -1.085483e-004 1.013024e+000 -8.532467e-002
303135000 -5.027805e-005 2.575135e-005 -7.332795e-001 -4.184602e-001 -1.219524e-005 -3.007053e-005 1.013040e+000 -8.828375e-002
303420000 1.761438e-005 7.147281e-005 -7.401070e-001 -3.957993e-001 7.495274e-006 6.446772e-005 1.013200e+000 -8.687695e-002
303705000 2.560687e-005 -3.218652e-005 -7.469267e-001 -3.725841e-001 5.929628e-005 3.400471e-005 1.015202e+000 -8.813660e-002
303990000 4.596900e-006 1.008937e-004 -7.538286e-001 -3.498628e-001 -7.736489e-005 6.981147e-005 1.012596e+000 -8.756197e-002
304275000 1.528156e-005 -5.924810e-005 -7.595001e-001 -3.270020e-001 4.106608e-005 4.458341e-005 1.013101e+000 -8.745448e-002
304560000 -1.429288e-005 -8.232468e-007 -7.641564e-001 -3.040950e-001 1.799842e-005 -1.774664e-005 1.013518e+000 -8.690563e-002
304845000 -7.597808e-006 1.287075e-004 -7.687352e-001 -2.818732e-001 -5.038363e-005 -9.987559e-005 1.012123e+000 -8.718721e-002
305130000 -5.220945e-005 8.426998e-005 -7.726540e-001 -2.594224e-001 1.310034e-005 -1.043980e-004 1.012467e+000 -8.681133e-002
305415000 -5.931677e-005 4.429210e-005 -7.754226e-001 -2.375969e-001 8.342074e-005 2.948757e-005 1.013985e+000 -8.832218e-002
305700000 -6.995907e-005 -5.755687e-006 -7.790868e-001 -2.152893e-001 9.414945e-005 8.991549e-005 1.014125e+000 -8.709109e-002
305985000 -5.431127e-005 -1.933888e-005 -7.818660e-001 -1.934631e-001 3.949606e-005 3.505763e-005 1.014422e+000 -8.795018e-002
306270000 -2.592196e-005 -4.599986e-005 -7.836179e-001 -1.719496e-001 9.008766e-006 3.997539e-006 1.015222e+000 -8.691919e-002
306555000 2.482102e-005 4.599500e-005 -7.844961e-001 -1.501862e-001 4.368579e-005 3.971079e-005 1.014074e+000 -8.769102e-002
306840000 -2.871675e-005 1.848190e-006 -7.853984e-001 -1.287088e-001 -7.272004e-005 1.170828e-005 1.013879e+000 -8.666471e-002
307125000 4.012599e-005 -3.476891e-005 -7.866402e-001 -1.074386e-001 -1.181438e-004 7.335522e-005 1.012748e+000 -8.824150e-002
307410000 -1.198150e-004 -7.805121e-005 -7.862803e-001 -8.595947e-002 -1.499011e-005 -7.848819e-005 1.013971e+000 -8.832417e-002
307695000 1.816239e-007 3.491926e-005 -7.858081e-001 -6.529456e-002 6.343868e-005 1.062939e-004 1.015250e+000 -8.764721e-002
307980000 3.282107e-005 -4.822257e-005 -7.853002e-001 -4.439369e-002 8.451552e-005 -1.665018e-005 1.012807e+000 -8.869898e-002
308265000 9.146132e-005 -8.612550e-005 -7.840024e-001 -2.370801e-002 1.907728e-005 -7.193451e-005 1.013514e+000 -8.779022e-002
308550000 9.362214e-005 -2.770897e-005 -7.825422e-001 -3.484941e-003 -7.941407e-005 -8.413409e-005 1.013726e+000 -8.824179e-002
308835000 -2.476154e-006 4.859610e-005 -7.802686e-001 1.769398e-002 -2.273127e-005 7.708068e-005 1.013457e+000 -8.911749e-002
309120000 4.009396e-005 1.129932e-004 -7.782898e-001 3.813964e-002 -4.900088e-005 4.773121e-005 1.014817e+000 -9.035052e-002
309405000 4.970027e-005 5.914046e-005 -7.757556e-001 5.762246e-002 5.465067e-006 6.424313e-005 1.017302e+000 -8.881182e-002
309690000 8.130963e-005 -6.273171e-005 -7.724138e-001 7.794696e-002 9.248901e-005 1.841611e-005 1.014902e+000 -8.950644e-002
309975000 -4.539872e-005 5.607637e-006 -7.688631e-001 9.787280e-002 -1.277710e-004 -5.978550e-005 1.014024e+000 -8.943354e-002
310260000 -5.186009e-005 4.996808e-005 -7.654545e-001 1.180606e-001 2.196816e-007 1.022473e-004 1.015926e+000 -8.919790e-002
310545000 -5.219574e-006 2.300787e-005 -7.609922e-001 1.376727e-001 -5.023295e-005 -7.960817e-005 1.013369e+000 -9.185697e-002
310830000 -6.938170e-005 6.897673e-005 -7.569553e-001 1.572114e-001 -1.189717e-004 -9.730737e-005 1.015126e+000 -8.844773e-002
311115000 1.213401e-005 -4.505421e-005 -7.520896e-001 1.765140e-001 8.180571e-005 -1.710818e-005 1.014110e+000 -8.886132e-002
311400000 2.458049e-005 -1.892503e-005 -7.468813e-001 1.960745e-001 3.023993e-005 -2.112392e-005 1.012900e+000 -9.046475e-002
311685000 -6.646531e-006 -7.110864e-005 -7.410531e-001 2.152084e-001 5.251186e-006 1.375382e-006 1.015531e+000 -8.829595e-002
311970000 -6.790939e-005 4.722386e-005 -7.351816e-001 2.345177e-001 5.835206e-005 5.208430e-005 1.014533e+000 -8.998575e-002
312255000 -5.102235e-005 -1.293169e-004 -7.289395e-001 2.539038e-001 -1.103782e-005 8.142988e-005 1.015065e+000 -8.781704e-002
312540000 8.239018e-006 -7.516055e-005 -7.225968e-001 2.726759e-001 3.974552e-005 4.965942e-005 1.012786e+000 -8.908953e-002
312825000 2.777246e-005 5.493045e-005 -7.158766e-001 2.917396e-001 3.559830e-005 -4.238019e-005 1.013857e+000 -8.887988e-002
313110000 -2.296231e-005 2.342432e-005 -7.079900e-001 3.099606e-001 -6.663920e-006 4.678403e-006 1.012836e+000 -9.198637e-002
313395000 8.570353e-005 -5.686792e-005 -7.000164e-001 3.291894e-001 -8.687845e-005 -4.629663e-007 1.014832e+000 -9.047231e-002
313680000 8.477923e-005 -1.283840e-006 -6.924244e-001 3.476467e-001 -6.229381e-005 -5.565849e-005 1.015353e+000 -8.938829e-002
313965000 7.758212e-005 1.723433e-005 -6.838968e-001 3.668077e-001 -1.064369e-008 -9.324362e-005 1.015106e+000 -8.961760e-002
314250000 4.780710e-005 -4.434595e-005 -6.748199e-001 3.851683e-001 8.622465e-005 3.813218e-005 1.014084e+000 -8.989691e-002
314535000 -9.443353e-005 -7.755706e-005 -6.655489e-001 4.035704e-001 3.707041e-005 6.189884e-005 1.014511e+000 -9.082073e-002
314820000 -5.712512e-005 7.553851e-005 -6.557527e-001 4.216355e-001 8.200101e-006 8.450026e-005 1.014178e+000 -9.196208e-002
315105000 -6.184034e-005 8.753775e-007 -6.462023e-001 4.401952e-001 9.917895e-005 2.307357e-005 1.011657e+000 -9.136038e-002
315390000 -2.201623e-005 -6.802424e-005 -6.357079e-001 4.588403e-001 1.756288e-005 -1.147365e-005 1.015772e+000 -9.052882e-002
315675000 -1.225424e-005 4.707213e-005 -6.248392e-001 4.768984e-001 -6.668597e-005 1.424308e-004 1.014026e+000 -9.016134e-002
315960000 -9.099906e-006 2.929261e-005 -6.128037e-001 4.943505e-001 -1.235223e-004 -3.413614e-005 1.013058e+000 -9.176022e-002
316245000 8.197407e-005 8.447737e-005 -6.013027e-001 5.126407e-001 3.460972e-005 1.980663e-005 1.013000e+000 -9.021442e-002
316530000 -9.192788e-005 8.881355e-005 -5.892302e-001 5.300140e-001 -1.405637e-005 3.761423e-007 1.014372e+000 -9.142786e-002
316815000 -1.122901e-004 -1.672228e-004 -5.766568e-001 5.479133e-001 -4.547652e-005 -3.157948e-005 1.015550e+000 -9.022141e-002
317100000 2.232249e-005 -3.239704e-005 -5.631052e-001 5.655187e-001 -4.798342e-005 -9.354252e-005 1.012445e+000 -9.067874e-002
317385000 8.456146e-006 -3.305088e-005 -5.493887e-001 5.833197e-001 -6.768075e-005 -1.543000e-005 1.016119e+000 -9.017590e-002
317670000 -8.030454e-006 4.600424e-007 -5.349745e-001 6.003202e-001 -3.047284e-005 2.122501e-005 1.015422e+000 -9.253057e-002
317955000 -3.227327e-005 -1.343746e-004 -5.197150e-001 6.180827e-001 1.581568e-005 -3.444065e-005 1.015012e+000 -9.176362e-002
318240000 5.506367e-005 7.071275e-005 -5.046851e-001 6.350089e-001 9.358184e-005 4.771323e-005 1.014710e+000 -9.047520e-002
318525000 3.400170e-005 -6.116850e-005 -4.881900e-001 6.518293e-001 7.343704e-005 3.180937e-005 1.015243e+000 -9.048543e-002
318810000 9.799301e-005 -8.985207e-005 -4.718594e-001 6.680374e-001 -3.614855e-006 2.284671e-005 1.013486e+000 -9.229323e-002
319095000 -5.722203e-005 9.571342e-005 -4.550955e-001 6.846876e-001 7.542712e-005 7.546615e-005 1.013893e+000 -9.094669e-002
319380000 6.098739e-005 5.051380e-006 -4.370143e-001 7.007406e-001 1.346517e-004 -6.485287e-006 1.014454e+000 -9.355092e-002
319665000 -7.145835e-006 1.156357e-005 -4.186062e-001 7.168460e-001 1.824757e-005 -3.373079e-006 1.014552e+000 -9.106402e-002
319950000 3.324507e-005 9.268922e-005 -3.994150e-001 7.325597e-001 -1.016148e-005 6.468912e-005 1.013956e+000 -9.336656e-002
320235000 1.796926e-004 5.615423e-006 -3.800260e-001 7.479393e-001 -2.676853e-005 -4.902221e-005 1.014959e+000 -9.380323e-002
320520000 4.034072e-005 9.310758e-005 -3.595044e-001 7.631672e-001 2.305731e-005 2.530018e-005 1.013461e+000 -9.206850e-002
320805000 3.270696e-005 9.948282e-005 -3.383214e-001 7.776315e-001 8.863585e-005 3.352333e-006 1.013537e+000 -9.147693e-002
321090000 -1.099135e-004 5.328195e-005 -3.162068e-001 7.924848e-001 -7.823270e-005 1.358599e-004 1.013957e+000 -9.324188e-002
321375000 4.026189e-005 1.470150e-005 -2.934328e-001 8.063946e-001 -2.324665e-005 2.721934e-005 1.014286e+000 -9.160699e-002
321660000 -7.141687e-006 6.680687e-005 -2.706722e-001 8.196518e-001 2.242439e-007 2.969190e-005 1.014280e+000 -9.244467e-002
321945000 -7.875251e-005 -4.637262e-006 -2.465539e-001 8.330004e-001 -1.760629e-006 -1.193585e-004 1.014662e+000 -9.381396e-002
322230000 3.406333e-005 -3.168993e-005 -2.216588e-001 8.449774e-001 6.531395e-006 7.350678e-006 1.014547e+000 -9.265676e-002
322515000 -7.653794e-005 -5.728988e-005 -1.965660e-001 8.568070e-001 3.781362e-006 -2.262393e-005 1.013865e+000 -9.304088e-002
322800000 1.245247e-004 -2.876425e-005 -1.700263e-001 8.678740e-001 1.088092e-004 -6.257957e-005 1.014750e+000 -9.239985e-002
323085000 -1.583917e-004 -6.449014e-006 -1.428986e-001 8.788029e-001 8.038617e-005 -2.402331e-005 1.014699e+000 -9.278224e-002
323370000 3.815689e-005 -1.120230e-005 -1.150919e-001 8.887748e-001 1.342849e-004 -3.724171e-005 1.015712e+000 -9.346027e-002
323655000 -1.200729e-004 -4.067883e-005 -8.660089e-002 8.974145e-001 2.849241e-005 -5.933628e-007 1.014922e+000 -9.369343e-002
323940000 1.085390e-004 -3.008310e-005 -5.718395e-002 9.057338e-001 1.360509e-004 -5.556751e-005 1.014013e+000 -9.364375e-002
324225000 -2.253536e-005 -8.243205e-006 -2.745622e-002 9.126995e-001 -4.761403e-005 6.791487e-005 1.013377e+000 -9.315740e-002
324510000 -3.878711e-005 -2.933134e-005 3.521195e-003 9.190983e-001 1.707074e-005 6.368804e-005 1.015710e+000 -9.511708e-002
324795000 4.927803e-005 -3.319446e-005 3.458790e-002 9.247726e-001 -6.212672e-005 -1.053273e-005 1.014911e+000 -9.434005e-002
325080000 -8.083341e-005 -3.140240e-005 6.655599e-002 9.288037e-001 -8.772058e-006 -1.622704e-005 1.015309e+000 -9.244954e-002
325365000 -3.786541e-005 2.827487e-005 9.866597e-002 9.316710e-001 -5.231515e-005 -4.797288e-005 1.015513e+000 -9.363837e-002
325650000 -5.037852e-005 -1.146923e-005 1.322810e-001 9.338917e-001 2.552539e-005 4.235398e-005 1.014673e+000 -9.355586e-002
325935000 -1.825595e-005 -8.791329e-005 1.662726e-001 9.338227e-001 7.287711e-005 8.498984e-005 1.015317e+000 -9.410468e-002
326220000 -1.471291e-004 2.316323e-005 2.001542e-001 9.333941e-001 -5.004012e-005 -4.586147e-005 1.015640e+000 -9.415418e-002
326505000 -3.975870e-005 -1.399961e-004 2.346606e-001 9.309473e-001 -2.589574e-005 -5.642106e-005 1.015258e+000 -9.463201e-002
326790000 -4.048762e-005 -6.489578e-005 2.689626e-001 9.270657e-001 -3.171646e-005 -6.497702e-005 1.013369e+000 -9.409864e-002
327075000 8.618621e-005 -7.597823e-005 3.046302e-001 9.216702e-001 7.367089e-005 8.105386e-005 1.014044e+000 -9.559286e-002
327360000 -3.756073e-005 -7.162264e-005 3.398814e-001 9.148505e-001 8.186775e-007 1.975199e-005 1.016549e+000 -9.510899e-002
327645000 2.694765e-005 6.025859e-006 3.752813e-001 9.071148e-001 4.470990e-005 1.668389e-005 1.013600e+000 -9.407033e-002
327930000 6.594570e-005 1.334928e-004 4.110129e-001 8.968389e-001 -5.998306e-005 9.432875e-005 1.014842e+000 -9.404742e-002
328215000 -1.921429e-006 1.217747e-004 4.463893e-001 8.850448e-001 -1.696687e-004 6.378123e-005 1.014353e+000 -9.540686e-002
328500000 3.483155e-005 -2.610868e-005 4.820150e-001 8.710889e-001 -1.229740e-004 -1.055774e-006 1.014611e+000 -9.566124e-002
328785000 -3.992363e-006 7.809034e-005 5.171080e-001 8.564212e-001 -8.646592e-005 -1.127330e-004 1.013428e+000 -9.330447e-002
329070000 -3.208247e-005 -4.175595e-005 5.510889e-001 8.392190e-001 -9.164496e-005 -6.901679e-005 1.014341e+000 -9.456105e-002
329355000 -2.165571e-005 3.393376e-006 5.852498e-001 8.204422e-001 3.634620e-005 -1.483018e-004 1.014636e+000 -9.754209e-002
329640000 4.215384e-005 -1.012257e-004 6.186371e-001 8.004827e-001 2.712865e-005 -8.355785e-005 1.013593e+000 -9.541877e-002
329925000 -5.642338e-006 -3.492586e-005 6.518386e-001 7.784266e-001 -6.887258e-005 -3.518684e-005 1.014346e+000 -9.532426e-002
330210000 4.439602e-005 -7.393552e-005 6.838105e-001 7.541302e-001 1.059786e-004 6.504236e-005 1.013135e+000 -9.679735e-002
330495000 2.647147e-005 -3.694898e-005 7.139796e-001 7.291628e-001 8.370656e-005 -1.086626e-004 1.014492e+000 -9.628566e-002
330780000 1.204844e-004 -6.418503e-006 7.440807e-001 7.010100e-001 -2.374994e-005 5.265416e-005 1.015027e+000 -9.605607e-002
331065000 -1.377155e-005 1.482741e-005 7.724222e-001 6.728224e-001 6.986041e-005 1.703697e-004 1.012345e+000 -9.539897e-002
331350000 7.558098e-005 -8.089860e-005 7.993075e-001 6.427023e-001 -2.306973e-005 -3.625391e-005 1.013924e+000 -9.502710e-002
331635000 1.419167e-004 -1.008824e-005 8.254430e-001 6.112652e-001 -4.458689e-005 1.443387e-005 1.015015e+000 -9.653298e-002
331920000 6.385532e-006 -4.262771e-005 8.495600e-001 5.788376e-001 -1.886007e-005 1.553587e-005 1.014970e+000 -9.524781e-002
332205000 -5.669285e-006 3.288825e-005 8.716210e-001 5.446069e-001 -2.535728e-005 4.410141e-005 1.013875e+000 -9.723576e-002
332490000 7.297510e-005 6.810277e-005 8.923573e-001 5.102316e-001 -8.624014e-005 8.585833e-005 1.013295e+000 -9.602775e-002
332775000 -1.190006e-005 -3.626203e-005 9.118186e-001 4.746771e-001 -5.221138e-005 1.569968e-004 1.013302e+000 -9.709372e-002
333060000 1.234029e-005 -1.859038e-005 9.288133e-001 4.377814e-001 2.992176e-005 6.911128e-005 1.013841e+000 -9.697414e-002
333345000 2.016806e-006 4.359334e-005 9.451763e-001 3.997865e-001 3.908614e-005 1.159336e-004 1.015374e+000 -9.555715e-002
333630000 -2.054307e-005 -4.250369e-005 9.580811e-001 3.617468e-001 -1.051292e-004 -1.076939e-005 1.015060e+000 -9.792144e-002
333915000 -1.213040e-004 3.747348e-005 9.701523e-001 3.236752e-001 7.878383e-005 5.063257e-005 1.014108e+000 -9.718876e-002
334200000 -5.389834e-005 -3.734850e-005 9.797438e-001 2.849436e-001 -4.668594e-005 3.745873e-005 1.014482e+000 -9.719372e-002
334485000 -1.257959e-004 -4.814649e-005 9.867036e-001 2.452416e-001 -1.097536e-004 3.630028e-005 1.013930e+000 -9.621540e-002
334770000 -8.181873e-005 1.540402e-005 9.934528e-001 2.070950e-001 6.943110e-005 -3.601861e-005 1.014144e+000 -9.657717e-002
335055000 -4.736114e-005 -4.067696e-006 9.982139e-001 1.681113e-001 3.285284e-005 1.830940e-005 1.014218e+000 -9.545978e-002
335340000 -7.424396e-005 1.255126e-005 9.990010e-001 1.291036e-001 2.223537e-005 5.462909e-005 1.014400e+000 -9.706745e-002
335625000 -1.529782e-004 -2.402193e-005 9.996719e-001 9.100454e-002 9.432249e-006 -3.706116e-005 1.014903e+000 -9.799639e-002
335910000 -2.321710e-005 -1.124896e-004 9.982339e-001 5.267535e-002 9.352188e-006 2.048538e-005 1.013825e+000 -9.833474e-002
336195000 -7.028908e-005 -9.587088e-005 9.955668e-001 1.502354e-002 8.145877e-006 5.527409e-005 1.013459e+000 -9.868715e-002
336480000 2.760792e-005 -8.039012e-005 9.910591e-001 -2.182003e-002 -5.976342e-005 6.674648e-005 1.013755e+000 -9.653695e-002
336765000 -2.918855e-005 -1.577629e-004 9.842812e-001 -5.837372e-002 2.801835e-005 6.257112e-005 1.014986e+000 -9.771422e-002
337050000 1.010506e-004 9.095979e-005 9.768998e-001 -9.375002e-002 5.910585e-006 -2.480801e-006 1.015206e+000 -9.705643e-002
337335000 4.750271e-005 -9.125964e-005 9.684138e-001 -1.288123e-001 3.710938e-005 -2.516346e-005 1.013564e+000 -9.824822e-002
337620000 -8.850974e-005 -1.153609e-004 9.568027e-001 -1.629887e-001 2.308631e-006 -2.047861e-005 1.015059e+000 -9.922469e-002
337905000 1.080989e-004 -2.357505e-005 9.452735e-001 -1.949935e-001 -8.864603e-006 -2.637927e-005 1.013440e+000 -9.816653e-002
338190000 5.532681e-005 -7.224698e-005 9.322024e-001 -2.277201e-001 -5.035163e-006 -1.513188e-005 1.013916e+000 -9.887050e-002
338475000 3.654042e-006 -1.803693e-005 9.182510e-001 -2.589781e-001 -6.341096e-005 -8.795300e-005 1.015394e+000 -9.694939e-002
338760000 3.805321e-005 -4.950986e-005 9.034846e-001 -2.893939e-001 -5.773937e-005 -7.552691e-005 1.014409e+000 -9.799311e-002
339045000 7.484669e-005 5.561952e-005 8.881133e-001 -3.183046e-001 1.432497e-006 -4.624661e-006 1.013359e+000 -9.802856e-002
339330000 3.732518e-005 -6.433942e-005 8.714180e-001 -3.463511e-001 1.466711e-005 -1.818724e-005 1.015072e+000 -9.584513e-002
339615000 1.189765e-004 4.163689e-006 8.535663e-001 -3.732946e-001 8.432696e-005 -6.166376e-005 1.014111e+000 -9.842869e-002
339900000 -7.419634e-005 2.389469e-005 8.348475e-001 -3.994583e-001 6.383069e-005 -1.010343e-004 1.014462e+000 -9.898194e-002
340185000 1.132367e-005 3.091733e-005 8.161756e-001 -4.240615e-001 6.853556e-005 3.780780e-005 1.013922e+000 -9.972815e-002
340470000 -9.547367e-006 6.684831e-005 7.969799e-001 -4.480588e-001 3.313942e-005 7.463522e-005 1.013183e+000 -9.836807e-002
340755000 -1.048985e-004 8.541226e-005 7.766952e-001 -4.707828e-001 3.842081e-005 -3.469025e-005 1.014231e+000 -9.996235e-002
341040000 6.857632e-005 5.779236e-005 7.568668e-001 -4.926405e-001 1.108855e-004 -1.160497e-005 1.013713e+000 -9.983554e-002
341325000 -4.105920e-005 3.692154e-005 7.357087e-001 -5.133052e-001 -1.536582e-005 -4.404219e-006 1.014555e+000 -9.849649e-002
341610000 -4.161277e-005 -8.603317e-005 7.146240e-001 -5.328604e-001 8.048370e-005 5.204069e-005 1.016066e+000 -9.826875e-002
341895000 -7.271601e-006 3.935212e-005 6.931875e-001 -5.518464e-001 3.875993e-005 1.269567e-004 1.014273e+000 -1.001905e-001
342180000 1.201249e-004 -1.285512e-004 6.716059e-001 -5.700154e-001 7.318373e-005 -1.840527e-005 1.015781e+000 -9.979417e-002
342465000 1.778505e-005 -2.618060e-005 6.495702e-001 -5.868236e-001 5.251152e-005 -6.347727e-005 1.014980e+000 -1.008711e-001
342750000 5.852258e-005 -7.565669e-006 6.276295e-001 -6.027693e-001 1.291927e-004 3.837407e-005 1.016328e+000 -9.915309e-002
343035000 5.921625e-005 3.106657e-005 6.056452e-001 -6.181270e-001 5.786726e-005 -2.815054e-006 1.014638e+000 -1.003813e-001
343320000 4.831938e-006 -5.162191e-005 5.831249e-001 -6.320679e-001 -9.647184e-006 -2.897396e-005 1.013735e+000 -9.917161e-002
343605000 -3.989939e-005 -1.883621e-005 5.607615e-001 -6.457472e-001 1.768000e-005 -2.344693e-005 1.013700e+000 -9.984222e-002
343890000 -4.303536e-006 1.748280e-005 5.387672e-001 -6.583151e-001 5.445717e-005 3.461033e-006 1.013819e+000 -1.004118e-001
