!Agilent Technologies,N5230C,SG49000117,A.08.50.07
!Agilent N5230C: A.08.50.07
!Date: Monday, March 18, 2024 18:09:59
!Correction: S11(Off) 
!S21(Off) 
!S12(Off) 
!S22(Full 1 Port(2)) 
!S2P File: Measurements: S11, S21, S12, S22:
# Hz S  RI   R 50
300000000 7.581995e-005 -5.132935e-005 -6.466194e-001 -6.131447e-001 -4.176818e-005 4.645907e-005 9.841906e-001 -2.645546e-001
300285000 1.245196e-004 7.050419e-005 -6.606232e-001 -5.897980e-001 2.746394e-005 -4.283108e-005 9.848005e-001 -2.660574e-001
300570000 1.022998e-004 2.563647e-005 -6.737833e-001 -5.663062e-001 -3.034750e-005 -6.247502e-005 9.858691e-001 -2.668500e-001
300855000 5.556184e-005 -9.709008e-006 -6.862075e-001 -5.428552e-001 -1.615137e-004 4.242513e-005 9.864995e-001 -2.670460e-001
301140000 6.200100e-005 7.344985e-007 -6.978553e-001 -5.190954e-001 1.106913e-004 -5.782281e-005 9.850608e-001 -2.683918e-001
301425000 -8.672473e-005 -7.606186e-005 -7.083815e-001 -4.951825e-001 -5.768952e-006 4.317806e-005 9.855276e-001 -2.670337e-001
301710000 -2.502686e-005 3.868356e-005 -7.183398e-001 -4.718168e-001 8.104447e-006 2.631678e-005 9.875512e-001 -2.689064e-001
301995000 5.487062e-005 -6.178354e-006 -7.277305e-001 -4.479510e-001 -1.659053e-005 -2.806845e-005 9.849244e-001 -2.668604e-001
302280000 2.990754e-005 3.943110e-005 -7.359518e-001 -4.246198e-001 3.361921e-005 -9.110483e-005 9.861307e-001 -2.684282e-001
302565000 1.795183e-005 -5.285368e-005 -7.442520e-001 -4.008606e-001 2.142205e-008 -2.477293e-005 9.849581e-001 -2.688507e-001
302850000 1.660038e-005 -2.920690e-005 -7.509724e-001 -3.779170e-001 1.114436e-005 2.981746e-006 9.844499e-001 -2.686027e-001
303135000 2.013940e-005 -1.728483e-005 -7.568414e-001 -3.546110e-001 2.169112e-006 -3.632070e-005 9.846460e-001 -2.702791e-001
303420000 1.025183e-005 -8.695190e-005 -7.631572e-001 -3.316283e-001 -3.975384e-005 1.200763e-005 9.842325e-001 -2.702591e-001
303705000 5.845653e-006 -9.670184e-005 -7.685112e-001 -3.087733e-001 6.315176e-005 8.013164e-005 9.866897e-001 -2.716325e-001
303990000 -5.199461e-006 -1.407503e-005 -7.729371e-001 -2.860129e-001 -8.660836e-005 -7.973707e-005 9.858713e-001 -2.709758e-001
304275000 9.014228e-005 2.818980e-005 -7.764789e-001 -2.630485e-001 -1.187101e-004 8.389506e-005 9.844342e-001 -2.701692e-001
304560000 -6.320905e-005 -1.525442e-005 -7.800886e-001 -2.408344e-001 1.875252e-005 4.262501e-005 9.853612e-001 -2.689386e-001
304845000 -3.710462e-005 5.564261e-005 -7.831244e-001 -2.186093e-001 -3.641012e-005 6.829666e-005 9.847565e-001 -2.707847e-001
305130000 7.252306e-005 -6.546337e-005 -7.853689e-001 -1.962963e-001 4.917584e-005 2.151097e-005 9.836818e-001 -2.693799e-001
305415000 5.237557e-005 3.240836e-005 -7.873235e-001 -1.739009e-001 1.058857e-004 3.178644e-005 9.840580e-001 -2.706824e-001
305700000 -2.526206e-005 6.793043e-005 -7.887155e-001 -1.522686e-001 9.552112e-005 -9.446464e-005 9.848322e-001 -2.709113e-001
305985000 3.181160e-006 5.214302e-005 -7.892736e-001 -1.303997e-001 -3.549200e-005 -4.589299e-005 9.851711e-001 -2.719954e-001
306270000 -7.808245e-005 2.031553e-005 -7.897530e-001 -1.087774e-001 -1.185203e-005 -3.913363e-005 9.866132e-001 -2.711330e-001
306555000 -7.204178e-006 8.794360e-005 -7.898428e-001 -8.735979e-002 2.983762e-005 7.694587e-005 9.851057e-001 -2.727965e-001
306840000 -3.779554e-005 1.444820e-004 -7.897383e-001 -6.623130e-002 -5.508852e-006 -3.122128e-005 9.837887e-001 -2.716870e-001
307125000 -5.197851e-005 -1.031568e-005 -7.888218e-001 -4.505494e-002 4.895613e-005 9.338960e-005 9.836419e-001 -2.722456e-001
307410000 6.368071e-005 2.592879e-005 -7.870677e-001 -2.462190e-002 5.243357e-005 -9.637651e-005 9.856541e-001 -2.726875e-001
307695000 -7.530677e-005 -3.310217e-005 -7.859089e-001 -3.934606e-003 -7.432411e-006 5.954297e-005 9.858688e-001 -2.727206e-001
307980000 -6.362856e-005 -1.125617e-004 -7.838299e-001 1.695703e-002 1.719400e-006 -6.644153e-005 9.846789e-001 -2.731645e-001
308265000 1.042077e-004 -4.293053e-005 -7.815891e-001 3.787066e-002 -7.327050e-005 4.368885e-005 9.831922e-001 -2.737362e-001
308550000 5.179796e-005 -1.483179e-004 -7.786783e-001 5.772658e-002 -1.317877e-005 5.969882e-005 9.824372e-001 -2.729100e-001
308835000 1.293481e-005 -3.567403e-005 -7.752905e-001 7.811541e-002 2.238272e-005 2.910954e-005 9.831334e-001 -2.747756e-001
309120000 3.125818e-005 -1.891191e-005 -7.715142e-001 9.856241e-002 -3.466869e-006 -1.162213e-005 9.842603e-001 -2.753378e-001
309405000 4.869511e-005 1.425742e-004 -7.676263e-001 1.178370e-001 -5.917625e-005 1.714193e-006 9.871927e-001 -2.771568e-001
309690000 4.874300e-005 4.096990e-005 -7.636181e-001 1.379195e-001 -8.826613e-005 4.142008e-006 9.849814e-001 -2.741791e-001
309975000 -8.090536e-005 6.105372e-005 -7.587985e-001 1.571609e-001 -8.644319e-005 6.210056e-006 9.837870e-001 -2.761216e-001
310260000 -1.005076e-004 3.275435e-005 -7.536963e-001 1.774370e-001 8.163285e-005 -5.153642e-005 9.861260e-001 -2.743417e-001
310545000 1.082861e-004 8.689098e-005 -7.483350e-001 1.964455e-001 8.578005e-005 2.397239e-005 9.839026e-001 -2.764276e-001
310830000 -3.259698e-005 4.760321e-005 -7.421558e-001 2.159673e-001 1.176022e-004 -5.608253e-005 9.861038e-001 -2.748016e-001
311115000 -2.922679e-005 -2.857447e-005 -7.366416e-001 2.355280e-001 -3.505608e-005 -1.662530e-005 9.836180e-001 -2.764106e-001
311400000 -1.788866e-005 -3.905125e-005 -7.301427e-001 2.549879e-001 1.648438e-004 -1.494047e-004 9.836531e-001 -2.763215e-001
311685000 -4.873247e-005 3.412153e-006 -7.239584e-001 2.737069e-001 3.438913e-005 -9.519009e-005 9.830899e-001 -2.745486e-001
311970000 -9.243846e-006 6.590614e-005 -7.161182e-001 2.926468e-001 8.778764e-005 9.622375e-006 9.828175e-001 -2.764104e-001
312255000 -8.879870e-005 -8.203620e-005 -7.092217e-001 3.114317e-001 -6.127279e-006 7.404152e-005 9.827571e-001 -2.761637e-001
312540000 -1.216400e-004 6.801313e-005 -7.008168e-001 3.303300e-001 -9.350291e-007 7.418839e-005 9.838206e-001 -2.777870e-001
312825000 -4.968762e-005 -9.697458e-005 -6.929294e-001 3.487481e-001 7.013587e-005 -6.913748e-005 9.837709e-001 -2.782252e-001
313110000 -4.733568e-005 -4.600530e-005 -6.842171e-001 3.676543e-001 -2.058503e-005 1.021704e-004 9.818160e-001 -2.793602e-001
313395000 3.447443e-006 2.438392e-006 -6.755283e-001 3.858277e-001 1.401529e-004 -1.470048e-005 9.839336e-001 -2.780146e-001
313680000 -9.436061e-005 9.782564e-007 -6.652656e-001 4.040827e-001 6.304177e-005 9.458210e-006 9.842434e-001 -2.774882e-001
313965000 -1.376143e-004 4.551553e-005 -6.558007e-001 4.228305e-001 1.556023e-006 6.654338e-006 9.845181e-001 -2.794175e-001
314250000 2.244918e-005 6.162166e-006 -6.462051e-001 4.408818e-001 -2.905908e-005 -5.418596e-005 9.835340e-001 -2.791358e-001
314535000 9.896591e-005 7.821660e-005 -6.346158e-001 4.594529e-001 4.857076e-005 9.244948e-005 9.819326e-001 -2.800481e-001
314820000 -5.480760e-005 3.104800e-005 -6.245825e-001 4.770069e-001 -1.712220e-005 6.638975e-005 9.821557e-001 -2.800364e-001
315105000 5.066523e-005 -5.594714e-005 -6.128332e-001 4.949158e-001 3.874527e-006 2.182556e-006 9.815146e-001 -2.801790e-001
315390000 4.743458e-005 -1.831843e-005 -6.006837e-001 5.127396e-001 6.883590e-007 5.733446e-006 9.826528e-001 -2.803230e-001
315675000 -1.224423e-005 1.543728e-005 -5.879495e-001 5.309935e-001 -1.300413e-004 -5.900737e-006 9.827571e-001 -2.796322e-001
315960000 -8.743696e-005 1.091420e-005 -5.751443e-001 5.483603e-001 -4.618355e-005 -2.087834e-005 9.816877e-001 -2.805030e-001
316245000 4.525971e-005 7.063543e-005 -5.617729e-001 5.654935e-001 -8.728159e-006 6.594240e-005 9.807699e-001 -2.794316e-001
316530000 -1.828458e-005 6.788906e-005 -5.479558e-001 5.838814e-001 -1.824856e-005 -5.599383e-006 9.831413e-001 -2.801313e-001
316815000 -6.137928e-005 2.546302e-005 -5.334315e-001 5.998947e-001 6.156291e-005 -5.299590e-005 9.824926e-001 -2.791213e-001
317100000 -8.054669e-006 2.188396e-005 -5.186363e-001 6.171424e-001 -7.382470e-005 -1.273108e-004 9.827163e-001 -2.800076e-001
317385000 4.322584e-005 -6.506634e-005 -5.031884e-001 6.344081e-001 1.969325e-005 -5.852648e-005 9.828040e-001 -2.798517e-001
317670000 -9.869921e-005 4.654481e-005 -4.871977e-001 6.507853e-001 1.059858e-005 -6.438089e-005 9.827639e-001 -2.830846e-001
317955000 7.500239e-006 -4.083703e-005 -4.711510e-001 6.677845e-001 4.980654e-005 1.652533e-004 9.829002e-001 -2.825769e-001
318240000 -5.358030e-005 -1.064517e-004 -4.537316e-001 6.841184e-001 5.432991e-005 1.520574e-004 9.811299e-001 -2.832052e-001
318525000 -8.692792e-005 -4.394537e-005 -4.357733e-001 7.001145e-001 3.112433e-005 -2.624463e-005 9.831581e-001 -2.825168e-001
318810000 5.721565e-006 -5.219559e-005 -4.170309e-001 7.163340e-001 1.459763e-005 1.064740e-004 9.810666e-001 -2.826971e-001
319095000 -7.595927e-006 2.477515e-005 -3.981294e-001 7.311262e-001 3.890193e-005 3.934157e-005 9.815539e-001 -2.827712e-001
319380000 -2.433713e-005 -8.790679e-006 -3.787241e-001 7.466338e-001 -3.220561e-005 8.776568e-005 9.829485e-001 -2.838857e-001
319665000 4.792955e-005 -1.874503e-005 -3.576880e-001 7.618204e-001 -1.946551e-005 5.631751e-005 9.840425e-001 -2.830321e-001
319950000 1.877790e-005 6.682990e-006 -3.369507e-001 7.765877e-001 -4.151395e-005 -6.887324e-005 9.821283e-001 -2.852460e-001
320235000 7.208157e-005 8.953523e-006 -3.153423e-001 7.909473e-001 -3.576128e-005 8.665851e-006 9.822528e-001 -2.852934e-001
320520000 -8.111735e-007 6.854877e-006 -2.928674e-001 8.042681e-001 -7.451235e-005 -1.503104e-005 9.828018e-001 -2.856064e-001
320805000 -2.768096e-005 -6.002172e-005 -2.697303e-001 8.176788e-001 -4.462124e-005 -1.872844e-005 9.814969e-001 -2.843890e-001
321090000 -6.264510e-005 4.073275e-005 -2.459578e-001 8.304982e-001 1.582776e-005 -6.398471e-005 9.809262e-001 -2.843686e-001
321375000 -9.354560e-005 7.011082e-006 -2.209013e-001 8.431771e-001 -3.173513e-006 -9.713338e-005 9.822873e-001 -2.853446e-001
321660000 -2.944822e-005 3.467959e-005 -1.957234e-001 8.546891e-001 -1.057592e-004 1.664249e-005 9.814334e-001 -2.850626e-001
321945000 -5.387880e-005 -3.755280e-005 -1.697063e-001 8.660591e-001 4.117681e-005 1.691667e-005 9.808767e-001 -2.868817e-001
322230000 -3.314181e-006 3.364191e-005 -1.430292e-001 8.760917e-001 1.351603e-004 -8.240304e-005 9.805946e-001 -2.874430e-001
322515000 3.301026e-005 1.110704e-004 -1.152557e-001 8.857698e-001 6.029713e-005 -6.393640e-006 9.791691e-001 -2.882254e-001
322800000 -1.819407e-005 6.564723e-005 -8.641524e-002 8.943793e-001 4.624841e-005 -1.092916e-004 9.823087e-001 -2.855280e-001
323085000 -6.413586e-005 -1.861996e-005 -5.808977e-002 9.034161e-001 6.876826e-005 4.418000e-005 9.819072e-001 -2.863497e-001
323370000 -6.624129e-005 3.101100e-005 -2.823096e-002 9.105253e-001 -6.777418e-005 -1.040605e-005 9.808524e-001 -2.882629e-001
323655000 7.772779e-005 -4.934729e-005 2.456792e-003 9.165932e-001 9.718937e-006 -2.687695e-005 9.808824e-001 -2.870827e-001
323940000 -3.645536e-005 -1.432383e-004 3.316246e-002 9.221604e-001 -3.229442e-005 -2.405015e-005 9.791170e-001 -2.879195e-001
324225000 -3.080441e-005 -1.190856e-004 6.508469e-002 9.263723e-001 -1.239244e-005 -1.473337e-005 9.778726e-001 -2.883235e-001
324510000 1.275522e-004 -8.961203e-005 9.741829e-002 9.291461e-001 -1.643977e-004 2.117558e-005 9.823971e-001 -2.893982e-001
324795000 9.544250e-005 2.366294e-005 1.308071e-001 9.312994e-001 4.206072e-006 -2.126664e-006 9.821270e-001 -2.891687e-001
325080000 -9.170487e-005 -1.522696e-007 1.641678e-001 9.319935e-001 2.857851e-005 2.492171e-005 9.805130e-001 -2.890331e-001
325365000 -6.495287e-005 1.753370e-005 1.978394e-001 9.307911e-001 -2.770671e-005 1.495146e-005 9.813648e-001 -2.886505e-001
325650000 3.896576e-005 -6.643355e-005 2.322766e-001 9.293468e-001 8.919753e-005 6.220365e-005 9.800102e-001 -2.893414e-001
325935000 1.614685e-005 1.850765e-005 2.668667e-001 9.251674e-001 2.791415e-005 3.528471e-005 9.811655e-001 -2.900685e-001
326220000 5.503745e-005 4.849039e-005 3.018867e-001 9.205633e-001 -6.997676e-005 -8.978816e-005 9.798074e-001 -2.905579e-001
326505000 -4.980410e-005 -3.657433e-005 3.369904e-001 9.144276e-001 -1.068310e-004 3.536688e-005 9.796576e-001 -2.907322e-001
326790000 -2.118248e-005 9.693350e-005 3.729752e-001 9.057990e-001 -9.143806e-005 5.488134e-005 9.790098e-001 -2.902002e-001
327075000 -3.655403e-005 2.797231e-005 4.089259e-001 8.956481e-001 -3.680725e-005 1.432033e-005 9.793272e-001 -2.918241e-001
327360000 1.075043e-005 -1.678752e-005 4.441828e-001 8.842984e-001 6.488088e-007 -9.169678e-005 9.810914e-001 -2.916999e-001
327645000 -1.134168e-004 6.303182e-005 4.792640e-001 8.713104e-001 1.844037e-005 -2.885813e-005 9.804666e-001 -2.909723e-001
327930000 2.674763e-005 -4.510901e-005 5.136985e-001 8.562157e-001 5.333276e-005 -1.203139e-004 9.797829e-001 -2.912020e-001
328215000 4.671228e-005 -1.042502e-005 5.490619e-001 8.394148e-001 -4.381545e-005 -3.345884e-006 9.792417e-001 -2.921868e-001
328500000 8.207896e-005 -3.175823e-005 5.834306e-001 8.215445e-001 8.910536e-005 2.358916e-005 9.791621e-001 -2.926943e-001
328785000 -1.060155e-004 1.032478e-004 6.163902e-001 8.014786e-001 9.866351e-005 7.517108e-005 9.803412e-001 -2.917065e-001
329070000 -1.030884e-004 1.313625e-004 6.497216e-001 7.794630e-001 3.702862e-005 5.047678e-005 9.794399e-001 -2.923740e-001
329355000 3.199208e-005 4.495465e-005 6.813287e-001 7.554127e-001 5.084202e-005 2.893601e-005 9.790424e-001 -2.933208e-001
329640000 -8.882908e-005 4.466826e-005 7.124304e-001 7.302953e-001 -1.214391e-005 7.342916e-006 9.793362e-001 -2.926609e-001
329925000 1.531251e-005 -3.743754e-005 7.424516e-001 7.038738e-001 7.069940e-005 -7.002579e-005 9.787608e-001 -2.934765e-001
330210000 -8.065552e-005 -6.032609e-005 7.713596e-001 6.752551e-001 4.924529e-005 4.801771e-005 9.783805e-001 -2.942519e-001
330495000 -7.091384e-005 6.337161e-006 7.990018e-001 6.454202e-001 -8.110617e-005 -7.831849e-006 9.774759e-001 -2.929803e-001
330780000 3.510424e-005 -5.830820e-005 8.242868e-001 6.136714e-001 -1.825523e-005 4.865991e-005 9.785187e-001 -2.950415e-001
331065000 1.125603e-004 1.826455e-005 8.488263e-001 5.812554e-001 4.840525e-005 9.723839e-005 9.770617e-001 -2.935884e-001
331350000 7.615916e-006 -2.451672e-005 8.726964e-001 5.471188e-001 -1.241735e-004 7.144962e-005 9.764788e-001 -2.940400e-001
331635000 -1.087198e-005 -5.389174e-005 8.935462e-001 5.121718e-001 -1.588317e-005 9.824865e-006 9.794689e-001 -2.951015e-001
331920000 3.122120e-005 -1.815204e-005 9.128404e-001 4.763677e-001 -3.573479e-005 -3.658587e-005 9.790581e-001 -2.947188e-001
332205000 1.474410e-005 6.409262e-005 9.306052e-001 4.398345e-001 7.681292e-005 8.716123e-006 9.772133e-001 -2.962626e-001
332490000 -1.192841e-004 3.670141e-005 9.463028e-001 4.022565e-001 1.548613e-004 -3.407329e-005 9.778398e-001 -2.951704e-001
332775000 6.461242e-005 3.853961e-005 9.599826e-001 3.640774e-001 -4.243626e-005 1.194458e-005 9.778355e-001 -2.956716e-001
333060000 5.508025e-005 7.965997e-005 9.722475e-001 3.259576e-001 -3.333609e-006 1.437418e-005 9.781953e-001 -2.963755e-001
333345000 -6.349404e-005 1.179635e-004 9.826305e-001 2.868344e-001 1.230271e-004 -2.844427e-005 9.794739e-001 -2.958419e-001
333630000 4.384918e-005 5.675641e-006 9.907057e-001 2.472490e-001 4.655992e-006 -5.372874e-005 9.779036e-001 -2.971323e-001
333915000 2.190276e-005 1.500984e-004 9.968842e-001 2.078428e-001 -9.095734e-005 -2.017805e-004 9.770507e-001 -2.971486e-001
334200000 7.349828e-005 -3.862912e-005 1.001333e+000 1.683527e-001 7.062865e-005 -4.034489e-005 9.784091e-001 -2.981755e-001
334485000 1.793706e-005 9.349248e-005 1.003384e+000 1.291620e-001 2.749158e-005 -1.041697e-004 9.776763e-001 -2.969016e-001
334770000 -1.735447e-005 8.625563e-005 1.003723e+000 9.043302e-002 -2.760682e-005 -2.639543e-005 9.772972e-001 -2.982914e-001
335055000 2.407296e-005 7.607608e-005 1.002638e+000 5.161227e-002 2.520649e-006 -7.559799e-005 9.781682e-001 -2.976373e-001
335340000 -3.431179e-005 5.351634e-005 9.998460e-001 1.375591e-002 -2.887095e-005 4.318917e-005 9.783940e-001 -2.996017e-001
335625000 -2.981826e-005 6.819290e-005 9.947183e-001 -2.309599e-002 -4.951393e-005 -2.769830e-005 9.775481e-001 -2.994743e-001
335910000 -1.552941e-005 1.816915e-004 9.884651e-001 -5.990333e-002 -3.860314e-005 -1.450968e-004 9.787340e-001 -2.983447e-001
336195000 -1.108447e-004 3.242022e-005 9.806417e-001 -9.637126e-002 -3.009442e-005 -3.298093e-005 9.768001e-001 -2.984382e-001
336480000 -3.195639e-005 3.621920e-005 9.724813e-001 -1.324318e-001 2.895238e-007 -7.601574e-005 9.781797e-001 -2.978354e-001
336765000 -1.715371e-005 3.492311e-005 9.618003e-001 -1.658100e-001 3.099456e-005 -5.069156e-005 9.785365e-001 -3.006561e-001
337050000 -8.244471e-006 -6.143938e-005 9.495450e-001 -1.992434e-001 3.232220e-005 -1.149559e-004 9.786226e-001 -2.996231e-001
337335000 6.191398e-005 -4.939372e-005 9.366012e-001 -2.323180e-001 1.710165e-005 -8.409794e-005 9.761430e-001 -3.016938e-001
337620000 3.327920e-005 6.684697e-005 9.218292e-001 -2.633469e-001 -9.872575e-006 -6.549315e-005 9.768651e-001 -3.013055e-001
337905000 -1.827576e-005 -7.680315e-005 9.067376e-001 -2.939934e-001 7.113514e-005 3.996945e-005 9.765279e-001 -2.989933e-001
338190000 6.774977e-005 -6.157902e-005 8.904958e-001 -3.234185e-001 -3.063046e-005 4.446669e-005 9.770818e-001 -3.012250e-001
338475000 -2.949556e-005 -4.866882e-005 8.736967e-001 -3.514907e-001 -5.944823e-005 -2.897487e-005 9.768627e-001 -3.014239e-001
338760000 6.891585e-006 -4.254842e-005 8.561067e-001 -3.788883e-001 -6.944778e-005 2.030811e-005 9.776577e-001 -3.021508e-001
339045000 -1.622391e-006 7.788053e-005 8.372154e-001 -4.053307e-001 -5.227223e-005 -3.043593e-005 9.765709e-001 -3.016184e-001
339330000 7.537676e-005 -7.349048e-005 8.183411e-001 -4.301950e-001 -7.518060e-005 -3.380352e-005 9.769791e-001 -3.008680e-001
339615000 2.005415e-005 -4.964472e-005 7.982603e-001 -4.543096e-001 -2.075535e-005 6.860861e-005 9.769413e-001 -3.025158e-001
339900000 3.924705e-005 5.593542e-005 7.783056e-001 -4.774522e-001 8.872677e-005 9.875382e-005 9.760866e-001 -3.037544e-001
340185000 3.007875e-005 3.752192e-005 7.574424e-001 -4.989990e-001 -4.406972e-005 6.624166e-006 9.770873e-001 -3.016015e-001
340470000 -3.302554e-005 -5.941164e-006 7.362889e-001 -5.205303e-001 -3.600472e-005 1.371648e-005 9.767678e-001 -3.014570e-001
340755000 6.302396e-006 1.315226e-004 7.146147e-001 -5.407792e-001 -1.001933e-004 -2.095612e-005 9.762593e-001 -3.047824e-001
341040000 9.613859e-006 5.029017e-007 6.931455e-001 -5.592903e-001 -1.104556e-004 9.377204e-005 9.765032e-001 -3.048102e-001
341325000 -4.014225e-005 4.544212e-006 6.707109e-001 -5.770134e-001 -1.454710e-004 2.079874e-005 9.773375e-001 -3.017052e-001
341610000 -1.120329e-004 3.226175e-005 6.484897e-001 -5.937521e-001 -2.944330e-005 -9.037840e-006 9.778137e-001 -3.030868e-001
341895000 -3.810487e-005 4.544647e-006 6.255623e-001 -6.100232e-001 -1.026482e-005 3.185050e-005 9.775653e-001 -3.050525e-001
342180000 -1.169366e-004 -1.147972e-004 6.036955e-001 -6.247869e-001 1.070510e-005 -1.664498e-005 9.774562e-001 -3.042567e-001
342465000 -2.854973e-005 -3.103063e-005 5.810481e-001 -6.397336e-001 -2.106745e-005 -4.884792e-005 9.766344e-001 -3.054991e-001
342750000 -1.111284e-005 -3.920996e-005 5.582372e-001 -6.527537e-001 -7.489375e-005 -1.001997e-005 9.782688e-001 -3.054644e-001
343035000 -1.212247e-004 1.815300e-005 5.353342e-001 -6.655657e-001 2.288619e-005 3.079043e-005 9.762813e-001 -3.057638e-001
343320000 -1.360439e-004 -1.122345e-004 5.122213e-001 -6.770794e-001 5.742901e-005 1.149346e-004 9.758278e-001 -3.055851e-001
343605000 -5.449195e-005 2.596627e-005 4.898106e-001 -6.886502e-001 5.378215e-005 9.379394e-005 9.761059e-001 -3.056005e-001
343890000 5.405609e-005 -2.158886e-005 4.671333e-001 -6.982218e-001 9.723745e-005 9.265411e-006 9.760462e-001 -3.069606e-001
