!Agilent Technologies,N5230C,SG49000117,A.08.50.07
!Agilent N5230C: A.08.50.07
!Date: Monday, March 18, 2024 17:57:28
!Correction: S11(Off) 
!S21(Off) 
!S12(Off) 
!S22(Full 1 Port(2)) 
!S2P File: Measurements: S11, S21, S12, S22:
# Hz S  RI   R 50
300000000 4.575075e-005 1.003235e-004 -6.021364e-001 -6.711973e-001 8.000546e-005 1.902055e-005 1.013467e+000 -9.756573e-002
300285000 -8.579324e-006 9.671019e-007 -6.183752e-001 -6.479467e-001 2.608597e-005 -8.898488e-005 1.015142e+000 -9.682199e-002
300570000 -8.785086e-005 -2.514957e-005 -6.340818e-001 -6.250525e-001 5.662203e-005 -1.944936e-005 1.013436e+000 -9.750840e-002
300855000 -1.429208e-005 2.212633e-006 -6.484745e-001 -6.021573e-001 -8.383633e-005 -7.365469e-005 1.014553e+000 -9.575464e-002
301140000 -4.245274e-005 -8.867844e-006 -6.623425e-001 -5.786833e-001 1.163582e-004 -3.662594e-005 1.013597e+000 -9.791132e-002
301425000 -2.749045e-005 1.328085e-005 -6.746576e-001 -5.554582e-001 1.556490e-005 1.000432e-007 1.014841e+000 -9.886099e-002
301710000 1.203037e-005 1.531372e-005 -6.872346e-001 -5.319057e-001 4.281551e-005 -2.077596e-005 1.014949e+000 -9.826946e-002
301995000 -8.984537e-005 6.231029e-005 -6.983746e-001 -5.084638e-001 7.497130e-005 -8.912759e-005 1.015090e+000 -9.664440e-002
302280000 -5.480117e-005 -3.778086e-005 -7.082945e-001 -4.850128e-001 -5.818205e-005 -8.026236e-005 1.015802e+000 -9.851547e-002
302565000 -1.542937e-004 1.131362e-004 -7.173871e-001 -4.618437e-001 -3.995791e-005 1.917193e-005 1.015717e+000 -9.799566e-002
302850000 -5.693157e-006 3.994711e-005 -7.270539e-001 -4.385069e-001 4.694967e-005 4.313363e-005 1.012218e+000 -9.685626e-002
303135000 -7.196248e-006 -8.289145e-005 -7.350368e-001 -4.153346e-001 -5.833364e-007 -8.507582e-005 1.013634e+000 -9.765851e-002
303420000 2.058481e-005 -5.333127e-005 -7.422497e-001 -3.921123e-001 -3.760662e-006 4.672066e-005 1.015539e+000 -9.890420e-002
303705000 2.444815e-005 1.293172e-005 -7.496477e-001 -3.689644e-001 -3.117686e-006 7.547369e-005 1.015629e+000 -9.834918e-002
303990000 6.861816e-005 -1.375698e-005 -7.558432e-001 -3.461940e-001 -2.995752e-005 -1.217770e-005 1.014559e+000 -9.904201e-002
304275000 3.274316e-005 1.883107e-005 -7.608976e-001 -3.231851e-001 -1.323173e-005 1.074588e-006 1.015104e+000 -9.860780e-002
304560000 1.780998e-005 2.991238e-005 -7.660850e-001 -3.003428e-001 -1.578537e-005 3.774606e-005 1.014455e+000 -9.768034e-002
304845000 9.570711e-006 -1.782372e-006 -7.705247e-001 -2.784827e-001 1.867382e-005 -4.724929e-005 1.013694e+000 -9.842103e-002
305130000 -8.993222e-005 -4.814371e-006 -7.740353e-001 -2.558891e-001 -1.396123e-004 -1.551981e-005 1.012929e+000 -9.911158e-002
305415000 -1.382569e-005 6.192555e-005 -7.772254e-001 -2.341459e-001 -1.895392e-005 -8.895008e-005 1.015524e+000 -9.896965e-002
305700000 -2.699136e-005 5.575396e-005 -7.803379e-001 -2.119931e-001 1.518328e-005 3.115912e-005 1.015893e+000 -9.871878e-002
305985000 3.486090e-005 -2.257582e-005 -7.827606e-001 -1.900336e-001 -9.589856e-005 -2.030067e-005 1.014848e+000 -9.954560e-002
306270000 9.891530e-006 4.451117e-005 -7.843693e-001 -1.683293e-001 -1.125557e-004 -3.388013e-005 1.015536e+000 -9.803137e-002
306555000 -2.987874e-005 2.802041e-005 -7.859117e-001 -1.461616e-001 2.983341e-005 5.520084e-005 1.017061e+000 -9.956156e-002
306840000 -3.794218e-005 -6.323103e-005 -7.866823e-001 -1.252000e-001 1.238769e-004 -9.795350e-005 1.014296e+000 -9.753642e-002
307125000 2.485373e-005 1.787054e-005 -7.870157e-001 -1.035866e-001 -7.963868e-006 6.399542e-007 1.015343e+000 -9.821304e-002
307410000 5.456897e-005 7.025223e-006 -7.868423e-001 -8.247588e-002 -3.603158e-005 3.463334e-005 1.015910e+000 -9.945872e-002
307695000 6.462030e-005 -8.389649e-006 -7.869775e-001 -6.120326e-002 4.844224e-006 5.719714e-005 1.016060e+000 -1.012226e-001
307980000 2.502137e-005 3.641696e-005 -7.862578e-001 -4.043362e-002 -5.077737e-005 5.621892e-005 1.013983e+000 -1.001394e-001
308265000 -3.399590e-006 1.486070e-005 -7.843437e-001 -2.027970e-002 -1.319398e-005 4.745634e-005 1.014622e+000 -9.986720e-002
308550000 -6.746933e-005 2.774559e-005 -7.831184e-001 7.186470e-004 -2.719486e-005 -4.149999e-005 1.015571e+000 -1.002193e-001
308835000 1.112458e-004 -2.078380e-005 -7.810139e-001 2.074737e-002 -5.651764e-005 -3.892133e-005 1.013788e+000 -1.003351e-001
309120000 8.089926e-005 -1.221459e-005 -7.787405e-001 4.114173e-002 3.051494e-005 -3.085756e-005 1.015845e+000 -1.011027e-001
309405000 2.636252e-005 7.981412e-006 -7.758563e-001 6.203885e-002 -2.733264e-005 -4.204149e-005 1.017323e+000 -1.002096e-001
309690000 4.413529e-005 1.200880e-004 -7.726825e-001 8.174053e-002 -8.721185e-005 -5.446940e-005 1.016898e+000 -1.010638e-001
309975000 5.228631e-005 -9.433729e-005 -7.691945e-001 1.020392e-001 1.056080e-004 2.657582e-005 1.015255e+000 -1.006457e-001
310260000 -1.350681e-004 8.673893e-005 -7.655002e-001 1.215144e-001 4.523190e-005 -7.957211e-005 1.016426e+000 -1.001823e-001
310545000 -9.973571e-005 -5.647537e-005 -7.613038e-001 1.412711e-001 -1.172195e-004 8.467944e-005 1.015920e+000 -1.012981e-001
310830000 -1.141755e-004 9.677361e-005 -7.567542e-001 1.609702e-001 -7.259536e-005 -7.977025e-005 1.017599e+000 -1.009949e-001
311115000 -4.671769e-005 3.299789e-005 -7.517958e-001 1.801110e-001 -9.547875e-005 -9.122214e-005 1.015378e+000 -1.010823e-001
311400000 -1.035953e-005 -1.749563e-005 -7.464598e-001 1.998444e-001 6.367951e-006 4.729381e-006 1.015590e+000 -1.016953e-001
311685000 -1.085535e-005 4.517135e-005 -7.405967e-001 2.190668e-001 1.206699e-005 5.017979e-005 1.016790e+000 -9.999967e-002
311970000 -7.107569e-006 1.038461e-004 -7.351395e-001 2.378932e-001 2.840065e-005 -6.419889e-005 1.015367e+000 -1.011617e-001
312255000 -4.717477e-006 -1.005654e-004 -7.286031e-001 2.575085e-001 -7.502402e-005 4.526775e-005 1.015213e+000 -1.006574e-001
312540000 6.113999e-005 3.143785e-005 -7.219725e-001 2.763323e-001 7.358805e-005 -4.235870e-006 1.016755e+000 -1.021307e-001
312825000 -3.013577e-005 -8.394413e-005 -7.149372e-001 2.953377e-001 5.269561e-005 8.219035e-005 1.015322e+000 -1.011780e-001
313110000 9.956825e-005 2.397731e-005 -7.071704e-001 3.143830e-001 -3.480324e-005 -5.602475e-005 1.016499e+000 -1.031440e-001
313395000 -2.040383e-005 3.630384e-005 -6.993769e-001 3.329980e-001 3.955359e-005 4.555452e-005 1.017140e+000 -1.011336e-001
313680000 -6.819953e-005 5.789174e-005 -6.914138e-001 3.517787e-001 -1.235733e-004 6.886561e-005 1.014190e+000 -1.023126e-001
313965000 9.294983e-005 4.481273e-005 -6.827388e-001 3.699932e-001 -7.094683e-005 -1.254374e-004 1.015445e+000 -1.015799e-001
314250000 -6.704938e-005 6.997312e-005 -6.745161e-001 3.888481e-001 -6.061327e-005 -9.069966e-005 1.013377e+000 -1.029434e-001
314535000 -2.758001e-005 6.455643e-005 -6.646405e-001 4.073192e-001 -4.594621e-005 -7.929424e-006 1.014885e+000 -1.015984e-001
314820000 -2.379469e-005 1.234752e-004 -6.545995e-001 4.258447e-001 -4.567160e-005 -5.010023e-005 1.016472e+000 -1.046589e-001
315105000 -3.489916e-005 -1.150037e-004 -6.448595e-001 4.438362e-001 -3.467757e-005 -6.961825e-005 1.013308e+000 -1.026081e-001
315390000 -8.429909e-005 -6.429774e-005 -6.339899e-001 4.619438e-001 8.475772e-005 1.411664e-005 1.016402e+000 -1.032813e-001
315675000 1.131309e-005 6.140581e-005 -6.229190e-001 4.800679e-001 -1.608896e-004 -2.556706e-005 1.014846e+000 -1.021001e-001
315960000 -3.790769e-005 3.015810e-005 -6.113526e-001 4.983091e-001 9.019056e-005 -1.003818e-004 1.015196e+000 -1.026606e-001
316245000 6.087506e-005 -4.792495e-005 -5.996788e-001 5.161471e-001 1.320965e-004 -1.513186e-005 1.014198e+000 -1.023229e-001
316530000 1.405268e-005 -3.272993e-005 -5.870712e-001 5.341979e-001 -4.989939e-005 8.802067e-005 1.015741e+000 -1.033511e-001
316815000 -2.759778e-005 -1.540204e-004 -5.739571e-001 5.520576e-001 6.250872e-005 5.819077e-005 1.015536e+000 -1.023919e-001
317100000 3.212118e-005 -1.048365e-005 -5.608421e-001 5.695726e-001 -5.151813e-007 -2.687528e-005 1.014842e+000 -1.025074e-001
317385000 6.561869e-006 7.916516e-005 -5.468472e-001 5.867615e-001 -1.335830e-004 4.691098e-005 1.016693e+000 -1.009240e-001
317670000 5.750865e-005 7.256001e-005 -5.325273e-001 6.038772e-001 5.430361e-005 -5.041635e-005 1.015998e+000 -1.018901e-001
317955000 -9.244743e-007 -9.079515e-005 -5.171056e-001 6.209476e-001 -7.569193e-005 -9.006977e-006 1.017447e+000 -1.019787e-001
318240000 9.182664e-005 2.145026e-005 -5.021883e-001 6.382415e-001 -6.692778e-005 6.219237e-005 1.015678e+000 -1.027925e-001
318525000 -2.922408e-005 1.307649e-004 -4.858510e-001 6.547965e-001 -5.514037e-005 1.108321e-004 1.016219e+000 -1.023863e-001
318810000 -8.694622e-005 3.990017e-005 -4.693898e-001 6.711342e-001 2.852239e-005 -7.045885e-005 1.016305e+000 -1.032425e-001
319095000 8.715806e-005 2.528941e-005 -4.516722e-001 6.880381e-001 -9.528471e-005 -4.535117e-005 1.015124e+000 -1.028324e-001
319380000 -1.773291e-005 -1.077346e-004 -4.342056e-001 7.044540e-001 1.040313e-004 -9.596391e-005 1.016245e+000 -1.041375e-001
319665000 -1.794731e-005 1.538618e-005 -4.157594e-001 7.198826e-001 1.064498e-005 -3.276663e-005 1.017086e+000 -1.031116e-001
319950000 -3.777075e-005 7.005320e-006 -3.966234e-001 7.362469e-001 2.455166e-005 -1.072650e-004 1.015397e+000 -1.046593e-001
320235000 1.068665e-004 -2.239062e-005 -3.770257e-001 7.515345e-001 -7.196065e-005 6.154753e-005 1.016498e+000 -1.043937e-001
320520000 -4.877829e-005 -1.585140e-006 -3.555642e-001 7.667344e-001 -6.546753e-005 2.305027e-005 1.016310e+000 -1.048785e-001
320805000 1.105274e-004 3.875252e-005 -3.342684e-001 7.811980e-001 -2.683508e-005 4.663673e-005 1.015049e+000 -1.038828e-001
321090000 7.785931e-005 3.992548e-005 -3.130762e-001 7.953914e-001 8.899167e-006 6.658376e-005 1.014514e+000 -1.039248e-001
321375000 1.079767e-004 -6.789105e-006 -2.899331e-001 8.088336e-001 -8.377679e-006 2.573619e-005 1.015716e+000 -1.038298e-001
321660000 5.254494e-005 9.512663e-005 -2.664160e-001 8.229523e-001 -5.359515e-005 2.620310e-005 1.015831e+000 -1.042259e-001
321945000 -8.231171e-005 8.727770e-006 -2.418498e-001 8.356472e-001 4.894677e-005 -4.737550e-005 1.015138e+000 -1.058718e-001
322230000 -3.020123e-005 7.206474e-005 -2.171640e-001 8.483038e-001 -3.379436e-005 -2.197356e-006 1.015407e+000 -1.056290e-001
322515000 3.983444e-005 7.043656e-005 -1.917858e-001 8.590488e-001 -9.606467e-005 -8.425475e-005 1.014140e+000 -1.055855e-001
322800000 2.668349e-005 -6.228732e-006 -1.651853e-001 8.708634e-001 1.123801e-004 -4.028650e-006 1.016265e+000 -1.041246e-001
323085000 3.996608e-005 1.611047e-005 -1.378322e-001 8.809853e-001 -1.928015e-005 -1.108755e-006 1.015313e+000 -1.047937e-001
323370000 4.380427e-005 1.977767e-005 -1.100442e-001 8.906893e-001 4.172400e-005 -1.168768e-004 1.016444e+000 -1.059238e-001
323655000 -1.347422e-005 8.883607e-005 -8.142836e-002 8.999079e-001 -1.009401e-005 -4.551839e-005 1.015519e+000 -1.058392e-001
323940000 -1.071317e-004 -5.825329e-005 -5.247071e-002 9.077160e-001 1.795674e-005 2.488649e-005 1.015380e+000 -1.058561e-001
324225000 -1.788634e-005 7.314999e-006 -2.201639e-002 9.144037e-001 -6.134257e-005 -2.682750e-005 1.013629e+000 -1.058783e-001
324510000 -1.271652e-005 -2.594725e-005 8.320443e-003 9.210485e-001 1.090628e-004 -8.902411e-005 1.016995e+000 -1.070020e-001
324795000 -1.543161e-005 4.835072e-005 3.991488e-002 9.261602e-001 1.654600e-005 -2.837496e-005 1.015919e+000 -1.066735e-001
325080000 -6.367406e-005 -1.547266e-004 7.179926e-002 9.297929e-001 -6.974277e-005 5.117659e-005 1.015582e+000 -1.053045e-001
325365000 -8.084276e-006 1.286571e-004 1.048511e-001 9.330770e-001 -6.274216e-006 -1.094953e-005 1.015220e+000 -1.056218e-001
325650000 -4.795023e-005 -7.145071e-005 1.380896e-001 9.343507e-001 -3.589948e-006 7.627875e-005 1.015916e+000 -1.052660e-001
325935000 9.544422e-005 -1.341186e-005 1.715799e-001 9.351500e-001 2.645201e-005 1.138239e-004 1.015328e+000 -1.066083e-001
326220000 4.204936e-006 8.254437e-006 2.064067e-001 9.337630e-001 7.501134e-005 1.399752e-004 1.015893e+000 -1.067723e-001
326505000 1.132571e-005 -2.457896e-005 2.408272e-001 9.311759e-001 4.052746e-005 -4.357735e-005 1.014390e+000 -1.072385e-001
326790000 1.208490e-004 -5.928455e-006 2.765694e-001 9.273465e-001 -1.426765e-006 -6.833897e-005 1.014410e+000 -1.058425e-001
327075000 1.597100e-005 -4.386930e-005 3.110287e-001 9.217752e-001 -7.134820e-005 6.100313e-005 1.015445e+000 -1.072247e-001
327360000 -6.581732e-005 1.122254e-005 3.467029e-001 9.140751e-001 2.562703e-005 9.220467e-006 1.015472e+000 -1.077529e-001
327645000 4.350419e-005 3.205398e-005 3.819612e-001 9.061807e-001 -4.396436e-005 7.363848e-006 1.016233e+000 -1.069063e-001
327930000 -5.725003e-005 7.810464e-005 4.177618e-001 8.961614e-001 2.870623e-005 6.171936e-005 1.015057e+000 -1.055252e-001
328215000 -1.512101e-004 1.488270e-005 4.529554e-001 8.836508e-001 2.711792e-005 -1.268751e-005 1.016267e+000 -1.063409e-001
328500000 3.163157e-005 -6.456168e-005 4.882611e-001 8.702580e-001 3.045521e-005 -3.147490e-005 1.015435e+000 -1.074241e-001
328785000 -7.130493e-006 -5.171018e-005 5.232479e-001 8.544446e-001 8.016461e-005 9.064413e-006 1.013843e+000 -1.075698e-001
329070000 1.645282e-005 -1.202353e-004 5.576411e-001 8.369583e-001 -2.824202e-005 5.076079e-006 1.015385e+000 -1.078507e-001
329355000 5.852549e-005 5.805620e-005 5.918186e-001 8.178005e-001 8.242327e-005 3.364851e-005 1.014824e+000 -1.083162e-001
329640000 6.333750e-005 -1.234867e-004 6.255952e-001 7.970334e-001 -2.199745e-005 1.031120e-004 1.016181e+000 -1.084349e-001
329925000 -6.525061e-005 8.030036e-005 6.580694e-001 7.753547e-001 -4.559969e-005 5.175905e-005 1.015046e+000 -1.071781e-001
330210000 3.603951e-005 1.115659e-005 6.898007e-001 7.511060e-001 -9.959522e-006 5.603812e-006 1.015266e+000 -1.077748e-001
330495000 8.738260e-005 -5.779639e-005 7.197496e-001 7.252067e-001 -2.556552e-005 -1.594074e-005 1.015504e+000 -1.083350e-001
330780000 8.829636e-006 1.000929e-004 7.497746e-001 6.976248e-001 7.388605e-005 -1.255490e-005 1.015424e+000 -1.087203e-001
331065000 -1.203288e-004 -4.340706e-005 7.778679e-001 6.689273e-001 -3.183911e-005 2.906159e-005 1.013413e+000 -1.072143e-001
331350000 6.550176e-005 -8.709090e-006 8.050346e-001 6.382795e-001 -5.619419e-005 -6.100794e-005 1.014845e+000 -1.071351e-001
331635000 -3.774148e-005 -6.146226e-005 8.300347e-001 6.064211e-001 -6.062486e-006 -1.234420e-004 1.015669e+000 -1.076835e-001
331920000 -9.444360e-005 7.761072e-005 8.545626e-001 5.733072e-001 9.025358e-005 -1.404271e-005 1.015767e+000 -1.086326e-001
332205000 5.984366e-005 3.399846e-005 8.766521e-001 5.394264e-001 9.986970e-005 -1.111481e-004 1.014197e+000 -1.095660e-001
332490000 3.012390e-005 -8.860425e-005 8.978733e-001 5.045177e-001 3.950172e-005 -9.496757e-005 1.015206e+000 -1.083722e-001
332775000 5.574055e-005 2.673167e-005 9.165120e-001 4.685679e-001 1.152838e-004 7.807903e-005 1.015924e+000 -1.081322e-001
333060000 -3.490071e-007 -5.585534e-005 9.331575e-001 4.317102e-001 -3.881549e-006 -3.618715e-005 1.015134e+000 -1.092122e-001
333345000 9.359731e-005 1.218536e-005 9.484227e-001 3.937351e-001 4.996321e-005 7.594600e-006 1.016320e+000 -1.068589e-001
333630000 8.981156e-005 -2.065130e-005 9.615111e-001 3.549865e-001 -6.057495e-005 -5.851743e-007 1.015660e+000 -1.086987e-001
333915000 7.207222e-005 1.193641e-005 9.735563e-001 3.169202e-001 -7.096053e-005 -5.198109e-005 1.014794e+000 -1.088950e-001
334200000 1.171473e-005 3.889281e-005 9.825405e-001 2.784116e-001 -3.275405e-005 1.695273e-004 1.015277e+000 -1.102969e-001
334485000 4.839846e-005 -1.779239e-005 9.905148e-001 2.394050e-001 2.063269e-005 4.019132e-005 1.015244e+000 -1.091030e-001
334770000 -7.456358e-007 1.388394e-005 9.953798e-001 1.998013e-001 -2.601597e-005 4.172985e-005 1.015611e+000 -1.095437e-001
335055000 6.794901e-005 -3.584039e-005 9.990477e-001 1.608775e-001 -2.994382e-005 -4.195294e-005 1.015933e+000 -1.086859e-001
335340000 -8.210769e-005 -2.484605e-005 1.001600e+000 1.221980e-001 7.357285e-006 -3.033256e-005 1.015394e+000 -1.102908e-001
335625000 -3.643657e-005 -7.421854e-005 1.001020e+000 8.353493e-002 5.239101e-006 4.110439e-005 1.015424e+000 -1.103713e-001
335910000 7.688934e-005 3.164718e-005 9.995633e-001 4.602204e-002 -1.195278e-006 -1.339941e-005 1.014296e+000 -1.092766e-001
336195000 2.110835e-005 -5.153145e-006 9.962236e-001 8.033611e-003 -4.079849e-005 7.576598e-005 1.013853e+000 -1.089286e-001
336480000 -5.107236e-005 -5.596099e-005 9.908381e-001 -2.882667e-002 -5.613936e-005 3.351646e-005 1.015590e+000 -1.097758e-001
336765000 7.702154e-005 -4.738262e-005 9.843678e-001 -6.503634e-002 -8.746196e-005 5.013728e-007 1.015810e+000 -1.097784e-001
337050000 2.654182e-006 5.475669e-005 9.762836e-001 -1.007154e-001 1.987352e-005 -9.304452e-005 1.015955e+000 -1.099072e-001
337335000 3.618808e-005 -5.591583e-005 9.666726e-001 -1.352463e-001 -7.353236e-005 -9.860518e-005 1.015638e+000 -1.126271e-001
337620000 3.778623e-005 1.014951e-004 9.567433e-001 -1.699192e-001 1.423594e-005 -7.584266e-005 1.014300e+000 -1.122178e-001
337905000 1.611522e-004 -3.443825e-005 9.445800e-001 -2.019892e-001 1.299966e-004 -1.525205e-005 1.013177e+000 -1.095724e-001
338190000 2.903782e-005 2.953898e-006 9.314386e-001 -2.340717e-001 -7.284370e-005 -4.730382e-005 1.015403e+000 -1.114364e-001
338475000 5.478295e-005 5.338093e-005 9.170606e-001 -2.655162e-001 -2.895381e-005 4.612373e-005 1.015546e+000 -1.100327e-001
338760000 1.666105e-004 1.600748e-004 9.018812e-001 -2.952943e-001 -5.341901e-005 -3.497130e-005 1.014529e+000 -1.112469e-001
339045000 8.470534e-006 5.524653e-005 8.853616e-001 -3.238352e-001 -4.345704e-005 -4.012341e-005 1.016043e+000 -1.110062e-001
339330000 9.629757e-005 -1.900593e-005 8.683521e-001 -3.520252e-001 -6.853662e-005 -3.415994e-005 1.016288e+000 -1.093642e-001
339615000 5.098090e-005 -2.321647e-005 8.512105e-001 -3.790568e-001 2.494984e-005 -4.209964e-005 1.015742e+000 -1.116178e-001
339900000 3.386438e-005 1.644499e-005 8.333839e-001 -4.048589e-001 7.306066e-005 1.032080e-005 1.014680e+000 -1.117117e-001
340185000 5.015780e-005 2.619851e-005 8.133363e-001 -4.294797e-001 2.636431e-005 -3.696210e-005 1.015343e+000 -1.117486e-001
340470000 -1.685554e-005 2.658523e-005 7.941695e-001 -4.528982e-001 3.423267e-005 2.555197e-005 1.014934e+000 -1.110721e-001
340755000 -5.962646e-005 -7.604017e-005 7.742718e-001 -4.762520e-001 1.013242e-004 5.265772e-005 1.016631e+000 -1.125468e-001
341040000 -1.608964e-005 -3.317432e-005 7.536848e-001 -4.976557e-001 -4.052751e-005 -2.645799e-005 1.015342e+000 -1.116272e-001
341325000 2.553797e-005 9.121012e-007 7.329274e-001 -5.181719e-001 -3.963033e-005 -4.254120e-006 1.016570e+000 -1.094802e-001
341610000 -6.951437e-005 -9.662155e-005 7.113143e-001 -5.377606e-001 1.413163e-005 1.696579e-005 1.016579e+000 -1.126349e-001
341895000 -5.160251e-006 -2.241646e-005 6.899188e-001 -5.560470e-001 -1.625752e-005 3.966006e-005 1.014873e+000 -1.133291e-001
342180000 3.185988e-005 3.385020e-005 6.678950e-001 -5.739011e-001 -3.628682e-005 4.925567e-005 1.016198e+000 -1.129246e-001
342465000 1.280548e-004 7.173217e-006 6.458441e-001 -5.913035e-001 -8.504105e-006 5.750961e-006 1.016055e+000 -1.122915e-001
342750000 3.526885e-005 4.587974e-005 6.241481e-001 -6.067950e-001 1.232412e-006 5.441624e-005 1.017788e+000 -1.110528e-001
343035000 2.801316e-005 1.490304e-005 6.020717e-001 -6.220213e-001 -1.390460e-004 2.569691e-005 1.015651e+000 -1.134762e-001
343320000 -2.592692e-005 -7.890826e-005 5.792863e-001 -6.361809e-001 -1.353005e-004 -1.011962e-004 1.014355e+000 -1.127083e-001
343605000 -4.461188e-005 9.340710e-006 5.571025e-001 -6.496350e-001 3.133853e-005 -2.200930e-006 1.015538e+000 -1.121927e-001
343890000 6.599776e-005 1.409198e-004 5.349433e-001 -6.618261e-001 3.253124e-005 -2.608897e-005 1.016075e+000 -1.124949e-001
