!Agilent Technologies,N5230C,SG49000117,A.08.50.07
!Agilent N5230C: A.08.50.07
!Date: Monday, March 18, 2024 17:59:26
!Correction: S11(Off) 
!S21(Off) 
!S12(Off) 
!S22(Full 1 Port(2)) 
!S2P File: Measurements: S11, S21, S12, S22:
# Hz S  RI   R 50
300000000 5.557354e-005 1.121493e-004 -6.066889e-001 -6.696759e-001 -4.620706e-005 1.338341e-005 1.018967e+000 -1.074422e-001
300285000 3.069401e-005 1.322826e-005 -6.233881e-001 -6.467572e-001 -1.193145e-006 4.238675e-005 1.019375e+000 -1.076360e-001
300570000 -1.209914e-005 2.812034e-005 -6.383147e-001 -6.236042e-001 5.174998e-005 -6.324573e-005 1.018653e+000 -1.075025e-001
300855000 4.333808e-005 1.749037e-005 -6.527556e-001 -6.001062e-001 -1.653814e-005 4.830764e-005 1.020010e+000 -1.067106e-001
301140000 -1.557588e-005 -1.413390e-005 -6.661029e-001 -5.760127e-001 5.040286e-005 3.332149e-005 1.019670e+000 -1.078044e-001
301425000 -5.851277e-005 5.087545e-005 -6.789163e-001 -5.534260e-001 1.324161e-005 -6.718071e-005 1.020452e+000 -1.077599e-001
301710000 7.329418e-005 2.052344e-006 -6.904872e-001 -5.300033e-001 -1.397061e-005 -3.708384e-005 1.020694e+000 -1.091471e-001
301995000 -2.261867e-005 -4.765932e-005 -7.016207e-001 -5.062673e-001 2.450035e-005 -3.009572e-005 1.018672e+000 -1.056216e-001
302280000 -7.258871e-005 4.202125e-005 -7.119683e-001 -4.827035e-001 5.925096e-005 -7.128204e-005 1.020908e+000 -1.079744e-001
302565000 -6.955690e-005 -1.370746e-004 -7.214903e-001 -4.591243e-001 -5.374231e-005 -3.918787e-005 1.020531e+000 -1.082876e-001
302850000 3.766198e-005 3.803263e-005 -7.298487e-001 -4.355949e-001 2.288862e-006 -1.280459e-004 1.017802e+000 -1.078624e-001
303135000 3.245634e-005 -1.414780e-004 -7.386245e-001 -4.129650e-001 -5.913503e-005 -2.035353e-005 1.019881e+000 -1.085352e-001
303420000 -5.889726e-005 -1.969611e-005 -7.454789e-001 -3.892027e-001 6.144919e-005 -1.302489e-004 1.019618e+000 -1.085027e-001
303705000 2.946156e-005 6.405466e-005 -7.523624e-001 -3.666642e-001 5.642083e-005 3.894284e-006 1.020262e+000 -1.074869e-001
303990000 1.894144e-004 -5.123736e-005 -7.583577e-001 -3.436880e-001 1.742323e-005 8.013334e-005 1.017523e+000 -1.098190e-001
304275000 4.453171e-005 -1.104979e-004 -7.641855e-001 -3.208043e-001 4.004071e-005 -7.437461e-005 1.019541e+000 -1.082466e-001
304560000 -3.974969e-006 1.281617e-004 -7.688621e-001 -2.978715e-001 2.648838e-005 2.123597e-005 1.019701e+000 -1.072523e-001
304845000 -7.949046e-005 1.495983e-004 -7.735569e-001 -2.760960e-001 6.971395e-005 1.463261e-004 1.019389e+000 -1.089505e-001
305130000 -9.596442e-005 4.407245e-005 -7.773591e-001 -2.530411e-001 1.475538e-005 -1.226297e-005 1.018291e+000 -1.082448e-001
305415000 -4.920877e-005 3.278471e-005 -7.802637e-001 -2.316934e-001 3.999002e-005 4.415860e-005 1.019690e+000 -1.085996e-001
305700000 -6.007503e-005 1.084158e-004 -7.827698e-001 -2.087379e-001 4.972537e-005 2.758797e-005 1.020295e+000 -1.075676e-001
305985000 -1.630261e-005 -6.346883e-005 -7.846058e-001 -1.870949e-001 5.229772e-006 9.204490e-006 1.019585e+000 -1.100156e-001
306270000 -5.215071e-005 7.409702e-006 -7.865992e-001 -1.648632e-001 -1.024117e-005 -7.678405e-005 1.021156e+000 -1.079515e-001
306555000 7.682622e-005 -3.693281e-005 -7.887878e-001 -1.438192e-001 8.668139e-005 -3.943254e-005 1.020355e+000 -1.106889e-001
306840000 6.410276e-005 1.901561e-005 -7.887978e-001 -1.220763e-001 -9.570307e-007 -7.530816e-005 1.017627e+000 -1.072441e-001
307125000 1.603339e-004 1.332920e-006 -7.888659e-001 -1.006726e-001 -5.354532e-005 -9.945059e-005 1.019423e+000 -1.092930e-001
307410000 1.194761e-004 -3.682042e-005 -7.890308e-001 -7.936905e-002 3.234858e-005 1.286386e-005 1.021608e+000 -1.091146e-001
307695000 2.442391e-005 1.235147e-005 -7.885845e-001 -5.850326e-002 3.178633e-005 -9.753669e-006 1.019665e+000 -1.095658e-001
307980000 6.816127e-005 9.505382e-005 -7.879388e-001 -3.741867e-002 6.730770e-005 8.162345e-005 1.018374e+000 -1.092262e-001
308265000 -9.673814e-005 3.888718e-005 -7.862942e-001 -1.639894e-002 8.808947e-005 6.087320e-005 1.019024e+000 -1.104561e-001
308550000 -1.169685e-005 3.575798e-005 -7.849287e-001 3.788577e-003 -3.557546e-005 1.685591e-005 1.018164e+000 -1.100590e-001
308835000 -5.601486e-005 1.139360e-006 -7.825866e-001 2.399911e-002 -1.224972e-004 1.042329e-005 1.018569e+000 -1.099224e-001
309120000 -4.160848e-005 -5.651309e-005 -7.801092e-001 4.461067e-002 2.262031e-005 -3.716840e-006 1.020245e+000 -1.111824e-001
309405000 -1.058402e-004 -1.853462e-004 -7.773415e-001 6.485505e-002 -2.998642e-005 -5.442462e-005 1.023718e+000 -1.091951e-001
309690000 1.489586e-005 -7.246353e-005 -7.738800e-001 8.484635e-002 2.623553e-005 -5.653421e-006 1.019804e+000 -1.103932e-001
309975000 -5.149997e-005 -9.510072e-005 -7.706464e-001 1.051203e-001 3.759152e-005 -4.984930e-005 1.019750e+000 -1.105256e-001
310260000 -1.616735e-005 2.529127e-005 -7.661260e-001 1.243438e-001 -4.908736e-005 1.344007e-004 1.020892e+000 -1.110471e-001
310545000 1.373503e-005 6.587426e-005 -7.622621e-001 1.450834e-001 -5.314348e-005 8.368309e-005 1.019881e+000 -1.114618e-001
310830000 -7.849641e-005 1.364448e-005 -7.580322e-001 1.641647e-001 5.663671e-005 -8.452657e-005 1.022324e+000 -1.116425e-001
311115000 -1.034349e-005 2.192012e-005 -7.528517e-001 1.834888e-001 4.370322e-005 8.823018e-005 1.020653e+000 -1.123217e-001
311400000 1.027097e-004 -1.008722e-004 -7.474998e-001 2.032033e-001 3.908492e-005 3.886399e-005 1.019331e+000 -1.124903e-001
311685000 2.030561e-007 3.517736e-005 -7.412828e-001 2.225437e-001 -8.259276e-005 9.400187e-005 1.021395e+000 -1.120559e-001
311970000 8.182554e-005 4.816768e-005 -7.356548e-001 2.418123e-001 -1.146460e-004 3.911851e-005 1.020649e+000 -1.103919e-001
312255000 7.376031e-005 -7.255717e-005 -7.295148e-001 2.608177e-001 -7.292428e-005 -1.854568e-005 1.018734e+000 -1.113597e-001
312540000 8.132840e-005 1.128131e-004 -7.225767e-001 2.801239e-001 6.523054e-005 -1.215087e-004 1.020080e+000 -1.113466e-001
312825000 1.449372e-004 7.446479e-006 -7.154363e-001 2.983963e-001 3.013405e-005 -3.974909e-005 1.021265e+000 -1.116182e-001
313110000 -6.206564e-005 1.820317e-005 -7.078100e-001 3.182085e-001 2.997518e-005 -1.512690e-005 1.019198e+000 -1.134782e-001
313395000 -2.584732e-005 1.107391e-004 -6.999295e-001 3.362074e-001 -1.167455e-006 3.474154e-005 1.021119e+000 -1.121784e-001
313680000 -6.913643e-005 4.509998e-005 -6.918649e-001 3.555481e-001 -8.030729e-005 6.779459e-007 1.021009e+000 -1.112062e-001
313965000 -6.252372e-005 -4.009875e-005 -6.829318e-001 3.739679e-001 4.363564e-005 -1.094533e-005 1.020180e+000 -1.126371e-001
314250000 5.813933e-005 -2.538243e-005 -6.741745e-001 3.925756e-001 5.023936e-005 2.825278e-006 1.020235e+000 -1.125472e-001
314535000 -5.844160e-005 3.827182e-005 -6.647006e-001 4.108700e-001 -1.115523e-005 1.659110e-005 1.019147e+000 -1.118571e-001
314820000 -7.133785e-007 -1.400822e-004 -6.548359e-001 4.292510e-001 -2.064376e-005 5.017092e-005 1.019997e+000 -1.134365e-001
315105000 -2.565944e-005 1.818293e-005 -6.448362e-001 4.476846e-001 -3.987923e-005 8.858262e-005 1.017637e+000 -1.125154e-001
315390000 8.694782e-005 -8.397394e-005 -6.337667e-001 4.656038e-001 2.501018e-006 6.110814e-005 1.020348e+000 -1.129792e-001
315675000 5.389781e-005 1.567057e-005 -6.228180e-001 4.837751e-001 -5.846716e-005 -2.209853e-005 1.019256e+000 -1.129680e-001
315960000 -2.831718e-005 -1.543249e-005 -6.111634e-001 5.019750e-001 -3.402298e-005 -1.326425e-005 1.019492e+000 -1.133105e-001
316245000 6.028757e-005 -6.978813e-007 -5.992770e-001 5.198268e-001 1.990975e-005 -3.876303e-005 1.019599e+000 -1.123221e-001
316530000 2.569800e-005 4.190707e-005 -5.867763e-001 5.378589e-001 -2.007362e-005 -4.074442e-005 1.020143e+000 -1.145127e-001
316815000 -4.873801e-005 -2.385147e-006 -5.738602e-001 5.554724e-001 -8.948019e-005 2.578157e-005 1.020229e+000 -1.127487e-001
317100000 -5.778640e-005 5.902503e-005 -5.603134e-001 5.727746e-001 1.621885e-005 9.839876e-006 1.018707e+000 -1.119980e-001
317385000 -1.457723e-005 -6.000227e-006 -5.462595e-001 5.906219e-001 -4.609631e-005 -2.617311e-005 1.021576e+000 -1.097184e-001
317670000 8.636888e-005 1.186839e-004 -5.314000e-001 6.081044e-001 -3.244953e-005 5.796905e-005 1.019437e+000 -1.133000e-001
317955000 -7.252267e-005 -6.665490e-005 -5.166872e-001 6.250815e-001 -2.902956e-005 -4.114389e-005 1.021351e+000 -1.125932e-001
318240000 -3.503932e-005 -2.212051e-004 -5.009171e-001 6.422188e-001 1.935286e-004 1.763071e-005 1.020912e+000 -1.137941e-001
318525000 -2.890259e-005 3.883057e-005 -4.848998e-001 6.588348e-001 -4.327073e-005 -3.372489e-005 1.021091e+000 -1.132997e-001
318810000 -1.427735e-005 4.680939e-005 -4.677209e-001 6.759909e-001 -6.449606e-005 8.613453e-005 1.019282e+000 -1.137149e-001
319095000 -1.776964e-005 7.880788e-006 -4.505135e-001 6.921819e-001 8.591185e-006 -6.321492e-005 1.019570e+000 -1.131961e-001
319380000 -1.572425e-004 3.067112e-005 -4.322926e-001 7.082328e-001 -6.055609e-006 5.751775e-005 1.020954e+000 -1.132665e-001
319665000 -7.758242e-005 -1.118527e-004 -4.135552e-001 7.241580e-001 2.382035e-005 -4.417513e-005 1.021122e+000 -1.143287e-001
319950000 1.548296e-005 7.778133e-005 -3.950077e-001 7.399215e-001 2.211067e-005 1.042842e-005 1.020418e+000 -1.163420e-001
320235000 -3.055115e-005 -5.201366e-005 -3.743659e-001 7.553410e-001 -2.480201e-005 3.918602e-005 1.021089e+000 -1.159168e-001
320520000 1.620054e-004 -5.141667e-005 -3.537381e-001 7.703892e-001 -3.469107e-005 -3.048589e-005 1.020621e+000 -1.146573e-001
320805000 1.218115e-004 -2.004812e-005 -3.324341e-001 7.851201e-001 5.943702e-005 7.605899e-006 1.019170e+000 -1.149123e-001
321090000 6.431855e-005 4.032421e-005 -3.101681e-001 7.995611e-001 -1.253576e-004 5.143968e-005 1.019439e+000 -1.149530e-001
321375000 5.173469e-005 7.829507e-005 -2.871842e-001 8.139623e-001 1.223722e-005 2.331975e-005 1.019307e+000 -1.146278e-001
321660000 8.577524e-005 1.193853e-005 -2.638220e-001 8.267089e-001 4.026555e-005 -5.890299e-005 1.020917e+000 -1.144775e-001
321945000 1.732152e-005 2.014379e-004 -2.399701e-001 8.398043e-001 -3.935692e-005 -1.005777e-004 1.019915e+000 -1.159520e-001
322230000 -1.067066e-005 -2.132009e-005 -2.147523e-001 8.514194e-001 6.828656e-005 -5.283403e-005 1.020637e+000 -1.170491e-001
322515000 5.851578e-005 -1.303939e-005 -1.887052e-001 8.637389e-001 5.805805e-005 6.190578e-005 1.019479e+000 -1.155168e-001
322800000 -2.048979e-005 1.010006e-004 -1.624813e-001 8.744661e-001 1.534535e-005 5.275011e-005 1.021792e+000 -1.147750e-001
323085000 5.085415e-005 -1.504507e-005 -1.346634e-001 8.850979e-001 1.089769e-004 7.073653e-005 1.021176e+000 -1.140008e-001
323370000 4.201609e-005 -6.054087e-005 -1.067555e-001 8.944310e-001 -2.371553e-006 -2.327224e-005 1.021394e+000 -1.162223e-001
323655000 2.002807e-005 1.436795e-005 -7.805602e-002 9.033003e-001 -3.340542e-005 -3.106981e-005 1.021116e+000 -1.174334e-001
323940000 -5.361575e-005 -5.479611e-005 -4.818223e-002 9.116471e-001 -1.549999e-004 4.767826e-005 1.020756e+000 -1.170370e-001
324225000 4.369677e-005 3.442892e-005 -1.833475e-002 9.180759e-001 -2.667476e-005 5.193935e-005 1.018216e+000 -1.169531e-001
324510000 8.621140e-005 -2.846808e-005 1.308050e-002 9.250599e-001 -4.306217e-005 -2.554185e-005 1.021852e+000 -1.174381e-001
324795000 1.663930e-005 4.896487e-006 4.453377e-002 9.288064e-001 -5.374954e-005 -7.029272e-005 1.020947e+000 -1.168418e-001
325080000 -1.102267e-004 -4.266714e-005 7.719314e-002 9.330283e-001 -1.043152e-004 -1.673945e-005 1.019753e+000 -1.159536e-001
325365000 1.309914e-004 3.507923e-005 1.096044e-001 9.353690e-001 -1.041315e-005 1.656051e-005 1.021957e+000 -1.163332e-001
325650000 -4.690164e-006 1.084232e-004 1.432877e-001 9.371307e-001 5.517825e-005 -7.551519e-005 1.019771e+000 -1.158647e-001
325935000 6.178253e-005 2.075071e-005 1.774095e-001 9.372442e-001 3.552820e-005 4.439100e-005 1.019573e+000 -1.170153e-001
326220000 -5.082775e-005 1.248547e-004 2.118968e-001 9.360409e-001 -3.148047e-005 -8.595982e-005 1.021850e+000 -1.170962e-001
326505000 8.505832e-005 8.183425e-005 2.466878e-001 9.331522e-001 2.849888e-005 -1.210150e-004 1.020947e+000 -1.185048e-001
326790000 -2.656197e-005 -5.785685e-005 2.820437e-001 9.291550e-001 3.050077e-005 -8.088958e-006 1.019409e+000 -1.167614e-001
327075000 1.638364e-005 6.078226e-006 3.172730e-001 9.243635e-001 1.167965e-004 1.438580e-005 1.020478e+000 -1.180622e-001
327360000 -1.048863e-004 -9.403593e-005 3.531982e-001 9.164478e-001 -3.108222e-005 9.336409e-005 1.022009e+000 -1.187746e-001
327645000 -7.642268e-005 3.689442e-005 3.886923e-001 9.074064e-001 3.166564e-005 3.762686e-005 1.021000e+000 -1.175707e-001
327930000 -1.961762e-005 -1.319639e-006 4.238709e-001 8.970988e-001 -9.655501e-005 -1.427785e-005 1.021145e+000 -1.176151e-001
328215000 4.444638e-005 2.415736e-005 4.593188e-001 8.847799e-001 -3.548977e-006 -2.164832e-005 1.019648e+000 -1.176138e-001
328500000 5.925835e-005 -1.563566e-005 4.952257e-001 8.713526e-001 -2.733642e-005 -7.245514e-005 1.019488e+000 -1.189445e-001
328785000 4.508998e-005 4.392219e-006 5.299729e-001 8.547020e-001 3.901665e-005 -7.760304e-006 1.020498e+000 -1.171392e-001
329070000 4.215524e-005 1.051154e-004 5.647421e-001 8.365800e-001 1.189538e-005 6.373118e-005 1.019819e+000 -1.175717e-001
329355000 1.237531e-004 1.514572e-004 5.991443e-001 8.180165e-001 6.823910e-005 -1.099886e-004 1.021042e+000 -1.185124e-001
329640000 2.658369e-005 -4.193712e-005 6.323589e-001 7.965637e-001 -1.412716e-005 3.678878e-005 1.021045e+000 -1.192243e-001
329925000 -4.632140e-005 -2.697008e-005 6.647505e-001 7.740403e-001 3.261188e-005 2.206341e-005 1.020446e+000 -1.181371e-001
330210000 -5.518836e-005 -1.974692e-005 6.963937e-001 7.494655e-001 -8.975055e-006 -2.204488e-005 1.019656e+000 -1.182516e-001
330495000 -6.418829e-005 -5.690436e-005 7.277691e-001 7.239919e-001 -2.097555e-006 8.054821e-005 1.019513e+000 -1.180403e-001
330780000 -3.018617e-005 4.620669e-005 7.568449e-001 6.956086e-001 9.125515e-006 -5.699817e-006 1.020297e+000 -1.190203e-001
331065000 -1.091333e-005 4.697890e-005 7.854328e-001 6.667254e-001 -5.161756e-006 7.782064e-005 1.018443e+000 -1.191156e-001
331350000 4.626171e-005 -1.564421e-004 8.117739e-001 6.359777e-001 1.802706e-005 6.620628e-005 1.019434e+000 -1.198222e-001
331635000 1.089646e-005 -7.897097e-005 8.366666e-001 6.038434e-001 3.043227e-005 -1.295502e-004 1.020683e+000 -1.191999e-001
331920000 -1.261909e-005 8.924583e-005 8.615705e-001 5.712231e-001 -2.608904e-005 -5.875044e-006 1.019760e+000 -1.184813e-001
332205000 1.630463e-005 7.230454e-005 8.828931e-001 5.365429e-001 9.990802e-005 -1.447223e-005 1.019749e+000 -1.211368e-001
332490000 -3.521243e-005 1.464018e-004 9.034852e-001 5.008502e-001 -3.886181e-005 1.397655e-005 1.020971e+000 -1.193671e-001
332775000 -3.687390e-005 5.490356e-005 9.223513e-001 4.645534e-001 3.415368e-005 -7.003676e-005 1.020638e+000 -1.201811e-001
333060000 1.848112e-005 6.624075e-005 9.384388e-001 4.277498e-001 -1.028128e-004 -3.416271e-005 1.020188e+000 -1.212059e-001
333345000 -3.856684e-005 6.619317e-005 9.542038e-001 3.896764e-001 -2.210588e-005 -6.393136e-005 1.021807e+000 -1.190024e-001
333630000 -4.174806e-005 1.429504e-004 9.673061e-001 3.512112e-001 -4.081439e-005 -4.288325e-005 1.020396e+000 -1.194937e-001
333915000 -1.660131e-005 4.049622e-005 9.782727e-001 3.125200e-001 -1.783884e-005 -4.478115e-005 1.019802e+000 -1.204646e-001
334200000 -1.723526e-005 3.852628e-005 9.875218e-001 2.733118e-001 6.304159e-005 1.724096e-005 1.021014e+000 -1.216021e-001
334485000 1.658929e-005 1.225193e-005 9.944170e-001 2.336665e-001 8.517530e-005 -1.352251e-004 1.020084e+000 -1.198179e-001
334770000 -1.386803e-005 -1.070299e-005 9.996512e-001 1.946642e-001 4.455882e-005 6.039248e-006 1.020556e+000 -1.199228e-001
335055000 -1.862358e-005 8.624121e-005 1.003011e+000 1.551829e-001 -7.234948e-005 5.402222e-005 1.020778e+000 -1.203528e-001
335340000 -1.272567e-004 7.413942e-005 1.004550e+000 1.167544e-001 -3.029454e-005 -2.901708e-005 1.019997e+000 -1.223175e-001
335625000 -1.363510e-005 -3.212114e-005 1.004612e+000 7.755557e-002 -9.182603e-005 5.747090e-005 1.021412e+000 -1.211052e-001
335910000 -1.171997e-004 4.297979e-005 1.002870e+000 3.949387e-002 -8.216910e-006 -4.107432e-005 1.020849e+000 -1.199654e-001
336195000 -2.175552e-005 -3.159412e-006 9.986364e-001 1.999686e-003 5.542348e-005 1.255525e-005 1.020250e+000 -1.210297e-001
336480000 -5.565935e-005 -6.530551e-005 9.932575e-001 -3.528055e-002 6.034978e-005 7.047219e-005 1.020213e+000 -1.205934e-001
336765000 -7.637216e-005 4.464324e-005 9.866237e-001 -7.111079e-002 -3.454934e-005 4.450999e-006 1.020606e+000 -1.210651e-001
337050000 -6.510182e-005 -6.031675e-005 9.780975e-001 -1.064522e-001 -5.376757e-005 4.020497e-005 1.021375e+000 -1.218780e-001
337335000 -1.437295e-004 -1.130026e-004 9.685057e-001 -1.420677e-001 -1.226459e-005 4.564376e-005 1.019859e+000 -1.231453e-001
337620000 -4.075444e-005 6.454860e-005 9.581752e-001 -1.753892e-001 1.515163e-005 1.349381e-004 1.020103e+000 -1.224622e-001
337905000 -4.803325e-005 -1.780195e-005 9.451408e-001 -2.087258e-001 9.908839e-005 6.289779e-005 1.019296e+000 -1.215933e-001
338190000 -1.591008e-005 -1.787446e-004 9.321170e-001 -2.405541e-001 -6.644101e-005 1.182122e-005 1.020921e+000 -1.236144e-001
338475000 5.279421e-005 -6.498944e-005 9.177302e-001 -2.713318e-001 -3.412119e-005 7.436327e-005 1.020731e+000 -1.219652e-001
338760000 9.542834e-005 -1.559440e-005 9.022633e-001 -3.009275e-001 2.306944e-005 3.493983e-005 1.020820e+000 -1.222878e-001
339045000 -9.301533e-005 -1.516180e-004 8.860931e-001 -3.304694e-001 3.337522e-005 -7.107409e-005 1.020406e+000 -1.226234e-001
339330000 5.392295e-006 -8.542782e-005 8.688542e-001 -3.581772e-001 1.470895e-006 8.379737e-005 1.020305e+000 -1.205222e-001
339615000 7.048522e-006 2.754374e-005 8.509661e-001 -3.846459e-001 -3.096332e-005 -2.254731e-005 1.021361e+000 -1.229226e-001
339900000 6.011893e-005 -2.590575e-006 8.327448e-001 -4.109232e-001 -5.250869e-005 -9.537857e-005 1.020069e+000 -1.227897e-001
340185000 1.027088e-004 -7.860063e-005 8.131182e-001 -4.351891e-001 1.396270e-006 -1.599104e-004 1.020170e+000 -1.238220e-001
340470000 -1.392144e-006 3.117857e-006 7.933224e-001 -4.591687e-001 -5.985632e-006 2.733653e-007 1.020361e+000 -1.220503e-001
340755000 -1.035988e-004 5.572132e-005 7.727399e-001 -4.813511e-001 -9.981904e-006 -4.146019e-005 1.020632e+000 -1.236866e-001
341040000 -4.654576e-005 6.582018e-005 7.522653e-001 -5.028585e-001 5.427885e-005 8.838376e-006 1.021090e+000 -1.235288e-001
341325000 -1.628445e-005 6.529133e-005 7.315539e-001 -5.236253e-001 3.105060e-005 2.888524e-005 1.021253e+000 -1.223367e-001
341610000 8.528175e-005 -5.911217e-005 7.104310e-001 -5.430293e-001 5.046437e-005 -2.151324e-005 1.022244e+000 -1.213020e-001
341895000 -8.348946e-006 7.542946e-006 6.881743e-001 -5.615380e-001 -2.726072e-005 1.247492e-005 1.020177e+000 -1.231358e-001
342180000 1.605275e-005 9.691190e-005 6.660380e-001 -5.790291e-001 -4.647736e-005 2.118180e-005 1.020708e+000 -1.248835e-001
342465000 3.902471e-007 2.893135e-005 6.443641e-001 -5.961083e-001 -1.101321e-005 3.209981e-005 1.020104e+000 -1.238853e-001
342750000 -5.871204e-005 5.038904e-005 6.217871e-001 -6.113569e-001 5.285565e-005 5.252397e-005 1.022086e+000 -1.241777e-001
343035000 -1.255926e-005 4.722578e-005 5.998625e-001 -6.258839e-001 1.019894e-004 -6.692243e-005 1.019659e+000 -1.254806e-001
343320000 -3.964700e-005 3.924969e-005 5.772792e-001 -6.403997e-001 6.276624e-005 -1.741142e-005 1.020617e+000 -1.238426e-001
343605000 1.131250e-004 4.579675e-005 5.548385e-001 -6.537579e-001 3.272356e-005 6.112012e-005 1.020728e+000 -1.251068e-001
343890000 4.447331e-005 1.396327e-005 5.321040e-001 -6.664376e-001 -1.124752e-004 6.789683e-006 1.019946e+000 -1.250557e-001
