!Agilent Technologies,N5230C,SG49000117,A.08.50.07
!Agilent N5230C: A.08.50.07
!Date: Monday, March 18, 2024 18:00:50
!Correction: S11(Off) 
!S21(Off) 
!S12(Off) 
!S22(Full 1 Port(2)) 
!S2P File: Measurements: S11, S21, S12, S22:
# Hz S  RI   R 50
300000000 -1.102452e-005 -9.177103e-005 -6.097407e-001 -6.645895e-001 -5.172159e-005 4.825200e-005 1.015966e+000 -1.200936e-001
300285000 8.501265e-006 2.846207e-005 -6.253868e-001 -6.415236e-001 3.536951e-006 1.877573e-005 1.015224e+000 -1.203173e-001
300570000 4.449459e-006 5.554190e-005 -6.407015e-001 -6.185291e-001 1.438747e-005 1.624675e-005 1.015191e+000 -1.205164e-001
300855000 3.455867e-005 -7.621235e-005 -6.550206e-001 -5.946311e-001 -1.294171e-004 8.157240e-005 1.017595e+000 -1.208130e-001
301140000 -2.002676e-005 9.046280e-005 -6.686283e-001 -5.718051e-001 -6.749109e-005 2.054802e-005 1.015702e+000 -1.215630e-001
301425000 3.850423e-005 6.814320e-005 -6.808746e-001 -5.484118e-001 -1.173676e-004 1.479783e-005 1.017403e+000 -1.215899e-001
301710000 4.314572e-005 -5.911487e-006 -6.928347e-001 -5.243368e-001 2.224838e-005 3.453837e-005 1.016488e+000 -1.221208e-001
301995000 1.266149e-005 8.165918e-005 -7.036624e-001 -5.008010e-001 4.922904e-005 -6.109654e-006 1.015539e+000 -1.207799e-001
302280000 -3.123120e-005 -1.488613e-005 -7.137811e-001 -4.774764e-001 -2.839188e-005 -2.848928e-005 1.016816e+000 -1.215740e-001
302565000 -4.827994e-005 4.128047e-005 -7.230783e-001 -4.537099e-001 5.537380e-005 2.460492e-005 1.017094e+000 -1.221232e-001
302850000 2.796602e-005 -9.988638e-005 -7.312887e-001 -4.310136e-001 -8.402987e-007 -6.479097e-005 1.015432e+000 -1.207762e-001
303135000 -5.307793e-005 -3.109665e-006 -7.399283e-001 -4.074779e-001 -3.833624e-005 -5.626315e-005 1.016651e+000 -1.218475e-001
303420000 5.713275e-005 2.075953e-005 -7.465935e-001 -3.842486e-001 -5.497466e-005 1.133635e-005 1.016482e+000 -1.229907e-001
303705000 -5.889471e-006 2.196993e-005 -7.536122e-001 -3.616296e-001 -1.032059e-004 -1.165485e-004 1.017779e+000 -1.216356e-001
303990000 1.654644e-005 2.917705e-005 -7.589458e-001 -3.383185e-001 -6.425532e-005 -4.373894e-005 1.015931e+000 -1.223265e-001
304275000 5.578850e-005 -1.649913e-004 -7.647914e-001 -3.154569e-001 -4.482286e-005 -9.415367e-005 1.016628e+000 -1.225659e-001
304560000 7.287329e-005 -3.952706e-005 -7.695081e-001 -2.928894e-001 1.744892e-006 -1.056990e-004 1.017268e+000 -1.221348e-001
304845000 2.250557e-005 6.055967e-005 -7.738901e-001 -2.704823e-001 8.954269e-005 -3.156543e-005 1.014609e+000 -1.212811e-001
305130000 1.418697e-004 -1.262998e-005 -7.776109e-001 -2.484723e-001 4.749222e-005 -9.219618e-005 1.014695e+000 -1.213125e-001
305415000 -1.776673e-005 -2.341105e-005 -7.804425e-001 -2.265925e-001 4.626086e-006 7.392973e-005 1.015802e+000 -1.230957e-001
305700000 1.091885e-005 3.946709e-005 -7.831439e-001 -2.037344e-001 -7.435771e-005 5.281672e-005 1.017060e+000 -1.231627e-001
305985000 -4.759010e-005 -5.859173e-005 -7.853521e-001 -1.825777e-001 -4.891499e-005 5.106597e-005 1.016471e+000 -1.223136e-001
306270000 -6.871808e-005 4.935327e-005 -7.865919e-001 -1.604861e-001 1.577613e-005 -1.165375e-004 1.017437e+000 -1.208742e-001
306555000 2.345880e-005 2.756788e-005 -7.878710e-001 -1.383075e-001 1.058133e-005 5.323257e-005 1.017384e+000 -1.242136e-001
306840000 3.140053e-005 8.839426e-005 -7.886961e-001 -1.176965e-001 -1.226459e-004 1.932741e-005 1.015976e+000 -1.229224e-001
307125000 -1.198672e-004 7.686867e-005 -7.883305e-001 -9.593549e-002 -1.077734e-004 3.275385e-005 1.016531e+000 -1.247791e-001
307410000 4.880339e-005 -2.646701e-005 -7.885641e-001 -7.451283e-002 -2.820838e-005 -5.260725e-006 1.017093e+000 -1.232084e-001
307695000 1.559135e-006 -5.399253e-006 -7.878624e-001 -5.369537e-002 -3.083343e-005 -4.544929e-005 1.017352e+000 -1.238611e-001
307980000 -7.201369e-005 -7.166664e-005 -7.871003e-001 -3.276675e-002 -7.077408e-005 -5.143882e-005 1.014037e+000 -1.240914e-001
308265000 -7.169900e-005 -2.357865e-005 -7.856556e-001 -1.207087e-002 -9.142305e-005 -1.299321e-004 1.015830e+000 -1.236231e-001
308550000 3.266906e-005 3.275835e-005 -7.837836e-001 8.397147e-003 5.267966e-005 -9.295285e-005 1.015397e+000 -1.245047e-001
308835000 6.721640e-006 -7.101318e-005 -7.817429e-001 2.876449e-002 1.373145e-004 2.430749e-006 1.016651e+000 -1.239844e-001
309120000 -4.018408e-005 5.896564e-005 -7.792593e-001 4.891457e-002 6.381420e-005 -4.256165e-005 1.015047e+000 -1.256890e-001
309405000 1.872341e-005 -6.929310e-006 -7.759221e-001 6.942322e-002 -2.362565e-005 -2.447902e-005 1.019187e+000 -1.247690e-001
309690000 9.233412e-005 -6.617302e-005 -7.728716e-001 8.935065e-002 4.459487e-005 2.764757e-005 1.017058e+000 -1.253341e-001
309975000 1.457202e-005 -3.637208e-005 -7.691675e-001 1.092527e-001 -1.837550e-006 4.875021e-005 1.016194e+000 -1.238713e-001
310260000 -5.587744e-007 8.121152e-005 -7.650698e-001 1.289410e-001 -2.619544e-005 -1.704417e-005 1.018042e+000 -1.238150e-001
310545000 9.411347e-005 -1.195090e-004 -7.609900e-001 1.487505e-001 -4.379916e-006 5.810020e-005 1.017719e+000 -1.260487e-001
310830000 1.971521e-005 8.162195e-005 -7.562442e-001 1.685796e-001 -1.681083e-006 -7.310626e-005 1.016919e+000 -1.251990e-001
311115000 9.009853e-005 2.820254e-005 -7.513554e-001 1.882534e-001 -2.247826e-005 8.485762e-005 1.018421e+000 -1.249128e-001
311400000 3.061637e-005 -7.087278e-005 -7.461557e-001 2.067931e-001 -2.507244e-005 8.193523e-005 1.016653e+000 -1.270703e-001
311685000 -1.032866e-005 5.161892e-005 -7.397187e-001 2.271011e-001 -7.462758e-005 1.909868e-005 1.017174e+000 -1.248280e-001
311970000 -7.869547e-005 1.909259e-005 -7.335801e-001 2.459377e-001 -4.236876e-005 -7.883574e-005 1.015665e+000 -1.251014e-001
312255000 -1.766197e-005 2.496295e-005 -7.271243e-001 2.652517e-001 -2.328982e-005 7.959006e-005 1.017016e+000 -1.263858e-001
312540000 6.074170e-005 -5.631400e-005 -7.205692e-001 2.842267e-001 -6.106077e-005 -7.016050e-005 1.016956e+000 -1.270651e-001
312825000 5.097918e-005 -1.051287e-004 -7.131925e-001 3.027017e-001 1.399313e-005 -1.335907e-005 1.016896e+000 -1.269064e-001
313110000 8.485631e-005 -8.636370e-005 -7.052372e-001 3.218594e-001 5.623234e-005 6.715505e-006 1.016430e+000 -1.274636e-001
313395000 5.731168e-005 -3.805839e-005 -6.977778e-001 3.406030e-001 6.555390e-005 -9.584659e-005 1.017535e+000 -1.256569e-001
313680000 2.767070e-005 3.080162e-005 -6.894571e-001 3.592589e-001 9.271912e-005 -1.124013e-004 1.017220e+000 -1.260813e-001
313965000 6.829582e-005 -2.422943e-005 -6.804081e-001 3.777312e-001 -7.839298e-005 -1.097745e-005 1.017782e+000 -1.264135e-001
314250000 7.640944e-005 2.573412e-005 -6.715408e-001 3.967397e-001 -1.947007e-005 1.042115e-004 1.014751e+000 -1.254680e-001
314535000 6.465088e-005 3.265121e-005 -6.619155e-001 4.146500e-001 -1.290261e-005 -5.533225e-005 1.017361e+000 -1.270171e-001
314820000 -7.782642e-006 2.922826e-005 -6.523004e-001 4.327461e-001 -7.924480e-006 6.881391e-005 1.017040e+000 -1.286452e-001
315105000 6.989240e-005 -8.146020e-005 -6.418689e-001 4.516081e-001 1.748837e-005 -6.330914e-006 1.014217e+000 -1.287043e-001
315390000 -4.999039e-005 1.367110e-004 -6.306922e-001 4.699643e-001 -6.654059e-005 1.329107e-004 1.016671e+000 -1.271256e-001
315675000 -5.748768e-005 9.671956e-005 -6.196964e-001 4.874392e-001 -8.938746e-005 -1.309049e-005 1.015934e+000 -1.254090e-001
315960000 -1.723593e-005 -7.205884e-005 -6.078242e-001 5.056822e-001 -5.709661e-005 -4.161736e-005 1.016755e+000 -1.273326e-001
316245000 -7.533318e-005 -3.020504e-005 -5.957688e-001 5.232202e-001 1.163596e-004 -4.904057e-005 1.015396e+000 -1.268664e-001
316530000 -5.179108e-005 -1.106942e-004 -5.834140e-001 5.414239e-001 -7.732233e-005 -1.391959e-004 1.017296e+000 -1.275679e-001
316815000 -2.251992e-005 4.820408e-005 -5.704921e-001 5.590736e-001 2.678326e-005 -5.268215e-005 1.016098e+000 -1.277188e-001
317100000 -4.634437e-005 -7.252641e-005 -5.562959e-001 5.770857e-001 7.068267e-005 -9.751809e-005 1.016563e+000 -1.277522e-001
317385000 -4.400596e-005 -5.601423e-005 -5.423715e-001 5.941513e-001 -2.952766e-006 2.642008e-006 1.017596e+000 -1.255899e-001
317670000 -9.481140e-007 6.731478e-005 -5.276449e-001 6.112714e-001 4.386085e-005 -2.332169e-005 1.017757e+000 -1.272419e-001
317955000 1.573485e-005 9.212296e-005 -5.127240e-001 6.284071e-001 1.116385e-004 5.151558e-005 1.018085e+000 -1.276490e-001
318240000 6.757498e-005 5.333007e-005 -4.968297e-001 6.457108e-001 1.043611e-004 1.580022e-004 1.016900e+000 -1.285815e-001
318525000 1.534189e-004 1.142591e-004 -4.801584e-001 6.619905e-001 -4.920911e-006 5.341994e-005 1.016589e+000 -1.274947e-001
318810000 -6.475017e-005 -6.122267e-005 -4.631927e-001 6.794375e-001 -7.826176e-005 -6.232203e-005 1.017987e+000 -1.275472e-001
319095000 -3.334836e-005 5.999967e-005 -4.456083e-001 6.957536e-001 -2.741857e-005 1.196158e-004 1.016187e+000 -1.260596e-001
319380000 -5.300143e-005 -6.432466e-005 -4.273516e-001 7.114030e-001 -3.335892e-005 3.788518e-007 1.016753e+000 -1.307072e-001
319665000 4.153497e-005 -4.894260e-005 -4.088455e-001 7.274145e-001 -9.363607e-005 -6.524947e-005 1.018668e+000 -1.282755e-001
319950000 -2.378581e-005 2.538107e-006 -3.897338e-001 7.428125e-001 -6.472041e-005 -2.289622e-005 1.016147e+000 -1.300396e-001
320235000 2.501758e-005 -4.299101e-005 -3.693733e-001 7.579216e-001 -7.140670e-005 6.276074e-006 1.017384e+000 -1.299218e-001
320520000 -9.842002e-006 -1.092699e-004 -3.486569e-001 7.730910e-001 -1.231919e-004 -1.097181e-005 1.016784e+000 -1.285746e-001
320805000 -1.909287e-005 -5.662720e-005 -3.267971e-001 7.875706e-001 1.542293e-005 7.056989e-005 1.015987e+000 -1.289441e-001
321090000 8.932668e-005 4.682741e-005 -3.045328e-001 8.017300e-001 -9.335594e-005 6.208164e-005 1.015426e+000 -1.275703e-001
321375000 1.369509e-005 -1.227413e-004 -2.818933e-001 8.156402e-001 1.111202e-004 2.640574e-005 1.016776e+000 -1.284716e-001
321660000 -2.131210e-006 -4.033014e-005 -2.583443e-001 8.288183e-001 4.123232e-005 -4.317973e-005 1.017775e+000 -1.300592e-001
321945000 6.813998e-005 1.981198e-006 -2.335224e-001 8.412854e-001 3.897343e-005 -2.649208e-005 1.015816e+000 -1.311067e-001
322230000 7.768197e-005 -4.703768e-005 -2.085966e-001 8.538538e-001 2.663184e-005 -9.191922e-005 1.016786e+000 -1.305248e-001
322515000 2.420656e-005 5.618013e-005 -1.819775e-001 8.648357e-001 -1.166900e-005 2.144454e-005 1.015349e+000 -1.315486e-001
322800000 5.203954e-005 7.107155e-005 -1.557455e-001 8.758292e-001 9.666917e-005 1.916557e-005 1.017694e+000 -1.299349e-001
323085000 -2.377950e-005 -9.196958e-006 -1.282040e-001 8.861497e-001 -1.770863e-005 -8.930401e-005 1.017432e+000 -1.305181e-001
323370000 1.615768e-006 8.073605e-005 -9.990974e-002 8.955408e-001 -6.353577e-006 -2.922676e-005 1.016890e+000 -1.300056e-001
323655000 -4.294180e-007 8.329623e-005 -7.124466e-002 9.046242e-001 1.017317e-004 4.296243e-005 1.016534e+000 -1.315248e-001
323940000 -3.283441e-005 1.194715e-004 -4.173305e-002 9.118307e-001 6.065883e-005 8.862925e-005 1.016536e+000 -1.324107e-001
324225000 2.333033e-005 2.227430e-005 -1.164914e-002 9.189512e-001 2.290594e-005 4.918145e-005 1.014690e+000 -1.304126e-001
324510000 -2.280145e-005 2.974578e-005 2.020110e-002 9.242067e-001 -1.299593e-005 4.057800e-005 1.018012e+000 -1.321547e-001
324795000 1.027938e-004 -4.925083e-005 5.176460e-002 9.289281e-001 1.538574e-005 5.529574e-005 1.015979e+000 -1.319326e-001
325080000 -1.666847e-004 -1.833320e-005 8.444963e-002 9.331490e-001 4.038543e-005 3.526150e-005 1.016355e+000 -1.314324e-001
325365000 8.395557e-006 -4.190177e-005 1.170163e-001 9.352266e-001 -5.095675e-005 -2.781131e-005 1.018214e+000 -1.314972e-001
325650000 1.995863e-005 -8.977768e-006 1.504337e-001 9.364223e-001 -5.780704e-005 -1.241273e-005 1.017194e+000 -1.303194e-001
325935000 1.655715e-005 -9.244944e-005 1.844235e-001 9.362776e-001 6.314608e-005 2.554839e-005 1.017108e+000 -1.321045e-001
326220000 -4.105977e-005 5.887345e-005 2.191205e-001 9.341629e-001 3.235625e-005 3.976253e-005 1.017915e+000 -1.324148e-001
326505000 1.119906e-004 -6.133783e-006 2.538176e-001 9.312907e-001 -9.949719e-006 2.942049e-005 1.016787e+000 -1.326907e-001
326790000 -5.509871e-005 5.696603e-005 2.891982e-001 9.265538e-001 1.403448e-005 4.014490e-005 1.016321e+000 -1.328275e-001
327075000 4.732512e-005 3.924347e-005 3.250040e-001 9.207222e-001 -5.887966e-005 -4.323154e-005 1.016643e+000 -1.322326e-001
327360000 5.065711e-005 4.794011e-005 3.603052e-001 9.130558e-001 -1.578730e-006 6.317114e-005 1.018524e+000 -1.334488e-001
327645000 -3.955231e-005 7.320352e-005 3.957433e-001 9.038764e-001 -2.209280e-005 1.597876e-005 1.017485e+000 -1.321009e-001
327930000 -7.547397e-005 1.010619e-006 4.320253e-001 8.928610e-001 9.621617e-005 8.322383e-005 1.016256e+000 -1.325074e-001
328215000 4.833102e-005 -2.373186e-005 4.670359e-001 8.801453e-001 6.371798e-006 -9.218021e-005 1.016884e+000 -1.329741e-001
328500000 7.296519e-005 4.093321e-005 5.025287e-001 8.655794e-001 -8.752965e-005 -1.046855e-004 1.015569e+000 -1.336375e-001
328785000 8.104870e-005 6.250603e-006 5.374882e-001 8.500946e-001 9.128963e-005 -6.699357e-005 1.015468e+000 -1.331839e-001
329070000 5.096395e-005 -4.905067e-005 5.713668e-001 8.316332e-001 1.080157e-004 -3.476383e-005 1.016802e+000 -1.334538e-001
329355000 -7.501020e-005 3.821126e-005 6.053413e-001 8.121207e-001 9.228851e-005 -5.029513e-005 1.015891e+000 -1.331984e-001
329640000 3.279072e-005 -5.059388e-008 6.389613e-001 7.909778e-001 -2.012761e-005 1.198028e-005 1.016700e+000 -1.336259e-001
329925000 -7.958310e-005 -1.336815e-005 6.709511e-001 7.674715e-001 1.733479e-004 -1.072197e-004 1.016424e+000 -1.335294e-001
330210000 -1.763386e-005 -3.763368e-005 7.023004e-001 7.430312e-001 5.493364e-005 7.680468e-005 1.015544e+000 -1.336047e-001
330495000 -5.485124e-005 -4.588745e-005 7.329394e-001 7.166183e-001 6.502592e-005 1.189210e-005 1.014607e+000 -1.332927e-001
330780000 -6.315565e-005 5.642601e-005 7.618852e-001 6.884865e-001 -5.431959e-005 8.493358e-006 1.016401e+000 -1.352886e-001
331065000 1.460987e-004 1.904803e-005 7.896124e-001 6.595090e-001 4.399621e-005 1.002408e-005 1.015619e+000 -1.344738e-001
331350000 1.883926e-005 -7.536486e-005 8.162279e-001 6.283975e-001 1.686062e-005 5.016836e-005 1.016155e+000 -1.344563e-001
331635000 -4.384439e-008 3.664967e-005 8.416570e-001 5.956590e-001 -3.214595e-005 -2.025071e-005 1.016766e+000 -1.341227e-001
331920000 1.604446e-005 1.282535e-005 8.651118e-001 5.623660e-001 -5.773323e-005 2.228127e-005 1.016089e+000 -1.339487e-001
332205000 1.660046e-004 4.528829e-006 8.864487e-001 5.278562e-001 4.292208e-006 -5.029829e-005 1.016514e+000 -1.357515e-001
332490000 4.380709e-005 -1.409787e-005 9.070847e-001 4.922372e-001 -5.522141e-005 2.422844e-005 1.015730e+000 -1.342458e-001
332775000 5.893155e-006 -4.076451e-005 9.255837e-001 4.552808e-001 -4.395782e-005 -8.139270e-005 1.015276e+000 -1.349651e-001
333060000 9.231456e-006 9.507781e-005 9.416149e-001 4.178554e-001 -6.389424e-005 -3.851784e-005 1.016225e+000 -1.347289e-001
333345000 -3.660635e-005 -3.243882e-005 9.556056e-001 3.800980e-001 -2.609608e-005 -8.604093e-005 1.017459e+000 -1.340270e-001
333630000 -3.294989e-005 1.077470e-005 9.683554e-001 3.414930e-001 -5.476001e-005 -1.049926e-004 1.016554e+000 -1.362368e-001
333915000 9.074147e-005 -2.919259e-005 9.792002e-001 3.031898e-001 7.759528e-005 -1.895597e-005 1.014762e+000 -1.357417e-001
334200000 -1.093675e-007 -8.389249e-006 9.875009e-001 2.643983e-001 -5.492512e-005 8.237047e-005 1.015859e+000 -1.370555e-001
334485000 -5.352607e-005 -9.692887e-005 9.946765e-001 2.241358e-001 -4.381282e-005 -1.266395e-004 1.015796e+000 -1.349566e-001
334770000 -3.432564e-005 -5.544048e-005 9.999617e-001 1.856751e-001 2.607055e-006 5.609627e-005 1.016189e+000 -1.359171e-001
335055000 -3.176309e-005 -4.734702e-005 1.003268e+000 1.467712e-001 2.267283e-006 2.974562e-005 1.015999e+000 -1.367328e-001
335340000 4.358845e-005 -5.030468e-005 1.004350e+000 1.076252e-001 -4.026407e-005 -4.233430e-005 1.016892e+000 -1.365186e-001
335625000 -3.869938e-005 -6.180498e-005 1.003308e+000 6.873266e-002 3.788200e-005 -7.873351e-007 1.016944e+000 -1.372439e-001
335910000 5.355560e-005 4.106139e-006 1.000875e+000 3.119836e-002 3.396724e-005 2.394513e-005 1.016385e+000 -1.365401e-001
336195000 -3.308335e-005 5.920110e-005 9.971841e-001 -6.412696e-003 3.878575e-005 -1.166781e-006 1.015656e+000 -1.359972e-001
336480000 1.991891e-005 -7.551367e-005 9.912838e-001 -4.314005e-002 -4.963975e-005 -2.118430e-005 1.016956e+000 -1.357471e-001
336765000 -2.264948e-005 2.670050e-005 9.843011e-001 -7.903960e-002 1.775219e-005 -6.550596e-005 1.016441e+000 -1.363345e-001
337050000 -7.401793e-005 9.450021e-005 9.758888e-001 -1.143013e-001 -4.327403e-005 -1.578536e-005 1.016770e+000 -1.378638e-001
337335000 2.177109e-005 2.569149e-005 9.651265e-001 -1.486207e-001 4.103823e-005 2.861719e-005 1.016080e+000 -1.391888e-001
337620000 4.028156e-005 1.619663e-005 9.543114e-001 -1.826799e-001 -4.673029e-005 6.200157e-005 1.015890e+000 -1.382439e-001
337905000 -1.442583e-005 -1.332034e-005 9.416496e-001 -2.157601e-001 -1.522348e-004 7.762813e-005 1.015176e+000 -1.371602e-001
338190000 8.079554e-005 4.510105e-005 9.283201e-001 -2.473785e-001 7.019974e-005 1.167459e-006 1.015314e+000 -1.388610e-001
338475000 4.727383e-006 -3.900352e-005 9.137946e-001 -2.771817e-001 -4.877476e-005 -6.951114e-006 1.017284e+000 -1.367325e-001
338760000 -2.144332e-006 3.680361e-006 8.980477e-001 -3.084216e-001 -1.296036e-004 1.004214e-006 1.016753e+000 -1.368313e-001
339045000 -8.766611e-006 6.541258e-006 8.812485e-001 -3.360765e-001 1.387097e-005 8.880510e-005 1.016615e+000 -1.369002e-001
339330000 -5.709567e-005 -9.426994e-005 8.640950e-001 -3.645466e-001 -2.380687e-005 2.659333e-005 1.017645e+000 -1.361294e-001
339615000 -2.880092e-005 9.093268e-005 8.461213e-001 -3.907852e-001 -6.020462e-005 1.072573e-004 1.016001e+000 -1.376620e-001
339900000 5.722295e-005 4.032599e-006 8.273367e-001 -4.156551e-001 6.283388e-005 6.095261e-005 1.015330e+000 -1.387866e-001
340185000 -2.886851e-005 3.601271e-005 8.082433e-001 -4.406936e-001 -1.398656e-004 -1.013383e-004 1.016869e+000 -1.385607e-001
340470000 6.577215e-007 2.874182e-005 7.875538e-001 -4.634303e-001 -5.081237e-005 -9.839946e-005 1.016528e+000 -1.367353e-001
340755000 -4.173860e-005 -3.735929e-005 7.676123e-001 -4.864644e-001 1.539935e-005 -7.526611e-005 1.016540e+000 -1.392584e-001
341040000 2.064668e-004 -1.175084e-005 7.471461e-001 -5.073803e-001 -3.664083e-005 -9.757212e-005 1.015316e+000 -1.382904e-001
341325000 -8.850996e-006 1.595995e-006 7.255875e-001 -5.280803e-001 7.227758e-006 -8.406061e-005 1.017021e+000 -1.366981e-001
341610000 3.982710e-006 6.565001e-005 7.040494e-001 -5.465093e-001 1.167387e-004 -3.218028e-005 1.016432e+000 -1.376411e-001
341895000 -3.074461e-005 5.698437e-005 6.830881e-001 -5.662269e-001 -1.920400e-004 2.117883e-005 1.015650e+000 -1.395087e-001
342180000 -2.045981e-005 -3.745074e-005 6.609256e-001 -5.827371e-001 3.249490e-005 6.966930e-006 1.016882e+000 -1.394779e-001
342465000 -3.763934e-005 2.047178e-005 6.380225e-001 -5.995923e-001 5.558036e-005 5.518996e-005 1.017225e+000 -1.383132e-001
342750000 -4.860977e-005 -1.663795e-004 6.168059e-001 -6.147726e-001 3.298993e-005 8.096901e-005 1.017283e+000 -1.375743e-001
343035000 9.536836e-006 3.913060e-006 5.936790e-001 -6.299461e-001 3.750907e-005 3.950946e-005 1.016264e+000 -1.394150e-001
343320000 1.873837e-005 -6.941265e-005 5.713603e-001 -6.437117e-001 -3.727313e-005 -1.146721e-004 1.016146e+000 -1.405770e-001
343605000 -1.747236e-005 4.286037e-006 5.491417e-001 -6.566454e-001 -7.113806e-005 1.088935e-004 1.015859e+000 -1.409690e-001
343890000 8.114218e-006 2.592835e-006 5.262800e-001 -6.689497e-001 1.280994e-005 7.905743e-005 1.016199e+000 -1.394835e-001
