!Agilent Technologies,N5230C,SG49000117,A.08.50.07
!Agilent N5230C: A.08.50.07
!Date: Monday, March 18, 2024 18:02:19
!Correction: S11(Off) 
!S21(Off) 
!S12(Off) 
!S22(Full 1 Port(2)) 
!S2P File: Measurements: S11, S21, S12, S22:
# Hz S  RI   R 50
300000000 6.039384e-005 6.882761e-005 -6.164056e-001 -6.566521e-001 -1.520664e-005 1.237257e-005 1.013224e+000 -1.445140e-001
300285000 1.243676e-004 -4.271746e-005 -6.317599e-001 -6.340900e-001 1.328886e-005 -6.070656e-005 1.012913e+000 -1.435489e-001
300570000 -1.326740e-004 8.782938e-005 -6.472304e-001 -6.103534e-001 -1.684572e-005 -1.203489e-005 1.013322e+000 -1.451891e-001
300855000 1.800175e-005 1.169640e-004 -6.606834e-001 -5.867625e-001 -3.777216e-005 2.025590e-005 1.013316e+000 -1.442769e-001
301140000 -4.771148e-005 -4.195787e-006 -6.741506e-001 -5.631908e-001 1.655402e-005 -3.539765e-005 1.011784e+000 -1.459527e-001
301425000 2.292573e-005 2.672549e-005 -6.857105e-001 -5.398373e-001 1.202866e-004 2.499602e-005 1.015133e+000 -1.442225e-001
301710000 5.339898e-005 -4.751284e-005 -6.972496e-001 -5.163791e-001 5.588104e-005 9.342992e-005 1.015149e+000 -1.462885e-001
301995000 -5.645054e-006 -2.527738e-005 -7.079114e-001 -4.922483e-001 -7.569830e-005 7.802041e-005 1.011837e+000 -1.442272e-001
302280000 6.628424e-005 -8.104244e-006 -7.182030e-001 -4.691724e-001 -8.301884e-005 5.689298e-005 1.014304e+000 -1.460086e-001
302565000 -2.978549e-005 -5.317967e-005 -7.268975e-001 -4.460981e-001 3.876027e-005 9.374099e-006 1.014228e+000 -1.458491e-001
302850000 2.793491e-005 -3.106283e-005 -7.353119e-001 -4.227408e-001 7.491738e-005 -1.438752e-005 1.013982e+000 -1.448664e-001
303135000 2.399425e-005 1.028532e-006 -7.432676e-001 -3.992850e-001 -6.777100e-005 4.855196e-005 1.013019e+000 -1.447576e-001
303420000 -2.109940e-005 5.810584e-005 -7.500897e-001 -3.761705e-001 3.790958e-005 -3.393333e-006 1.013194e+000 -1.465787e-001
303705000 -1.260868e-005 2.014613e-005 -7.560502e-001 -3.529287e-001 -2.838451e-005 -8.796565e-006 1.016536e+000 -1.468237e-001
303990000 1.125076e-004 2.838993e-005 -7.618824e-001 -3.299151e-001 2.046364e-006 4.329424e-006 1.013296e+000 -1.458574e-001
304275000 -3.011740e-006 -4.126296e-005 -7.671962e-001 -3.075400e-001 -9.006229e-005 -6.492422e-006 1.013669e+000 -1.462649e-001
304560000 1.258755e-005 8.846440e-005 -7.716882e-001 -2.844267e-001 -1.097432e-004 -9.547303e-005 1.014899e+000 -1.469862e-001
304845000 -3.597356e-005 8.021900e-005 -7.757153e-001 -2.625442e-001 -4.798955e-006 -3.925462e-005 1.013531e+000 -1.470763e-001
305130000 -1.159522e-004 -1.216797e-004 -7.788242e-001 -2.399170e-001 8.122955e-005 4.146522e-005 1.012874e+000 -1.462032e-001
305415000 -3.538417e-005 -7.369140e-006 -7.817023e-001 -2.177377e-001 1.132788e-004 -4.013588e-005 1.013846e+000 -1.470587e-001
305700000 -5.344310e-006 -3.077100e-005 -7.843595e-001 -1.957022e-001 -5.528528e-005 1.794251e-005 1.014892e+000 -1.455976e-001
305985000 -3.627493e-005 -2.078543e-005 -7.863814e-001 -1.738481e-001 -2.746157e-005 3.384193e-005 1.013495e+000 -1.474877e-001
306270000 -2.024410e-005 1.319660e-005 -7.874444e-001 -1.523485e-001 -1.000648e-004 6.879000e-005 1.014685e+000 -1.460399e-001
306555000 2.375671e-005 3.508299e-005 -7.891895e-001 -1.309183e-001 4.486757e-005 1.849592e-005 1.014678e+000 -1.469008e-001
306840000 -2.976444e-005 6.173678e-005 -7.893130e-001 -1.090854e-001 1.009512e-004 -7.049933e-005 1.013967e+000 -1.459056e-001
307125000 9.703310e-005 -9.836068e-005 -7.892388e-001 -8.799340e-002 9.239151e-005 4.868498e-005 1.013343e+000 -1.478227e-001
307410000 1.016062e-004 -2.320206e-005 -7.888027e-001 -6.634945e-002 3.373634e-005 -4.084102e-005 1.013822e+000 -1.484619e-001
307695000 -5.134906e-005 7.701120e-005 -7.879248e-001 -4.579325e-002 1.630159e-004 -2.122263e-005 1.013857e+000 -1.496679e-001
307980000 1.962903e-005 -4.147402e-005 -7.868852e-001 -2.515412e-002 3.022857e-006 -1.379393e-005 1.012302e+000 -1.489791e-001
308265000 8.757888e-005 8.157588e-005 -7.857448e-001 -4.024223e-003 1.183240e-005 -2.126336e-005 1.013659e+000 -1.490256e-001
308550000 -6.474575e-005 -1.361777e-005 -7.835745e-001 1.657940e-002 8.084928e-005 -5.720095e-005 1.012483e+000 -1.480722e-001
308835000 9.959016e-005 9.243914e-005 -7.809918e-001 3.696428e-002 1.371031e-004 6.275447e-006 1.013335e+000 -1.490609e-001
309120000 1.555898e-005 1.957455e-004 -7.784349e-001 5.729742e-002 6.031337e-005 -2.656117e-005 1.015271e+000 -1.489553e-001
309405000 2.512555e-005 8.730019e-005 -7.754989e-001 7.730144e-002 5.799605e-005 7.926251e-006 1.016187e+000 -1.482620e-001
309690000 -8.304095e-005 1.254426e-004 -7.717869e-001 9.698250e-002 6.156427e-005 4.396697e-006 1.015323e+000 -1.490174e-001
309975000 -6.948319e-005 -3.364590e-007 -7.677243e-001 1.171449e-001 -6.688335e-005 -6.204398e-005 1.014143e+000 -1.486398e-001
310260000 1.425466e-005 9.043579e-005 -7.640891e-001 1.369691e-001 -4.155807e-005 3.711567e-005 1.017284e+000 -1.496348e-001
310545000 -2.344955e-005 -4.106656e-005 -7.595677e-001 1.567753e-001 -4.241596e-005 1.113586e-005 1.013864e+000 -1.495375e-001
310830000 2.700534e-005 -4.454460e-005 -7.543978e-001 1.764365e-001 1.213924e-004 2.586695e-005 1.015149e+000 -1.512389e-001
311115000 3.284328e-005 -5.144036e-005 -7.491242e-001 1.959270e-001 -4.895716e-005 -2.458469e-005 1.014119e+000 -1.505258e-001
311400000 -2.816952e-005 5.954248e-005 -7.435071e-001 2.150701e-001 2.644244e-005 2.922176e-005 1.014838e+000 -1.503032e-001
311685000 -2.272617e-005 -1.534966e-004 -7.379250e-001 2.345573e-001 -5.515854e-005 2.649092e-005 1.013958e+000 -1.501026e-001
311970000 5.206950e-005 -7.848988e-005 -7.315168e-001 2.532392e-001 -1.145979e-004 5.458898e-005 1.014235e+000 -1.506300e-001
312255000 3.248990e-005 -4.894472e-005 -7.244954e-001 2.725542e-001 -4.357650e-005 -1.583960e-005 1.015173e+000 -1.526393e-001
312540000 -2.940053e-005 6.014999e-005 -7.178164e-001 2.917351e-001 6.991829e-005 -7.884310e-006 1.013642e+000 -1.499956e-001
312825000 2.004994e-006 -7.022358e-005 -7.099945e-001 3.102169e-001 6.822567e-005 -1.069425e-004 1.014337e+000 -1.508838e-001
313110000 2.431640e-006 3.554115e-005 -7.025878e-001 3.295096e-001 1.352148e-004 5.093705e-005 1.013222e+000 -1.519692e-001
313395000 -5.974533e-005 -2.780720e-005 -6.944018e-001 3.479232e-001 6.301836e-005 -9.212687e-005 1.014849e+000 -1.503256e-001
313680000 4.389898e-005 1.112039e-004 -6.861649e-001 3.663700e-001 -1.021712e-005 5.734282e-005 1.014753e+000 -1.495005e-001
313965000 9.066684e-005 1.972843e-005 -6.772096e-001 3.855062e-001 -9.885300e-006 -2.988024e-005 1.014552e+000 -1.509961e-001
314250000 1.857487e-005 2.845143e-005 -6.679707e-001 4.038238e-001 -9.079795e-007 -5.731501e-005 1.012080e+000 -1.514904e-001
314535000 6.580820e-005 -2.998281e-005 -6.582004e-001 4.222917e-001 2.518951e-005 6.421628e-005 1.013989e+000 -1.521735e-001
314820000 -5.576048e-005 1.044923e-004 -6.479461e-001 4.399090e-001 1.591278e-005 -1.088651e-004 1.014116e+000 -1.524422e-001
315105000 1.003352e-004 -5.466386e-005 -6.372334e-001 4.588789e-001 3.082544e-005 2.770604e-005 1.011474e+000 -1.531560e-001
315390000 1.741540e-005 9.655934e-006 -6.263968e-001 4.771245e-001 -3.036824e-005 -1.193760e-004 1.015134e+000 -1.519654e-001
315675000 4.887833e-005 8.318336e-005 -6.150973e-001 4.948296e-001 4.539160e-005 -2.604454e-005 1.013131e+000 -1.518725e-001
315960000 -1.174548e-004 -3.065571e-005 -6.026200e-001 5.126934e-001 -6.911348e-005 -3.574896e-006 1.013543e+000 -1.528404e-001
316245000 -4.718699e-005 2.379902e-005 -5.914477e-001 5.302634e-001 -4.868015e-005 -1.174342e-004 1.011834e+000 -1.509142e-001
316530000 -4.019852e-005 3.358602e-005 -5.781031e-001 5.484470e-001 2.998217e-005 -1.008284e-009 1.013855e+000 -1.530202e-001
316815000 -2.842433e-005 -7.980157e-005 -5.646860e-001 5.663959e-001 4.636571e-005 -6.738134e-005 1.012782e+000 -1.529130e-001
317100000 -1.518807e-004 -6.724947e-005 -5.509472e-001 5.834116e-001 1.731055e-006 -5.845052e-005 1.012020e+000 -1.516198e-001
317385000 -7.376005e-005 -2.844958e-005 -5.365310e-001 6.009784e-001 6.035943e-006 7.735412e-006 1.016584e+000 -1.522059e-001
317670000 -4.047709e-005 -3.568768e-005 -5.218390e-001 6.178503e-001 2.360081e-005 1.270331e-004 1.014624e+000 -1.535628e-001
317955000 5.988542e-005 -1.320294e-004 -5.066112e-001 6.352072e-001 -4.444159e-005 -6.248116e-005 1.015763e+000 -1.531461e-001
318240000 -4.759386e-005 -1.251671e-005 -4.900352e-001 6.516898e-001 7.719142e-005 -1.189373e-005 1.014324e+000 -1.537191e-001
318525000 -1.372039e-005 8.780148e-005 -4.734392e-001 6.689029e-001 2.317876e-005 4.277376e-006 1.014748e+000 -1.520827e-001
318810000 -1.931431e-005 3.225724e-005 -4.562324e-001 6.847880e-001 -1.014454e-004 -2.521324e-005 1.012670e+000 -1.536820e-001
319095000 1.542202e-005 -4.268786e-005 -4.381007e-001 7.013726e-001 -7.603823e-005 1.180683e-004 1.012083e+000 -1.519369e-001
319380000 -9.527348e-005 3.455281e-005 -4.201741e-001 7.175105e-001 9.057554e-005 6.843780e-005 1.014186e+000 -1.544690e-001
319665000 7.566727e-005 1.028557e-005 -4.012934e-001 7.328033e-001 2.263367e-005 8.771028e-005 1.015564e+000 -1.535968e-001
319950000 4.544461e-005 9.915575e-005 -3.815403e-001 7.484807e-001 -6.337069e-005 1.016725e-004 1.013767e+000 -1.559845e-001
320235000 9.763661e-005 -7.450631e-005 -3.610853e-001 7.639201e-001 -5.142167e-005 -8.441728e-006 1.014533e+000 -1.546707e-001
320520000 -4.263262e-005 7.707444e-005 -3.399060e-001 7.784320e-001 -2.627631e-005 -7.900676e-005 1.014164e+000 -1.547057e-001
320805000 7.787692e-005 -4.095254e-005 -3.185128e-001 7.932084e-001 3.372476e-005 -1.972546e-005 1.012897e+000 -1.545717e-001
321090000 -2.160205e-005 -9.303907e-005 -2.960568e-001 8.068842e-001 -1.115966e-005 6.156834e-005 1.012805e+000 -1.555849e-001
321375000 -1.228448e-004 -1.187673e-005 -2.724519e-001 8.205200e-001 -6.343718e-005 1.973943e-005 1.012915e+000 -1.551774e-001
321660000 -1.242450e-004 -7.294151e-005 -2.484681e-001 8.334542e-001 -1.272585e-005 7.931539e-006 1.013736e+000 -1.556279e-001
321945000 -4.077677e-005 4.266562e-005 -2.237940e-001 8.457199e-001 3.860953e-005 -1.171109e-005 1.013394e+000 -1.572073e-001
322230000 9.140057e-005 6.973393e-005 -1.987198e-001 8.577837e-001 1.181278e-004 -2.054356e-005 1.013361e+000 -1.555802e-001
322515000 5.315071e-005 1.877578e-005 -1.716934e-001 8.689748e-001 7.906806e-005 -7.528118e-005 1.013243e+000 -1.553163e-001
322800000 4.778352e-005 -1.154041e-004 -1.452181e-001 8.798271e-001 1.630572e-005 4.756117e-005 1.015580e+000 -1.554631e-001
323085000 1.256629e-004 1.636798e-005 -1.173148e-001 8.891333e-001 3.065478e-006 7.815902e-005 1.013898e+000 -1.567202e-001
323370000 -4.571400e-007 1.234792e-004 -8.889217e-002 8.989061e-001 1.117798e-005 4.666096e-005 1.014459e+000 -1.564487e-001
323655000 7.063436e-005 5.098417e-005 -5.996819e-002 9.066229e-001 7.749237e-006 -3.043872e-005 1.013404e+000 -1.575472e-001
323940000 5.304996e-005 2.332294e-005 -2.952162e-002 9.143831e-001 -7.965356e-006 8.079167e-005 1.014020e+000 -1.573075e-001
324225000 5.065727e-006 3.234778e-006 7.731926e-004 9.205015e-001 5.437370e-005 1.148554e-004 1.011437e+000 -1.565314e-001
324510000 -1.049710e-004 -7.871829e-005 3.239749e-002 9.260086e-001 -1.493793e-004 4.869500e-005 1.014236e+000 -1.589573e-001
324795000 -3.394195e-005 4.050424e-005 6.427227e-002 9.308032e-001 -3.916569e-005 -4.872385e-005 1.013713e+000 -1.563793e-001
325080000 -5.504262e-005 4.590613e-005 9.629032e-002 9.338665e-001 -9.310973e-006 -7.814273e-005 1.013591e+000 -1.573275e-001
325365000 5.380399e-005 3.878513e-005 1.302224e-001 9.357969e-001 -7.560814e-005 -4.620201e-005 1.013594e+000 -1.558632e-001
325650000 -1.971112e-005 -6.498206e-006 1.636143e-001 9.357702e-001 6.981671e-006 6.203374e-006 1.013315e+000 -1.569859e-001
325935000 -3.309053e-005 -1.304115e-004 1.979059e-001 9.357424e-001 2.186593e-005 -2.944521e-005 1.013059e+000 -1.570727e-001
326220000 7.606536e-005 2.110042e-005 2.320146e-001 9.334972e-001 1.439848e-004 -8.865442e-005 1.013166e+000 -1.580413e-001
326505000 -9.405567e-006 2.314052e-005 2.672794e-001 9.294644e-001 1.954734e-004 -3.061338e-005 1.013448e+000 -1.583216e-001
326790000 1.001353e-004 -3.075917e-005 3.026030e-001 9.245896e-001 3.719331e-005 -8.439321e-005 1.012524e+000 -1.573764e-001
327075000 -1.577792e-005 3.503953e-005 3.380169e-001 9.180605e-001 1.566163e-005 1.058973e-004 1.013522e+000 -1.594675e-001
327360000 1.066776e-004 1.749007e-006 3.741364e-001 9.100464e-001 1.198328e-004 6.891367e-005 1.015267e+000 -1.581363e-001
327645000 -5.435062e-005 -2.165350e-005 4.094966e-001 9.002964e-001 -8.461676e-005 1.918913e-005 1.014347e+000 -1.583564e-001
327930000 -6.902788e-005 1.923526e-005 4.451021e-001 8.884167e-001 -9.914403e-005 -1.522404e-005 1.013342e+000 -1.578753e-001
328215000 -2.855000e-005 2.457369e-005 4.806356e-001 8.750563e-001 2.806592e-005 -2.223200e-005 1.012922e+000 -1.591666e-001
328500000 -3.790619e-005 -1.193299e-004 5.164767e-001 8.603238e-001 -7.819387e-006 1.215041e-004 1.013824e+000 -1.585747e-001
328785000 -2.068441e-005 -5.331674e-005 5.508148e-001 8.429848e-001 2.550863e-005 -4.909853e-005 1.012479e+000 -1.589704e-001
329070000 -4.572327e-005 -8.820291e-005 5.848214e-001 8.243149e-001 -6.677600e-006 -2.362379e-005 1.013760e+000 -1.589098e-001
329355000 8.980665e-005 -1.719617e-005 6.182923e-001 8.048531e-001 -8.154332e-005 -5.162501e-005 1.013847e+000 -1.601013e-001
329640000 -1.100556e-006 -7.173749e-005 6.515574e-001 7.822907e-001 1.905184e-005 2.176326e-005 1.012684e+000 -1.603448e-001
329925000 1.092721e-004 9.708746e-006 6.826252e-001 7.589354e-001 -5.514184e-006 -9.746000e-005 1.012795e+000 -1.593772e-001
330210000 4.624541e-005 6.511164e-005 7.146908e-001 7.329810e-001 3.033235e-005 -1.268534e-004 1.012015e+000 -1.598420e-001
330495000 4.327568e-005 4.463055e-005 7.446636e-001 7.064344e-001 -2.381717e-005 -9.242502e-006 1.013154e+000 -1.599247e-001
330780000 -5.578652e-005 -9.338126e-005 7.731172e-001 6.781532e-001 1.820694e-004 5.402893e-005 1.013077e+000 -1.609242e-001
331065000 -8.307069e-005 2.420448e-005 8.006281e-001 6.481245e-001 9.788479e-005 1.113207e-004 1.012734e+000 -1.600283e-001
331350000 2.564390e-005 -1.791220e-005 8.265787e-001 6.162459e-001 1.078458e-004 -1.213433e-005 1.012492e+000 -1.606938e-001
331635000 -3.922875e-005 1.347426e-005 8.508291e-001 5.834827e-001 4.898700e-005 -9.474918e-006 1.013667e+000 -1.605484e-001
331920000 -3.876789e-005 4.100196e-005 8.741077e-001 5.495700e-001 9.982050e-005 9.367045e-005 1.012941e+000 -1.604787e-001
332205000 5.034342e-005 -1.024336e-004 8.953366e-001 5.144282e-001 1.498988e-005 1.022045e-004 1.011676e+000 -1.605975e-001
332490000 5.605273e-005 -7.728830e-005 9.149886e-001 4.787515e-001 -6.489016e-006 3.031556e-005 1.012915e+000 -1.616247e-001
332775000 1.267544e-004 1.033872e-005 9.325143e-001 4.419338e-001 4.046035e-005 -1.352076e-005 1.012517e+000 -1.615229e-001
333060000 -1.086944e-004 -1.315988e-004 9.472521e-001 4.041510e-001 3.492951e-005 6.060507e-006 1.012308e+000 -1.616305e-001
333345000 -9.548725e-006 -2.050857e-005 9.609419e-001 3.652596e-001 -6.733199e-006 -1.059526e-004 1.013929e+000 -1.597332e-001
333630000 8.394373e-005 5.248993e-005 9.728766e-001 3.269382e-001 -7.823703e-005 -7.252044e-005 1.013550e+000 -1.629394e-001
333915000 -6.278678e-005 -2.777983e-005 9.840701e-001 2.888934e-001 -5.366444e-005 -1.729446e-005 1.013186e+000 -1.620819e-001
334200000 -7.124479e-006 -1.388661e-005 9.914271e-001 2.491625e-001 -4.706879e-005 -1.197990e-004 1.013828e+000 -1.632879e-001
334485000 -5.421464e-005 9.055887e-006 9.977733e-001 2.095952e-001 -2.464255e-005 1.250849e-004 1.011793e+000 -1.614556e-001
334770000 -3.953722e-005 -4.506552e-005 1.001852e+000 1.698390e-001 5.691205e-005 -3.510775e-005 1.012645e+000 -1.620080e-001
335055000 -3.156631e-005 -3.055599e-005 1.003589e+000 1.309604e-001 1.768130e-005 -6.099679e-005 1.013944e+000 -1.626148e-001
335340000 -5.288051e-005 -2.577215e-005 1.004857e+000 9.293602e-002 -1.636988e-004 -2.909738e-005 1.014333e+000 -1.631635e-001
335625000 -2.441660e-005 -8.888500e-005 1.003244e+000 5.393386e-002 -1.711135e-005 -1.861378e-005 1.012644e+000 -1.633704e-001
335910000 2.220578e-005 2.488637e-005 1.000528e+000 1.559164e-002 -1.486602e-006 1.039440e-004 1.012530e+000 -1.625766e-001
336195000 4.413050e-005 7.414053e-006 9.954029e-001 -2.105676e-002 -1.094575e-004 -3.781265e-005 1.012029e+000 -1.627876e-001
336480000 -3.158739e-005 -9.687951e-005 9.897369e-001 -5.768150e-002 -7.107760e-005 5.220334e-005 1.012900e+000 -1.641386e-001
336765000 -2.769533e-006 -1.525115e-004 9.818028e-001 -9.385169e-002 4.747322e-006 9.068872e-006 1.012795e+000 -1.635237e-001
337050000 2.955232e-005 6.600625e-005 9.721804e-001 -1.285463e-001 1.139026e-004 -1.666031e-005 1.013373e+000 -1.633929e-001
337335000 -6.816402e-005 2.775501e-005 9.624311e-001 -1.633787e-001 4.226232e-005 8.027407e-005 1.011940e+000 -1.647985e-001
337620000 2.473360e-005 7.373527e-005 9.502273e-001 -1.968073e-001 -4.070840e-005 3.873925e-005 1.012717e+000 -1.658213e-001
337905000 -3.937530e-005 6.604020e-005 9.369419e-001 -2.282826e-001 1.560393e-005 3.321125e-005 1.012129e+000 -1.637636e-001
338190000 1.859327e-005 -7.093950e-005 9.236699e-001 -2.599324e-001 5.748792e-005 3.944695e-006 1.013149e+000 -1.647712e-001
338475000 3.606901e-005 -1.994049e-005 9.076493e-001 -2.901748e-001 4.059914e-005 3.843006e-005 1.014040e+000 -1.638396e-001
338760000 2.524092e-005 1.145195e-004 8.923803e-001 -3.200736e-001 1.124004e-005 -4.305151e-005 1.012209e+000 -1.649335e-001
339045000 -3.845688e-005 1.119462e-004 8.754863e-001 -3.486252e-001 7.926299e-005 9.617791e-006 1.012863e+000 -1.636870e-001
339330000 -1.067048e-004 8.486406e-006 8.580721e-001 -3.751420e-001 3.471205e-006 9.262982e-005 1.014219e+000 -1.632106e-001
339615000 -3.218369e-006 9.586442e-005 8.397829e-001 -4.013363e-001 -3.256241e-005 8.949572e-006 1.012453e+000 -1.651978e-001
339900000 -7.964509e-006 -6.096434e-005 8.201581e-001 -4.266157e-001 -8.461909e-005 9.764536e-005 1.011578e+000 -1.647325e-001
340185000 -7.278530e-005 5.069461e-006 8.006504e-001 -4.508882e-001 -1.878484e-005 5.806448e-005 1.013310e+000 -1.655478e-001
340470000 -1.224121e-004 -1.165161e-005 7.801557e-001 -4.737352e-001 6.125033e-005 4.428825e-005 1.013285e+000 -1.652338e-001
340755000 4.172689e-005 -5.407059e-005 7.601514e-001 -4.956639e-001 -5.507461e-006 3.498190e-005 1.013671e+000 -1.663050e-001
341040000 -2.986358e-005 8.710730e-006 7.386885e-001 -5.164490e-001 1.789055e-005 4.613588e-005 1.011723e+000 -1.670136e-001
341325000 -8.248125e-005 3.155941e-006 7.177486e-001 -5.362030e-001 -8.478076e-005 -2.222790e-005 1.013388e+000 -1.643757e-001
341610000 1.187953e-005 3.171040e-006 6.958379e-001 -5.555910e-001 1.106667e-004 3.912508e-005 1.013590e+000 -1.641912e-001
341895000 6.040846e-005 -4.575552e-005 6.741573e-001 -5.725956e-001 -9.738369e-007 4.698852e-005 1.012466e+000 -1.669271e-001
342180000 9.316140e-005 1.178962e-005 6.520746e-001 -5.903840e-001 5.129093e-005 6.806814e-005 1.013543e+000 -1.665533e-001
342465000 -6.470511e-005 -1.624004e-005 6.293277e-001 -6.066819e-001 -1.229605e-005 -1.175615e-005 1.012934e+000 -1.669977e-001
342750000 1.848168e-005 -3.738370e-005 6.075997e-001 -6.217796e-001 -3.780637e-005 -6.877169e-005 1.014003e+000 -1.662485e-001
343035000 5.826550e-006 3.370158e-005 5.844756e-001 -6.362000e-001 1.892779e-005 -6.609342e-005 1.013198e+000 -1.662668e-001
343320000 -4.412631e-005 6.948778e-005 5.624659e-001 -6.494135e-001 -3.792775e-005 1.707847e-004 1.011878e+000 -1.665609e-001
343605000 1.020379e-005 1.390072e-005 5.397440e-001 -6.621802e-001 2.265080e-006 1.931438e-005 1.012032e+000 -1.670821e-001
343890000 -9.790344e-005 7.169455e-006 5.173285e-001 -6.740361e-001 -1.307323e-004 -2.958064e-005 1.013416e+000 -1.670905e-001
