!Agilent Technologies,N5230C,SG49000117,A.08.50.07
!Agilent N5230C: A.08.50.07
!Date: Monday, March 18, 2024 18:04:14
!Correction: S11(Off) 
!S21(Off) 
!S12(Off) 
!S22(Full 1 Port(2)) 
!S2P File: Measurements: S11, S21, S12, S22:
# Hz S  RI   R 50
300000000 -1.948853e-004 5.675997e-005 -6.229376e-001 -6.476881e-001 -6.495393e-005 6.554792e-005 1.007509e+000 -1.701400e-001
300285000 -3.505117e-005 3.847521e-006 -6.381961e-001 -6.241595e-001 -3.986087e-006 -1.546605e-005 1.008810e+000 -1.707331e-001
300570000 -3.393253e-005 -3.154267e-005 -6.524069e-001 -6.005087e-001 -2.510987e-005 1.005216e-005 1.008200e+000 -1.703650e-001
300855000 1.016469e-005 5.604488e-005 -6.662152e-001 -5.772925e-001 4.066738e-005 9.819672e-005 1.007248e+000 -1.696623e-001
301140000 -6.215170e-005 4.024464e-005 -6.783151e-001 -5.540257e-001 -1.019663e-004 1.331328e-005 1.007282e+000 -1.703298e-001
301425000 2.648899e-005 -3.304458e-005 -6.907231e-001 -5.303707e-001 5.557640e-005 8.322074e-006 1.008460e+000 -1.699764e-001
301710000 2.431946e-005 -8.607404e-007 -7.013143e-001 -5.064965e-001 3.919445e-006 -4.469933e-005 1.009279e+000 -1.713818e-001
301995000 1.520977e-004 -1.985504e-005 -7.118930e-001 -4.832062e-001 1.251292e-004 -1.229081e-005 1.007715e+000 -1.709523e-001
302280000 -9.511548e-005 1.277505e-004 -7.214543e-001 -4.598937e-001 6.503074e-005 -2.693149e-005 1.008207e+000 -1.715921e-001
302565000 4.506214e-006 3.843698e-005 -7.304049e-001 -4.366592e-001 -2.358640e-005 -7.565558e-005 1.009326e+000 -1.732714e-001
302850000 1.487281e-006 2.757994e-006 -7.378364e-001 -4.130470e-001 -2.478314e-005 -2.561500e-005 1.006735e+000 -1.705468e-001
303135000 1.019006e-004 7.514035e-005 -7.458647e-001 -3.902079e-001 3.640359e-005 -7.798996e-005 1.006207e+000 -1.719658e-001
303420000 8.596035e-005 -1.061137e-004 -7.527198e-001 -3.664851e-001 -7.090038e-005 -4.014781e-005 1.007190e+000 -1.735415e-001
303705000 -9.041515e-005 5.351677e-005 -7.586145e-001 -3.433655e-001 -5.704531e-005 -1.092891e-004 1.009042e+000 -1.731152e-001
303990000 -6.583257e-005 5.802619e-005 -7.639915e-001 -3.208538e-001 -1.886756e-005 4.435799e-005 1.006973e+000 -1.733504e-001
304275000 -2.215315e-005 2.155592e-005 -7.691774e-001 -2.981875e-001 -1.416092e-005 -2.073202e-005 1.007716e+000 -1.734822e-001
304560000 -7.445103e-005 -2.654399e-006 -7.736356e-001 -2.757092e-001 1.158907e-004 -2.701450e-005 1.008209e+000 -1.723389e-001
304845000 -7.553429e-005 1.355689e-005 -7.772419e-001 -2.526618e-001 4.439546e-005 1.366727e-005 1.008270e+000 -1.724665e-001
305130000 -6.092533e-005 -1.047889e-004 -7.805187e-001 -2.305970e-001 -1.353689e-005 -1.378393e-005 1.007581e+000 -1.732180e-001
305415000 2.559338e-005 -1.554103e-006 -7.829164e-001 -2.085534e-001 -4.400162e-005 -8.206152e-006 1.007361e+000 -1.731960e-001
305700000 -5.597192e-005 9.839490e-005 -7.852631e-001 -1.868238e-001 1.254660e-005 1.182883e-004 1.008114e+000 -1.730212e-001
305985000 -6.234809e-006 -3.572217e-005 -7.869847e-001 -1.647618e-001 1.239537e-005 -3.765783e-005 1.008199e+000 -1.754031e-001
306270000 -1.321069e-005 -2.805758e-005 -7.883549e-001 -1.432186e-001 -5.960808e-005 2.839782e-005 1.009058e+000 -1.726239e-001
306555000 -1.018577e-004 -5.696542e-005 -7.890996e-001 -1.215640e-001 1.325853e-005 3.185625e-005 1.008971e+000 -1.756534e-001
306840000 8.093566e-006 -1.377043e-004 -7.893851e-001 -1.001315e-001 -4.845132e-005 1.167554e-004 1.007715e+000 -1.728260e-001
307125000 -9.191884e-006 -3.059252e-005 -7.891585e-001 -7.872706e-002 -3.646875e-005 -1.395626e-005 1.006981e+000 -1.730966e-001
307410000 4.679291e-005 7.093446e-005 -7.886283e-001 -5.752033e-002 -3.215270e-005 4.014265e-005 1.008443e+000 -1.744145e-001
307695000 3.252704e-005 -3.709984e-006 -7.873334e-001 -3.692897e-002 -6.837370e-006 -3.533220e-005 1.008574e+000 -1.747588e-001
307980000 -3.981469e-005 1.190245e-004 -7.860608e-001 -1.596843e-002 -1.030935e-004 -5.049622e-005 1.006110e+000 -1.749011e-001
308265000 -4.933575e-005 6.488104e-005 -7.843822e-001 4.767438e-003 -5.083543e-005 -8.725384e-006 1.007427e+000 -1.745868e-001
308550000 8.618863e-005 5.456685e-005 -7.821298e-001 2.480864e-002 -3.152897e-005 -7.940036e-005 1.008811e+000 -1.737405e-001
308835000 -4.203499e-005 1.582773e-005 -7.800011e-001 4.539910e-002 9.350906e-005 -2.634672e-006 1.006133e+000 -1.749849e-001
309120000 -1.766997e-004 3.721123e-005 -7.769501e-001 6.558348e-002 4.408897e-005 -5.327895e-006 1.008307e+000 -1.780423e-001
309405000 3.386799e-005 -2.589383e-006 -7.737077e-001 8.571369e-002 4.165150e-005 7.032051e-005 1.009507e+000 -1.747662e-001
309690000 2.531175e-005 -4.650896e-005 -7.700819e-001 1.060078e-001 3.268255e-005 5.479136e-005 1.008397e+000 -1.764489e-001
309975000 -9.549235e-005 3.521884e-005 -7.660640e-001 1.255080e-001 -3.918448e-005 2.659409e-005 1.008245e+000 -1.768480e-001
310260000 -1.145403e-004 4.662751e-005 -7.614210e-001 1.455676e-001 2.774142e-005 -3.202257e-005 1.009301e+000 -1.759074e-001
310545000 7.815974e-006 -2.109209e-005 -7.570418e-001 1.645424e-001 -1.190609e-004 7.309618e-005 1.009190e+000 -1.760528e-001
310830000 -7.859488e-005 1.109489e-005 -7.518371e-001 1.845899e-001 -3.592242e-005 -9.416711e-005 1.009513e+000 -1.770685e-001
311115000 -4.082643e-005 1.331451e-004 -7.466543e-001 2.042147e-001 -5.220317e-006 9.903324e-005 1.006632e+000 -1.756486e-001
311400000 4.810175e-005 -3.829091e-005 -7.406309e-001 2.232820e-001 -1.028462e-004 1.399007e-005 1.009298e+000 -1.767272e-001
311685000 -4.268679e-005 9.977483e-006 -7.343102e-001 2.422377e-001 -8.743687e-005 -3.178022e-005 1.007559e+000 -1.766546e-001
311970000 5.018807e-005 -1.278641e-005 -7.283638e-001 2.616012e-001 -5.178733e-005 -1.065218e-004 1.006670e+000 -1.764071e-001
312255000 5.435761e-005 -7.381062e-005 -7.211696e-001 2.810673e-001 -9.985002e-005 -8.418230e-005 1.008276e+000 -1.766883e-001
312540000 3.360133e-005 1.147417e-005 -7.140576e-001 2.995964e-001 1.133896e-005 5.210399e-005 1.007477e+000 -1.764800e-001
312825000 1.460985e-006 -8.219195e-005 -7.067749e-001 3.184610e-001 -1.046958e-004 -3.948257e-005 1.007796e+000 -1.780799e-001
313110000 7.182761e-005 -6.774636e-005 -6.986321e-001 3.374792e-001 -1.969604e-005 -5.236579e-005 1.008352e+000 -1.788493e-001
313395000 1.294118e-004 -4.993687e-005 -6.899344e-001 3.556769e-001 5.645435e-005 -1.322124e-005 1.007698e+000 -1.768215e-001
313680000 5.350931e-005 2.513711e-005 -6.819753e-001 3.746655e-001 7.421811e-005 -6.025748e-005 1.007640e+000 -1.774915e-001
313965000 4.222182e-005 -5.853677e-005 -6.725833e-001 3.931243e-001 2.957437e-005 -8.927271e-005 1.007721e+000 -1.774731e-001
314250000 1.283949e-004 1.441375e-004 -6.626862e-001 4.114048e-001 6.081142e-005 2.312377e-005 1.008584e+000 -1.784357e-001
314535000 -7.992739e-005 1.081329e-004 -6.532187e-001 4.301508e-001 -1.007562e-004 -1.175509e-004 1.006798e+000 -1.779241e-001
314820000 -1.828431e-005 -2.895849e-005 -6.427305e-001 4.483729e-001 -1.762447e-005 3.548305e-005 1.007227e+000 -1.793737e-001
315105000 5.197064e-005 -2.063897e-005 -6.323047e-001 4.660016e-001 1.167385e-004 1.084503e-005 1.005047e+000 -1.794522e-001
315390000 -9.264442e-005 3.641117e-005 -6.208827e-001 4.848728e-001 -2.845009e-005 1.194064e-004 1.008728e+000 -1.789044e-001
315675000 5.774645e-005 2.344941e-005 -6.098241e-001 5.025994e-001 -5.940588e-005 5.467087e-006 1.005720e+000 -1.786751e-001
315960000 -4.087816e-005 4.814807e-005 -5.971110e-001 5.201057e-001 -4.623867e-005 8.839172e-005 1.007742e+000 -1.788920e-001
316245000 -2.502839e-005 6.623450e-005 -5.849097e-001 5.377848e-001 -1.904656e-005 -5.149818e-006 1.006284e+000 -1.795565e-001
316530000 -9.064448e-005 -1.024825e-004 -5.718326e-001 5.555955e-001 -2.298120e-005 -8.864785e-007 1.007680e+000 -1.796220e-001
316815000 -4.935078e-005 1.216620e-005 -5.581396e-001 5.730764e-001 5.669680e-005 8.646380e-005 1.008273e+000 -1.800779e-001
317100000 1.279169e-005 -6.558694e-005 -5.438781e-001 5.904386e-001 4.591512e-005 -1.039713e-005 1.005715e+000 -1.797251e-001
317385000 4.993853e-006 -8.388528e-005 -5.300285e-001 6.077849e-001 -2.007604e-006 -9.908630e-005 1.008800e+000 -1.795418e-001
317670000 -1.051804e-004 -2.843934e-005 -5.145679e-001 6.250099e-001 -5.179504e-005 -4.370977e-005 1.008460e+000 -1.809472e-001
317955000 -1.097827e-005 8.992834e-006 -4.989619e-001 6.416528e-001 -2.661210e-005 -1.475092e-005 1.009234e+000 -1.798711e-001
318240000 -6.682715e-005 5.878835e-006 -4.824057e-001 6.583226e-001 9.814909e-005 8.771102e-005 1.008418e+000 -1.803582e-001
318525000 4.818156e-005 1.608170e-005 -4.658254e-001 6.750172e-001 -1.759052e-005 6.647969e-005 1.009190e+000 -1.798788e-001
318810000 4.803050e-005 -2.195267e-005 -4.482121e-001 6.916500e-001 -6.159276e-005 7.908863e-005 1.006269e+000 -1.802729e-001
319095000 -2.048749e-005 -3.361940e-005 -4.306620e-001 7.076251e-001 -7.490608e-005 6.547369e-006 1.006420e+000 -1.813453e-001
319380000 -2.188259e-005 2.352020e-005 -4.114804e-001 7.234647e-001 -8.948307e-005 -2.418843e-005 1.007381e+000 -1.814013e-001
319665000 3.568718e-005 7.161401e-005 -3.924414e-001 7.392685e-001 -1.964820e-005 -7.004799e-006 1.007280e+000 -1.801509e-001
319950000 9.210011e-006 6.345328e-006 -3.721739e-001 7.546374e-001 -3.214320e-006 -3.547735e-005 1.006507e+000 -1.827914e-001
320235000 5.868628e-005 4.705476e-005 -3.517742e-001 7.697428e-001 -4.260055e-005 -6.887157e-005 1.009648e+000 -1.828753e-001
320520000 1.366473e-004 1.374816e-004 -3.301243e-001 7.838256e-001 -5.060859e-007 5.441850e-005 1.007029e+000 -1.821841e-001
320805000 3.736190e-005 -8.964394e-006 -3.080416e-001 7.978308e-001 1.838879e-005 1.527247e-005 1.006400e+000 -1.809163e-001
321090000 -2.007762e-005 8.144048e-005 -2.852147e-001 8.120008e-001 5.944063e-005 2.883061e-005 1.007428e+000 -1.820200e-001
321375000 1.659563e-005 9.885518e-005 -2.616002e-001 8.252593e-001 -2.903901e-005 9.494771e-005 1.008175e+000 -1.818407e-001
321660000 -2.147540e-005 1.245642e-005 -2.376200e-001 8.378327e-001 -9.336762e-005 8.228377e-005 1.007196e+000 -1.824601e-001
321945000 -1.163827e-004 -5.967098e-006 -2.121587e-001 8.496583e-001 -1.679858e-005 -1.100943e-004 1.006424e+000 -1.833822e-001
322230000 -9.164895e-005 7.206304e-006 -1.868270e-001 8.614731e-001 2.010520e-005 9.960135e-005 1.005583e+000 -1.838666e-001
322515000 2.052441e-005 -7.510869e-005 -1.603396e-001 8.729982e-001 -6.497221e-005 3.494744e-006 1.006294e+000 -1.839606e-001
322800000 -1.942288e-005 2.472796e-005 -1.330077e-001 8.826126e-001 -3.797466e-007 9.553167e-005 1.007910e+000 -1.822904e-001
323085000 -5.142325e-005 -3.464796e-005 -1.055586e-001 8.920586e-001 1.079887e-004 4.326102e-005 1.007243e+000 -1.830835e-001
323370000 3.692688e-005 -1.701139e-005 -7.625675e-002 9.011229e-001 -5.308293e-005 2.427311e-005 1.008300e+000 -1.840384e-001
323655000 -4.091178e-005 -6.613147e-006 -4.734820e-002 9.087738e-001 -8.470873e-005 -1.211973e-005 1.006798e+000 -1.848216e-001
323940000 4.322508e-005 -7.762218e-005 -1.687041e-002 9.158707e-001 -1.040608e-004 1.173921e-004 1.006764e+000 -1.842706e-001
324225000 3.168453e-005 -2.768069e-005 1.432560e-002 9.216793e-001 1.325380e-004 1.133437e-004 1.004057e+000 -1.854709e-001
324510000 3.358481e-005 -2.973659e-005 4.568510e-002 9.263937e-001 2.086847e-005 4.651007e-005 1.007940e+000 -1.864343e-001
324795000 5.129724e-006 3.567611e-005 7.806005e-002 9.304043e-001 3.455421e-005 -1.466806e-005 1.008252e+000 -1.849986e-001
325080000 4.920282e-005 3.982593e-005 1.108829e-001 9.326808e-001 9.024300e-005 -3.178633e-005 1.006109e+000 -1.851275e-001
325365000 2.009732e-005 4.699596e-005 1.441319e-001 9.347165e-001 4.267032e-005 -4.617373e-005 1.007205e+000 -1.843409e-001
325650000 -1.029052e-004 -2.517100e-005 1.774543e-001 9.344243e-001 3.947469e-005 -2.343818e-005 1.007070e+000 -1.841520e-001
325935000 1.359511e-005 -3.291871e-005 2.123850e-001 9.332464e-001 3.876001e-005 4.428438e-005 1.007675e+000 -1.860204e-001
326220000 8.158810e-006 1.275469e-005 2.472187e-001 9.306848e-001 1.622536e-005 5.689761e-005 1.007418e+000 -1.869227e-001
326505000 -5.586727e-005 -2.584780e-005 2.820530e-001 9.266322e-001 3.678916e-005 -4.604757e-005 1.006456e+000 -1.867141e-001
326790000 -1.391972e-005 5.855844e-005 3.178978e-001 9.204555e-001 3.511439e-005 3.858902e-005 1.006946e+000 -1.845321e-001
327075000 -3.214538e-005 5.208464e-005 3.522824e-001 9.133769e-001 -9.715819e-005 1.552553e-005 1.006378e+000 -1.868795e-001
327360000 7.630887e-006 -4.089492e-005 3.885937e-001 9.045896e-001 -3.822702e-006 -1.554549e-005 1.008482e+000 -1.857456e-001
327645000 -8.265478e-005 -4.142593e-005 4.243746e-001 8.932568e-001 -7.913983e-005 -1.752703e-005 1.006506e+000 -1.864463e-001
327930000 2.285812e-005 -1.540265e-004 4.592828e-001 8.814191e-001 5.620099e-005 -1.070699e-005 1.006588e+000 -1.861050e-001
328215000 4.516787e-005 -2.904802e-005 4.947188e-001 8.679621e-001 7.062129e-005 -3.510558e-005 1.006692e+000 -1.883018e-001
328500000 -1.632866e-005 6.687813e-006 5.300565e-001 8.517190e-001 -2.164294e-005 7.937260e-005 1.005617e+000 -1.879801e-001
328785000 1.312261e-004 3.121883e-005 5.642697e-001 8.348186e-001 4.664040e-005 -2.939689e-005 1.006271e+000 -1.867583e-001
329070000 -6.698364e-005 -2.855277e-005 5.976868e-001 8.153756e-001 -4.233327e-005 -4.914304e-005 1.005361e+000 -1.878634e-001
329355000 -4.482985e-005 6.237509e-005 6.319810e-001 7.941413e-001 4.793930e-005 -1.113734e-004 1.006243e+000 -1.881819e-001
329640000 1.197662e-005 3.993141e-005 6.639246e-001 7.711461e-001 -8.902355e-005 9.599735e-005 1.006631e+000 -1.887973e-001
329925000 5.402484e-006 4.988205e-006 6.959137e-001 7.474799e-001 -5.720118e-006 5.125559e-006 1.006946e+000 -1.877245e-001
330210000 5.078386e-005 -4.595715e-005 7.267967e-001 7.208539e-001 -2.993362e-005 -1.190927e-004 1.005535e+000 -1.885661e-001
330495000 2.858139e-005 7.875857e-005 7.562017e-001 6.930964e-001 4.598961e-005 3.842674e-005 1.006109e+000 -1.876786e-001
330780000 -6.331280e-006 3.033130e-005 7.838331e-001 6.639495e-001 2.274065e-005 4.720805e-006 1.006485e+000 -1.887049e-001
331065000 4.632795e-005 -1.280447e-004 8.104807e-001 6.338316e-001 1.132747e-004 -8.388840e-005 1.004899e+000 -1.877649e-001
331350000 -2.047355e-005 6.862625e-005 8.361354e-001 6.013637e-001 5.069145e-005 5.379422e-005 1.005829e+000 -1.885326e-001
331635000 -3.436993e-005 -8.430742e-006 8.594685e-001 5.684752e-001 6.730370e-005 8.027208e-006 1.006516e+000 -1.897989e-001
331920000 3.585847e-005 -1.627436e-005 8.816873e-001 5.339730e-001 -2.725097e-005 3.602231e-005 1.006309e+000 -1.887585e-001
332205000 -6.059883e-005 -1.201883e-004 9.017867e-001 4.982972e-001 -2.669076e-005 -8.979120e-005 1.005000e+000 -1.896483e-001
332490000 -4.212620e-005 7.014502e-006 9.208929e-001 4.625671e-001 -1.178997e-005 2.713150e-005 1.006414e+000 -1.893466e-001
332775000 -1.155131e-004 -1.991858e-005 9.375462e-001 4.256130e-001 -2.358320e-005 3.981569e-005 1.006269e+000 -1.907063e-001
333060000 9.232536e-005 3.241739e-006 9.530651e-001 3.872420e-001 -7.281415e-005 -8.990074e-005 1.007537e+000 -1.903291e-001
333345000 1.609763e-004 -1.113463e-005 9.657444e-001 3.487249e-001 2.450019e-007 -5.306187e-005 1.007113e+000 -1.900950e-001
333630000 8.614781e-005 -1.059490e-004 9.767588e-001 3.104431e-001 -5.536709e-005 6.299429e-005 1.006575e+000 -1.911363e-001
333915000 1.766205e-004 -8.331249e-005 9.860538e-001 2.716826e-001 9.238265e-006 -9.142993e-006 1.004691e+000 -1.906213e-001
334200000 -1.996693e-005 -1.233007e-005 9.936652e-001 2.320257e-001 -5.454076e-005 -5.556285e-005 1.006286e+000 -1.916609e-001
334485000 4.981012e-005 3.692370e-006 9.985997e-001 1.925694e-001 -1.073794e-004 9.766417e-005 1.005548e+000 -1.901080e-001
334770000 6.477089e-006 -9.427517e-005 1.002012e+000 1.529825e-001 5.108939e-005 -2.444104e-005 1.006292e+000 -1.921791e-001
335055000 -4.864709e-006 4.367588e-005 1.003512e+000 1.150893e-001 2.918749e-006 -2.368935e-005 1.005761e+000 -1.906575e-001
335340000 4.042626e-005 4.238908e-005 1.003718e+000 7.599045e-002 2.511997e-005 6.337971e-005 1.006115e+000 -1.914852e-001
335625000 -3.412008e-005 -5.606001e-005 1.001724e+000 3.790418e-002 -7.825603e-005 1.566429e-005 1.005483e+000 -1.920453e-001
335910000 -3.872034e-005 -1.431589e-004 9.975476e-001 -4.115653e-004 -6.776022e-005 3.329930e-005 1.004911e+000 -1.913320e-001
336195000 -5.463524e-005 3.895260e-005 9.928780e-001 -3.678723e-002 1.981798e-005 4.979959e-005 1.005297e+000 -1.927658e-001
336480000 7.985932e-005 -9.486222e-005 9.855872e-001 -7.346935e-002 7.620484e-005 -2.150370e-005 1.006231e+000 -1.919381e-001
336765000 2.157651e-005 5.437102e-005 9.772314e-001 -1.086681e-001 -3.957725e-005 -1.769681e-005 1.006063e+000 -1.924243e-001
337050000 4.624005e-005 -3.771803e-005 9.673604e-001 -1.433925e-001 -3.124922e-005 -2.505395e-005 1.006131e+000 -1.925497e-001
337335000 -2.064115e-005 3.664683e-005 9.564403e-001 -1.779919e-001 -6.884325e-005 -1.018428e-004 1.004876e+000 -1.947431e-001
337620000 1.237148e-004 3.613812e-005 9.446804e-001 -2.097395e-001 -6.671569e-005 -1.726935e-005 1.005224e+000 -1.943149e-001
337905000 7.878505e-005 -1.157809e-005 9.305080e-001 -2.428084e-001 -2.083344e-005 -2.216174e-005 1.004779e+000 -1.916626e-001
338190000 1.844957e-005 -7.464495e-006 9.164512e-001 -2.732404e-001 5.929869e-005 -8.531953e-005 1.005027e+000 -1.941409e-001
338475000 1.687499e-006 -6.646605e-005 9.012858e-001 -3.029732e-001 -6.396249e-005 6.987759e-005 1.006732e+000 -1.926945e-001
338760000 1.068999e-004 -8.535758e-005 8.846771e-001 -3.319676e-001 3.405283e-006 3.279852e-005 1.005701e+000 -1.930480e-001
339045000 6.669007e-005 -1.528137e-005 8.668970e-001 -3.600656e-001 -1.173384e-005 1.216025e-005 1.006400e+000 -1.943406e-001
339330000 -5.856853e-005 5.281640e-005 8.489911e-001 -3.872263e-001 1.101079e-005 5.392097e-005 1.007162e+000 -1.931607e-001
339615000 7.873934e-005 7.406755e-005 8.298520e-001 -4.128958e-001 -4.699685e-006 -3.933376e-005 1.006716e+000 -1.944173e-001
339900000 -9.322403e-005 7.517449e-005 8.111221e-001 -4.367557e-001 -6.673204e-006 -4.187162e-005 1.004924e+000 -1.943645e-001
340185000 -1.133361e-004 8.021964e-005 7.907305e-001 -4.607189e-001 4.688796e-005 -1.584406e-005 1.005968e+000 -1.949629e-001
340470000 8.518199e-005 3.717661e-005 7.709028e-001 -4.835577e-001 3.237639e-005 1.300359e-004 1.005467e+000 -1.935889e-001
340755000 -1.849066e-005 -8.712827e-005 7.500626e-001 -5.052299e-001 2.754345e-005 -1.294870e-004 1.005553e+000 -1.963172e-001
341040000 -3.016985e-005 -3.224986e-005 7.292235e-001 -5.257355e-001 3.573946e-005 1.384413e-005 1.006233e+000 -1.952702e-001
341325000 -3.377855e-005 1.342031e-004 7.072447e-001 -5.450102e-001 2.864949e-005 -7.858688e-005 1.005727e+000 -1.940933e-001
341610000 -8.477991e-009 -7.839713e-005 6.857052e-001 -5.632120e-001 -2.268554e-005 3.904455e-005 1.006669e+000 -1.944368e-001
341895000 -2.829695e-005 -2.678761e-005 6.631456e-001 -5.808198e-001 -2.811859e-005 1.078145e-004 1.003899e+000 -1.970069e-001
342180000 8.806833e-005 -5.564070e-005 6.418855e-001 -5.976137e-001 7.952652e-005 1.237984e-005 1.005813e+000 -1.963164e-001
342465000 -2.524297e-005 -5.756952e-005 6.192244e-001 -6.134638e-001 -5.601668e-006 4.791351e-005 1.006817e+000 -1.959281e-001
342750000 5.264891e-005 -1.055449e-004 5.969948e-001 -6.279326e-001 -6.585064e-005 -9.346913e-006 1.007499e+000 -1.948209e-001
343035000 3.485599e-005 -5.679548e-005 5.746565e-001 -6.418562e-001 -1.021113e-004 6.862129e-005 1.005439e+000 -1.978745e-001
343320000 2.254188e-005 8.021837e-005 5.517321e-001 -6.551982e-001 1.285203e-005 1.811689e-006 1.005406e+000 -1.957531e-001
343605000 -4.400224e-005 -8.739448e-005 5.290218e-001 -6.681399e-001 8.704609e-005 6.917217e-005 1.006229e+000 -1.967728e-001
343890000 -2.590605e-005 4.520610e-005 5.063061e-001 -6.790843e-001 -7.833526e-005 1.190182e-004 1.005536e+000 -1.963051e-001
