!Agilent Technologies,N5230C,SG49000117,A.08.50.07
!Agilent N5230C: A.08.50.07
!Date: Monday, March 18, 2024 18:05:26
!Correction: S11(Off) 
!S21(Off) 
!S12(Off) 
!S22(Full 1 Port(2)) 
!S2P File: Measurements: S11, S21, S12, S22:
# Hz S  RI   R 50
300000000 4.333712e-005 -5.165096e-006 -6.290346e-001 -6.397229e-001 -6.053722e-006 1.608165e-005 1.002503e+000 -1.941721e-001
300285000 3.372837e-005 -5.260278e-005 -6.439325e-001 -6.159239e-001 3.341065e-005 8.615277e-005 1.002449e+000 -1.948204e-001
300570000 6.340601e-005 -5.471419e-005 -6.576767e-001 -5.927192e-001 1.507776e-005 7.704004e-005 1.003853e+000 -1.942933e-001
300855000 3.029137e-005 1.033025e-004 -6.712925e-001 -5.688711e-001 -8.627414e-005 -7.103464e-005 1.003446e+000 -1.934544e-001
301140000 -5.773813e-005 -1.027460e-004 -6.829137e-001 -5.454953e-001 -9.363912e-005 -3.076488e-005 1.004299e+000 -1.967997e-001
301425000 4.727244e-005 1.105743e-004 -6.954036e-001 -5.217563e-001 6.505238e-005 -7.109328e-005 1.003962e+000 -1.954749e-001
301710000 -4.229085e-005 2.205994e-006 -7.060779e-001 -4.982704e-001 -6.757747e-006 -1.555533e-004 1.005173e+000 -1.962757e-001
301995000 6.838577e-005 5.984874e-005 -7.166026e-001 -4.750353e-001 7.806585e-006 -1.499419e-004 1.003609e+000 -1.949409e-001
302280000 1.147125e-005 6.298978e-005 -7.254403e-001 -4.513196e-001 7.079348e-005 -4.292007e-005 1.004148e+000 -1.959152e-001
302565000 -7.066208e-005 -1.260219e-006 -7.336850e-001 -4.280429e-001 -9.720858e-005 1.626477e-005 1.005138e+000 -1.970862e-001
302850000 9.874169e-006 -6.542897e-005 -7.419681e-001 -4.044830e-001 1.452290e-004 -4.950302e-005 1.003120e+000 -1.938451e-001
303135000 -6.531394e-005 5.592091e-005 -7.487133e-001 -3.809987e-001 9.401323e-005 6.406822e-006 1.001783e+000 -1.957723e-001
303420000 -3.120762e-005 7.053907e-006 -7.558776e-001 -3.581524e-001 -2.151163e-005 3.949885e-006 1.002866e+000 -1.975176e-001
303705000 1.312120e-004 -5.092863e-005 -7.612507e-001 -3.352214e-001 -8.755458e-005 -5.284191e-005 1.004717e+000 -1.979514e-001
303990000 8.198485e-006 -1.574088e-005 -7.664680e-001 -3.123557e-001 -1.466716e-006 1.011006e-004 1.002750e+000 -1.962219e-001
304275000 -5.483889e-005 -8.232702e-005 -7.713671e-001 -2.896272e-001 1.003094e-005 3.021347e-005 1.003515e+000 -1.969229e-001
304560000 -4.681578e-005 -1.853993e-005 -7.750241e-001 -2.672409e-001 -3.960437e-005 2.178711e-005 1.002687e+000 -1.957036e-001
304845000 -4.347023e-005 7.158484e-005 -7.789732e-001 -2.442654e-001 -7.757423e-005 -7.382447e-007 1.003439e+000 -1.976685e-001
305130000 -2.243372e-005 7.222407e-006 -7.813360e-001 -2.222744e-001 -1.126996e-004 -1.708580e-004 1.002218e+000 -1.971932e-001
305415000 7.218341e-005 6.195686e-005 -7.842752e-001 -2.002620e-001 -6.192714e-006 5.017306e-005 1.002716e+000 -1.969537e-001
305700000 -1.742332e-005 6.619501e-005 -7.864931e-001 -1.784140e-001 7.465129e-007 -3.025952e-005 1.003187e+000 -1.975230e-001
305985000 5.850466e-005 4.371859e-006 -7.878088e-001 -1.563054e-001 -2.997872e-005 -5.846314e-005 1.003219e+000 -1.984883e-001
306270000 6.540655e-005 -1.984822e-005 -7.889574e-001 -1.347345e-001 2.993724e-005 -1.783833e-005 1.003329e+000 -1.981063e-001
306555000 5.611988e-005 -6.115675e-005 -7.895179e-001 -1.130341e-001 -1.932520e-005 -6.397845e-005 1.003358e+000 -1.994814e-001
306840000 1.449545e-005 1.568995e-005 -7.892113e-001 -9.158357e-002 1.097999e-005 -1.489438e-005 1.002660e+000 -1.967187e-001
307125000 4.096328e-006 5.105312e-006 -7.896620e-001 -7.061721e-002 -4.188346e-005 -8.407892e-005 1.002727e+000 -1.979887e-001
307410000 1.630400e-005 5.074574e-005 -7.884961e-001 -4.935335e-002 7.512666e-005 -4.776108e-006 1.003894e+000 -1.995520e-001
307695000 8.012456e-006 -4.001520e-005 -7.872861e-001 -2.872240e-002 -8.169256e-006 2.692380e-005 1.002911e+000 -1.991145e-001
307980000 -9.888538e-005 6.311732e-005 -7.856060e-001 -8.066847e-003 -5.863243e-005 6.233947e-006 1.001691e+000 -1.995164e-001
308265000 -7.122661e-005 3.891296e-005 -7.841023e-001 1.293687e-002 -6.784401e-005 7.060123e-005 1.001877e+000 -2.003662e-001
308550000 1.765150e-005 -1.838746e-005 -7.815911e-001 3.313906e-002 5.747749e-005 -6.858536e-005 1.001401e+000 -1.987077e-001
308835000 1.452990e-005 7.523493e-006 -7.790872e-001 5.344100e-002 3.081963e-005 2.201997e-005 1.002745e+000 -2.007515e-001
309120000 4.856196e-005 3.563976e-005 -7.754634e-001 7.364102e-002 4.744015e-005 -4.353212e-005 1.004474e+000 -2.023169e-001
309405000 4.070238e-005 -2.743937e-005 -7.723317e-001 9.352047e-002 5.471999e-005 -3.056388e-005 1.006284e+000 -2.007745e-001
309690000 2.713040e-005 -1.954080e-005 -7.683198e-001 1.138155e-001 -2.307430e-005 2.692470e-005 1.004574e+000 -1.995477e-001
309975000 -2.882773e-005 -2.340327e-005 -7.644957e-001 1.336204e-001 4.399545e-006 -1.445987e-004 1.002917e+000 -2.020337e-001
310260000 1.897332e-005 -3.642826e-005 -7.600350e-001 1.533863e-001 1.437366e-005 2.771564e-005 1.004723e+000 -2.012107e-001
310545000 -6.590855e-006 -7.752430e-005 -7.552311e-001 1.725669e-001 8.594100e-005 8.531219e-005 1.003853e+000 -2.033388e-001
310830000 9.005216e-005 -3.946342e-005 -7.497696e-001 1.924632e-001 -1.751278e-005 5.381382e-005 1.005476e+000 -2.032881e-001
311115000 5.178556e-005 -1.913582e-005 -7.443291e-001 2.118333e-001 -9.643854e-006 2.218518e-005 1.003239e+000 -2.017216e-001
311400000 -5.254140e-005 1.560242e-005 -7.383770e-001 2.311219e-001 -2.056324e-005 2.610185e-005 1.003951e+000 -2.014183e-001
311685000 3.668286e-005 3.178610e-005 -7.318041e-001 2.495952e-001 -2.859719e-006 2.448248e-005 1.004327e+000 -2.007023e-001
311970000 -2.153440e-005 2.857173e-005 -7.252454e-001 2.693474e-001 1.120793e-004 -4.565004e-005 1.002958e+000 -2.015214e-001
312255000 -3.707448e-005 -1.757121e-005 -7.181007e-001 2.878442e-001 4.703060e-005 4.973976e-006 1.002533e+000 -2.018428e-001
312540000 -9.449347e-005 2.267264e-005 -7.111962e-001 3.073915e-001 1.485329e-005 9.384693e-005 1.002692e+000 -2.021034e-001
312825000 1.255955e-004 -1.450017e-006 -7.032962e-001 3.259556e-001 6.827607e-005 -5.832222e-005 1.003772e+000 -2.032885e-001
313110000 -3.421911e-005 8.560047e-005 -6.954440e-001 3.448629e-001 1.824095e-005 1.019066e-004 1.004652e+000 -2.032714e-001
313395000 9.576941e-006 -1.338405e-005 -6.870239e-001 3.632630e-001 1.318186e-004 -1.134340e-004 1.002952e+000 -2.019617e-001
313680000 4.416073e-005 -3.100717e-005 -6.783874e-001 3.819675e-001 -1.114257e-006 2.222245e-006 1.003391e+000 -2.031815e-001
313965000 -1.026564e-004 -5.304398e-005 -6.687191e-001 4.004056e-001 4.293877e-005 3.896152e-005 1.004286e+000 -2.031763e-001
314250000 3.796094e-006 -1.275241e-004 -6.592977e-001 4.190545e-001 -8.795530e-005 5.041204e-005 1.002339e+000 -2.047150e-001
314535000 -3.820735e-005 6.870556e-006 -6.488157e-001 4.370758e-001 -4.616111e-005 -1.081501e-004 1.002362e+000 -2.051176e-001
314820000 5.103171e-005 -7.388060e-005 -6.387564e-001 4.550669e-001 8.356057e-005 6.738235e-005 1.002499e+000 -2.047471e-001
315105000 4.700912e-005 -1.259511e-004 -6.267647e-001 4.728638e-001 3.999273e-005 -8.268681e-005 1.001851e+000 -2.044517e-001
315390000 2.255710e-005 -1.378578e-005 -6.160798e-001 4.918849e-001 -6.405888e-005 -7.212655e-005 1.004087e+000 -2.042146e-001
315675000 2.396712e-005 -3.694877e-005 -6.043484e-001 5.099155e-001 2.497975e-005 -5.185050e-005 1.001124e+000 -2.027714e-001
315960000 8.391641e-005 1.027920e-004 -5.920328e-001 5.271751e-001 -4.002592e-005 -1.091112e-004 1.002513e+000 -2.048869e-001
316245000 1.472537e-004 -7.705134e-006 -5.795678e-001 5.443287e-001 1.086136e-006 -3.591410e-005 1.000471e+000 -2.042473e-001
316530000 3.112419e-005 1.331138e-004 -5.659909e-001 5.621831e-001 -5.886602e-005 -1.416969e-004 1.002791e+000 -2.057524e-001
316815000 -1.410940e-005 5.939464e-005 -5.525590e-001 5.799114e-001 -4.076498e-006 -5.238356e-005 1.003207e+000 -2.040814e-001
317100000 -8.776276e-006 1.266600e-005 -5.378301e-001 5.972637e-001 -6.363026e-005 -5.889329e-005 1.001216e+000 -2.042027e-001
317385000 -8.792369e-007 -7.739336e-005 -5.231562e-001 6.144118e-001 1.074780e-004 -1.292198e-004 1.003822e+000 -2.044381e-001
317670000 -8.258376e-005 -3.589160e-005 -5.077547e-001 6.313530e-001 7.512560e-005 -1.025350e-004 1.004196e+000 -2.059972e-001
317955000 -7.403555e-006 1.580410e-005 -4.918025e-001 6.477636e-001 2.846515e-005 -2.744838e-005 1.003222e+000 -2.052724e-001
318240000 -3.931410e-005 7.610981e-005 -4.755074e-001 6.649188e-001 -1.056418e-004 8.132837e-005 1.003122e+000 -2.055317e-001
318525000 -6.257685e-006 2.584224e-005 -4.590257e-001 6.818106e-001 -2.402397e-005 6.287693e-005 1.004144e+000 -2.050303e-001
318810000 -4.465009e-005 -1.368172e-004 -4.409689e-001 6.976687e-001 -2.742364e-005 5.882138e-006 1.003139e+000 -2.063990e-001
319095000 -5.650599e-005 -2.801366e-005 -4.224792e-001 7.136598e-001 5.926141e-005 2.304840e-006 1.003613e+000 -2.053044e-001
319380000 -1.709384e-004 -7.841421e-005 -4.032037e-001 7.297096e-001 -2.941967e-005 4.661653e-005 1.003092e+000 -2.063663e-001
319665000 -1.253755e-005 -7.025556e-006 -3.835781e-001 7.452370e-001 -4.710401e-005 -1.015856e-004 1.003023e+000 -2.073099e-001
319950000 1.138017e-005 8.847886e-006 -3.636593e-001 7.597626e-001 -1.955927e-005 2.072480e-005 1.003172e+000 -2.077777e-001
320235000 -3.980554e-005 2.224292e-005 -3.426746e-001 7.749203e-001 -3.111400e-005 -1.572426e-004 1.002881e+000 -2.086167e-001
320520000 -1.068299e-004 2.207301e-005 -3.211663e-001 7.895874e-001 -7.274073e-006 -2.734373e-005 1.001988e+000 -2.086753e-001
320805000 2.434769e-005 1.337064e-004 -2.986178e-001 8.028918e-001 -8.148284e-010 5.376344e-005 1.001787e+000 -2.069632e-001
321090000 -2.703479e-005 1.062897e-004 -2.762147e-001 8.163571e-001 8.107300e-005 -4.474504e-005 1.001486e+000 -2.091560e-001
321375000 5.741772e-006 5.968489e-005 -2.526151e-001 8.298923e-001 3.433912e-005 -2.573713e-005 1.002451e+000 -2.072494e-001
321660000 3.430400e-005 -5.385074e-006 -2.272557e-001 8.421327e-001 1.011087e-006 4.549996e-006 1.002676e+000 -2.086116e-001
321945000 7.539098e-006 6.009327e-005 -2.023765e-001 8.540711e-001 9.728438e-005 9.293274e-005 1.001681e+000 -2.097833e-001
322230000 -1.200341e-004 7.331002e-006 -1.761538e-001 8.657100e-001 -4.839831e-005 1.519294e-004 1.001961e+000 -2.100190e-001
322515000 -6.781978e-005 6.387632e-005 -1.495783e-001 8.765858e-001 -2.180169e-005 -2.933763e-005 1.001674e+000 -2.097813e-001
322800000 -1.918386e-004 1.126751e-004 -1.217577e-001 8.864567e-001 -8.053457e-005 -7.018485e-005 1.003110e+000 -2.091353e-001
323085000 -2.074214e-005 -7.733969e-005 -9.391160e-002 8.953479e-001 1.147139e-005 -8.234806e-006 1.002439e+000 -2.103579e-001
323370000 -7.359289e-006 -2.076211e-005 -6.493397e-002 9.037334e-001 -7.842519e-005 -6.384761e-005 1.002847e+000 -2.089884e-001
323655000 -1.691703e-005 3.919244e-005 -3.533183e-002 9.111263e-001 -3.917269e-005 -6.161090e-005 1.002405e+000 -2.105504e-001
323940000 -8.112241e-005 -1.213553e-004 -4.923363e-003 9.178036e-001 -8.450436e-005 -3.992681e-005 1.001351e+000 -2.104323e-001
324225000 -2.051817e-005 -1.217675e-006 2.666993e-002 9.230243e-001 4.246286e-005 3.276979e-005 1.000786e+000 -2.096949e-001
324510000 -6.462839e-005 7.787607e-005 5.890083e-002 9.277721e-001 -6.558047e-005 6.178807e-005 1.003026e+000 -2.127234e-001
324795000 1.227967e-004 7.642843e-005 9.073239e-002 9.313396e-001 -1.082063e-005 5.258454e-005 1.001356e+000 -2.104038e-001
325080000 6.816495e-005 3.170782e-005 1.242553e-001 9.332050e-001 5.306021e-005 -7.027932e-005 1.001411e+000 -2.112225e-001
325365000 1.362857e-006 6.835975e-005 1.573207e-001 9.337072e-001 7.755606e-006 -6.943301e-006 1.003203e+000 -2.106699e-001
325650000 -1.635516e-005 4.152611e-005 1.913192e-001 9.338156e-001 -3.687511e-005 3.632778e-005 1.002031e+000 -2.104724e-001
325935000 2.026223e-005 5.526373e-005 2.261873e-001 9.322013e-001 -1.467921e-006 -1.334566e-004 1.002355e+000 -2.123474e-001
326220000 -1.708662e-005 5.658274e-005 2.603305e-001 9.287795e-001 7.976806e-005 5.772211e-005 1.002859e+000 -2.120217e-001
326505000 -6.266947e-005 -3.100115e-005 2.958039e-001 9.238704e-001 6.032501e-006 -1.078577e-005 1.001344e+000 -2.126691e-001
326790000 -2.413439e-005 8.316700e-005 3.316083e-001 9.175287e-001 -4.244540e-005 -8.964366e-006 9.999537e-001 -2.121219e-001
327075000 8.592617e-005 4.292500e-005 3.670123e-001 9.094252e-001 -2.817288e-005 -4.687142e-005 1.001339e+000 -2.139070e-001
327360000 2.904892e-005 -4.450816e-005 4.024827e-001 8.997078e-001 2.045582e-005 8.544104e-005 1.002424e+000 -2.127475e-001
327645000 6.846144e-005 3.873106e-006 4.378068e-001 8.891221e-001 -6.156149e-005 6.579977e-005 1.001557e+000 -2.130271e-001
327930000 2.346115e-005 1.483620e-005 4.732158e-001 8.760001e-001 -5.406360e-006 7.210360e-005 1.000841e+000 -2.115578e-001
328215000 2.335978e-005 8.003411e-005 5.085788e-001 8.609763e-001 5.354765e-005 4.241133e-006 1.001695e+000 -2.139300e-001
328500000 -8.096643e-005 2.863096e-005 5.433571e-001 8.453581e-001 -3.962945e-005 -5.236194e-005 1.001356e+000 -2.137463e-001
328785000 -1.302151e-006 1.150744e-004 5.778068e-001 8.266281e-001 1.327789e-004 -3.531490e-005 1.000748e+000 -2.129439e-001
329070000 -4.706983e-005 1.607376e-007 6.108558e-001 8.072677e-001 -4.137477e-005 -5.668946e-005 1.000708e+000 -2.135126e-001
329355000 5.004045e-005 -6.035734e-005 6.441219e-001 7.850167e-001 -1.235984e-005 8.249383e-005 1.000687e+000 -2.138639e-001
329640000 -3.214577e-006 1.369782e-004 6.761830e-001 7.618133e-001 -5.143825e-005 1.130960e-004 1.001273e+000 -2.142922e-001
329925000 3.730696e-005 1.411953e-005 7.078283e-001 7.369752e-001 -1.318531e-005 -1.771261e-005 1.000097e+000 -2.148106e-001
330210000 -3.593740e-005 -5.539100e-005 7.373526e-001 7.105152e-001 5.759657e-005 -5.597727e-005 9.997876e-001 -2.153388e-001
330495000 -7.415276e-005 2.604378e-005 7.668491e-001 6.817496e-001 -1.514336e-005 -9.491009e-006 1.000007e+000 -2.149901e-001
330780000 -6.360188e-006 4.083800e-005 7.941325e-001 6.521163e-001 -1.695542e-005 -2.613846e-006 1.000132e+000 -2.153411e-001
331065000 3.176932e-005 1.053810e-004 8.205575e-001 6.215606e-001 1.332334e-005 3.947972e-005 9.994586e-001 -2.149313e-001
331350000 -4.808787e-005 1.056548e-005 8.457579e-001 5.883532e-001 5.403744e-005 1.232326e-004 1.001150e+000 -2.151552e-001
331635000 -1.657572e-005 1.055266e-005 8.687724e-001 5.550756e-001 -1.401435e-004 -1.806248e-005 1.000932e+000 -2.161308e-001
331920000 4.912019e-006 -2.203928e-005 8.901358e-001 5.207783e-001 2.777885e-005 1.312830e-004 1.000026e+000 -2.163052e-001
332205000 1.354619e-004 -5.324300e-005 9.095511e-001 4.841624e-001 -1.715447e-005 5.036281e-005 9.994120e-001 -2.165894e-001
332490000 2.365746e-005 6.936768e-005 9.281959e-001 4.480328e-001 -1.134574e-004 3.051042e-005 1.001142e+000 -2.168166e-001
332775000 6.716204e-005 -5.256952e-005 9.444830e-001 4.104851e-001 -4.944217e-005 -3.646856e-005 1.000356e+000 -2.163501e-001
333060000 3.913907e-005 1.900376e-005 9.580555e-001 3.727989e-001 1.374286e-005 -6.763914e-005 9.999118e-001 -2.159556e-001
333345000 -8.793432e-005 7.218192e-005 9.705944e-001 3.341520e-001 -2.755311e-005 -9.874555e-005 1.001133e+000 -2.157448e-001
333630000 5.239572e-005 -3.553755e-005 9.806399e-001 2.949834e-001 -2.148001e-005 5.411244e-005 9.999959e-001 -2.176535e-001
333915000 1.493173e-005 8.519796e-005 9.893306e-001 2.555854e-001 -3.674828e-006 -2.237007e-005 9.995200e-001 -2.175251e-001
334200000 1.205783e-005 1.031781e-004 9.950310e-001 2.159378e-001 -5.891966e-005 5.111787e-006 9.996318e-001 -2.182878e-001
334485000 -5.604875e-005 -3.855676e-005 1.000229e+000 1.768788e-001 -1.039021e-004 -1.183085e-004 1.000119e+000 -2.167763e-001
334770000 -8.193954e-005 4.320423e-005 1.002684e+000 1.376615e-001 4.233313e-005 -4.830471e-005 1.000425e+000 -2.182473e-001
335055000 -2.002789e-005 8.655297e-005 1.004080e+000 9.944176e-002 9.187119e-005 6.892389e-005 1.000266e+000 -2.190715e-001
335340000 7.031808e-005 6.909204e-005 1.003378e+000 6.061945e-002 -4.528660e-006 -4.854160e-005 9.999895e-001 -2.183776e-001
335625000 -4.640363e-005 1.694847e-004 1.000254e+000 2.301658e-002 3.392564e-005 9.709077e-005 1.001168e+000 -2.192131e-001
335910000 7.313492e-006 2.291010e-005 9.960052e-001 -1.430452e-002 -1.504231e-005 -5.061130e-005 1.001335e+000 -2.189868e-001
336195000 2.191188e-005 1.631069e-004 9.901958e-001 -5.211424e-002 -5.387919e-005 -6.775648e-005 9.986256e-001 -2.183192e-001
336480000 9.313128e-005 8.581625e-005 9.823257e-001 -8.732094e-002 6.592133e-006 -3.104322e-005 1.001108e+000 -2.181397e-001
336765000 9.576982e-006 -6.348133e-005 9.736351e-001 -1.227932e-001 1.159550e-005 6.169076e-005 1.000284e+000 -2.198688e-001
337050000 -8.133800e-005 5.965130e-005 9.637752e-001 -1.575091e-001 -1.057792e-005 1.039397e-004 1.000849e+000 -2.195801e-001
337335000 -1.353385e-004 3.429444e-005 9.518388e-001 -1.910475e-001 -5.842505e-005 1.351399e-004 1.000173e+000 -2.209001e-001
337620000 8.005184e-005 3.644870e-005 9.392945e-001 -2.237895e-001 6.414650e-006 5.728503e-005 9.995413e-001 -2.204690e-001
337905000 -3.452491e-005 4.848966e-005 9.252707e-001 -2.560268e-001 1.053173e-004 5.663846e-006 9.986855e-001 -2.197011e-001
338190000 2.079158e-005 7.068065e-005 9.103948e-001 -2.863971e-001 4.028244e-005 3.759555e-005 9.987476e-001 -2.207370e-001
338475000 -2.763457e-005 1.602820e-004 8.947907e-001 -3.152623e-001 4.716236e-005 3.117993e-005 1.000930e+000 -2.191973e-001
338760000 -9.626448e-005 -8.133224e-006 8.777511e-001 -3.436847e-001 -1.149313e-004 8.029545e-005 9.997985e-001 -2.196556e-001
339045000 -8.343894e-005 1.412859e-005 8.597107e-001 -3.717664e-001 6.409200e-005 -8.811300e-005 1.001228e+000 -2.210805e-001
339330000 -9.307366e-005 7.316010e-005 8.422047e-001 -3.977117e-001 2.704692e-005 -3.656825e-005 1.001810e+000 -2.191942e-001
339615000 -1.485826e-004 2.531644e-007 8.229086e-001 -4.233697e-001 -5.308490e-005 2.450233e-005 1.000460e+000 -2.208778e-001
339900000 -1.952305e-005 -2.735485e-005 8.034920e-001 -4.483335e-001 -6.484779e-006 2.794173e-005 1.001383e+000 -2.212625e-001
340185000 -6.917999e-005 -5.071544e-005 7.833609e-001 -4.705027e-001 1.009860e-005 -3.390577e-005 1.000573e+000 -2.218042e-001
340470000 -9.308770e-005 -4.647190e-005 7.628394e-001 -4.927528e-001 -9.900540e-005 4.021317e-005 1.000186e+000 -2.200411e-001
340755000 3.669787e-005 -8.139649e-005 7.417366e-001 -5.142250e-001 -5.265845e-005 2.362387e-005 1.000580e+000 -2.228176e-001
341040000 -3.806631e-005 7.573087e-005 7.203799e-001 -5.339751e-001 -2.587866e-005 -4.481460e-006 9.990153e-001 -2.219620e-001
341325000 8.885138e-006 6.435146e-005 6.986176e-001 -5.530992e-001 -6.209732e-005 -1.889450e-005 1.001327e+000 -2.220797e-001
341610000 -6.775340e-005 5.220034e-005 6.767805e-001 -5.709466e-001 9.701218e-005 -5.134095e-005 1.001833e+000 -2.211939e-001
341895000 -6.838153e-005 3.172563e-005 6.546652e-001 -5.885847e-001 -8.398431e-006 -4.676560e-005 9.991412e-001 -2.234058e-001
342180000 1.168913e-004 1.378108e-004 6.327330e-001 -6.044474e-001 -6.142015e-005 1.035559e-005 1.001648e+000 -2.227555e-001
342465000 3.852028e-005 -1.565089e-005 6.104572e-001 -6.206155e-001 -1.908804e-005 -3.387034e-005 1.000014e+000 -2.245672e-001
342750000 1.647653e-006 6.921189e-006 5.872367e-001 -6.345376e-001 6.263555e-005 2.513096e-005 1.001422e+000 -2.231397e-001
343035000 1.669945e-005 9.615745e-005 5.651596e-001 -6.485463e-001 9.699599e-005 -3.987255e-005 1.000734e+000 -2.226218e-001
343320000 -1.872314e-005 2.207106e-005 5.422832e-001 -6.606894e-001 3.934298e-005 5.457695e-005 9.991957e-001 -2.242827e-001
343605000 -4.403384e-005 -1.079092e-004 5.194317e-001 -6.734838e-001 -5.119683e-005 2.270775e-005 1.000724e+000 -2.241204e-001
343890000 -1.577490e-004 -2.779504e-005 4.969628e-001 -6.842896e-001 8.039116e-005 3.768803e-005 1.000877e+000 -2.248378e-001
