!Agilent Technologies,N5230C,SG49000117,A.08.50.07
!Agilent N5230C: A.08.50.07
!Date: Monday, March 18, 2024 18:07:58
!Correction: S11(Off) 
!S21(Off) 
!S12(Off) 
!S22(Full 1 Port(2)) 
!S2P File: Measurements: S11, S21, S12, S22:
# Hz S  RI   R 50
300000000 1.008506e-004 1.101534e-005 -6.346735e-001 -6.309115e-001 -4.460402e-005 -3.095324e-005 9.979171e-001 -2.177524e-001
300285000 5.525595e-005 1.091511e-004 -6.495746e-001 -6.076660e-001 4.701818e-005 -4.790727e-005 9.979741e-001 -2.179399e-001
300570000 -5.119273e-005 -1.107445e-005 -6.632168e-001 -5.842989e-001 -8.095419e-006 8.795392e-007 9.986959e-001 -2.185674e-001
300855000 -1.966525e-005 -6.239670e-008 -6.766501e-001 -5.608798e-001 1.043871e-004 -1.518345e-004 9.998536e-001 -2.192094e-001
301140000 6.755705e-005 -3.643443e-005 -6.886526e-001 -5.366610e-001 5.507554e-005 -4.004862e-005 9.978284e-001 -2.191390e-001
301425000 5.373352e-005 -1.221366e-004 -6.996608e-001 -5.130979e-001 -1.278182e-005 -2.047652e-005 9.996759e-001 -2.199671e-001
301710000 -4.161009e-005 1.299503e-005 -7.104970e-001 -4.894709e-001 2.348519e-006 1.956141e-005 9.985582e-001 -2.210362e-001
301995000 -1.016190e-004 -3.201288e-005 -7.202402e-001 -4.663183e-001 -3.072802e-005 -2.608131e-005 9.988365e-001 -2.194604e-001
302280000 -7.235123e-006 -1.043467e-004 -7.294357e-001 -4.428630e-001 -2.172410e-005 5.925048e-005 9.986002e-001 -2.210293e-001
302565000 -7.975934e-005 -5.958752e-005 -7.377553e-001 -4.189878e-001 -4.498786e-005 1.351645e-004 1.001379e+000 -2.204918e-001
302850000 4.228801e-005 4.415874e-005 -7.449279e-001 -3.960430e-001 1.185663e-004 8.490434e-006 9.978848e-001 -2.193335e-001
303135000 4.186813e-006 5.169836e-005 -7.521513e-001 -3.724957e-001 6.667527e-006 -2.875477e-005 9.980222e-001 -2.220264e-001
303420000 6.520903e-007 -3.084919e-005 -7.580944e-001 -3.495182e-001 3.424581e-005 -1.851865e-006 9.977964e-001 -2.213514e-001
303705000 -2.528750e-005 3.920638e-005 -7.638363e-001 -3.262789e-001 -3.907317e-006 1.213788e-004 9.990420e-001 -2.205805e-001
303990000 -1.380123e-005 1.042917e-004 -7.692106e-001 -3.038690e-001 1.528567e-005 -6.819071e-005 9.982440e-001 -2.231613e-001
304275000 1.124798e-004 -2.270128e-005 -7.735770e-001 -2.810082e-001 -2.233687e-004 3.458402e-005 9.986541e-001 -2.200674e-001
304560000 -1.082779e-005 -3.450170e-006 -7.768409e-001 -2.583122e-001 6.108282e-005 -3.795080e-005 9.987697e-001 -2.211113e-001
304845000 -5.801281e-005 -2.372325e-005 -7.801525e-001 -2.354985e-001 -2.993731e-005 -1.219137e-004 9.969205e-001 -2.226635e-001
305130000 -6.859658e-005 3.770863e-005 -7.832832e-001 -2.138626e-001 5.166910e-005 -6.582662e-005 9.978846e-001 -2.216480e-001
305415000 -6.063197e-005 -1.370104e-004 -7.856799e-001 -1.917722e-001 -2.639460e-005 -6.920223e-005 9.985992e-001 -2.225831e-001
305700000 -8.654276e-005 2.501415e-005 -7.868686e-001 -1.695875e-001 6.952702e-006 2.622879e-006 9.985945e-001 -2.204536e-001
305985000 -1.982309e-007 -4.085606e-005 -7.882856e-001 -1.474986e-001 3.325484e-005 -4.451284e-005 9.988457e-001 -2.229706e-001
306270000 6.328901e-005 3.840787e-005 -7.892146e-001 -1.264493e-001 2.149475e-005 -8.976676e-005 1.000339e+000 -2.216248e-001
306555000 -5.117311e-006 -5.173818e-005 -7.894894e-001 -1.045964e-001 -1.311645e-005 1.092725e-004 9.989417e-001 -2.239930e-001
306840000 5.757388e-005 -3.619348e-005 -7.895622e-001 -8.343108e-002 1.837152e-005 -7.025521e-005 9.989059e-001 -2.224214e-001
307125000 3.673409e-006 -7.113337e-005 -7.894334e-001 -6.203118e-002 8.196880e-005 6.854758e-005 9.967673e-001 -2.229758e-001
307410000 1.284256e-004 -2.473416e-005 -7.884080e-001 -4.111384e-002 -2.138892e-005 5.573549e-005 9.985452e-001 -2.240691e-001
307695000 5.840324e-005 8.167240e-005 -7.870391e-001 -2.057816e-002 5.726787e-006 6.674044e-005 1.000211e+000 -2.247623e-001
307980000 2.646617e-005 2.903632e-005 -7.853508e-001 6.584345e-004 -3.647256e-006 8.740895e-005 9.965613e-001 -2.237653e-001
308265000 4.539714e-005 6.636581e-005 -7.833729e-001 2.080623e-002 -5.327873e-005 6.528305e-006 9.958577e-001 -2.243217e-001
308550000 -1.986736e-005 -4.633224e-005 -7.805972e-001 4.147157e-002 1.846280e-006 2.625292e-005 9.975035e-001 -2.217069e-001
308835000 -2.347818e-005 4.705458e-005 -7.775958e-001 6.152706e-002 -1.087539e-005 5.337727e-005 9.970881e-001 -2.234771e-001
309120000 -5.766681e-005 1.181504e-005 -7.745342e-001 8.164040e-002 -8.573968e-005 4.598727e-005 9.982477e-001 -2.254495e-001
309405000 -2.572916e-005 7.177886e-005 -7.708300e-001 1.018031e-001 -1.412263e-004 -3.293598e-005 1.000481e+000 -2.260707e-001
309690000 2.937899e-005 7.785943e-005 -7.672890e-001 1.218062e-001 -4.732685e-005 4.932883e-005 1.000130e+000 -2.275658e-001
309975000 -6.551105e-005 2.915716e-005 -7.627894e-001 1.411941e-001 -1.951261e-005 -1.945682e-005 9.977609e-001 -2.253316e-001
310260000 1.163079e-005 -3.480483e-005 -7.580948e-001 1.610197e-001 2.513217e-006 9.486244e-005 1.000419e+000 -2.243002e-001
310545000 -3.781870e-005 -6.012918e-005 -7.532545e-001 1.810291e-001 2.734254e-005 1.823655e-005 9.994413e-001 -2.256413e-001
310830000 -4.227257e-005 -4.781580e-005 -7.480390e-001 2.004882e-001 -1.890197e-005 -3.070159e-005 9.992900e-001 -2.268960e-001
311115000 -6.653287e-005 -4.116740e-005 -7.423875e-001 2.198391e-001 1.164416e-004 3.745926e-005 9.992126e-001 -2.263800e-001
311400000 6.866727e-005 6.773107e-005 -7.359322e-001 2.388515e-001 -1.835711e-005 -3.227042e-005 9.982665e-001 -2.269230e-001
311685000 8.437093e-005 -4.060215e-005 -7.295675e-001 2.577579e-001 6.123241e-005 -1.232007e-005 9.973101e-001 -2.277356e-001
311970000 -5.646131e-005 -1.376649e-006 -7.226114e-001 2.767376e-001 2.407245e-005 1.520273e-004 9.958627e-001 -2.277105e-001
312255000 -2.062629e-005 -1.067502e-005 -7.157768e-001 2.960927e-001 1.636031e-004 6.957320e-005 9.963702e-001 -2.274471e-001
312540000 1.251173e-004 -2.437320e-005 -7.079234e-001 3.147647e-001 3.955871e-005 -3.506266e-005 9.984530e-001 -2.272275e-001
312825000 2.265051e-005 1.519535e-005 -7.001578e-001 3.337737e-001 1.478831e-005 5.227344e-005 9.996980e-001 -2.277566e-001
313110000 8.309298e-005 -2.696613e-005 -6.918349e-001 3.526371e-001 -5.636341e-006 7.106824e-005 9.970592e-001 -2.295012e-001
313395000 -8.501059e-006 -6.325998e-005 -6.831845e-001 3.711919e-001 -4.104648e-005 6.490957e-005 9.990984e-001 -2.278249e-001
313680000 -1.070166e-004 -7.792384e-006 -6.746868e-001 3.894927e-001 5.678867e-006 3.093628e-006 9.998347e-001 -2.291382e-001
313965000 -2.448115e-005 1.394530e-005 -6.647058e-001 4.078702e-001 -6.181745e-005 6.328373e-005 9.979623e-001 -2.275352e-001
314250000 -9.887185e-005 1.112761e-006 -6.549791e-001 4.261745e-001 -4.427370e-005 -6.562829e-006 9.964575e-001 -2.286236e-001
314535000 5.105600e-006 -1.249593e-005 -6.447383e-001 4.446706e-001 -1.153465e-004 -5.253599e-005 9.968317e-001 -2.293705e-001
314820000 -8.722939e-005 1.194042e-004 -6.339748e-001 4.626818e-001 1.096264e-004 2.533898e-005 9.974111e-001 -2.304673e-001
315105000 -5.997479e-006 3.012942e-005 -6.227808e-001 4.803786e-001 -2.250161e-005 -9.428188e-005 9.956558e-001 -2.291464e-001
315390000 1.489201e-005 -5.421362e-006 -6.116053e-001 4.989339e-001 3.206263e-005 -9.210026e-006 9.991935e-001 -2.306612e-001
315675000 -4.247194e-005 1.036480e-004 -5.996872e-001 5.166469e-001 4.306134e-005 3.714946e-005 9.962929e-001 -2.275234e-001
315960000 -1.110529e-004 -1.401816e-004 -5.863380e-001 5.346748e-001 -6.280969e-005 -1.094549e-005 9.957094e-001 -2.302884e-001
316245000 -3.279968e-005 1.443871e-005 -5.736848e-001 5.517810e-001 9.350743e-005 3.573785e-008 9.968608e-001 -2.297370e-001
316530000 6.397292e-005 -1.000881e-004 -5.603080e-001 5.694321e-001 3.804036e-005 1.158879e-005 9.970485e-001 -2.309480e-001
316815000 1.098519e-004 -8.240389e-005 -5.465337e-001 5.870717e-001 8.513135e-005 4.663265e-005 9.970365e-001 -2.292718e-001
317100000 -1.008983e-005 -7.056874e-005 -5.319242e-001 6.039156e-001 -5.350356e-005 1.459989e-005 9.978331e-001 -2.299475e-001
317385000 -1.079199e-004 1.663294e-005 -5.169358e-001 6.212199e-001 -2.139045e-005 -3.595277e-005 9.984567e-001 -2.304158e-001
317670000 3.452472e-005 -1.690664e-005 -5.011802e-001 6.380526e-001 2.724813e-006 2.040016e-005 9.983997e-001 -2.308941e-001
317955000 -3.129079e-005 1.191708e-005 -4.853787e-001 6.549428e-001 6.086358e-005 -9.444026e-005 9.979689e-001 -2.311104e-001
318240000 -1.308666e-004 4.952714e-005 -4.688021e-001 6.714997e-001 2.235527e-005 -7.305686e-005 9.968736e-001 -2.315469e-001
318525000 -4.757638e-005 -3.746807e-005 -4.513559e-001 6.873926e-001 5.838570e-005 -5.324351e-005 9.971527e-001 -2.308306e-001
318810000 -1.123927e-004 -8.121839e-005 -4.329478e-001 7.035510e-001 2.954435e-005 -2.296721e-005 9.967023e-001 -2.334784e-001
319095000 -9.091050e-005 -1.033405e-004 -4.150513e-001 7.200354e-001 1.474041e-004 -7.607423e-006 9.962279e-001 -2.305133e-001
319380000 -1.395108e-005 -4.846557e-005 -3.954723e-001 7.353569e-001 4.615968e-005 -1.895357e-005 9.981579e-001 -2.329711e-001
319665000 4.384121e-005 -2.829781e-005 -3.760588e-001 7.514169e-001 1.649235e-005 -6.423426e-005 9.987348e-001 -2.334534e-001
319950000 -5.167959e-006 -7.063098e-006 -3.549287e-001 7.652695e-001 -1.139004e-004 1.601795e-005 9.975427e-001 -2.345333e-001
320235000 -5.125692e-006 -5.414609e-006 -3.339850e-001 7.802434e-001 -5.679296e-005 -6.012537e-005 9.984779e-001 -2.342066e-001
320520000 6.376819e-005 1.356869e-004 -3.116539e-001 7.944083e-001 7.163035e-005 -4.178425e-005 9.968110e-001 -2.338027e-001
320805000 1.738740e-005 6.847336e-006 -2.889516e-001 8.083412e-001 3.209254e-005 -3.189389e-005 9.948161e-001 -2.334129e-001
321090000 -5.105916e-005 7.627436e-005 -2.660717e-001 8.214612e-001 -6.088945e-005 1.359364e-004 9.957353e-001 -2.337154e-001
321375000 2.017038e-005 -3.053542e-005 -2.425227e-001 8.342390e-001 -2.592521e-005 6.807529e-005 9.968774e-001 -2.331624e-001
321660000 -6.120695e-005 5.639943e-005 -2.171751e-001 8.462429e-001 -4.559082e-005 -6.087304e-005 9.963810e-001 -2.338626e-001
321945000 -1.230443e-007 1.507980e-004 -1.916829e-001 8.583851e-001 3.176610e-005 -6.106964e-006 9.967882e-001 -2.347508e-001
322230000 6.448495e-005 2.055910e-005 -1.656868e-001 8.698880e-001 6.055222e-006 -1.007417e-005 9.962007e-001 -2.347387e-001
322515000 -1.249465e-004 1.179666e-005 -1.380806e-001 8.801851e-001 -2.173519e-005 -2.187046e-005 9.948350e-001 -2.358297e-001
322800000 -6.843059e-005 -4.368957e-005 -1.110237e-001 8.897836e-001 -2.213886e-005 5.729969e-005 9.976363e-001 -2.355005e-001
323085000 6.337723e-006 3.796706e-005 -8.188350e-002 8.982825e-001 1.480883e-005 1.071104e-005 9.960085e-001 -2.354803e-001
323370000 3.541296e-005 3.256328e-006 -5.297681e-002 9.059499e-001 8.937011e-005 -1.120636e-004 9.972880e-001 -2.368668e-001
323655000 2.033149e-005 -7.808230e-005 -2.262938e-002 9.141122e-001 -3.550183e-005 -5.051386e-005 9.966806e-001 -2.351975e-001
323940000 -3.254690e-005 -8.046034e-005 8.191116e-003 9.190080e-001 1.852129e-005 -6.599024e-005 9.969872e-001 -2.367765e-001
324225000 6.562194e-005 -8.279987e-005 3.906701e-002 9.245015e-001 -2.686502e-005 1.068231e-005 9.950050e-001 -2.367404e-001
324510000 6.679943e-005 -4.167073e-005 7.131355e-002 9.289598e-001 1.132232e-004 5.761231e-005 9.965625e-001 -2.388663e-001
324795000 4.014352e-006 4.352407e-006 1.040357e-001 9.313037e-001 1.503702e-004 -1.086629e-004 9.965547e-001 -2.370641e-001
325080000 1.956461e-005 5.637885e-005 1.371567e-001 9.334396e-001 4.599759e-005 -3.757922e-005 9.949363e-001 -2.372505e-001
325365000 1.714071e-004 -1.722427e-005 1.706361e-001 9.341640e-001 6.902449e-005 -3.426941e-006 9.966022e-001 -2.369027e-001
325650000 7.296793e-006 7.247544e-005 2.049298e-001 9.332190e-001 -2.130692e-006 -1.358051e-004 9.955063e-001 -2.363646e-001
325935000 7.110708e-005 4.415381e-005 2.398327e-001 9.296999e-001 1.833279e-005 -1.064838e-004 9.960158e-001 -2.368616e-001
326220000 7.533730e-005 -1.603208e-005 2.738563e-001 9.265795e-001 3.262035e-005 8.622703e-005 9.964058e-001 -2.388259e-001
326505000 1.029387e-004 -4.297539e-005 3.094684e-001 9.213730e-001 7.605604e-005 3.741051e-005 9.958296e-001 -2.391223e-001
326790000 4.956948e-005 -1.858054e-006 3.449663e-001 9.143844e-001 8.209264e-005 1.024262e-004 9.943695e-001 -2.373182e-001
327075000 -3.109981e-005 -2.435593e-005 3.802776e-001 9.059922e-001 4.880508e-005 6.062225e-005 9.960831e-001 -2.390006e-001
327360000 -6.994035e-005 -8.574176e-006 4.162735e-001 8.959573e-001 6.690489e-005 2.453795e-005 9.973638e-001 -2.391291e-001
327645000 -4.297147e-005 -5.915806e-005 4.510109e-001 8.835152e-001 -1.338205e-005 -1.087842e-004 9.964717e-001 -2.384825e-001
327930000 -5.907172e-005 1.025297e-004 4.870835e-001 8.709603e-001 5.760909e-005 -3.441555e-005 9.957567e-001 -2.387159e-001
328215000 -5.436306e-005 -4.634525e-005 5.220203e-001 8.552129e-001 6.559293e-005 1.076655e-005 9.959083e-001 -2.396641e-001
328500000 4.847126e-005 1.311837e-004 5.564231e-001 8.381540e-001 5.445067e-005 9.717274e-006 9.946173e-001 -2.401102e-001
328785000 -2.588876e-005 -7.391541e-006 5.904043e-001 8.192456e-001 9.176100e-005 3.417350e-005 9.947200e-001 -2.393710e-001
329070000 9.182926e-005 6.107336e-006 6.237567e-001 7.980491e-001 -5.455602e-005 5.705208e-005 9.956001e-001 -2.398056e-001
329355000 -3.483036e-005 1.688852e-005 6.571836e-001 7.760766e-001 6.539023e-006 3.921850e-005 9.946198e-001 -2.413339e-001
329640000 1.815406e-005 4.409653e-005 6.879491e-001 7.520337e-001 -3.157364e-005 2.684626e-005 9.953799e-001 -2.415361e-001
329925000 1.853095e-004 1.075118e-004 7.190882e-001 7.263303e-001 2.215629e-005 3.140972e-007 9.950854e-001 -2.404613e-001
330210000 -3.859132e-005 -7.525821e-005 7.490245e-001 6.988092e-001 -9.269294e-005 4.636398e-005 9.944986e-001 -2.411762e-001
330495000 -9.281711e-005 -7.895657e-006 7.778274e-001 6.703752e-001 1.283542e-004 -7.980644e-005 9.935712e-001 -2.415921e-001
330780000 -2.021702e-005 6.533408e-005 8.045028e-001 6.403091e-001 6.728082e-006 4.523723e-005 9.950868e-001 -2.432251e-001
331065000 5.354463e-005 -3.671426e-005 8.306583e-001 6.076853e-001 3.957781e-005 -9.003497e-006 9.935980e-001 -2.412180e-001
331350000 5.495042e-005 4.531733e-005 8.542364e-001 5.752451e-001 -9.149719e-005 -1.829094e-005 9.929673e-001 -2.431534e-001
331635000 3.288548e-005 -1.386209e-004 8.770940e-001 5.420764e-001 -3.933597e-005 4.176405e-005 9.950224e-001 -2.413783e-001
331920000 6.984083e-005 7.951444e-005 8.982928e-001 5.062293e-001 4.122039e-005 1.893112e-005 9.944606e-001 -2.428287e-001
332205000 -3.019594e-006 2.794853e-005 9.169324e-001 4.705122e-001 -8.894533e-006 5.699342e-005 9.942842e-001 -2.434913e-001
332490000 1.592351e-005 1.396965e-004 9.346800e-001 4.330832e-001 6.349983e-005 -9.718516e-005 9.956027e-001 -2.424534e-001
332775000 -5.012469e-005 1.270587e-004 9.503233e-001 3.955065e-001 3.774571e-005 -2.035367e-005 9.945006e-001 -2.426401e-001
333060000 2.235937e-006 -3.090036e-005 9.635256e-001 3.574344e-001 5.641516e-005 -3.246807e-005 9.942175e-001 -2.441296e-001
333345000 -5.494865e-006 -1.914474e-006 9.749025e-001 3.189576e-001 2.215040e-005 -6.570222e-005 9.953619e-001 -2.425411e-001
333630000 5.245514e-005 1.982068e-005 9.845094e-001 2.792704e-001 6.962455e-005 2.934309e-005 9.947906e-001 -2.446290e-001
333915000 5.444682e-005 1.417962e-004 9.927800e-001 2.396238e-001 1.631906e-004 -1.206497e-004 9.941967e-001 -2.442296e-001
334200000 7.954670e-005 3.035176e-005 9.983809e-001 2.010075e-001 1.045551e-004 -3.330608e-006 9.953641e-001 -2.453586e-001
334485000 -7.533179e-005 6.760727e-005 1.002221e+000 1.613293e-001 8.746640e-005 3.869975e-005 9.948068e-001 -2.437031e-001
334770000 -7.701879e-005 1.897047e-005 1.004491e+000 1.224175e-001 6.055211e-005 4.694656e-005 9.941882e-001 -2.442624e-001
335055000 -3.905746e-005 5.603711e-005 1.004441e+000 8.312094e-002 2.847169e-005 -4.369197e-005 9.949062e-001 -2.435806e-001
335340000 -4.939576e-005 4.200715e-005 1.002386e+000 4.555091e-002 7.724209e-005 -6.352038e-005 9.951807e-001 -2.458439e-001
335625000 -3.184069e-005 -2.167653e-005 9.996402e-001 7.834516e-003 -5.901839e-006 -6.246909e-005 9.949740e-001 -2.459635e-001
335910000 -1.133453e-004 4.402988e-005 9.943568e-001 -2.947676e-002 -3.586457e-006 1.655774e-005 9.941829e-001 -2.459902e-001
336195000 4.250622e-005 4.297447e-005 9.880926e-001 -6.653102e-002 -9.034853e-005 5.659520e-005 9.933463e-001 -2.455141e-001
336480000 1.171971e-005 5.349364e-005 9.796421e-001 -1.026144e-001 2.500459e-007 -1.229895e-005 9.943535e-001 -2.450323e-001
336765000 -1.524051e-006 9.370648e-005 9.707289e-001 -1.376872e-001 7.005817e-005 -3.853707e-005 9.935036e-001 -2.465163e-001
337050000 -2.801469e-005 7.136855e-005 9.596879e-001 -1.712145e-001 -5.656912e-005 5.580757e-005 9.934670e-001 -2.467713e-001
337335000 -3.326721e-005 1.524762e-005 9.478023e-001 -2.053212e-001 -8.118599e-006 -1.064312e-004 9.940344e-001 -2.475928e-001
337620000 1.717825e-005 -7.299114e-005 9.342165e-001 -2.369103e-001 -4.852169e-006 7.160077e-005 9.934534e-001 -2.482581e-001
337905000 -4.248101e-007 2.942910e-005 9.202892e-001 -2.682891e-001 -7.377437e-005 -8.939568e-005 9.925289e-001 -2.454926e-001
338190000 -3.715750e-005 -7.895152e-005 9.042490e-001 -2.988047e-001 3.792116e-005 4.223997e-005 9.939899e-001 -2.481270e-001
338475000 -7.299147e-005 8.216341e-006 8.882275e-001 -3.279451e-001 -7.214128e-005 -1.462111e-005 9.942771e-001 -2.464653e-001
338760000 -7.486087e-005 -9.601477e-005 8.710188e-001 -3.560143e-001 -8.896292e-005 2.212379e-005 9.943250e-001 -2.469639e-001
339045000 -6.659264e-005 4.069768e-005 8.527933e-001 -3.832879e-001 7.243711e-005 -4.057474e-005 9.945674e-001 -2.475623e-001
339330000 -8.963970e-005 1.736255e-005 8.346612e-001 -4.087446e-001 -2.164488e-006 8.287452e-006 9.949172e-001 -2.460310e-001
339615000 -9.919798e-006 -1.491224e-005 8.148846e-001 -4.347478e-001 9.140481e-005 -4.714670e-005 9.940117e-001 -2.494591e-001
339900000 4.664158e-005 -1.129909e-005 7.954829e-001 -4.577725e-001 -1.884221e-006 3.904477e-005 9.941097e-001 -2.490368e-001
340185000 9.202797e-006 -4.688830e-005 7.750543e-001 -4.807961e-001 -1.428742e-005 -8.462009e-005 9.935668e-001 -2.487808e-001
340470000 1.232210e-005 -5.143371e-005 7.537973e-001 -5.022022e-001 -4.206885e-005 3.173431e-006 9.939441e-001 -2.483221e-001
340755000 1.751353e-005 4.976254e-006 7.328818e-001 -5.229729e-001 3.947411e-005 1.051041e-004 9.926308e-001 -2.496001e-001
341040000 1.895757e-006 6.510447e-005 7.118425e-001 -5.427168e-001 -3.846046e-005 1.019073e-004 9.935673e-001 -2.505455e-001
341325000 3.238694e-007 1.433366e-005 6.896953e-001 -5.613320e-001 -9.028267e-005 4.427692e-005 9.940155e-001 -2.487793e-001
341610000 4.569412e-005 4.705762e-005 6.677206e-001 -5.791496e-001 1.777910e-005 2.196962e-005 9.947039e-001 -2.488874e-001
341895000 -1.016715e-005 -5.113860e-005 6.454503e-001 -5.962158e-001 -4.922678e-005 -2.997243e-005 9.942913e-001 -2.510757e-001
342180000 -5.318090e-005 -4.928834e-006 6.231462e-001 -6.116596e-001 6.893348e-005 -1.507277e-004 9.949074e-001 -2.522822e-001
342465000 -5.838045e-005 -2.848470e-005 6.009322e-001 -6.269581e-001 4.658285e-006 -8.144812e-007 9.920313e-001 -2.505176e-001
342750000 7.610443e-006 -2.898510e-005 5.783578e-001 -6.415059e-001 7.577646e-005 1.533592e-005 9.957901e-001 -2.498707e-001
343035000 1.154568e-004 2.597496e-005 5.556026e-001 -6.543207e-001 -1.387926e-005 4.987499e-005 9.934273e-001 -2.516273e-001
343320000 2.257498e-005 -2.290014e-005 5.325253e-001 -6.666831e-001 7.816884e-005 8.419832e-006 9.913250e-001 -2.508382e-001
343605000 3.282859e-005 6.611826e-005 5.101879e-001 -6.786532e-001 -5.414779e-005 4.144850e-005 9.931011e-001 -2.512288e-001
343890000 1.616483e-005 -6.455360e-005 4.875239e-001 -6.894893e-001 5.627135e-006 -1.208562e-004 9.953741e-001 -2.530645e-001
