!Agilent Technologies,N5230C,SG49000117,A.08.50.07
!Agilent N5230C: A.08.50.07
!Date: Monday, March 18, 2024 18:09:14
!Correction: S11(Off) 
!S21(Off) 
!S12(Off) 
!S22(Full 1 Port(2)) 
!S2P File: Measurements: S11, S21, S12, S22:
# Hz S  RI   R 50
300000000 2.559407e-005 -7.964473e-005 -6.406942e-001 -6.221156e-001 -1.997370e-005 4.159538e-005 9.896669e-001 -2.429392e-001
300285000 -1.352602e-005 -3.917595e-005 -6.554918e-001 -5.983399e-001 2.152434e-005 -7.050182e-005 9.909884e-001 -2.429314e-001
300570000 -6.607229e-005 8.570197e-006 -6.688936e-001 -5.753827e-001 -9.585154e-005 -6.090662e-006 9.901800e-001 -2.424833e-001
300855000 -3.782929e-005 1.336465e-004 -6.808801e-001 -5.514636e-001 -1.129189e-004 -8.449213e-007 9.909316e-001 -2.433072e-001
301140000 -4.902591e-005 7.002662e-005 -6.932444e-001 -5.279126e-001 1.723604e-005 3.039644e-005 9.911782e-001 -2.438796e-001
301425000 8.115344e-005 2.362177e-005 -7.038399e-001 -5.038837e-001 -2.481707e-007 -6.942709e-005 9.916677e-001 -2.432649e-001
301710000 -8.105562e-005 9.258069e-005 -7.145237e-001 -4.802704e-001 -4.817365e-005 3.228401e-005 9.921706e-001 -2.454989e-001
301995000 1.698639e-005 8.485793e-005 -7.235357e-001 -4.571633e-001 8.688530e-005 5.765154e-005 9.904025e-001 -2.429976e-001
302280000 2.296060e-005 -2.389719e-005 -7.326054e-001 -4.332883e-001 -6.244417e-005 -2.246669e-005 9.928054e-001 -2.437649e-001
302565000 -7.299166e-005 -3.612119e-005 -7.404127e-001 -4.093940e-001 -4.017638e-006 -4.521237e-006 9.922414e-001 -2.438452e-001
302850000 5.047852e-005 2.423492e-005 -7.475266e-001 -3.863885e-001 -6.112369e-005 -6.663956e-005 9.909433e-001 -2.431381e-001
303135000 -4.418292e-005 -3.592546e-005 -7.539846e-001 -3.631761e-001 -1.020562e-004 -4.263922e-005 9.910977e-001 -2.466355e-001
303420000 1.007974e-005 -1.156816e-004 -7.601905e-001 -3.402171e-001 -4.081427e-005 2.669448e-005 9.897925e-001 -2.468952e-001
303705000 3.675049e-005 4.756645e-005 -7.657065e-001 -3.167421e-001 -6.236231e-005 3.968365e-006 9.917414e-001 -2.463025e-001
303990000 1.172271e-004 -2.301054e-006 -7.705439e-001 -2.940455e-001 -1.225105e-005 -7.689821e-005 9.908918e-001 -2.456214e-001
304275000 7.850678e-005 -1.587530e-005 -7.745064e-001 -2.719734e-001 2.758642e-005 -6.720868e-005 9.915918e-001 -2.472883e-001
304560000 -2.201538e-005 8.862943e-005 -7.784845e-001 -2.490733e-001 -3.443643e-006 -1.194781e-004 9.894933e-001 -2.461907e-001
304845000 -1.237747e-004 -5.536666e-005 -7.816724e-001 -2.270032e-001 1.592696e-005 -3.655930e-005 9.899658e-001 -2.466575e-001
305130000 6.838109e-005 -4.035319e-006 -7.841194e-001 -2.049475e-001 -1.582583e-004 -4.183393e-005 9.892435e-001 -2.458530e-001
305415000 8.458411e-005 2.197149e-005 -7.862641e-001 -1.827997e-001 -9.157894e-006 -1.471477e-006 9.908872e-001 -2.462829e-001
305700000 8.873954e-005 -8.856700e-007 -7.874841e-001 -1.608292e-001 8.806298e-005 -4.352805e-005 9.913676e-001 -2.457421e-001
305985000 1.238520e-005 1.073288e-004 -7.884723e-001 -1.393077e-001 7.776823e-005 8.143836e-005 9.908745e-001 -2.484567e-001
306270000 1.286214e-004 5.778274e-005 -7.891725e-001 -1.181238e-001 4.185084e-005 7.167623e-005 9.931234e-001 -2.466559e-001
306555000 -3.328778e-005 5.386218e-005 -7.893953e-001 -9.598991e-002 4.664557e-005 -3.000970e-005 9.916098e-001 -2.486926e-001
306840000 1.998570e-005 -6.355056e-006 -7.893158e-001 -7.464468e-002 -1.848886e-005 1.872052e-005 9.910244e-001 -2.475910e-001
307125000 -4.142530e-005 3.671988e-005 -7.886801e-001 -5.347262e-002 -9.146186e-005 5.554497e-005 9.898279e-001 -2.477507e-001
307410000 -7.935934e-005 -2.943096e-005 -7.878938e-001 -3.218820e-002 -6.523318e-007 3.403524e-005 9.910014e-001 -2.490389e-001
307695000 -8.087296e-006 3.738427e-005 -7.858480e-001 -1.155410e-002 1.683764e-005 7.342074e-005 9.915088e-001 -2.492995e-001
307980000 -2.666115e-005 3.592228e-005 -7.840075e-001 8.661716e-003 1.945873e-005 2.525800e-005 9.908665e-001 -2.484732e-001
308265000 2.500189e-005 -8.043144e-005 -7.818187e-001 2.919059e-002 1.140529e-004 5.462458e-005 9.905109e-001 -2.484393e-001
308550000 4.016856e-005 3.070890e-005 -7.791548e-001 5.010602e-002 5.585275e-005 -6.785001e-006 9.893555e-001 -2.495658e-001
308835000 -4.436951e-005 -3.135485e-005 -7.761014e-001 7.009575e-002 8.888468e-005 3.020405e-005 9.891955e-001 -2.509779e-001
309120000 -4.402067e-005 -2.223659e-005 -7.728987e-001 8.976211e-002 1.920512e-006 -4.862904e-005 9.905257e-001 -2.493245e-001
309405000 4.651024e-005 1.403754e-004 -7.695142e-001 1.101197e-001 -7.970798e-006 4.529852e-005 9.938595e-001 -2.500548e-001
309690000 7.037116e-005 2.518468e-005 -7.648527e-001 1.297574e-001 -2.511794e-005 3.718757e-005 9.917142e-001 -2.503201e-001
309975000 7.687429e-005 9.598501e-005 -7.602434e-001 1.500541e-001 -4.315387e-005 -4.733212e-005 9.891632e-001 -2.513689e-001
310260000 -5.455737e-005 6.942787e-005 -7.558700e-001 1.693749e-001 1.111881e-005 1.496693e-005 9.923072e-001 -2.497249e-001
310545000 -5.340071e-005 -9.113080e-005 -7.507706e-001 1.887237e-001 5.646466e-005 3.864917e-005 9.906983e-001 -2.524271e-001
310830000 7.010319e-006 1.161810e-004 -7.449524e-001 2.079751e-001 1.809719e-006 -5.010176e-005 9.927230e-001 -2.522568e-001
311115000 -1.104038e-005 -1.102231e-005 -7.392854e-001 2.281226e-001 -1.684125e-005 -4.332382e-005 9.907000e-001 -2.515653e-001
311400000 3.179392e-005 1.595404e-005 -7.330464e-001 2.465821e-001 5.980107e-006 1.588932e-005 9.906128e-001 -2.521783e-001
311685000 -1.620942e-004 1.188098e-005 -7.262517e-001 2.659345e-001 -4.706683e-005 -4.955570e-005 9.903583e-001 -2.514015e-001
311970000 4.251900e-005 -5.039455e-005 -7.190443e-001 2.846513e-001 5.952951e-005 7.395791e-006 9.876176e-001 -2.519542e-001
312255000 6.748399e-005 2.647109e-005 -7.118902e-001 3.038397e-001 1.797106e-006 1.073775e-005 9.911833e-001 -2.519166e-001
312540000 1.211500e-005 1.002451e-005 -7.040688e-001 3.226238e-001 -3.275561e-006 -5.516098e-006 9.906853e-001 -2.519148e-001
312825000 -8.470137e-005 -9.532926e-005 -6.961406e-001 3.416375e-001 -1.031934e-006 -9.863574e-005 9.904693e-001 -2.542757e-001
313110000 7.520420e-005 -5.239958e-005 -6.877875e-001 3.600463e-001 6.901874e-005 -1.215064e-004 9.892560e-001 -2.536171e-001
313395000 1.606017e-005 -4.351253e-005 -6.788666e-001 3.787411e-001 5.184079e-005 -3.803140e-005 9.898818e-001 -2.528385e-001
313680000 7.509100e-005 -1.088627e-004 -6.697208e-001 3.968090e-001 -6.928764e-006 -7.065422e-005 9.899727e-001 -2.531558e-001
313965000 4.312187e-006 -1.762734e-004 -6.601827e-001 4.150895e-001 6.430190e-005 -7.909652e-005 9.898111e-001 -2.530882e-001
314250000 -6.158480e-005 4.460053e-005 -6.501531e-001 4.333946e-001 8.192950e-005 4.594156e-005 9.896145e-001 -2.529098e-001
314535000 3.418442e-005 -2.178158e-005 -6.395376e-001 4.521093e-001 -3.591648e-005 -2.730625e-005 9.907928e-001 -2.531433e-001
314820000 3.674340e-005 8.008864e-006 -6.289976e-001 4.698248e-001 -9.971445e-006 5.657669e-005 9.895049e-001 -2.549562e-001
315105000 1.172323e-004 -1.687088e-005 -6.174090e-001 4.874445e-001 -3.161826e-005 3.338378e-005 9.870138e-001 -2.538866e-001
315390000 -3.398727e-005 -2.016589e-005 -6.055284e-001 5.062130e-001 4.602917e-006 4.852624e-005 9.898432e-001 -2.553916e-001
315675000 5.117842e-005 1.490582e-005 -5.934870e-001 5.231769e-001 -8.354785e-006 -3.585301e-005 9.877833e-001 -2.558572e-001
315960000 6.616630e-005 1.062545e-004 -5.806448e-001 5.410830e-001 9.993553e-006 7.174417e-005 9.877108e-001 -2.557804e-001
316245000 -2.392622e-005 -5.952829e-005 -5.672643e-001 5.587612e-001 5.941922e-005 5.984763e-005 9.885223e-001 -2.560478e-001
316530000 7.643063e-005 -2.540593e-005 -5.533918e-001 5.759336e-001 -1.723841e-004 -7.619626e-007 9.886417e-001 -2.569651e-001
316815000 -1.699700e-004 -4.367361e-005 -5.398816e-001 5.935180e-001 -1.180838e-004 -1.670556e-004 9.903394e-001 -2.562606e-001
317100000 -6.499209e-005 -8.525521e-007 -5.250689e-001 6.109191e-001 -2.744833e-005 1.501453e-005 9.892220e-001 -2.560107e-001
317385000 2.911363e-005 -1.080555e-004 -5.098556e-001 6.277220e-001 -5.815921e-005 -4.328994e-005 9.904643e-001 -2.550834e-001
317670000 -1.556280e-004 -2.632622e-005 -4.942340e-001 6.442770e-001 -7.281859e-007 2.440178e-005 9.903073e-001 -2.572551e-001
317955000 7.026113e-005 3.258305e-005 -4.776340e-001 6.613119e-001 -1.482933e-004 -1.261391e-004 9.909609e-001 -2.558818e-001
318240000 3.829469e-005 4.199400e-005 -4.607996e-001 6.775266e-001 -2.759217e-005 4.832639e-005 9.894903e-001 -2.568133e-001
318525000 -1.074733e-004 -3.079708e-005 -4.433419e-001 6.938186e-001 2.234343e-005 9.728131e-005 9.895270e-001 -2.572000e-001
318810000 6.758644e-005 -1.085354e-004 -4.251328e-001 7.098556e-001 -3.972312e-005 -4.362490e-005 9.897105e-001 -2.576727e-001
319095000 3.903246e-005 -6.278941e-005 -4.057209e-001 7.250051e-001 1.168556e-004 2.412027e-006 9.882679e-001 -2.579470e-001
319380000 3.841108e-005 -6.961400e-005 -3.866080e-001 7.413029e-001 9.946628e-005 6.587009e-005 9.888203e-001 -2.585682e-001
319665000 6.687310e-005 -5.831199e-005 -3.671033e-001 7.556697e-001 -5.597037e-005 7.667135e-005 9.893413e-001 -2.573985e-001
319950000 3.731872e-005 7.999210e-005 -3.459066e-001 7.707213e-001 4.187620e-005 3.400929e-005 9.879438e-001 -2.596247e-001
320235000 -7.870097e-005 3.157329e-005 -3.246461e-001 7.852529e-001 -1.299375e-004 1.272504e-004 9.898440e-001 -2.596131e-001
320520000 -6.159143e-005 5.429948e-005 -3.020044e-001 7.993071e-001 -3.465285e-005 3.988306e-005 9.880123e-001 -2.596608e-001
320805000 -6.525957e-005 -2.265364e-005 -2.792452e-001 8.129598e-001 1.396078e-005 -5.265127e-006 9.880437e-001 -2.592635e-001
321090000 2.355470e-005 -1.210472e-004 -2.553510e-001 8.257181e-001 9.818844e-005 4.018254e-005 9.883450e-001 -2.589363e-001
321375000 -9.546288e-005 -5.683100e-005 -2.316898e-001 8.378289e-001 5.310735e-005 1.161334e-004 9.879703e-001 -2.587229e-001
321660000 -5.213496e-005 -5.263249e-006 -2.065529e-001 8.504888e-001 -7.655911e-005 7.253449e-005 9.885973e-001 -2.613081e-001
321945000 -1.021627e-004 -5.429076e-005 -1.802689e-001 8.618659e-001 -1.718531e-005 -4.440988e-005 9.885255e-001 -2.613127e-001
322230000 2.713447e-005 1.427774e-006 -1.540242e-001 8.727549e-001 7.693024e-005 1.063530e-004 9.877808e-001 -2.622648e-001
322515000 -4.234288e-005 -1.222251e-004 -1.262967e-001 8.827381e-001 -1.437977e-005 1.074572e-004 9.868875e-001 -2.614184e-001
322800000 6.796812e-005 -5.215750e-005 -9.882023e-002 8.919958e-001 -1.000313e-005 8.445355e-005 9.895543e-001 -2.607703e-001
323085000 5.617381e-005 -2.112187e-005 -6.945548e-002 9.001871e-001 -1.338787e-005 3.405802e-005 9.886224e-001 -2.614526e-001
323370000 1.769325e-006 -5.031423e-005 -4.056735e-002 9.080823e-001 -2.445576e-005 -2.795077e-005 9.887000e-001 -2.627093e-001
323655000 1.486585e-004 3.904399e-005 -1.004884e-002 9.148517e-001 9.430347e-005 5.324421e-005 9.871008e-001 -2.628399e-001
323940000 -7.132616e-005 -1.653735e-005 2.079808e-002 9.207463e-001 -5.335842e-005 -6.299490e-005 9.876745e-001 -2.629635e-001
324225000 3.397889e-005 7.110073e-005 5.251976e-002 9.251976e-001 1.007593e-004 -2.191071e-006 9.859287e-001 -2.623948e-001
324510000 -3.898817e-005 -6.529038e-005 8.488256e-002 9.279745e-001 8.445285e-005 -4.422955e-005 9.877974e-001 -2.652301e-001
324795000 -6.477960e-005 7.022108e-005 1.172465e-001 9.314774e-001 3.877272e-005 6.459839e-005 9.880044e-001 -2.623532e-001
325080000 -5.936381e-005 5.084710e-005 1.504691e-001 9.320396e-001 -7.279967e-005 2.933629e-005 9.871776e-001 -2.630838e-001
325365000 4.892298e-005 -1.081749e-004 1.844247e-001 9.320650e-001 -3.641557e-006 3.159789e-005 9.872959e-001 -2.632733e-001
325650000 -2.443925e-005 -1.226524e-004 2.195985e-001 9.304534e-001 2.126404e-005 -2.690379e-005 9.886723e-001 -2.634843e-001
325935000 9.238262e-006 7.977150e-005 2.537142e-001 9.275335e-001 -2.410178e-005 3.210790e-005 9.872377e-001 -2.639762e-001
326220000 -4.178730e-005 -9.927478e-005 2.886291e-001 9.234023e-001 3.786586e-005 4.524156e-005 9.883385e-001 -2.646520e-001
326505000 3.615097e-005 7.159603e-005 3.233884e-001 9.171047e-001 -2.321423e-005 1.650045e-004 9.864045e-001 -2.642739e-001
326790000 1.066012e-004 -7.931046e-005 3.585117e-001 9.093823e-001 2.543968e-005 1.010422e-004 9.857797e-001 -2.639624e-001
327075000 -7.070664e-006 -1.309614e-005 3.948465e-001 9.003350e-001 -1.825789e-005 3.499096e-005 9.866450e-001 -2.663502e-001
327360000 1.259243e-004 -4.596883e-005 4.301652e-001 8.894603e-001 -1.132984e-004 8.126342e-005 9.882087e-001 -2.651481e-001
327645000 1.811666e-005 -7.162024e-005 4.654941e-001 8.767676e-001 -3.330695e-005 1.081148e-004 9.880029e-001 -2.650459e-001
327930000 -3.981388e-008 -4.512806e-005 5.005547e-001 8.627340e-001 -2.032967e-004 -1.728923e-004 9.868556e-001 -2.648125e-001
328215000 8.026117e-005 8.541332e-005 5.350749e-001 8.465214e-001 8.342259e-005 8.851881e-005 9.871184e-001 -2.665043e-001
328500000 -4.674094e-005 2.233951e-005 5.694084e-001 8.291423e-001 2.795324e-005 1.310453e-004 9.859819e-001 -2.663912e-001
328785000 3.013514e-005 2.711755e-005 6.035497e-001 8.096582e-001 -4.746922e-005 1.454996e-005 9.864204e-001 -2.658346e-001
329070000 -4.067826e-005 -9.209126e-005 6.370119e-001 7.883683e-001 3.137060e-005 -1.050292e-004 9.862793e-001 -2.672145e-001
329355000 -4.992800e-005 1.648205e-005 6.688411e-001 7.654746e-001 -9.649056e-005 -9.308658e-006 9.869911e-001 -2.671081e-001
329640000 2.735825e-005 -8.513966e-005 7.004627e-001 7.411562e-001 -1.554511e-006 1.350765e-004 9.868259e-001 -2.671605e-001
329925000 -2.447780e-005 -2.979633e-005 7.311727e-001 7.147223e-001 -6.619662e-006 -3.149599e-005 9.861736e-001 -2.670865e-001
330210000 3.467934e-005 4.303232e-005 7.601109e-001 6.866286e-001 -7.376849e-005 6.650790e-005 9.845132e-001 -2.670648e-001
330495000 -9.830469e-006 1.802795e-004 7.879626e-001 6.577076e-001 -1.689957e-005 8.949481e-005 9.857492e-001 -2.670442e-001
330780000 -8.224113e-005 3.860872e-006 8.147912e-001 6.269203e-001 1.959816e-005 1.786922e-005 9.862159e-001 -2.691540e-001
331065000 -3.268586e-005 -1.121278e-005 8.399363e-001 5.950361e-001 9.620400e-006 9.369355e-006 9.846725e-001 -2.669831e-001
331350000 -1.106077e-004 -4.112179e-005 8.631786e-001 5.612724e-001 3.489106e-005 4.388891e-005 9.855165e-001 -2.681937e-001
331635000 -1.070009e-004 -2.953670e-005 8.843347e-001 5.264187e-001 -4.899196e-006 -1.791341e-005 9.862149e-001 -2.685534e-001
331920000 -9.339305e-006 -5.333401e-005 9.047230e-001 4.907648e-001 2.888694e-005 3.413012e-005 9.865146e-001 -2.691592e-001
332205000 9.339881e-005 -1.693083e-005 9.235043e-001 4.545681e-001 -1.699451e-005 -8.754292e-005 9.850476e-001 -2.701473e-001
332490000 1.114675e-004 -4.070883e-005 9.400944e-001 4.178968e-001 -1.631769e-004 -2.113343e-005 9.860187e-001 -2.693266e-001
332775000 -6.869963e-006 -6.302091e-005 9.548281e-001 3.795576e-001 6.406548e-005 -4.548639e-006 9.853405e-001 -2.700939e-001
333060000 2.718072e-005 8.755464e-005 9.673240e-001 3.409429e-001 -2.330471e-005 -9.072267e-005 9.855803e-001 -2.695408e-001
333345000 -5.957630e-005 1.165485e-004 9.782833e-001 3.025707e-001 -1.652343e-004 -1.061340e-005 9.875433e-001 -2.698249e-001
333630000 -1.809212e-005 -1.008211e-004 9.872309e-001 2.628888e-001 -4.385828e-005 -6.076806e-005 9.850323e-001 -2.707761e-001
333915000 7.838027e-005 -8.180205e-006 9.946882e-001 2.238576e-001 6.904935e-005 -7.051631e-005 9.848338e-001 -2.711368e-001
334200000 3.400343e-005 4.304611e-006 9.989527e-001 1.847645e-001 -4.173960e-006 -5.521441e-005 9.847578e-001 -2.722698e-001
334485000 7.791393e-005 -3.582618e-005 1.002233e+000 1.449885e-001 6.018924e-005 -5.007857e-005 9.848458e-001 -2.706831e-001
334770000 -2.310548e-005 5.958324e-006 1.003453e+000 1.063969e-001 -1.294116e-005 -2.567443e-008 9.853699e-001 -2.721319e-001
335055000 -1.625896e-006 -7.996643e-005 1.003035e+000 6.763249e-002 4.269637e-005 -4.076532e-005 9.865063e-001 -2.713458e-001
335340000 -1.487073e-005 -7.226137e-006 1.000449e+000 2.917927e-002 -1.368257e-004 6.392057e-005 9.862938e-001 -2.722325e-001
335625000 -4.212444e-005 -4.138048e-005 9.968823e-001 -8.214292e-003 -2.339872e-005 -5.239270e-005 9.854890e-001 -2.731465e-001
335910000 7.318119e-005 5.048482e-005 9.909816e-001 -4.479373e-002 -1.005467e-004 -2.900505e-005 9.852586e-001 -2.731046e-001
336195000 -1.391931e-005 -8.869478e-006 9.837099e-001 -8.114697e-002 3.354247e-005 -1.924742e-005 9.848622e-001 -2.729724e-001
336480000 9.937179e-005 4.931738e-006 9.755319e-001 -1.170467e-001 -3.032636e-005 1.960934e-005 9.847800e-001 -2.721727e-001
336765000 1.960335e-005 -3.618572e-005 9.655250e-001 -1.518726e-001 5.299020e-005 -5.819968e-005 9.856917e-001 -2.731621e-001
337050000 -8.690976e-005 -5.551212e-005 9.537951e-001 -1.856545e-001 7.106446e-005 3.693616e-005 9.853392e-001 -2.727967e-001
337335000 2.859733e-005 2.063210e-005 9.413800e-001 -2.184316e-001 -1.690515e-005 1.898411e-005 9.842765e-001 -2.755454e-001
337620000 4.195367e-005 8.340230e-005 9.278658e-001 -2.508400e-001 2.952045e-005 -1.581847e-005 9.848816e-001 -2.747655e-001
337905000 3.567917e-005 -1.230431e-008 9.123825e-001 -2.812873e-001 1.074510e-004 -5.651010e-005 9.835930e-001 -2.742971e-001
338190000 6.498454e-005 3.313069e-005 8.971221e-001 -3.112371e-001 1.160841e-004 1.016465e-004 9.836992e-001 -2.745612e-001
338475000 4.486926e-005 1.030858e-005 8.799293e-001 -3.395774e-001 1.781925e-005 9.697868e-005 9.857009e-001 -2.731427e-001
338760000 2.048726e-005 -3.016265e-005 8.627864e-001 -3.671688e-001 -1.934051e-005 1.184900e-004 9.840844e-001 -2.745997e-001
339045000 -4.933730e-005 -4.443950e-005 8.451935e-001 -3.945486e-001 1.581613e-004 2.523565e-005 9.848483e-001 -2.746682e-001
339330000 -8.119026e-006 -6.155722e-005 8.261502e-001 -4.190251e-001 7.480350e-005 3.554229e-006 9.864001e-001 -2.738718e-001
339615000 -6.542135e-005 4.681935e-005 8.060645e-001 -4.439717e-001 1.189833e-005 4.620406e-006 9.845799e-001 -2.757847e-001
339900000 -6.369723e-005 -8.263034e-005 7.865542e-001 -4.672178e-001 1.032179e-005 1.277954e-004 9.838443e-001 -2.764185e-001
340185000 1.017473e-004 4.298926e-005 7.657806e-001 -4.896378e-001 -7.319879e-005 4.145374e-005 9.844231e-001 -2.767963e-001
340470000 8.538315e-007 -4.910467e-005 7.445670e-001 -5.110642e-001 -1.053187e-005 5.319314e-006 9.841198e-001 -2.769244e-001
340755000 3.101155e-005 -1.355300e-004 7.235370e-001 -5.313501e-001 -7.072111e-005 2.784876e-005 9.852798e-001 -2.766008e-001
341040000 -1.150475e-005 3.737855e-005 7.016993e-001 -5.508084e-001 -6.455555e-005 2.082376e-005 9.838789e-001 -2.767813e-001
341325000 6.426225e-005 -2.432491e-005 6.798450e-001 -5.690708e-001 -5.889829e-005 6.792315e-005 9.850707e-001 -2.749893e-001
341610000 9.374115e-005 1.397466e-004 6.576010e-001 -5.866581e-001 1.143347e-005 -9.384874e-005 9.860364e-001 -2.771828e-001
341895000 5.437859e-005 4.470558e-005 6.354570e-001 -6.026707e-001 3.529486e-005 1.097834e-005 9.840552e-001 -2.776113e-001
342180000 1.628421e-005 5.704580e-006 6.130031e-001 -6.183447e-001 6.800605e-005 -6.256793e-005 9.845835e-001 -2.782215e-001
342465000 6.019438e-006 -4.728978e-005 5.906487e-001 -6.328551e-001 1.504897e-004 6.173849e-005 9.839522e-001 -2.778957e-001
342750000 -4.295720e-005 5.732962e-005 5.679556e-001 -6.471069e-001 5.302067e-005 1.963252e-005 9.869921e-001 -2.782806e-001
343035000 -6.982067e-005 -7.401804e-005 5.449998e-001 -6.597159e-001 3.162013e-005 8.022397e-005 9.839145e-001 -2.791858e-001
343320000 -9.954101e-006 -2.366825e-005 5.224119e-001 -6.717019e-001 1.451296e-005 1.606237e-005 9.834795e-001 -2.791706e-001
343605000 -7.028243e-005 -8.101686e-005 4.997184e-001 -6.831534e-001 8.010595e-006 3.856456e-005 9.842725e-001 -2.784959e-001
343890000 -1.221738e-006 1.579398e-005 4.766857e-001 -6.936243e-001 -2.545811e-005 4.238443e-005 9.852208e-001 -2.785350e-001
