!Agilent Technologies,N5230C,SG49000117,A.08.50.07
!Agilent N5230C: A.08.50.07
!Date: Monday, March 18, 2024 18:51:57
!Correction: S11(Off) 
!S21(Off) 
!S12(Off) 
!S22(Off) 
!S2P File: Measurements: S11, S21, S12, S22:
# Hz S  RI   R 50
300000000 -7.279780e-005 -3.172022e-005 -6.065161e-001 -6.688563e-001 6.534363e-005 9.071176e-005 -6.090032e-001 -6.716086e-001
300285000 -2.039530e-005 -7.500609e-005 -6.224921e-001 -6.461876e-001 1.304694e-005 -1.238847e-005 -6.245919e-001 -6.488361e-001
300570000 2.342226e-005 -8.463318e-005 -6.378395e-001 -6.230720e-001 3.774297e-005 1.116841e-004 -6.401559e-001 -6.254477e-001
300855000 -1.486720e-004 -3.480900e-005 -6.520892e-001 -5.998831e-001 1.775996e-005 8.118337e-005 -6.543705e-001 -6.017902e-001
301140000 7.238622e-005 -1.641545e-004 -6.657502e-001 -5.762622e-001 -1.077682e-004 -1.621282e-005 -6.681074e-001 -5.780444e-001
301425000 -3.041891e-005 -1.056512e-004 -6.785598e-001 -5.529371e-001 -3.777559e-005 1.024578e-004 -6.815471e-001 -5.550477e-001
301710000 9.832721e-005 2.993203e-005 -6.900188e-001 -5.294994e-001 -5.024885e-005 -1.661575e-005 -6.926528e-001 -5.307479e-001
301995000 -1.879620e-005 -5.416694e-005 -7.011871e-001 -5.062085e-001 -1.155276e-005 -1.946444e-005 -7.036693e-001 -5.079135e-001
302280000 1.461745e-005 -4.578154e-005 -7.117301e-001 -4.823056e-001 -6.013921e-006 -4.038467e-005 -7.138846e-001 -4.847348e-001
302565000 3.822750e-005 -7.173091e-005 -7.208671e-001 -4.591484e-001 -3.806951e-005 -4.384930e-006 -7.236539e-001 -4.604357e-001
302850000 -6.136956e-006 -3.818516e-005 -7.301187e-001 -4.355820e-001 -7.003561e-005 -3.213871e-005 -7.326405e-001 -4.376460e-001
303135000 7.725426e-005 -8.670433e-006 -7.382857e-001 -4.128418e-001 -4.756623e-006 -5.369911e-005 -7.408559e-001 -4.135466e-001
303420000 1.003475e-005 5.319640e-005 -7.451996e-001 -3.889620e-001 5.089208e-005 -5.723921e-005 -7.482728e-001 -3.911411e-001
303705000 7.513824e-005 7.713232e-005 -7.517021e-001 -3.661498e-001 6.346504e-005 5.268040e-006 -7.545041e-001 -3.678286e-001
303990000 7.319449e-006 -3.112364e-005 -7.574854e-001 -3.434464e-001 6.420024e-006 -6.444866e-006 -7.607089e-001 -3.449401e-001
304275000 7.838594e-005 2.362388e-005 -7.632163e-001 -3.206041e-001 3.004287e-005 7.238529e-006 -7.668076e-001 -3.215595e-001
304560000 3.344275e-005 2.923380e-005 -7.683514e-001 -2.978927e-001 -7.024437e-005 -5.550568e-005 -7.710551e-001 -2.988161e-001
304845000 1.720183e-004 -2.555808e-005 -7.726414e-001 -2.754129e-001 6.746836e-005 1.254695e-005 -7.757424e-001 -2.758875e-001
305130000 -1.287870e-005 -4.766212e-006 -7.765402e-001 -2.532726e-001 2.068502e-006 1.903564e-005 -7.793865e-001 -2.542804e-001
305415000 -5.463203e-006 7.566746e-005 -7.796196e-001 -2.306986e-001 1.035972e-004 3.783088e-005 -7.827168e-001 -2.316354e-001
305700000 5.871694e-005 -5.097561e-005 -7.823841e-001 -2.084866e-001 4.339475e-005 5.539279e-005 -7.852711e-001 -2.098323e-001
305985000 6.163437e-006 2.608639e-005 -7.846710e-001 -1.869567e-001 -1.173810e-005 6.529715e-006 -7.876512e-001 -1.875599e-001
306270000 -3.446690e-005 1.605753e-005 -7.863830e-001 -1.647828e-001 1.683374e-005 -1.108261e-005 -7.895391e-001 -1.656707e-001
306555000 -6.876254e-005 -1.564501e-005 -7.873892e-001 -1.433800e-001 -8.302904e-005 -3.121141e-005 -7.912439e-001 -1.440613e-001
306840000 -4.625694e-005 1.069744e-004 -7.883087e-001 -1.214527e-001 -7.006956e-005 -4.049724e-005 -7.911804e-001 -1.224069e-001
307125000 8.321267e-006 4.146827e-005 -7.888941e-001 -1.006634e-001 -1.064702e-005 -1.277343e-004 -7.920446e-001 -1.010073e-001
307410000 5.035427e-006 7.050686e-005 -7.885665e-001 -7.956604e-002 2.485643e-005 5.820953e-005 -7.916364e-001 -7.956258e-002
307695000 -3.067539e-005 7.796869e-005 -7.882594e-001 -5.818832e-002 8.409515e-005 -3.515916e-005 -7.915395e-001 -5.838394e-002
307980000 7.853695e-006 -3.440537e-005 -7.870076e-001 -3.758198e-002 -9.845351e-005 6.246641e-005 -7.899031e-001 -3.719858e-002
308265000 -1.017357e-004 -6.064556e-005 -7.862198e-001 -1.695480e-002 -1.096164e-004 -6.552212e-005 -7.893642e-001 -1.635289e-002
308550000 3.743420e-005 2.661825e-005 -7.842937e-001 3.924020e-003 -3.873900e-005 -1.184479e-005 -7.873750e-001 3.916768e-003
308835000 4.045166e-005 -3.660662e-005 -7.821909e-001 2.416824e-002 -7.338888e-005 1.303178e-005 -7.853613e-001 2.448573e-002
309120000 -1.392354e-004 -1.695988e-005 -7.799149e-001 4.453206e-002 -1.046075e-004 -2.299104e-006 -7.825360e-001 4.509439e-002
309405000 4.177248e-005 -9.071169e-005 -7.768110e-001 6.492030e-002 -4.064771e-006 -6.324779e-005 -7.799832e-001 6.487358e-002
309690000 -2.711135e-005 -5.021093e-005 -7.741919e-001 8.483665e-002 2.019987e-005 -1.758083e-005 -7.768373e-001 8.549546e-002
309975000 -3.127003e-005 -7.888490e-005 -7.704707e-001 1.051876e-001 -1.581986e-005 -3.630005e-005 -7.729925e-001 1.052574e-001
310260000 -4.152876e-006 -3.217311e-005 -7.658418e-001 1.247647e-001 4.366913e-005 4.400987e-006 -7.692494e-001 1.253937e-001
310545000 -2.648418e-005 9.569243e-006 -7.620856e-001 1.441301e-001 1.041045e-005 4.713202e-005 -7.648684e-001 1.450896e-001
310830000 1.418857e-004 -2.956100e-005 -7.574605e-001 1.644661e-001 2.080108e-005 7.733634e-006 -7.606854e-001 1.650729e-001
311115000 4.481880e-005 -2.308681e-005 -7.519512e-001 1.833926e-001 -4.689706e-005 1.319073e-004 -7.548943e-001 1.843591e-001
311400000 -4.212654e-005 1.163057e-004 -7.467237e-001 2.030424e-001 6.593049e-005 5.523215e-005 -7.495391e-001 2.039405e-001
311685000 -1.117568e-004 9.894732e-005 -7.410029e-001 2.223412e-001 2.507337e-005 1.028127e-004 -7.441352e-001 2.232657e-001
311970000 -5.315782e-005 6.371544e-005 -7.351322e-001 2.415928e-001 3.128303e-005 -1.973865e-005 -7.383282e-001 2.425456e-001
312255000 -6.685442e-005 7.826368e-006 -7.286865e-001 2.606124e-001 -2.353271e-005 9.489886e-005 -7.315158e-001 2.615233e-001
312540000 1.496651e-005 3.322206e-005 -7.218883e-001 2.796338e-001 1.860104e-006 -5.596144e-006 -7.250125e-001 2.805016e-001
312825000 -4.133307e-005 -9.134447e-005 -7.152810e-001 2.989038e-001 -6.271400e-005 1.066556e-004 -7.175669e-001 2.999195e-001
313110000 -6.961256e-005 -1.094331e-004 -7.077696e-001 3.177024e-001 -5.429611e-005 -1.160395e-004 -7.102207e-001 3.190258e-001
313395000 2.305047e-006 4.553580e-006 -6.998330e-001 3.363342e-001 -4.301079e-005 3.704330e-005 -7.025002e-001 3.379412e-001
313680000 2.884620e-005 -7.716949e-006 -6.910930e-001 3.548009e-001 -8.152171e-005 -6.364596e-005 -6.943055e-001 3.567097e-001
313965000 -1.306190e-005 -8.866985e-005 -6.827733e-001 3.737131e-001 -1.444226e-006 -5.194460e-006 -6.852490e-001 3.754834e-001
314250000 5.910798e-005 1.052268e-005 -6.734706e-001 3.920560e-001 1.499731e-005 -1.004705e-004 -6.764585e-001 3.934953e-001
314535000 -3.440422e-005 1.009744e-005 -6.644209e-001 4.104442e-001 -2.714604e-005 1.611955e-005 -6.672400e-001 4.119872e-001
314820000 -3.131262e-005 5.560240e-005 -6.538799e-001 4.290605e-001 -9.210397e-006 2.913923e-005 -6.566998e-001 4.310423e-001
315105000 6.210966e-005 2.746533e-005 -6.441178e-001 4.477689e-001 -7.821271e-005 -2.387036e-005 -6.468111e-001 4.490779e-001
315390000 -4.302901e-005 -3.600517e-005 -6.336954e-001 4.658030e-001 7.868578e-005 4.565962e-005 -6.358600e-001 4.675911e-001
315675000 7.134330e-005 -1.532590e-005 -6.224349e-001 4.840469e-001 -3.686172e-005 2.833912e-005 -6.249750e-001 4.858858e-001
315960000 1.123692e-004 -7.801507e-005 -6.102715e-001 5.023282e-001 -4.394213e-005 -2.591490e-005 -6.134096e-001 5.040672e-001
316245000 1.183773e-004 -3.625008e-005 -5.992659e-001 5.194970e-001 1.154356e-005 -8.861443e-005 -6.011803e-001 5.222006e-001
316530000 -4.175180e-005 6.269645e-005 -5.861098e-001 5.372067e-001 -4.237645e-005 9.880953e-005 -5.883496e-001 5.395456e-001
316815000 -6.679934e-005 1.925263e-005 -5.733919e-001 5.554492e-001 1.216074e-006 -4.771317e-006 -5.754833e-001 5.574536e-001
317100000 5.815898e-005 9.895765e-005 -5.600491e-001 5.729790e-001 1.829375e-005 4.997613e-005 -5.621931e-001 5.753997e-001
317385000 9.485032e-005 5.087101e-005 -5.460350e-001 5.903156e-001 -3.726544e-005 -7.370653e-005 -5.483702e-001 5.925715e-001
317670000 8.012404e-005 1.318242e-005 -5.311266e-001 6.075401e-001 -1.380928e-005 1.212199e-005 -5.336430e-001 6.102561e-001
317955000 8.451788e-005 -3.366197e-005 -5.162814e-001 6.250587e-001 -4.132703e-005 -1.439908e-004 -5.185791e-001 6.270765e-001
318240000 -1.826288e-005 1.037192e-004 -5.006567e-001 6.426721e-001 1.258012e-005 -1.040851e-004 -5.026222e-001 6.448822e-001
318525000 2.119972e-005 -1.339757e-005 -4.837474e-001 6.584187e-001 -3.133674e-006 -3.172934e-007 -4.867371e-001 6.611207e-001
318810000 3.585560e-005 7.105692e-006 -4.673520e-001 6.757414e-001 2.364012e-005 -4.950999e-005 -4.693445e-001 6.782686e-001
319095000 1.379111e-006 -8.841667e-005 -4.503444e-001 6.916731e-001 -6.342786e-005 8.343883e-006 -4.520283e-001 6.944016e-001
319380000 6.213939e-005 5.491075e-005 -4.321594e-001 7.080829e-001 3.495749e-006 -9.358928e-005 -4.338631e-001 7.108889e-001
319665000 -4.862605e-007 -9.671450e-005 -4.131393e-001 7.240084e-001 -6.067747e-006 3.412239e-005 -4.155538e-001 7.269958e-001
319950000 2.559636e-005 3.182526e-005 -3.944342e-001 7.396134e-001 3.165257e-005 1.576531e-005 -3.958631e-001 7.425337e-001
320235000 1.707466e-005 7.974778e-006 -3.738885e-001 7.549936e-001 4.799293e-005 -9.870232e-006 -3.752052e-001 7.577887e-001
320520000 -3.908175e-005 -3.709195e-005 -3.529578e-001 7.704026e-001 2.156106e-005 -5.227721e-005 -3.549384e-001 7.730970e-001
320805000 -3.927944e-005 -8.400911e-005 -3.318224e-001 7.850223e-001 4.490007e-005 -3.220781e-005 -3.333010e-001 7.879741e-001
321090000 -3.642170e-005 4.240547e-005 -3.096332e-001 7.997734e-001 1.161403e-004 -4.803902e-005 -3.116223e-001 8.026704e-001
321375000 -2.778622e-005 -8.009443e-005 -2.870964e-001 8.129398e-001 8.855549e-006 4.378352e-005 -2.886102e-001 8.160913e-001
321660000 7.446732e-005 6.900672e-005 -2.632372e-001 8.262833e-001 1.176682e-005 -2.266092e-005 -2.643338e-001 8.297883e-001
321945000 5.994749e-005 -5.868953e-005 -2.394847e-001 8.389912e-001 -1.666586e-005 -3.973161e-005 -2.402831e-001 8.422859e-001
322230000 1.057434e-004 -5.584633e-005 -2.139579e-001 8.510252e-001 -6.427581e-005 5.923266e-005 -2.152853e-001 8.545713e-001
322515000 -1.300169e-004 1.250036e-004 -1.879494e-001 8.630698e-001 -1.344274e-004 2.396493e-005 -1.890578e-001 8.667805e-001
322800000 1.452296e-005 4.076825e-005 -1.623684e-001 8.739097e-001 -2.785362e-005 -4.478052e-005 -1.624323e-001 8.779269e-001
323085000 9.633870e-005 6.320166e-005 -1.342717e-001 8.842509e-001 -3.226755e-005 3.457500e-005 -1.351342e-001 8.877695e-001
323370000 -4.099854e-005 -3.550846e-005 -1.062535e-001 8.940079e-001 4.477227e-005 -6.327558e-005 -1.069241e-001 8.979360e-001
323655000 -3.442354e-006 -4.524542e-005 -7.769828e-002 9.027801e-001 2.958806e-005 -1.437631e-004 -7.842345e-002 9.063714e-001
323940000 7.100277e-005 -1.044053e-005 -4.802009e-002 9.105238e-001 3.041136e-005 1.654103e-005 -4.860715e-002 9.146878e-001
324225000 9.141265e-005 -1.326383e-005 -1.760747e-002 9.177238e-001 1.637709e-004 3.097258e-005 -1.794837e-002 9.216704e-001
324510000 -7.717204e-005 -9.814489e-005 1.332301e-002 9.234595e-001 9.632241e-005 6.139383e-005 1.330684e-002 9.277809e-001
324795000 -7.605554e-005 1.135281e-005 4.479542e-002 9.283548e-001 9.228242e-005 2.536848e-005 4.515744e-002 9.331769e-001
325080000 -2.119053e-005 1.052324e-005 7.724754e-002 9.325610e-001 6.449099e-005 9.720548e-005 7.749905e-002 9.365954e-001
325365000 3.308659e-005 1.335235e-005 1.100736e-001 9.348040e-001 3.293645e-005 5.746400e-005 1.103300e-001 9.391982e-001
325650000 -8.992629e-007 1.134857e-005 1.433535e-001 9.365550e-001 -2.770665e-005 2.887145e-005 1.438994e-001 9.406452e-001
325935000 4.674453e-006 -1.560099e-005 1.775435e-001 9.369213e-001 -8.081583e-005 1.290091e-004 1.783186e-001 9.405637e-001
326220000 -1.036843e-004 -6.726984e-005 2.108408e-001 9.350624e-001 -6.081395e-005 -3.937741e-005 2.127195e-001 9.395168e-001
326505000 -2.933360e-005 5.976237e-005 2.461176e-001 9.321817e-001 -7.149235e-006 7.158436e-005 2.476181e-001 9.366336e-001
326790000 8.483369e-005 -1.239784e-004 2.818240e-001 9.284022e-001 5.378140e-005 -8.779954e-005 2.828577e-001 9.326033e-001
327075000 3.700695e-005 -8.904519e-005 3.169502e-001 9.230275e-001 -3.384399e-006 -7.313194e-005 3.181724e-001 9.265152e-001
327360000 -5.795366e-008 2.595073e-005 3.526762e-001 9.154876e-001 -4.342497e-005 -2.523861e-005 3.535409e-001 9.189250e-001
327645000 -2.474629e-005 2.029136e-005 3.885068e-001 9.063045e-001 1.184854e-005 4.201888e-005 3.901334e-001 9.106647e-001
327930000 -3.927238e-006 4.891940e-005 4.239009e-001 8.962591e-001 -7.909440e-005 -3.744371e-005 4.259428e-001 8.996277e-001
328215000 -5.200906e-005 1.811999e-005 4.595942e-001 8.835981e-001 -6.552404e-005 2.362637e-005 4.615101e-001 8.874381e-001
328500000 -6.311716e-005 8.091373e-005 4.953652e-001 8.698831e-001 -1.236136e-004 -6.685881e-005 4.971315e-001 8.732135e-001
328785000 6.111999e-005 3.535967e-005 5.301214e-001 8.538548e-001 1.841849e-005 6.720481e-005 5.321926e-001 8.572190e-001
329070000 -6.475897e-006 -1.421159e-005 5.646946e-001 8.366599e-001 3.797564e-005 7.027726e-005 5.661933e-001 8.400924e-001
329355000 -6.948569e-005 -1.386774e-004 5.991472e-001 8.167852e-001 2.426738e-005 9.087729e-005 6.009857e-001 8.203463e-001
329640000 6.892761e-005 8.672917e-006 6.320180e-001 7.954619e-001 -3.866032e-005 2.342647e-005 6.342130e-001 7.992564e-001
329925000 -1.034278e-004 3.162221e-005 6.641715e-001 7.729332e-001 -1.078719e-004 4.148404e-005 6.678758e-001 7.764072e-001
330210000 -7.217155e-006 4.757367e-005 6.957838e-001 7.491114e-001 -7.666516e-005 -5.244901e-005 6.987727e-001 7.522990e-001
330495000 1.034739e-005 5.208386e-005 7.266648e-001 7.226355e-001 -6.898207e-005 -2.931010e-005 7.301534e-001 7.255628e-001
330780000 -2.141174e-005 9.032356e-005 7.559192e-001 6.946692e-001 7.980569e-005 -2.783739e-005 7.592135e-001 6.984699e-001
331065000 -2.038193e-005 9.150982e-005 7.845367e-001 6.656904e-001 3.932500e-005 -3.180412e-005 7.873982e-001 6.690550e-001
331350000 -5.349098e-006 5.528698e-005 8.111140e-001 6.350379e-001 -8.673959e-005 8.447607e-005 8.147597e-001 6.383169e-001
331635000 7.457117e-005 -1.014876e-005 8.364506e-001 6.033540e-001 -1.129865e-004 7.025863e-005 8.402869e-001 6.055269e-001
331920000 -2.827056e-005 2.070869e-005 8.604326e-001 5.699455e-001 -1.064896e-004 1.006603e-004 8.638524e-001 5.724977e-001
332205000 2.888552e-005 1.149098e-004 8.821790e-001 5.358440e-001 -7.407751e-005 1.286230e-004 8.863700e-001 5.377150e-001
332490000 -7.605718e-005 2.909340e-005 9.028753e-001 5.000997e-001 -6.142196e-005 1.062756e-004 9.070765e-001 5.025209e-001
332775000 2.721330e-005 4.266139e-005 9.216335e-001 4.638090e-001 7.144942e-005 -9.278670e-005 9.252216e-001 4.652367e-001
333060000 7.872086e-006 3.511708e-005 9.382445e-001 4.266627e-001 -1.867457e-004 4.709703e-005 9.422135e-001 4.281269e-001
333345000 -1.819985e-005 -1.629932e-006 9.529313e-001 3.891221e-001 2.220633e-005 5.225142e-005 9.577042e-001 3.901204e-001
333630000 5.116430e-005 3.921692e-006 9.663975e-001 3.504786e-001 -1.077292e-004 -3.778691e-005 9.703031e-001 3.517542e-001
333915000 1.750391e-005 4.160427e-005 9.770700e-001 3.113656e-001 2.387102e-005 -7.751169e-005 9.815526e-001 3.127301e-001
334200000 4.973172e-005 8.358341e-005 9.864935e-001 2.723921e-001 2.424964e-005 -1.811173e-004 9.908765e-001 2.735993e-001
334485000 3.717361e-005 -4.842950e-005 9.941344e-001 2.337114e-001 9.198429e-005 -1.402298e-004 9.982538e-001 2.346470e-001
334770000 5.358448e-005 -5.642065e-005 9.987246e-001 1.944967e-001 -6.735940e-005 -5.977645e-005 1.003540e+000 1.946197e-001
335055000 -7.077990e-005 1.175749e-005 1.002249e+000 1.553137e-001 3.901553e-005 4.820935e-005 1.006657e+000 1.560200e-001
335340000 2.554533e-005 4.763141e-005 1.004136e+000 1.162284e-001 5.346098e-005 -4.116399e-005 1.008553e+000 1.163430e-001
335625000 9.972059e-005 -4.558658e-005 1.003787e+000 7.753557e-002 -9.834149e-005 -1.208920e-004 1.007687e+000 7.832599e-002
335910000 -1.432377e-006 -3.459196e-006 1.002231e+000 3.940640e-002 7.027605e-005 -7.005193e-005 1.006271e+000 3.970222e-002
336195000 1.955490e-005 -5.970119e-006 9.981220e-001 2.015121e-003 -2.764625e-005 6.460587e-005 1.002541e+000 2.376831e-003
336480000 4.132606e-005 -6.321169e-005 9.923326e-001 -3.500701e-002 -1.297365e-004 -4.018734e-005 9.967238e-001 -3.495324e-002
336765000 -8.858829e-005 5.356769e-005 9.857787e-001 -7.144108e-002 -3.468454e-006 3.714262e-005 9.900925e-001 -7.140945e-002
337050000 -2.489909e-006 -3.607628e-005 9.773997e-001 -1.068690e-001 -1.350486e-005 -1.468241e-005 9.814275e-001 -1.070340e-001
337335000 -1.379241e-006 -8.087173e-005 9.681627e-001 -1.418075e-001 -5.293076e-005 4.564744e-005 9.718459e-001 -1.421567e-001
337620000 -5.722264e-005 8.570671e-005 9.566270e-001 -1.752561e-001 2.868969e-005 1.944958e-005 9.607252e-001 -1.760843e-001
337905000 -1.579518e-004 8.849695e-005 9.447801e-001 -2.076328e-001 -1.251172e-005 -1.139231e-004 9.483608e-001 -2.092981e-001
338190000 -1.077843e-004 2.407707e-005 9.313095e-001 -2.400193e-001 -4.234928e-005 3.768444e-005 9.351439e-001 -2.408871e-001
338475000 -4.684234e-005 -9.024593e-005 9.170945e-001 -2.708916e-001 6.453078e-006 2.983637e-006 9.206041e-001 -2.725576e-001
338760000 -6.511351e-005 -6.104734e-005 9.015137e-001 -3.012228e-001 -3.749236e-005 -4.701371e-005 9.052802e-001 -3.021821e-001
339045000 -8.602038e-005 -1.108030e-005 8.851325e-001 -3.299790e-001 -8.197268e-005 1.022552e-004 8.890237e-001 -3.319125e-001
339330000 -7.030956e-005 7.446805e-006 8.679275e-001 -3.575434e-001 -6.432092e-005 1.398463e-006 8.721226e-001 -3.595982e-001
339615000 -3.141778e-005 8.196940e-005 8.503041e-001 -3.845774e-001 -1.215812e-004 -1.398135e-005 8.536094e-001 -3.858769e-001
339900000 -7.714407e-005 -2.989078e-005 8.316074e-001 -4.101678e-001 4.229429e-005 -5.352070e-005 8.349296e-001 -4.122996e-001
340185000 4.036172e-006 -8.544279e-005 8.127184e-001 -4.358135e-001 -1.435338e-004 -1.163939e-004 8.157180e-001 -4.366774e-001
340470000 1.470558e-005 -4.005103e-005 7.924540e-001 -4.586032e-001 -1.041391e-004 -5.183489e-005 7.960629e-001 -4.607592e-001
340755000 7.237103e-005 -2.655708e-005 7.724243e-001 -4.805795e-001 -1.284278e-004 -5.857874e-005 7.758594e-001 -4.831716e-001
341040000 5.430819e-005 2.028201e-005 7.520549e-001 -5.030127e-001 -5.556527e-005 -9.689225e-005 7.551324e-001 -5.052499e-001
341325000 -1.237341e-006 -4.900482e-005 7.304970e-001 -5.233878e-001 -6.145029e-005 -4.417774e-005 7.340273e-001 -5.249923e-001
341610000 1.819163e-005 4.581048e-005 7.093025e-001 -5.429659e-001 1.044037e-004 -5.161476e-005 7.125505e-001 -5.450563e-001
341895000 2.998319e-005 -7.795168e-005 6.874840e-001 -5.605878e-001 -4.442284e-005 7.646773e-005 6.908476e-001 -5.636454e-001
342180000 1.234452e-004 1.477008e-005 6.659107e-001 -5.786568e-001 9.661506e-005 5.596277e-005 6.689175e-001 -5.808598e-001
342465000 3.597324e-005 5.182378e-005 6.438424e-001 -5.956271e-001 5.932353e-005 -2.602140e-005 6.466473e-001 -5.978706e-001
342750000 3.278365e-005 -4.677870e-005 6.213047e-001 -6.115643e-001 -8.435540e-005 3.139299e-005 6.242602e-001 -6.132947e-001
343035000 -5.734211e-005 -5.502225e-005 5.994695e-001 -6.262861e-001 3.316620e-006 -8.290969e-005 6.018814e-001 -6.282684e-001
343320000 5.475217e-005 7.703048e-005 5.763494e-001 -6.401521e-001 -3.235180e-005 2.477159e-005 5.794865e-001 -6.426607e-001
343605000 8.837203e-005 4.152002e-005 5.544493e-001 -6.531286e-001 3.640474e-005 6.890630e-005 5.562047e-001 -6.560213e-001
343890000 -7.407826e-005 1.683848e-004 5.317346e-001 -6.654392e-001 -6.260982e-005 1.920074e-005 5.344188e-001 -6.683202e-001
