!Agilent Technologies,N5230C,SG49000117,A.08.50.07
!Agilent N5230C: A.08.50.07
!Date: Monday, March 18, 2024 18:52:41
!Correction: S11(Off) 
!S21(Off) 
!S12(Off) 
!S22(Off) 
!S2P File: Measurements: S11, S21, S12, S22:
# Hz S  RI   R 50
300000000 -1.592817e-005 -3.494994e-006 -6.145501e-001 -6.597250e-001 6.315979e-006 5.832187e-005 -6.166801e-001 -6.618934e-001
300285000 6.892580e-005 -1.368042e-004 -6.308182e-001 -6.361313e-001 -4.695156e-005 -1.894216e-005 -6.330196e-001 -6.385681e-001
300570000 4.950426e-005 -1.238345e-004 -6.452110e-001 -6.128598e-001 -1.288662e-005 7.541354e-005 -6.479514e-001 -6.153755e-001
300855000 7.384674e-005 6.918315e-005 -6.593615e-001 -5.901353e-001 9.881471e-005 6.975356e-005 -6.617785e-001 -5.922772e-001
301140000 1.255084e-004 -7.670351e-005 -6.724010e-001 -5.663413e-001 3.173963e-006 4.855514e-005 -6.745740e-001 -5.681188e-001
301425000 -9.961468e-005 6.068443e-005 -6.846957e-001 -5.427049e-001 2.092522e-005 2.132569e-005 -6.872100e-001 -5.446779e-001
301710000 2.222675e-005 -5.847986e-006 -6.956819e-001 -5.188513e-001 7.347020e-005 -6.132334e-005 -6.990840e-001 -5.209443e-001
301995000 1.160341e-004 -1.075590e-005 -7.069575e-001 -4.954590e-001 3.032507e-005 -5.398506e-005 -7.096782e-001 -4.971059e-001
302280000 -5.870465e-005 -8.686396e-005 -7.168579e-001 -4.719346e-001 -2.272402e-005 1.802816e-005 -7.192933e-001 -4.739808e-001
302565000 -1.862288e-005 2.276173e-005 -7.260797e-001 -4.484188e-001 2.911031e-005 4.102700e-006 -7.288687e-001 -4.499356e-001
302850000 6.209844e-005 3.828423e-005 -7.350866e-001 -4.251360e-001 -2.432562e-005 -1.099104e-004 -7.371271e-001 -4.269305e-001
303135000 -3.892021e-005 1.487410e-005 -7.424166e-001 -4.021721e-001 8.817318e-005 -1.556333e-004 -7.450346e-001 -4.036682e-001
303420000 5.797340e-005 -2.801124e-005 -7.497703e-001 -3.785291e-001 1.670832e-005 -1.263920e-004 -7.521308e-001 -3.805301e-001
303705000 3.173618e-005 -2.062557e-005 -7.554942e-001 -3.558408e-001 4.966935e-005 3.689173e-005 -7.584603e-001 -3.570369e-001
303990000 -1.829788e-005 1.254020e-004 -7.613877e-001 -3.328746e-001 3.325924e-006 -9.249850e-005 -7.643194e-001 -3.340996e-001
304275000 -7.846532e-005 5.068785e-005 -7.666674e-001 -3.102177e-001 2.213205e-005 -9.756730e-005 -7.700381e-001 -3.116367e-001
304560000 -3.225055e-005 -3.985730e-005 -7.712179e-001 -2.873273e-001 -5.779011e-006 -8.511951e-005 -7.741199e-001 -2.885583e-001
304845000 -8.660113e-005 4.590512e-005 -7.758904e-001 -2.652698e-001 -2.835317e-005 4.491854e-005 -7.781958e-001 -2.659839e-001
305130000 -4.431593e-005 6.624297e-005 -7.784282e-001 -2.426914e-001 -8.762412e-006 -2.977115e-005 -7.816884e-001 -2.439745e-001
305415000 -2.616312e-006 -4.426930e-005 -7.814851e-001 -2.200589e-001 6.005175e-005 -1.014233e-005 -7.848337e-001 -2.210592e-001
305700000 -7.930421e-005 -9.368664e-005 -7.843022e-001 -1.986621e-001 -1.093102e-004 5.214931e-005 -7.873435e-001 -1.987681e-001
305985000 -1.233176e-004 -4.256594e-005 -7.857847e-001 -1.764804e-001 -2.678385e-005 -8.731126e-006 -7.890041e-001 -1.773644e-001
306270000 -3.895942e-006 -5.723695e-005 -7.877837e-001 -1.548971e-001 -8.058145e-006 -5.143638e-006 -7.905515e-001 -1.552203e-001
306555000 -2.704221e-005 -7.497144e-005 -7.887621e-001 -1.331760e-001 -9.421472e-005 3.567597e-005 -7.918197e-001 -1.336579e-001
306840000 1.206586e-005 -7.110912e-005 -7.889564e-001 -1.118804e-001 5.656198e-006 2.064457e-006 -7.922505e-001 -1.124292e-001
307125000 8.908306e-005 -2.549084e-005 -7.895188e-001 -9.045789e-002 -4.343614e-006 -3.102443e-007 -7.926005e-001 -9.115074e-002
307410000 -4.401794e-005 -5.193780e-005 -7.890666e-001 -6.921509e-002 -1.771482e-005 -5.060644e-005 -7.919755e-001 -6.938975e-002
307695000 -4.314789e-005 -8.073389e-006 -7.879590e-001 -4.827592e-002 -8.382700e-005 -8.803205e-005 -7.909974e-001 -4.822129e-002
307980000 4.717110e-005 2.191349e-005 -7.871175e-001 -2.720293e-002 7.360776e-005 1.306981e-006 -7.902199e-001 -2.806638e-002
308265000 -3.505982e-005 -6.173702e-005 -7.856242e-001 -6.970119e-003 4.457551e-005 -5.234899e-005 -7.884997e-001 -7.194268e-003
308550000 -8.264730e-005 9.823457e-006 -7.837253e-001 1.399233e-002 2.370376e-005 3.570537e-005 -7.868181e-001 1.413742e-002
308835000 5.896546e-005 2.743096e-005 -7.814873e-001 3.454534e-002 -6.264129e-005 -7.890686e-005 -7.847512e-001 3.448180e-002
309120000 7.583936e-005 -6.744032e-005 -7.786888e-001 5.473072e-002 7.178783e-005 7.391811e-005 -7.814128e-001 5.527351e-002
309405000 -2.678018e-006 2.126343e-005 -7.758741e-001 7.488061e-002 6.155691e-006 8.807392e-005 -7.789658e-001 7.531760e-002
309690000 8.663594e-005 1.889417e-005 -7.724132e-001 9.498452e-002 1.285995e-004 1.249306e-004 -7.752228e-001 9.507962e-002
309975000 2.983957e-006 4.709997e-005 -7.687654e-001 1.150639e-001 1.110191e-004 2.100280e-005 -7.720202e-001 1.150225e-001
310260000 -4.311986e-005 -8.343391e-005 -7.643378e-001 1.346624e-001 -2.550225e-005 9.746442e-005 -7.670890e-001 1.356497e-001
310545000 -3.884153e-005 1.948727e-005 -7.601258e-001 1.545843e-001 3.568199e-005 1.873644e-005 -7.628838e-001 1.554555e-001
310830000 -1.744292e-005 3.982055e-005 -7.555026e-001 1.738003e-001 2.393511e-005 2.338435e-006 -7.585292e-001 1.739220e-001
311115000 4.493839e-005 1.842305e-005 -7.502666e-001 1.931037e-001 -1.512333e-005 6.312322e-005 -7.530465e-001 1.940121e-001
311400000 -5.338590e-005 9.556935e-005 -7.443485e-001 2.125430e-001 4.926613e-005 2.143801e-005 -7.475534e-001 2.134186e-001
311685000 1.861065e-005 -2.664321e-005 -7.387240e-001 2.319478e-001 -4.156593e-005 5.229315e-005 -7.414728e-001 2.330510e-001
311970000 6.394357e-005 -1.043910e-004 -7.322940e-001 2.511137e-001 1.112092e-005 2.442645e-006 -7.354257e-001 2.520759e-001
312255000 1.878902e-005 9.471620e-005 -7.257361e-001 2.704419e-001 -3.282928e-005 9.153806e-005 -7.286991e-001 2.712796e-001
312540000 -2.749295e-005 -1.007831e-004 -7.189705e-001 2.890904e-001 2.700447e-005 -1.312720e-005 -7.217358e-001 2.905129e-001
312825000 1.006002e-004 -1.087829e-004 -7.114778e-001 3.084693e-001 -2.502776e-005 1.552176e-004 -7.141800e-001 3.093646e-001
313110000 1.803206e-005 -1.721266e-005 -7.039569e-001 3.272968e-001 -5.224534e-005 9.517647e-005 -7.067014e-001 3.279908e-001
313395000 3.728751e-005 -2.420743e-005 -6.961930e-001 3.453855e-001 -6.274749e-005 -5.072299e-005 -6.985522e-001 3.469566e-001
313680000 -1.114735e-004 -1.450465e-006 -6.878163e-001 3.643560e-001 5.546215e-005 2.529369e-005 -6.899053e-001 3.658833e-001
313965000 7.681819e-005 9.970232e-005 -6.785077e-001 3.830296e-001 1.203148e-005 -7.107649e-007 -6.807018e-001 3.845815e-001
314250000 6.559923e-005 2.204117e-005 -6.691631e-001 4.011593e-001 8.475489e-005 -6.885637e-005 -6.720461e-001 4.027493e-001
314535000 5.622680e-005 -5.189932e-006 -6.594487e-001 4.202819e-001 3.030390e-005 -1.493069e-004 -6.622561e-001 4.213733e-001
314820000 6.679936e-005 -8.120077e-005 -6.493701e-001 4.375678e-001 1.841991e-005 1.563954e-005 -6.520773e-001 4.399846e-001
315105000 9.065159e-005 -3.625270e-005 -6.394537e-001 4.565819e-001 9.739806e-005 -3.867948e-005 -6.417837e-001 4.579869e-001
315390000 2.452447e-005 9.584158e-006 -6.282695e-001 4.746402e-001 -7.214943e-005 -4.974922e-006 -6.310953e-001 4.764103e-001
315675000 4.596316e-005 -8.571394e-005 -6.167245e-001 4.924613e-001 4.204108e-005 -4.151334e-005 -6.190857e-001 4.945077e-001
315960000 5.167556e-005 -6.352995e-005 -6.051778e-001 5.104514e-001 -7.111547e-005 5.949437e-005 -6.072863e-001 5.125815e-001
316245000 -4.306382e-005 -5.509241e-006 -5.924239e-001 5.286199e-001 -4.132097e-005 -2.981684e-005 -5.951297e-001 5.305459e-001
316530000 -9.666857e-006 2.894881e-005 -5.798963e-001 5.465375e-001 5.672647e-005 9.679613e-005 -5.821539e-001 5.481897e-001
316815000 5.843480e-005 9.228390e-005 -5.667609e-001 5.636835e-001 -2.120047e-005 6.985387e-005 -5.690972e-001 5.658664e-001
317100000 1.671022e-004 5.677437e-005 -5.529015e-001 5.808669e-001 8.660591e-005 -7.272924e-006 -5.554785e-001 5.838268e-001
317385000 2.796933e-005 2.217328e-005 -5.387004e-001 5.987679e-001 1.049985e-004 -3.126924e-005 -5.403731e-001 6.008864e-001
317670000 -3.007689e-005 2.344732e-005 -5.238676e-001 6.158312e-001 -1.924394e-005 4.303081e-005 -5.258734e-001 6.186616e-001
317955000 -1.732158e-005 1.211897e-004 -5.079604e-001 6.334028e-001 1.211130e-004 5.034168e-005 -5.106182e-001 6.360925e-001
318240000 -8.888985e-006 3.855161e-005 -4.927243e-001 6.501018e-001 7.398345e-006 3.409165e-006 -4.943974e-001 6.525745e-001
318525000 -3.960326e-005 7.746617e-006 -4.761422e-001 6.665097e-001 -6.373510e-005 3.713461e-005 -4.784791e-001 6.698087e-001
318810000 8.817771e-006 7.885836e-005 -4.588864e-001 6.831385e-001 -1.908900e-006 4.555758e-006 -4.607899e-001 6.859690e-001
319095000 -2.792568e-005 2.387800e-005 -4.414280e-001 6.990719e-001 -1.670149e-005 6.834835e-005 -4.425915e-001 7.023596e-001
319380000 2.467518e-005 5.539751e-005 -4.229611e-001 7.158738e-001 -9.438848e-005 4.489217e-006 -4.244789e-001 7.185946e-001
319665000 -4.438411e-006 -6.144758e-006 -4.036369e-001 7.313717e-001 2.255159e-005 -1.235160e-004 -4.051384e-001 7.348763e-001
319950000 1.652152e-005 -1.184274e-004 -3.843994e-001 7.468753e-001 -3.578628e-005 -3.947525e-006 -3.859112e-001 7.501377e-001
320235000 -2.094595e-005 -2.528080e-005 -3.637049e-001 7.617763e-001 -1.025814e-004 3.298573e-005 -3.655312e-001 7.653028e-001
320520000 -3.365445e-005 -3.727943e-005 -3.427485e-001 7.769420e-001 -5.063512e-005 1.835679e-005 -3.442604e-001 7.804452e-001
320805000 6.066449e-005 8.288895e-005 -3.211118e-001 7.915299e-001 -5.541476e-005 9.894494e-005 -3.224750e-001 7.942495e-001
321090000 -2.933045e-006 -1.030639e-004 -2.987660e-001 8.050799e-001 -5.631126e-006 -3.704743e-005 -3.004646e-001 8.084560e-001
321375000 6.097863e-005 -1.126003e-004 -2.755106e-001 8.191903e-001 -3.091576e-005 -1.303530e-004 -2.766317e-001 8.225929e-001
321660000 -4.883033e-005 -5.970437e-005 -2.519280e-001 8.320739e-001 5.885378e-005 -1.377223e-004 -2.527943e-001 8.353880e-001
321945000 -1.020388e-004 7.454837e-005 -2.272654e-001 8.450902e-001 1.489853e-005 2.569851e-006 -2.277958e-001 8.481007e-001
322230000 -4.650908e-005 1.419779e-005 -2.019131e-001 8.570986e-001 -7.826779e-005 -5.472202e-005 -2.023164e-001 8.602157e-001
322515000 -7.399014e-005 -8.013986e-005 -1.754140e-001 8.676318e-001 -3.968826e-005 -3.777052e-005 -1.762532e-001 8.717085e-001
322800000 2.932388e-005 7.147720e-005 -1.489402e-001 8.783650e-001 -1.770118e-005 3.738458e-005 -1.492528e-001 8.824956e-001
323085000 9.968445e-005 -1.864717e-005 -1.211216e-001 8.886453e-001 7.609827e-005 -2.350856e-005 -1.216061e-001 8.930299e-001
323370000 -5.475106e-005 -6.624711e-006 -9.234069e-002 8.978007e-001 1.933736e-005 -3.087683e-006 -9.275741e-002 9.019950e-001
323655000 9.883778e-005 1.530147e-005 -6.351680e-002 9.065388e-001 5.939344e-005 -2.801645e-005 -6.372945e-002 9.097859e-001
323940000 -3.664268e-005 1.742431e-005 -3.326271e-002 9.134408e-001 3.721545e-005 -2.850732e-005 -3.353487e-002 9.177463e-001
324225000 8.422607e-006 -2.906059e-005 -3.109902e-003 9.203939e-001 4.347435e-005 2.022163e-005 -3.015492e-003 9.242505e-001
324510000 -3.873560e-005 -2.297499e-005 2.877502e-002 9.255212e-001 -4.318407e-005 1.155070e-005 2.835559e-002 9.293292e-001
324795000 1.677893e-004 3.294124e-006 6.039494e-002 9.302742e-001 1.293109e-006 9.207094e-005 6.076645e-002 9.341441e-001
325080000 -1.463369e-005 7.643607e-005 9.292255e-002 9.331664e-001 -2.671840e-005 8.734265e-005 9.298522e-002 9.377698e-001
325365000 -6.572324e-005 7.593732e-005 1.258488e-001 9.356657e-001 6.127316e-005 5.160030e-006 1.271410e-001 9.392792e-001
325650000 -8.754090e-005 8.372921e-005 1.592028e-001 9.363748e-001 2.381463e-005 9.553921e-005 1.604595e-001 9.405026e-001
325935000 -7.594347e-005 -6.879120e-005 1.934277e-001 9.359699e-001 6.325063e-005 3.468966e-005 1.943520e-001 9.395660e-001
326220000 6.237524e-005 2.446445e-005 2.281563e-001 9.336986e-001 1.081205e-004 5.822333e-005 2.295323e-001 9.381589e-001
326505000 -2.879652e-005 -3.222131e-006 2.638676e-001 9.310372e-001 2.301289e-005 -6.780347e-007 2.645296e-001 9.346571e-001
326790000 -1.514532e-004 -5.045941e-005 2.983592e-001 9.259709e-001 -3.527655e-007 -9.856388e-006 2.994423e-001 9.299079e-001
327075000 1.214228e-004 -8.277272e-005 3.339302e-001 9.192204e-001 3.945934e-005 -4.552373e-005 3.352489e-001 9.230729e-001
327360000 9.593460e-006 -8.069431e-005 3.699262e-001 9.114830e-001 9.930410e-005 -9.765500e-005 3.710542e-001 9.158636e-001
327645000 3.585235e-005 1.748143e-005 4.056072e-001 9.017920e-001 4.287538e-005 1.093481e-004 4.070273e-001 9.053963e-001
327930000 8.968418e-005 2.506011e-005 4.405557e-001 8.906527e-001 -6.823829e-005 -8.890031e-006 4.422420e-001 8.937063e-001
328215000 4.953222e-005 -8.796030e-005 4.760333e-001 8.773635e-001 -9.331094e-005 1.855181e-005 4.781821e-001 8.811464e-001
328500000 6.962000e-006 3.137779e-005 5.116007e-001 8.622477e-001 -1.641592e-004 -1.247947e-005 5.139654e-001 8.656064e-001
328785000 -2.576946e-005 -5.525584e-005 5.465993e-001 8.456810e-001 4.126961e-005 -4.755440e-005 5.488452e-001 8.487518e-001
329070000 -2.967463e-005 -2.773933e-005 5.807248e-001 8.269540e-001 4.592391e-005 -1.081121e-005 5.833895e-001 8.307284e-001
329355000 -2.427248e-005 3.742014e-005 6.142061e-001 8.073627e-001 -8.223376e-005 -1.416176e-004 6.173431e-001 8.106150e-001
329640000 -1.383877e-004 4.937785e-005 6.475246e-001 7.853077e-001 5.201438e-005 1.962404e-005 6.506391e-001 7.887698e-001
329925000 -1.250068e-005 3.904994e-005 6.796200e-001 7.621742e-001 -2.014575e-005 8.283769e-005 6.824463e-001 7.651939e-001
330210000 -1.800197e-005 -4.826080e-005 7.111483e-001 7.368716e-001 -4.840423e-006 -6.187618e-005 7.137411e-001 7.399567e-001
330495000 -1.156910e-004 -1.442448e-004 7.408476e-001 7.093250e-001 -1.093235e-005 -2.241290e-005 7.443706e-001 7.125240e-001
330780000 1.170227e-005 -1.388869e-004 7.699483e-001 6.808189e-001 8.507508e-005 6.675081e-005 7.733033e-001 6.839901e-001
331065000 6.679558e-005 -1.626514e-005 7.973722e-001 6.511619e-001 6.429081e-006 -6.477987e-005 8.001516e-001 6.537784e-001
331350000 -1.765659e-005 3.711332e-005 8.235001e-001 6.197967e-001 -1.382170e-005 1.845451e-005 8.273646e-001 6.228142e-001
331635000 -2.945490e-005 4.060745e-006 8.478256e-001 5.880756e-001 6.124199e-005 2.005104e-005 8.517596e-001 5.902368e-001
331920000 9.649334e-005 3.115049e-005 8.718981e-001 5.538954e-001 3.217978e-007 3.159053e-005 8.753715e-001 5.560740e-001
332205000 -4.436414e-005 5.428809e-005 8.924107e-001 5.189508e-001 -2.402384e-005 -6.679611e-006 8.958346e-001 5.211750e-001
332490000 5.373075e-006 -5.712476e-006 9.126153e-001 4.836225e-001 -6.837284e-005 1.650004e-004 9.168950e-001 4.846839e-001
332775000 -3.293502e-005 1.088636e-005 9.300169e-001 4.466823e-001 7.220054e-005 -5.287713e-006 9.339632e-001 4.479975e-001
333060000 -3.905148e-005 -4.507965e-005 9.463319e-001 4.089705e-001 -3.518343e-005 1.235208e-005 9.499491e-001 4.103809e-001
333345000 -2.714763e-005 8.801314e-005 9.599167e-001 3.706476e-001 -9.347542e-005 2.834733e-006 9.642279e-001 3.723428e-001
333630000 -6.550614e-005 1.877171e-005 9.719431e-001 3.317601e-001 -3.173762e-005 2.458505e-006 9.765524e-001 3.334240e-001
333915000 5.738999e-005 4.803492e-005 9.828043e-001 2.929428e-001 1.306459e-005 -5.445992e-005 9.862848e-001 2.945355e-001
334200000 9.282080e-005 8.199519e-005 9.901385e-001 2.539332e-001 8.720981e-006 8.128810e-005 9.948121e-001 2.552725e-001
334485000 9.880319e-005 2.633514e-005 9.968730e-001 2.148154e-001 -7.111623e-005 1.876969e-005 1.001801e+000 2.158276e-001
334770000 1.232093e-004 -1.125947e-004 1.001492e+000 1.756073e-001 -1.200613e-005 5.669878e-005 1.005706e+000 1.762234e-001
335055000 -6.120016e-005 4.916358e-005 1.003706e+000 1.362037e-001 -3.643211e-005 -3.046519e-005 1.008253e+000 1.370201e-001
335340000 6.377197e-005 4.827748e-005 1.004547e+000 9.748645e-002 -8.160650e-005 -2.566320e-005 1.008885e+000 9.799451e-002
335625000 -5.061807e-005 -7.795547e-007 1.003816e+000 5.893007e-002 4.902495e-005 -6.398890e-005 1.007958e+000 5.942172e-002
335910000 5.547156e-005 1.028746e-004 1.000554e+000 2.147196e-002 -4.776999e-005 -2.606655e-005 1.005053e+000 2.149344e-002
336195000 6.887481e-006 4.826855e-005 9.961398e-001 -1.646582e-002 -6.233353e-005 -8.409915e-005 1.000444e+000 -1.570643e-002
336480000 1.356809e-005 8.640537e-005 9.903662e-001 -5.322786e-002 -8.477009e-005 3.799711e-005 9.946298e-001 -5.396016e-002
336765000 -2.886867e-005 1.540565e-004 9.827144e-001 -8.914538e-002 -1.069878e-005 4.450752e-006 9.869164e-001 -8.993409e-002
337050000 6.732375e-007 2.491872e-005 9.735222e-001 -1.243023e-001 -4.829443e-005 -3.879671e-005 9.780847e-001 -1.243503e-001
337335000 6.142467e-005 8.457808e-005 9.631776e-001 -1.589736e-001 -8.566112e-005 4.556304e-005 9.674997e-001 -1.593301e-001
337620000 2.463401e-005 1.021283e-004 9.511959e-001 -1.917942e-001 -6.504945e-005 -3.025011e-006 9.562514e-001 -1.931949e-001
337905000 8.119466e-005 -6.581303e-006 9.387448e-001 -2.244699e-001 9.954411e-006 4.915709e-005 9.429054e-001 -2.256932e-001
338190000 -1.166338e-005 1.594442e-004 9.247335e-001 -2.557825e-001 4.947443e-006 -2.297991e-005 9.291471e-001 -2.572027e-001
338475000 -5.140988e-005 1.051852e-004 9.102570e-001 -2.864402e-001 -4.701098e-005 4.876011e-005 9.143519e-001 -2.880805e-001
338760000 -5.249014e-005 5.476284e-006 8.941994e-001 -3.163391e-001 7.136450e-005 3.538894e-005 8.976440e-001 -3.176620e-001
339045000 2.915323e-005 4.737480e-005 8.775382e-001 -3.442258e-001 -2.836836e-005 -2.236001e-005 8.807272e-001 -3.458551e-001
339330000 1.359782e-005 -6.567704e-005 8.598537e-001 -3.715805e-001 1.672499e-005 2.059292e-005 8.631912e-001 -3.733233e-001
339615000 -1.209956e-004 7.396246e-005 8.415401e-001 -3.986792e-001 -3.827372e-005 -7.913643e-006 8.455000e-001 -3.996815e-001
339900000 -1.200483e-004 -2.215025e-005 8.228980e-001 -4.228915e-001 2.187898e-005 -1.869153e-005 8.263978e-001 -4.254147e-001
340185000 -6.618418e-005 -8.257432e-005 8.032324e-001 -4.474277e-001 -8.787954e-005 -5.546979e-005 8.065758e-001 -4.490307e-001
340470000 3.560168e-005 -4.904515e-006 7.831736e-001 -4.707238e-001 -1.831164e-005 7.756557e-006 7.860647e-001 -4.730016e-001
340755000 -1.068268e-004 1.452520e-005 7.621996e-001 -4.928053e-001 5.786027e-005 -2.535621e-005 7.658088e-001 -4.943227e-001
341040000 -8.436715e-005 -2.897194e-006 7.417228e-001 -5.134502e-001 3.584125e-005 9.273387e-006 7.452305e-001 -5.161465e-001
341325000 2.140807e-005 -5.971258e-005 7.203245e-001 -5.334126e-001 -2.341502e-005 -1.015360e-005 7.234769e-001 -5.362768e-001
341610000 6.848277e-006 -3.457075e-005 6.985878e-001 -5.530450e-001 -6.070794e-005 -1.027024e-004 7.018789e-001 -5.547681e-001
341895000 -7.411041e-006 -7.142502e-005 6.770430e-001 -5.709725e-001 4.679241e-005 -2.219103e-005 6.798576e-001 -5.733409e-001
342180000 -3.415353e-005 3.084218e-005 6.545787e-001 -5.880943e-001 -9.037250e-005 4.224697e-005 6.581673e-001 -5.903105e-001
342465000 -1.135677e-004 -2.090586e-005 6.326314e-001 -6.038564e-001 -3.031741e-005 -5.405066e-005 6.353751e-001 -6.071403e-001
342750000 3.387989e-005 5.020925e-005 6.105442e-001 -6.198952e-001 -8.685775e-006 -1.215956e-005 6.133346e-001 -6.225154e-001
343035000 -4.689871e-005 8.080392e-005 5.877884e-001 -6.345673e-001 9.174229e-007 5.503390e-005 5.903859e-001 -6.371069e-001
343320000 5.097566e-005 3.154603e-006 5.656329e-001 -6.479734e-001 2.111733e-005 -3.709648e-005 5.680370e-001 -6.503645e-001
343605000 4.435392e-005 1.507662e-004 5.430682e-001 -6.609444e-001 3.611720e-005 9.383798e-006 5.454277e-001 -6.634996e-001
343890000 9.522402e-005 1.099472e-005 5.207006e-001 -6.724783e-001 -3.241116e-005 1.871692e-006 5.230944e-001 -6.753070e-001
