!Agilent Technologies,N5230C,SG49000117,A.08.50.07
!Agilent N5230C: A.08.50.07
!Date: Monday, March 18, 2024 19:02:14
!Correction: S11(Off) 
!S21(Off) 
!S12(Off) 
!S22(Off) 
!S2P File: Measurements: S11, S21, S12, S22:
# Hz S  RI   R 50
300000000 -1.469939e-004 3.417336e-006 -6.517944e-001 -6.083934e-001 1.791145e-004 -1.234736e-004 -6.538471e-001 -6.108818e-001
300285000 3.225063e-005 -2.567037e-005 -6.654631e-001 -5.851566e-001 4.793915e-007 -5.799213e-005 -6.677272e-001 -5.868549e-001
300570000 -2.824254e-005 -7.689257e-005 -6.780521e-001 -5.614063e-001 -1.030964e-005 1.473524e-005 -6.804143e-001 -5.635434e-001
300855000 -1.140334e-004 -7.334093e-005 -6.903502e-001 -5.372572e-001 -2.494519e-005 -9.395777e-005 -6.924781e-001 -5.398332e-001
301140000 8.575005e-005 6.034646e-005 -7.019930e-001 -5.134862e-001 5.239684e-005 3.210877e-005 -7.047985e-001 -5.152391e-001
301425000 7.199107e-005 -3.084472e-005 -7.127281e-001 -4.900205e-001 -2.921244e-005 2.697109e-005 -7.148904e-001 -4.914760e-001
301710000 -1.312387e-006 -6.319261e-006 -7.223374e-001 -4.662580e-001 -1.366437e-005 -8.797821e-006 -7.249842e-001 -4.680110e-001
301995000 -4.374177e-006 -3.780748e-006 -7.310767e-001 -4.426532e-001 -2.744732e-005 3.029460e-006 -7.333969e-001 -4.445287e-001
302280000 4.988138e-005 -9.264905e-005 -7.389734e-001 -4.188941e-001 3.293966e-005 1.005287e-004 -7.419507e-001 -4.203117e-001
302565000 3.430316e-005 -3.794547e-005 -7.466499e-001 -3.954440e-001 7.456882e-005 -1.215442e-005 -7.503910e-001 -3.971543e-001
302850000 1.008337e-004 9.250085e-006 -7.536581e-001 -3.720484e-001 4.396116e-005 9.309775e-005 -7.562126e-001 -3.735280e-001
303135000 5.756078e-005 9.673868e-005 -7.598041e-001 -3.486969e-001 5.995680e-005 1.164602e-004 -7.626855e-001 -3.504136e-001
303420000 -3.606200e-005 6.407186e-005 -7.654518e-001 -3.260416e-001 -3.953064e-005 -4.281653e-005 -7.683378e-001 -3.268611e-001
303705000 -3.794827e-005 3.493047e-006 -7.702250e-001 -3.030037e-001 -6.331385e-006 8.031502e-005 -7.736414e-001 -3.043014e-001
303990000 8.892673e-005 1.414088e-005 -7.745882e-001 -2.806323e-001 -7.848943e-005 -4.513313e-005 -7.771410e-001 -2.814328e-001
304275000 -5.713786e-006 9.392169e-005 -7.789868e-001 -2.574588e-001 -7.793122e-006 3.292515e-005 -7.820687e-001 -2.585950e-001
304560000 1.568382e-005 4.708681e-005 -7.821712e-001 -2.354979e-001 -6.149941e-005 -1.133000e-004 -7.848194e-001 -2.357830e-001
304845000 -1.946813e-005 3.435753e-005 -7.847802e-001 -2.126810e-001 -4.558922e-005 -1.666509e-005 -7.878664e-001 -2.131838e-001
305130000 3.482963e-005 -3.316575e-006 -7.873505e-001 -1.903683e-001 -1.350613e-004 -9.542664e-005 -7.899209e-001 -1.910848e-001
305415000 8.670038e-005 1.498479e-005 -7.889566e-001 -1.688225e-001 5.439971e-005 2.048587e-005 -7.916303e-001 -1.692974e-001
305700000 -4.470444e-005 5.562774e-005 -7.900555e-001 -1.468150e-001 4.958736e-005 -3.747055e-005 -7.929648e-001 -1.475561e-001
305985000 9.244864e-006 7.370665e-005 -7.910515e-001 -1.247987e-001 1.530935e-004 -3.176615e-005 -7.941453e-001 -1.251643e-001
306270000 -1.046723e-004 -7.708596e-005 -7.912205e-001 -1.033670e-001 -7.129209e-005 1.104182e-006 -7.940369e-001 -1.038619e-001
306555000 1.025036e-005 2.820983e-005 -7.907552e-001 -8.202734e-002 5.001348e-005 -2.894268e-005 -7.936317e-001 -8.256004e-002
306840000 4.113662e-005 -3.052077e-005 -7.901537e-001 -6.055984e-002 6.504866e-005 1.134855e-004 -7.934666e-001 -6.135027e-002
307125000 1.650998e-005 5.512148e-006 -7.890131e-001 -3.982052e-002 -7.854855e-005 -5.126692e-005 -7.927279e-001 -4.016567e-002
307410000 4.621280e-005 -1.034770e-004 -7.881906e-001 -1.869044e-002 1.485790e-004 -4.818355e-005 -7.912402e-001 -1.844040e-002
307695000 5.834766e-005 -5.354089e-005 -7.861059e-001 1.790566e-003 9.917923e-005 9.971760e-005 -7.891423e-001 2.073977e-003
307980000 -3.163577e-005 4.343200e-005 -7.836055e-001 2.244809e-002 1.682641e-005 3.770786e-005 -7.873386e-001 2.280273e-002
308265000 1.096054e-004 -1.131759e-005 -7.817812e-001 4.304755e-002 -2.298832e-005 3.667354e-005 -7.843348e-001 4.259723e-002
308550000 3.860858e-005 -1.085211e-005 -7.785013e-001 6.310131e-002 3.947420e-005 3.699399e-005 -7.814165e-001 6.370476e-002
308835000 7.080253e-005 2.983293e-005 -7.753175e-001 8.365459e-002 1.029321e-004 -7.066314e-006 -7.781190e-001 8.401915e-002
309120000 7.437659e-005 9.948591e-005 -7.712696e-001 1.037100e-001 -3.180182e-005 5.951464e-005 -7.744431e-001 1.042926e-001
309405000 2.769987e-005 -4.545452e-006 -7.673711e-001 1.240967e-001 7.894634e-005 3.033288e-005 -7.704352e-001 1.244800e-001
309690000 4.736194e-005 5.409274e-005 -7.632726e-001 1.434675e-001 1.202400e-004 1.081648e-004 -7.659746e-001 1.440052e-001
309975000 1.006562e-004 5.414139e-005 -7.588272e-001 1.628817e-001 -1.527575e-004 6.781668e-005 -7.609336e-001 1.638851e-001
310260000 -1.429113e-004 -5.417256e-005 -7.531269e-001 1.827704e-001 -5.210736e-006 1.042352e-004 -7.559751e-001 1.834683e-001
310545000 -8.930585e-005 2.313032e-005 -7.476331e-001 2.024659e-001 2.120491e-005 -3.198058e-005 -7.507319e-001 2.031036e-001
310830000 -2.753176e-005 3.372626e-005 -7.420267e-001 2.214708e-001 -1.059756e-004 -4.121795e-007 -7.447688e-001 2.228299e-001
311115000 -5.883251e-005 1.987476e-005 -7.357471e-001 2.403987e-001 -4.691628e-005 -1.116220e-004 -7.383747e-001 2.415055e-001
311400000 1.825815e-005 2.884515e-005 -7.299289e-001 2.597781e-001 -3.790577e-005 -6.429249e-005 -7.321529e-001 2.610212e-001
311685000 3.492684e-005 -2.740080e-005 -7.221857e-001 2.787594e-001 -2.421521e-005 -1.505229e-004 -7.251471e-001 2.807627e-001
311970000 3.581097e-005 3.732947e-006 -7.150985e-001 2.980331e-001 2.519250e-005 -5.997741e-005 -7.175287e-001 2.992365e-001
312255000 -4.109555e-005 3.740495e-005 -7.080229e-001 3.173118e-001 -3.820785e-005 2.347218e-005 -7.101644e-001 3.181048e-001
312540000 -1.779118e-005 -8.607052e-006 -6.998883e-001 3.360405e-001 9.428677e-006 -9.119635e-006 -7.022402e-001 3.370096e-001
312825000 -5.256017e-005 7.060460e-005 -6.910505e-001 3.543229e-001 9.148379e-005 2.063598e-005 -6.934909e-001 3.556432e-001
313110000 -7.688189e-006 -7.550818e-005 -6.822167e-001 3.725338e-001 -6.457984e-005 5.357173e-005 -6.846880e-001 3.742403e-001
313395000 2.354659e-005 -1.078916e-004 -6.732718e-001 3.914110e-001 1.455016e-005 6.498534e-006 -6.758313e-001 3.931917e-001
313680000 -2.873520e-005 2.238567e-005 -6.640273e-001 4.095874e-001 9.863466e-005 1.481455e-004 -6.662133e-001 4.110802e-001
313965000 -4.283305e-005 -1.270267e-005 -6.536375e-001 4.286339e-001 1.374756e-005 9.304412e-005 -6.563880e-001 4.296613e-001
314250000 1.660306e-005 -4.401731e-005 -6.434991e-001 4.460877e-001 -1.331617e-005 -5.772740e-007 -6.461559e-001 4.480385e-001
314535000 1.243411e-004 -2.669578e-005 -6.329279e-001 4.641438e-001 -5.223205e-005 -4.315811e-005 -6.352513e-001 4.661889e-001
314820000 6.714840e-005 -4.107151e-005 -6.218897e-001 4.822904e-001 5.589760e-005 -4.492108e-006 -6.239227e-001 4.844780e-001
315105000 2.612149e-005 -1.986349e-005 -6.103436e-001 5.003420e-001 -1.310142e-004 -1.049516e-005 -6.125780e-001 5.018979e-001
315390000 4.886533e-005 2.484847e-005 -5.977938e-001 5.180793e-001 1.848185e-005 4.236725e-005 -6.000112e-001 5.201936e-001
315675000 5.654694e-005 1.273755e-006 -5.855124e-001 5.359154e-001 -1.335420e-004 4.273010e-005 -5.874938e-001 5.379273e-001
315960000 4.126148e-005 -7.576034e-005 -5.720203e-001 5.539361e-001 -1.138975e-005 -9.122760e-005 -5.745989e-001 5.557888e-001
316245000 9.370001e-005 -2.156951e-005 -5.586514e-001 5.711336e-001 3.090338e-005 2.872216e-005 -5.610428e-001 5.736803e-001
316530000 -7.714362e-005 5.073203e-005 -5.446913e-001 5.881227e-001 -9.179346e-005 2.914708e-005 -5.469022e-001 5.908394e-001
316815000 -5.262357e-005 4.161041e-005 -5.301238e-001 6.054003e-001 -2.179303e-005 3.362727e-005 -5.321999e-001 6.081763e-001
317100000 -3.145911e-005 7.555340e-005 -5.150766e-001 6.226188e-001 5.874727e-005 1.185444e-005 -5.172153e-001 6.252179e-001
317385000 -7.141635e-005 -1.251063e-005 -4.997335e-001 6.393132e-001 -8.684045e-006 3.471249e-005 -5.014151e-001 6.416731e-001
317670000 -4.716770e-005 -9.817375e-005 -4.832556e-001 6.562352e-001 2.879165e-005 -3.368013e-005 -4.854950e-001 6.586611e-001
317955000 1.435910e-005 -4.476569e-005 -4.659887e-001 6.724612e-001 5.936447e-005 -6.698489e-006 -4.682016e-001 6.750479e-001
318240000 -5.012889e-005 2.578140e-005 -4.489429e-001 6.887147e-001 -6.863152e-006 5.811143e-005 -4.515386e-001 6.914405e-001
318525000 -7.527102e-005 8.712901e-006 -4.311346e-001 7.047495e-001 -8.294635e-005 -7.634940e-005 -4.324923e-001 7.075201e-001
318810000 -1.093710e-005 4.818652e-005 -4.122285e-001 7.207011e-001 -1.470450e-005 -8.259668e-006 -4.146464e-001 7.237090e-001
319095000 1.793727e-005 1.043607e-004 -3.932650e-001 7.363895e-001 1.050756e-004 -1.480940e-004 -3.949977e-001 7.394258e-001
319380000 3.526029e-005 -1.032054e-004 -3.738604e-001 7.514445e-001 -1.837020e-005 -5.629465e-005 -3.750121e-001 7.543322e-001
319665000 -6.285567e-005 6.123738e-005 -3.524534e-001 7.662197e-001 2.103739e-005 3.765503e-005 -3.541769e-001 7.692136e-001
319950000 -4.614698e-005 -4.367006e-005 -3.313540e-001 7.810199e-001 4.811233e-005 1.264348e-006 -3.332457e-001 7.845072e-001
320235000 1.982971e-005 2.613840e-005 -3.092864e-001 7.950922e-001 5.358078e-005 7.873635e-005 -3.110138e-001 7.982869e-001
320520000 2.454700e-005 -4.201885e-005 -2.868588e-001 8.090189e-001 -8.624377e-007 -2.358230e-005 -2.878916e-001 8.118867e-001
320805000 9.468288e-005 3.933003e-005 -2.637993e-001 8.216458e-001 -1.103949e-005 1.152713e-004 -2.650251e-001 8.254755e-001
321090000 1.100638e-004 -1.443884e-004 -2.395723e-001 8.346851e-001 -1.257658e-004 3.739339e-006 -2.398362e-001 8.381026e-001
321375000 4.133849e-006 -2.972410e-005 -2.146897e-001 8.468828e-001 -4.123441e-006 -1.465673e-005 -2.157786e-001 8.500945e-001
321660000 3.587635e-005 7.171730e-005 -1.890995e-001 8.584844e-001 -4.914156e-005 1.960642e-005 -1.900810e-001 8.616672e-001
321945000 -6.904158e-005 -2.093041e-005 -1.631122e-001 8.695436e-001 -1.938297e-004 -3.766902e-005 -1.636671e-001 8.731732e-001
322230000 8.559374e-005 4.614858e-005 -1.357360e-001 8.793738e-001 1.634785e-005 -1.272742e-004 -1.363831e-001 8.827828e-001
322515000 1.046026e-005 1.329065e-005 -1.080133e-001 8.898213e-001 -3.104623e-005 -1.023390e-005 -1.082878e-001 8.928362e-001
322800000 -1.114408e-005 -5.568453e-005 -7.954688e-002 8.981587e-001 1.204741e-004 -5.663249e-005 -7.969774e-002 9.020454e-001
323085000 -4.570272e-005 6.164577e-005 -5.039498e-002 9.060358e-001 -1.476829e-005 -6.829513e-005 -5.030345e-002 9.094471e-001
323370000 2.490194e-005 -2.096160e-007 -2.017928e-002 9.129888e-001 -5.347512e-005 -9.146543e-005 -1.997173e-002 9.164619e-001
323655000 -2.101538e-005 -3.996314e-005 1.039478e-002 9.192885e-001 5.688294e-005 -4.425540e-006 1.015386e-002 9.236194e-001
323940000 -2.961903e-005 1.150924e-004 4.146169e-002 9.241490e-001 9.997765e-005 2.310906e-005 4.219669e-002 9.279583e-001
324225000 -4.762760e-005 1.041489e-005 7.404874e-002 9.279447e-001 1.753417e-005 -5.276656e-006 7.404283e-002 9.321426e-001
324510000 -5.255056e-005 -3.296609e-005 1.062922e-001 9.308649e-001 5.647553e-006 3.556866e-005 1.069381e-001 9.346156e-001
324795000 7.724819e-005 -2.405027e-005 1.392153e-001 9.325013e-001 -4.905504e-005 3.012213e-005 1.398011e-001 9.359457e-001
325080000 -3.850606e-005 -5.152490e-005 1.732198e-001 9.323300e-001 -2.268760e-005 -8.125894e-006 1.740580e-001 9.368922e-001
325365000 -5.580706e-005 2.643591e-005 2.075703e-001 9.316121e-001 -4.797209e-005 -5.692344e-005 2.082599e-001 9.358858e-001
325650000 7.210138e-005 -9.029160e-006 2.417395e-001 9.288961e-001 1.676569e-005 -7.231825e-005 2.425397e-001 9.330225e-001
325935000 -2.932953e-005 4.666606e-005 2.768292e-001 9.253147e-001 -1.907056e-005 1.562968e-005 2.776056e-001 9.296226e-001
326220000 -1.291246e-005 2.951599e-005 3.121526e-001 9.201539e-001 5.711921e-005 -2.850952e-005 3.134218e-001 9.240178e-001
326505000 1.292863e-005 7.086712e-005 3.476067e-001 9.129673e-001 6.213961e-005 -4.964757e-005 3.484724e-001 9.172202e-001
326790000 -1.139999e-005 1.937639e-006 3.826609e-001 9.041246e-001 2.063591e-005 -1.101979e-004 3.846354e-001 9.086355e-001
327075000 4.055082e-005 7.570066e-005 4.185152e-001 8.940991e-001 -2.263394e-005 -4.621365e-005 4.203346e-001 8.982085e-001
327360000 1.501932e-005 -4.954960e-005 4.543520e-001 8.821121e-001 3.336527e-005 3.325558e-005 4.551477e-001 8.861649e-001
327645000 -1.138820e-004 4.905671e-005 4.889886e-001 8.690702e-001 5.103180e-005 -6.107036e-005 4.913785e-001 8.728627e-001
327930000 -1.135561e-004 2.224227e-005 5.246497e-001 8.537905e-001 1.390091e-005 1.062751e-004 5.265203e-001 8.568649e-001
328215000 5.750841e-006 -8.200672e-005 5.583425e-001 8.361694e-001 4.602032e-005 -1.377522e-005 5.609964e-001 8.401867e-001
328500000 1.080348e-004 -7.312469e-005 5.927541e-001 8.170429e-001 -7.284180e-005 -6.673385e-005 5.952967e-001 8.210956e-001
328785000 3.919360e-005 -7.344353e-005 6.263027e-001 7.966498e-001 -9.804471e-005 -1.122579e-005 6.287595e-001 8.002712e-001
329070000 3.927506e-005 -3.873772e-005 6.583364e-001 7.740318e-001 4.646842e-005 2.067582e-005 6.619583e-001 7.776275e-001
329355000 4.748615e-005 -2.543849e-006 6.911016e-001 7.503062e-001 -7.098570e-005 4.013121e-005 6.935468e-001 7.533711e-001
329640000 6.160788e-005 -1.099945e-004 7.218130e-001 7.244825e-001 3.194382e-005 -4.513660e-005 7.248905e-001 7.277764e-001
329925000 -2.444807e-005 8.058787e-005 7.516288e-001 6.973787e-001 6.185575e-005 -2.617455e-005 7.538707e-001 7.006823e-001
330210000 -4.571253e-005 -1.482250e-005 7.791625e-001 6.688101e-001 -1.311512e-005 1.233991e-005 7.828050e-001 6.713529e-001
330495000 -3.253133e-005 -2.584515e-005 8.067667e-001 6.385606e-001 4.697446e-005 1.145468e-004 8.102618e-001 6.409089e-001
330780000 1.822120e-006 -8.315180e-005 8.328410e-001 6.062699e-001 -3.988920e-005 -1.129705e-005 8.361296e-001 6.095244e-001
331065000 -6.014454e-005 8.512483e-005 8.567650e-001 5.736848e-001 -2.947488e-005 -6.748140e-006 8.603229e-001 5.761388e-001
331350000 -3.628509e-005 -9.036133e-006 8.797622e-001 5.391095e-001 4.233338e-005 3.726055e-005 8.827252e-001 5.419596e-001
331635000 1.214247e-005 1.424752e-005 8.999635e-001 5.035037e-001 4.521330e-005 -6.601357e-005 9.046977e-001 5.064459e-001
331920000 3.306412e-005 1.440429e-004 9.189796e-001 4.678867e-001 4.939218e-005 -2.615619e-005 9.234000e-001 4.704700e-001
332205000 3.480559e-005 -9.474268e-005 9.365001e-001 4.307992e-001 -1.009325e-005 -2.151048e-005 9.405154e-001 4.326333e-001
332490000 3.387802e-005 8.798490e-006 9.517450e-001 3.930373e-001 8.291075e-005 -8.602894e-005 9.558172e-001 3.942553e-001
332775000 2.093436e-004 2.714465e-005 9.652646e-001 3.539313e-001 5.177790e-005 -9.126675e-005 9.693668e-001 3.558770e-001
333060000 -1.802463e-005 -1.868861e-006 9.765393e-001 3.158561e-001 -3.500783e-005 3.417447e-005 9.807793e-001 3.168091e-001
333345000 -3.535904e-005 9.895483e-007 9.860535e-001 2.757742e-001 1.848731e-006 2.424319e-005 9.907664e-001 2.780409e-001
333630000 -3.186169e-005 -1.175894e-004 9.938435e-001 2.374837e-001 3.772305e-005 -5.695153e-005 9.983227e-001 2.374886e-001
333915000 1.970783e-005 -5.313347e-005 9.993571e-001 1.976837e-001 2.692116e-005 1.747597e-005 1.004134e+000 1.987916e-001
334200000 2.887897e-005 1.044044e-004 1.003604e+000 1.579929e-001 9.130096e-005 5.423978e-005 1.007527e+000 1.588213e-001
334485000 4.855878e-006 -1.708797e-004 1.004849e+000 1.187918e-001 9.784334e-005 1.057530e-004 1.010265e+000 1.196503e-001
334770000 -4.800330e-005 4.313976e-005 1.005290e+000 8.021551e-002 1.856284e-005 -5.522134e-005 1.009863e+000 8.043507e-002
335055000 -8.267526e-006 -2.885995e-005 1.003830e+000 4.181378e-002 -9.836877e-005 8.454862e-005 1.007451e+000 4.169934e-002
335340000 -2.092337e-005 1.847551e-006 1.000942e+000 3.627952e-003 3.196231e-005 -4.451330e-005 1.004744e+000 3.701169e-003
335625000 -4.889398e-005 5.285636e-005 9.955375e-001 -3.363165e-002 -1.048557e-005 -4.437490e-005 9.994936e-001 -3.407149e-002
335910000 4.530633e-005 -4.755542e-005 9.885960e-001 -7.026051e-002 3.497982e-005 1.948856e-005 9.924601e-001 -7.083100e-002
336195000 2.061680e-005 -2.225992e-005 9.800975e-001 -1.068319e-001 -4.779756e-005 -6.386232e-005 9.844190e-001 -1.066525e-001
336480000 -1.543977e-005 -1.587686e-005 9.705014e-001 -1.416033e-001 -1.124662e-004 -2.303921e-005 9.746772e-001 -1.420300e-001
336765000 2.295971e-005 -3.868526e-005 9.595221e-001 -1.754848e-001 1.281468e-004 -9.889359e-005 9.640405e-001 -1.763474e-001
337050000 -5.130695e-005 -3.355583e-005 9.476833e-001 -2.086583e-001 -3.079796e-005 -2.839251e-005 9.517469e-001 -2.100654e-001
337335000 1.629142e-005 -4.830885e-006 9.343815e-001 -2.417151e-001 6.365953e-006 -4.368134e-005 9.378129e-001 -2.426225e-001
337620000 -2.561580e-005 -4.950623e-005 9.193852e-001 -2.729227e-001 2.679363e-005 1.318906e-005 9.232031e-001 -2.738366e-001
337905000 -8.758758e-005 1.227642e-005 9.045285e-001 -3.028635e-001 9.886527e-006 8.846638e-006 9.078665e-001 -3.041742e-001
338190000 4.168346e-005 -1.454858e-006 8.873919e-001 -3.324220e-001 -8.287957e-005 5.029305e-006 8.911339e-001 -3.335913e-001
338475000 3.041422e-005 8.246769e-006 8.701214e-001 -3.604740e-001 -5.512182e-005 -2.633471e-005 8.735820e-001 -3.621184e-001
338760000 5.198472e-005 -1.114266e-005 8.524756e-001 -3.869849e-001 -8.404469e-005 9.392006e-005 8.559378e-001 -3.885774e-001
339045000 6.394832e-006 3.485463e-005 8.334539e-001 -4.136319e-001 -3.933098e-005 -4.593868e-005 8.374507e-001 -4.148671e-001
339330000 7.381335e-005 1.410382e-004 8.136608e-001 -4.387656e-001 8.136089e-005 2.015953e-005 8.174128e-001 -4.402355e-001
339615000 -1.015482e-004 5.518365e-005 7.935161e-001 -4.620985e-001 1.323806e-004 3.191649e-005 7.975839e-001 -4.642238e-001
339900000 -3.494035e-005 2.119917e-005 7.731405e-001 -4.851128e-001 -7.547558e-006 8.838580e-005 7.762850e-001 -4.869508e-001
340185000 -9.732384e-005 3.570877e-005 7.525526e-001 -5.066500e-001 2.502024e-005 3.548760e-005 7.554976e-001 -5.087837e-001
340470000 -6.234019e-005 -2.621453e-005 7.309695e-001 -5.268529e-001 -8.680295e-005 1.082257e-004 7.342391e-001 -5.296001e-001
340755000 -3.757237e-005 -5.690152e-005 7.099868e-001 -5.467134e-001 6.249842e-005 2.795747e-005 7.117715e-001 -5.493346e-001
341040000 1.180038e-004 3.221623e-005 6.874787e-001 -5.656301e-001 6.689096e-006 6.514932e-005 6.903918e-001 -5.676786e-001
341325000 -9.643595e-005 -6.608977e-005 6.653095e-001 -5.831397e-001 2.609040e-005 -2.425591e-005 6.680899e-001 -5.854923e-001
341610000 -5.219673e-006 3.840058e-005 6.425799e-001 -6.003184e-001 -2.278990e-005 -3.809473e-005 6.456622e-001 -6.020278e-001
341895000 1.715315e-004 -4.203027e-005 6.201898e-001 -6.155872e-001 -6.320957e-006 -3.367639e-006 6.229181e-001 -6.182426e-001
342180000 9.595572e-006 5.606053e-006 5.980267e-001 -6.304619e-001 -1.418542e-004 -1.967633e-005 6.000583e-001 -6.333249e-001
342465000 -2.233963e-005 6.657849e-005 5.751466e-001 -6.449521e-001 -2.069039e-005 -1.069176e-004 5.773368e-001 -6.474077e-001
342750000 3.201602e-005 -1.358497e-006 5.520384e-001 -6.577071e-001 -2.357260e-005 1.645659e-005 5.547692e-001 -6.607786e-001
343035000 8.659413e-005 3.558233e-005 5.294871e-001 -6.703265e-001 2.176152e-006 3.485108e-005 5.318167e-001 -6.726148e-001
343320000 3.879140e-005 -6.236226e-006 5.066354e-001 -6.821504e-001 4.230941e-005 4.345282e-005 5.082771e-001 -6.843332e-001
343605000 1.265324e-005 6.952391e-005 4.836682e-001 -6.928272e-001 1.576753e-005 -1.107817e-005 4.856207e-001 -6.955055e-001
343890000 -2.657231e-005 6.970347e-005 4.606835e-001 -7.023149e-001 8.793321e-005 4.695139e-005 4.629216e-001 -7.054858e-001
