!Agilent Technologies,N5230C,SG49000117,A.08.50.07
!Agilent N5230C: A.08.50.07
!Date: Monday, March 18, 2024 18:53:27
!Correction: S11(Off) 
!S21(Off) 
!S12(Off) 
!S22(Off) 
!S2P File: Measurements: S11, S21, S12, S22:
# Hz S  RI   R 50
300000000 1.131165e-004 -5.132833e-005 -6.222669e-001 -6.492464e-001 4.994348e-005 -2.323366e-005 -6.240800e-001 -6.514145e-001
300285000 -2.308498e-005 -5.825735e-005 -6.374543e-001 -6.260664e-001 -5.149498e-005 1.494875e-004 -6.398792e-001 -6.277328e-001
300570000 -2.348442e-006 -1.063657e-004 -6.516874e-001 -6.023779e-001 2.337182e-005 5.115552e-005 -6.543510e-001 -6.048170e-001
300855000 4.371125e-005 2.813394e-005 -6.658536e-001 -5.789716e-001 -5.304625e-005 1.083788e-004 -6.683306e-001 -5.808543e-001
301140000 2.968196e-006 -1.383153e-004 -6.779351e-001 -5.555478e-001 -1.565938e-004 -7.789096e-005 -6.807961e-001 -5.572668e-001
301425000 5.753571e-005 -7.674872e-005 -6.901277e-001 -5.318386e-001 9.343038e-005 -4.663070e-005 -6.931123e-001 -5.339601e-001
301710000 4.520960e-005 -7.590419e-005 -7.014176e-001 -5.081626e-001 8.171356e-005 3.714267e-005 -7.041848e-001 -5.104092e-001
301995000 -1.033864e-005 -1.312073e-005 -7.117769e-001 -4.846559e-001 5.845437e-005 1.356763e-006 -7.150632e-001 -4.865358e-001
302280000 8.085441e-005 5.882009e-006 -7.210966e-001 -4.613053e-001 1.399341e-005 -4.423331e-005 -7.240837e-001 -4.628381e-001
302565000 3.626614e-005 6.354708e-005 -7.302577e-001 -4.378589e-001 7.360272e-006 1.014286e-004 -7.325233e-001 -4.390455e-001
302850000 2.867167e-005 2.535589e-005 -7.383857e-001 -4.144920e-001 1.760953e-005 1.841980e-005 -7.410107e-001 -4.161155e-001
303135000 5.082478e-005 4.212376e-005 -7.461303e-001 -3.910191e-001 3.095771e-005 -3.624451e-005 -7.484785e-001 -3.929161e-001
303420000 -3.258213e-005 -1.610007e-005 -7.528834e-001 -3.679720e-001 -1.039498e-005 1.033326e-004 -7.551520e-001 -3.692941e-001
303705000 -1.018661e-004 -4.307717e-005 -7.588679e-001 -3.451921e-001 6.889284e-006 1.552498e-005 -7.616483e-001 -3.462751e-001
303990000 -1.798159e-005 1.059069e-004 -7.638493e-001 -3.223701e-001 5.418773e-005 2.061695e-005 -7.671471e-001 -3.231750e-001
304275000 3.119679e-005 -7.911065e-005 -7.690238e-001 -2.994244e-001 -5.039871e-005 4.277020e-005 -7.722778e-001 -3.005186e-001
304560000 -7.381487e-006 3.032867e-005 -7.738149e-001 -2.764278e-001 -8.581112e-005 1.452896e-004 -7.762634e-001 -2.776265e-001
304845000 9.461238e-006 -4.816841e-005 -7.774410e-001 -2.540741e-001 6.147877e-005 4.388876e-005 -7.801020e-001 -2.557536e-001
305130000 -7.956494e-005 -6.119394e-005 -7.804096e-001 -2.319881e-001 -7.510851e-005 -5.005240e-005 -7.835897e-001 -2.327629e-001
305415000 1.047927e-005 -3.061031e-005 -7.829289e-001 -2.095266e-001 4.972058e-006 -9.948951e-006 -7.865024e-001 -2.106459e-001
305700000 -1.384065e-004 -5.859939e-005 -7.854589e-001 -1.880656e-001 8.470284e-005 -1.589494e-004 -7.880599e-001 -1.886635e-001
305985000 -1.554685e-006 6.253590e-005 -7.871580e-001 -1.658887e-001 4.210636e-005 -5.106965e-006 -7.899713e-001 -1.659872e-001
306270000 4.687421e-005 -6.477471e-005 -7.883597e-001 -1.439936e-001 1.163413e-004 7.867239e-006 -7.909322e-001 -1.449527e-001
306555000 7.497559e-005 -5.727437e-005 -7.890542e-001 -1.228263e-001 1.322219e-004 -8.225167e-005 -7.920282e-001 -1.230528e-001
306840000 -5.600635e-006 -2.157928e-005 -7.896268e-001 -1.010982e-001 5.726800e-005 -1.597826e-005 -7.922631e-001 -1.015024e-001
307125000 -8.448712e-005 1.255495e-004 -7.890176e-001 -8.042102e-002 -1.165852e-004 5.139127e-005 -7.926454e-001 -7.997241e-002
307410000 5.309203e-005 -1.454818e-005 -7.888095e-001 -5.880214e-002 6.905718e-005 -3.162260e-005 -7.918058e-001 -5.890699e-002
307695000 5.470453e-005 8.888109e-005 -7.880090e-001 -3.765216e-002 6.429195e-005 3.936723e-006 -7.909113e-001 -3.802870e-002
307980000 -4.450972e-005 -8.013861e-005 -7.863857e-001 -1.717490e-002 6.069788e-007 -2.772194e-005 -7.891040e-001 -1.732420e-002
308265000 1.209848e-005 -9.855824e-005 -7.847878e-001 3.425587e-003 4.469822e-005 3.510157e-005 -7.879022e-001 3.423799e-003
308550000 8.190689e-006 5.490921e-005 -7.826169e-001 2.418005e-002 5.303135e-005 -1.300560e-005 -7.857755e-001 2.422943e-002
308835000 3.380281e-005 -8.911741e-005 -7.804746e-001 4.452495e-002 7.406034e-005 2.124974e-005 -7.834016e-001 4.445464e-002
309120000 -5.112572e-005 -1.370422e-005 -7.777069e-001 6.469312e-002 6.266517e-005 7.918364e-005 -7.804682e-001 6.509256e-002
309405000 2.510930e-005 2.007340e-005 -7.738773e-001 8.503805e-002 -6.879348e-005 1.616369e-004 -7.770359e-001 8.519754e-002
309690000 3.979898e-005 -2.640267e-006 -7.703806e-001 1.047719e-001 -4.885609e-005 -3.040805e-005 -7.735466e-001 1.049412e-001
309975000 -2.715171e-005 4.096309e-005 -7.666080e-001 1.249655e-001 -6.789156e-005 4.499958e-005 -7.694594e-001 1.252270e-001
310260000 -8.866540e-005 3.180738e-005 -7.617096e-001 1.447427e-001 -1.631333e-005 4.645899e-005 -7.651215e-001 1.446851e-001
310545000 -3.581971e-005 -1.491405e-005 -7.579517e-001 1.638722e-001 -1.095575e-005 3.889723e-005 -7.606380e-001 1.646591e-001
310830000 -1.987973e-005 -7.542716e-005 -7.527345e-001 1.840332e-001 7.460855e-006 -1.154492e-005 -7.550691e-001 1.838864e-001
311115000 8.968978e-006 -4.870581e-005 -7.467788e-001 2.032527e-001 -2.630010e-006 1.733610e-004 -7.497969e-001 2.034944e-001
311400000 -6.738237e-005 -4.568804e-005 -7.411929e-001 2.221990e-001 -2.866939e-005 -1.023999e-005 -7.443889e-001 2.234889e-001
311685000 -2.274172e-005 -4.860768e-005 -7.351944e-001 2.417085e-001 5.176138e-005 -3.283232e-005 -7.384568e-001 2.424379e-001
311970000 3.078032e-005 1.267397e-004 -7.288731e-001 2.605950e-001 7.588349e-005 -5.752437e-005 -7.315946e-001 2.615426e-001
312255000 -2.609022e-005 -2.049983e-005 -7.221987e-001 2.797071e-001 -1.312938e-004 9.423738e-005 -7.249560e-001 2.809546e-001
312540000 2.417354e-005 -7.433418e-005 -7.148157e-001 2.983091e-001 5.864596e-005 -4.146729e-005 -7.179138e-001 2.997959e-001
312825000 -3.207784e-006 5.826273e-005 -7.074518e-001 3.176654e-001 4.393327e-005 5.525794e-005 -7.104598e-001 3.185937e-001
313110000 6.387263e-005 7.648727e-005 -6.989823e-001 3.362872e-001 5.395404e-005 -4.693344e-005 -7.021818e-001 3.385687e-001
313395000 3.052818e-005 -1.101523e-004 -6.915416e-001 3.551130e-001 1.114226e-005 -9.883629e-005 -6.939697e-001 3.566537e-001
313680000 -3.295697e-005 -3.652295e-005 -6.826537e-001 3.737368e-001 1.947569e-005 7.254713e-005 -6.851305e-001 3.752313e-001
313965000 2.862313e-005 -3.466031e-005 -6.732184e-001 3.922379e-001 -1.005335e-004 -1.564702e-005 -6.763572e-001 3.933322e-001
314250000 -1.528655e-005 -6.856753e-005 -6.636708e-001 4.105473e-001 6.770537e-005 -4.232436e-005 -6.668362e-001 4.119543e-001
314535000 1.036822e-004 4.974080e-005 -6.543716e-001 4.288838e-001 4.985566e-005 5.605948e-005 -6.564878e-001 4.307860e-001
314820000 9.706266e-005 3.719542e-006 -6.435120e-001 4.474226e-001 9.062423e-005 -3.562683e-005 -6.469212e-001 4.493088e-001
315105000 1.171093e-004 1.373342e-005 -6.328292e-001 4.655424e-001 8.807800e-006 7.365059e-005 -6.353902e-001 4.674266e-001
315390000 2.022293e-005 9.047095e-005 -6.220261e-001 4.834634e-001 1.266769e-005 7.612399e-005 -6.244594e-001 4.855575e-001
315675000 3.538832e-005 1.295161e-005 -6.105288e-001 5.011516e-001 -2.815323e-005 -8.140125e-005 -6.129777e-001 5.033597e-001
315960000 -7.851907e-006 3.909910e-005 -5.984923e-001 5.196807e-001 -9.000305e-007 5.781804e-005 -6.008775e-001 5.217406e-001
316245000 -4.670309e-005 2.960841e-005 -5.858314e-001 5.366340e-001 -3.708445e-005 1.214019e-004 -5.878706e-001 5.393961e-001
316530000 -1.440236e-004 8.514060e-006 -5.727887e-001 5.547749e-001 -6.463376e-005 5.613510e-005 -5.749189e-001 5.572063e-001
316815000 -8.493460e-005 -1.111127e-004 -5.595959e-001 5.724680e-001 -2.865462e-005 1.174571e-004 -5.614315e-001 5.746843e-001
317100000 9.423476e-007 -2.176565e-005 -5.449972e-001 5.899566e-001 3.746898e-006 1.911136e-005 -5.477506e-001 5.922126e-001
317385000 -4.398470e-005 -2.535109e-005 -5.309604e-001 6.074459e-001 -1.316808e-004 -4.008225e-005 -5.329813e-001 6.093135e-001
317670000 6.759870e-005 -3.053014e-005 -5.157026e-001 6.244963e-001 -2.999596e-005 -5.054684e-006 -5.176542e-001 6.268048e-001
317955000 8.351425e-005 -5.200319e-005 -5.000919e-001 6.411326e-001 2.951148e-005 -4.369507e-005 -5.017596e-001 6.438774e-001
318240000 5.458987e-005 -2.620694e-005 -4.837942e-001 6.579724e-001 1.990866e-005 -4.390499e-005 -4.859244e-001 6.607937e-001
318525000 -2.325925e-005 5.561926e-006 -4.671000e-001 6.744928e-001 1.290134e-004 -3.157573e-005 -4.690214e-001 6.772324e-001
318810000 -1.196775e-005 -3.234064e-005 -4.496666e-001 6.904217e-001 -1.080621e-005 -7.770590e-005 -4.519099e-001 6.941677e-001
319095000 -5.733944e-005 4.981970e-005 -4.313451e-001 7.070606e-001 2.442178e-006 3.365201e-006 -4.335368e-001 7.101848e-001
319380000 1.026475e-004 -1.163555e-005 -4.126171e-001 7.233485e-001 -2.741473e-006 8.845903e-005 -4.146226e-001 7.261425e-001
319665000 2.313123e-005 1.724856e-004 -3.939681e-001 7.385094e-001 -4.003737e-005 9.386471e-006 -3.954168e-001 7.417957e-001
319950000 -1.922821e-005 -2.552424e-007 -3.735808e-001 7.541166e-001 4.317291e-005 -2.520235e-005 -3.748564e-001 7.569245e-001
320235000 3.721988e-005 1.468436e-005 -3.528473e-001 7.687245e-001 3.329777e-005 -4.046715e-005 -3.545843e-001 7.719597e-001
320520000 1.114342e-004 1.128485e-004 -3.313103e-001 7.836888e-001 -2.552577e-005 2.936781e-005 -3.326298e-001 7.867582e-001
320805000 -6.213002e-005 -2.801853e-005 -3.092996e-001 7.973710e-001 1.969532e-005 2.964290e-005 -3.107530e-001 8.008106e-001
321090000 -8.031633e-006 -2.045943e-005 -2.868928e-001 8.111797e-001 4.148442e-005 1.524842e-005 -2.877643e-001 8.144228e-001
321375000 9.999132e-005 5.348515e-005 -2.628327e-001 8.249120e-001 8.970885e-005 -4.559498e-005 -2.642896e-001 8.279923e-001
321660000 -9.203368e-005 -1.282651e-005 -2.386491e-001 8.377725e-001 -1.002665e-004 3.232353e-005 -2.401464e-001 8.407423e-001
321945000 -7.294642e-005 3.650257e-005 -2.140460e-001 8.497656e-001 4.897468e-005 1.254190e-004 -2.148636e-001 8.534639e-001
322230000 1.713141e-006 2.599984e-005 -1.885995e-001 8.614644e-001 -4.416036e-005 -1.264035e-004 -1.889876e-001 8.650965e-001
322515000 -2.616000e-005 4.478980e-005 -1.617275e-001 8.726677e-001 -1.600287e-005 -1.047181e-005 -1.620734e-001 8.764780e-001
322800000 -7.145161e-005 -5.632545e-005 -1.342900e-001 8.831064e-001 -1.146289e-005 5.121469e-006 -1.351836e-001 8.866442e-001
323085000 9.096917e-006 -6.001008e-005 -1.068465e-001 8.920087e-001 -6.624768e-005 -2.429325e-005 -1.069101e-001 8.962554e-001
323370000 -6.859133e-005 7.314033e-005 -7.803337e-002 9.017689e-001 -1.358439e-004 -8.124189e-005 -7.767414e-002 9.048725e-001
323655000 -3.811936e-005 -1.017497e-005 -4.809414e-002 9.093563e-001 -6.159273e-005 -5.640965e-005 -4.910878e-002 9.133436e-001
323940000 -1.195738e-004 8.464012e-005 -1.830163e-002 9.165335e-001 1.046882e-005 -2.631476e-005 -1.839773e-002 9.197891e-001
324225000 1.499461e-005 -6.569563e-005 1.271254e-002 9.222628e-001 2.094660e-005 3.909763e-005 1.267888e-002 9.258934e-001
324510000 2.372413e-006 -1.064134e-004 4.428235e-002 9.267658e-001 -1.188092e-005 1.897096e-005 4.384958e-002 9.310097e-001
324795000 -4.362100e-005 -6.329172e-005 7.614183e-002 9.306921e-001 4.873590e-005 -6.007104e-005 7.692204e-002 9.342775e-001
325080000 6.392184e-006 7.823312e-006 1.089512e-001 9.337344e-001 -7.570539e-005 8.952193e-005 1.095342e-001 9.380187e-001
325365000 4.132319e-005 -1.173997e-004 1.425170e-001 9.345741e-001 9.701613e-005 -7.546590e-005 1.432981e-001 9.389693e-001
325650000 6.279995e-005 -3.278119e-006 1.761735e-001 9.349247e-001 8.883587e-005 2.338368e-005 1.768857e-001 9.391851e-001
325935000 -3.010594e-005 1.239199e-004 2.107751e-001 9.338530e-001 -1.177889e-004 1.406881e-005 2.116582e-001 9.374909e-001
326220000 -9.974790e-005 -1.550296e-004 2.451340e-001 9.315181e-001 1.249692e-004 1.521690e-005 2.465355e-001 9.351444e-001
326505000 -6.445687e-005 9.783555e-005 2.806163e-001 9.276728e-001 1.329743e-004 4.545532e-005 2.812877e-001 9.306016e-001
326790000 -1.827443e-005 1.167153e-004 3.156458e-001 9.214789e-001 1.366012e-005 1.193518e-005 3.172257e-001 9.252171e-001
327075000 -1.985148e-005 6.197048e-005 3.513689e-001 9.145349e-001 -3.522635e-006 -8.147666e-005 3.527741e-001 9.181616e-001
327360000 -1.044098e-004 -3.714512e-005 3.868995e-001 9.058980e-001 6.182416e-007 -5.111369e-005 3.886518e-001 9.096529e-001
327645000 -4.703766e-005 2.760511e-005 4.222171e-001 8.951997e-001 3.709907e-005 3.700188e-005 4.239610e-001 8.990200e-001
327930000 -1.329845e-004 -1.867906e-005 4.575193e-001 8.829840e-001 -1.447907e-005 2.306361e-005 4.595484e-001 8.862905e-001
328215000 -6.764260e-005 1.138085e-006 4.931446e-001 8.688886e-001 2.260864e-005 4.382233e-005 4.950950e-001 8.723730e-001
328500000 3.798030e-006 -4.244148e-005 5.286061e-001 8.533885e-001 4.966944e-005 5.382446e-005 5.303182e-001 8.567365e-001
328785000 -2.461243e-005 1.348374e-005 5.627659e-001 8.359494e-001 1.229633e-004 4.856122e-005 5.656630e-001 8.391153e-001
329070000 -6.119708e-006 -7.671272e-006 5.976062e-001 8.168073e-001 -6.584171e-005 -9.546949e-006 5.996827e-001 8.197122e-001
329355000 -6.356050e-005 -2.292603e-005 6.301585e-001 7.959870e-001 -2.809604e-005 -3.964858e-005 6.335746e-001 7.988489e-001
329640000 5.057240e-005 -3.013960e-005 6.626133e-001 7.733719e-001 -8.685600e-005 -5.819728e-006 6.656582e-001 7.762645e-001
329925000 -5.194136e-005 -7.191327e-005 6.946166e-001 7.493525e-001 -3.739548e-005 -5.468970e-005 6.976179e-001 7.517851e-001
330210000 -2.312261e-005 1.181058e-004 7.249487e-001 7.226923e-001 -4.696508e-005 2.333582e-005 7.283382e-001 7.257569e-001
330495000 -2.463861e-006 5.111558e-005 7.545539e-001 6.946940e-001 1.041815e-004 -1.272033e-004 7.571859e-001 6.980886e-001
330780000 1.776552e-006 6.027607e-005 7.828155e-001 6.662334e-001 8.866491e-005 -6.999049e-005 7.865950e-001 6.696385e-001
331065000 -1.161621e-004 4.780476e-005 8.097035e-001 6.357827e-001 -7.962760e-006 -3.686346e-005 8.135163e-001 6.382173e-001
331350000 -9.638825e-005 -5.807537e-005 8.352841e-001 6.039409e-001 5.835508e-005 -1.209951e-004 8.388199e-001 6.065053e-001
331635000 -2.575598e-006 4.044745e-005 8.591892e-001 5.704507e-001 8.910963e-005 8.807650e-005 8.629259e-001 5.731269e-001
331920000 -6.172699e-006 6.569637e-005 8.811008e-001 5.361252e-001 2.271138e-005 -5.419668e-005 8.856741e-001 5.382262e-001
332205000 -8.239062e-005 -3.855452e-005 9.017076e-001 5.007882e-001 3.517460e-005 1.727149e-005 9.060076e-001 5.033464e-001
332490000 -3.627345e-005 -9.602180e-006 9.208336e-001 4.639654e-001 9.975115e-005 1.408505e-005 9.247739e-001 4.661462e-001
332775000 4.927652e-005 6.644035e-006 9.371506e-001 4.272439e-001 3.167578e-005 1.246353e-005 9.418011e-001 4.289565e-001
333060000 5.573094e-005 -4.992827e-005 9.527732e-001 3.902422e-001 -6.026704e-005 -2.525475e-006 9.568226e-001 3.912904e-001
333345000 3.230929e-005 -4.321540e-005 9.660470e-001 3.513686e-001 -7.143887e-005 5.631918e-005 9.700850e-001 3.529817e-001
333630000 -1.617094e-005 -4.288006e-005 9.767224e-001 3.122917e-001 -1.262638e-004 5.163997e-005 9.809853e-001 3.135604e-001
333915000 2.835337e-005 -1.115273e-004 9.864703e-001 2.737689e-001 -7.832891e-005 5.115268e-005 9.908343e-001 2.745446e-001
334200000 4.770563e-005 2.744113e-005 9.934045e-001 2.346527e-001 -7.206823e-005 1.188714e-004 9.977520e-001 2.350591e-001
334485000 -6.110055e-005 4.238604e-005 9.993823e-001 1.948452e-001 -4.332147e-005 -4.893820e-006 1.004024e+000 1.958646e-001
334770000 -4.700401e-005 -1.438280e-004 1.002419e+000 1.553929e-001 -8.772880e-005 7.467108e-005 1.006808e+000 1.558969e-001
335055000 -1.910720e-006 6.570533e-005 1.004496e+000 1.170565e-001 -1.195296e-004 1.047874e-005 1.007783e+000 1.170529e-001
335340000 -2.739595e-005 2.068089e-005 1.004080e+000 7.829362e-002 6.894075e-005 5.759129e-005 1.008504e+000 7.825883e-002
335625000 3.549553e-005 2.346437e-006 1.001910e+000 3.981658e-002 -1.650575e-005 -4.317104e-005 1.006292e+000 4.000568e-002
335910000 2.347914e-005 7.004249e-005 9.987594e-001 1.807058e-003 1.305400e-004 9.742675e-005 1.002777e+000 1.813270e-003
336195000 7.788281e-005 -2.039336e-005 9.928719e-001 -3.521935e-002 5.892294e-005 -3.875554e-005 9.978889e-001 -3.550773e-002
336480000 -5.198439e-005 3.717054e-005 9.867133e-001 -7.179695e-002 3.612581e-005 1.127765e-004 9.908987e-001 -7.208790e-002
336765000 -7.055551e-005 3.661587e-005 9.782736e-001 -1.069108e-001 -8.486358e-005 -3.226655e-005 9.824709e-001 -1.077364e-001
337050000 -5.618901e-005 7.650262e-005 9.684814e-001 -1.418714e-001 -1.028663e-004 -3.109151e-005 9.729264e-001 -1.430456e-001
337335000 -2.857951e-005 7.689144e-005 9.574474e-001 -1.755740e-001 3.378883e-005 1.829211e-005 9.617990e-001 -1.763455e-001
337620000 3.283404e-005 5.474532e-005 9.453447e-001 -2.087118e-001 -6.247998e-005 -1.353767e-005 9.501773e-001 -2.101197e-001
337905000 5.461335e-005 1.716181e-004 9.322136e-001 -2.407486e-001 -1.348786e-004 -7.563999e-005 9.358413e-001 -2.415866e-001
338190000 -4.623048e-006 -4.141348e-005 9.177613e-001 -2.719754e-001 -5.673354e-005 -1.037593e-004 9.212064e-001 -2.731161e-001
338475000 -4.566175e-005 -8.265679e-006 9.018929e-001 -3.020775e-001 -4.335570e-005 -1.170972e-004 9.060783e-001 -3.029865e-001
338760000 4.859677e-005 1.001907e-004 8.856880e-001 -3.307825e-001 2.284929e-006 -1.964035e-005 8.894541e-001 -3.324972e-001
339045000 2.241157e-005 1.123717e-004 8.681856e-001 -3.587829e-001 2.664874e-005 -7.274187e-005 8.719057e-001 -3.604051e-001
339330000 -2.302456e-005 -4.704739e-005 8.505690e-001 -3.855979e-001 -4.870677e-006 -9.171845e-006 8.541160e-001 -3.875439e-001
339615000 4.975085e-005 -1.039882e-004 8.312014e-001 -4.114737e-001 -5.988874e-005 1.463402e-005 8.350283e-001 -4.129012e-001
339900000 7.414248e-005 4.180417e-005 8.128250e-001 -4.355030e-001 2.659457e-006 -4.691798e-005 8.161576e-001 -4.382312e-001
340185000 1.132988e-005 -2.806352e-005 7.926248e-001 -4.603094e-001 -7.239027e-005 2.276433e-005 7.960117e-001 -4.620017e-001
340470000 7.684912e-005 3.893330e-005 7.724418e-001 -4.826293e-001 4.343054e-005 -1.094346e-004 7.755755e-001 -4.844913e-001
340755000 2.783425e-006 1.600310e-005 7.518946e-001 -5.040391e-001 -4.491465e-005 4.177846e-005 7.552695e-001 -5.058901e-001
341040000 1.767114e-005 5.091966e-005 7.303876e-001 -5.249569e-001 -3.201268e-005 1.167966e-005 7.339563e-001 -5.268696e-001
341325000 1.224557e-004 -2.894889e-005 7.091236e-001 -5.437189e-001 7.532413e-005 1.058346e-004 7.124047e-001 -5.464066e-001
341610000 8.641505e-005 1.900239e-005 6.877919e-001 -5.628612e-001 1.078812e-004 -2.851913e-005 6.900845e-001 -5.656075e-001
341895000 3.192182e-005 6.545574e-005 6.652677e-001 -5.802115e-001 5.602982e-005 9.552001e-007 6.677274e-001 -5.831950e-001
342180000 -1.005129e-004 -5.117843e-005 6.430661e-001 -5.973772e-001 3.454442e-005 8.454683e-005 6.460584e-001 -5.993078e-001
342465000 -1.750903e-004 5.320782e-005 6.210358e-001 -6.129308e-001 2.085932e-005 9.050921e-005 6.239200e-001 -6.151094e-001
342750000 -7.573680e-005 -5.556651e-005 5.984374e-001 -6.274711e-001 -1.957959e-005 -2.019382e-005 6.012483e-001 -6.306906e-001
343035000 -1.075095e-004 -1.359466e-004 5.754554e-001 -6.414608e-001 -1.115562e-004 1.118604e-004 5.782968e-001 -6.445475e-001
343320000 1.026635e-005 -1.252326e-005 5.536353e-001 -6.547959e-001 -7.669337e-005 6.833325e-005 5.556951e-001 -6.574612e-001
343605000 5.766367e-005 1.676600e-005 5.310655e-001 -6.678429e-001 1.005146e-006 -2.261335e-005 5.326757e-001 -6.701983e-001
343890000 -1.603402e-005 5.292549e-005 5.077959e-001 -6.789829e-001 7.269307e-005 -3.209121e-006 5.101154e-001 -6.821436e-001
