!Agilent Technologies,N5230C,SG49000117,A.08.50.07
!Agilent N5230C: A.08.50.07
!Date: Monday, March 18, 2024 18:54:52
!Correction: S11(Off) 
!S21(Off) 
!S12(Off) 
!S22(Off) 
!S2P File: Measurements: S11, S21, S12, S22:
# Hz S  RI   R 50
300000000 4.698384e-005 8.433577e-006 -6.300701e-001 -6.383115e-001 6.358027e-005 -5.896381e-005 -6.326763e-001 -6.404827e-001
300285000 3.758373e-005 2.652680e-005 -6.443340e-001 -6.150078e-001 1.373148e-004 -6.053328e-005 -6.467256e-001 -6.176156e-001
300570000 -6.768450e-005 4.103027e-005 -6.588429e-001 -5.914518e-001 4.675451e-005 1.198830e-004 -6.606581e-001 -5.937942e-001
300855000 8.831671e-005 8.785800e-005 -6.723116e-001 -5.684199e-001 9.495205e-005 4.349119e-005 -6.745466e-001 -5.699472e-001
301140000 -8.672303e-005 -1.563309e-007 -6.841191e-001 -5.444421e-001 1.349199e-004 -3.261163e-005 -6.872676e-001 -5.463194e-001
301425000 9.262181e-005 -1.910252e-005 -6.957411e-001 -5.213360e-001 -1.250562e-004 8.040403e-005 -6.983510e-001 -5.224844e-001
301710000 6.023782e-005 3.620938e-005 -7.068794e-001 -4.973926e-001 3.080988e-005 -6.944621e-005 -7.096045e-001 -4.992051e-001
301995000 -6.908494e-005 4.890002e-005 -7.167608e-001 -4.739056e-001 -4.466111e-005 1.409746e-004 -7.192630e-001 -4.755797e-001
302280000 4.419001e-007 5.132962e-005 -7.258165e-001 -4.504015e-001 2.018901e-005 7.695494e-005 -7.283471e-001 -4.522890e-001
302565000 -5.786822e-007 -8.021045e-006 -7.344350e-001 -4.268434e-001 4.502633e-005 6.299434e-005 -7.372429e-001 -4.285930e-001
302850000 -2.881775e-005 -4.459493e-005 -7.417696e-001 -4.034469e-001 1.234590e-006 4.316620e-005 -7.448949e-001 -4.052484e-001
303135000 4.684919e-005 3.487720e-005 -7.495718e-001 -3.801522e-001 4.102289e-005 7.226258e-005 -7.518766e-001 -3.822159e-001
303420000 -1.266564e-005 3.190513e-006 -7.556224e-001 -3.573441e-001 2.939648e-005 -6.903922e-006 -7.583149e-001 -3.584378e-001
303705000 -3.697866e-005 7.735770e-005 -7.610714e-001 -3.340476e-001 -1.029557e-004 1.968682e-005 -7.640967e-001 -3.354391e-001
303990000 -4.896523e-005 2.754324e-005 -7.669649e-001 -3.118774e-001 -1.242356e-004 2.790299e-005 -7.693771e-001 -3.129120e-001
304275000 4.553221e-005 -2.300756e-005 -7.718477e-001 -2.878960e-001 -4.494895e-005 2.082946e-005 -7.744330e-001 -2.897300e-001
304560000 4.950926e-005 -8.062026e-006 -7.754358e-001 -2.656128e-001 -1.716595e-005 2.550843e-006 -7.784796e-001 -2.667917e-001
304845000 6.435382e-005 -1.547720e-004 -7.789012e-001 -2.441483e-001 2.806838e-005 -5.054815e-005 -7.817523e-001 -2.444977e-001
305130000 6.035279e-005 -4.109622e-005 -7.819808e-001 -2.215839e-001 9.074204e-006 -2.027724e-005 -7.845609e-001 -2.223926e-001
305415000 9.524089e-005 4.997322e-005 -7.845231e-001 -1.993060e-001 -2.111717e-005 -8.946672e-005 -7.874198e-001 -2.000835e-001
305700000 1.237914e-004 9.795576e-005 -7.863273e-001 -1.774832e-001 7.934957e-005 2.728240e-005 -7.891990e-001 -1.780883e-001
305985000 6.993189e-005 1.899427e-005 -7.880065e-001 -1.555400e-001 5.829177e-006 -7.394478e-005 -7.905210e-001 -1.558855e-001
306270000 1.698765e-005 -9.830450e-006 -7.891122e-001 -1.334451e-001 -6.864089e-005 -2.232892e-005 -7.918707e-001 -1.339776e-001
306555000 -1.389687e-005 5.452406e-005 -7.895585e-001 -1.117898e-001 1.299237e-004 -6.099801e-005 -7.921351e-001 -1.129598e-001
306840000 -4.994992e-005 7.381749e-006 -7.897260e-001 -9.080916e-002 1.329866e-004 6.996810e-005 -7.919351e-001 -9.103423e-002
307125000 2.104041e-005 -1.802020e-005 -7.891681e-001 -6.951565e-002 -3.875041e-006 1.617565e-005 -7.922332e-001 -7.000874e-002
307410000 1.490709e-004 1.250647e-004 -7.884274e-001 -4.851867e-002 -2.916732e-005 1.152866e-004 -7.914403e-001 -4.896719e-002
307695000 -8.870120e-005 3.482734e-005 -7.873737e-001 -2.746061e-002 8.574269e-005 3.559101e-005 -7.903903e-001 -2.768183e-002
307980000 -3.712733e-005 -2.573041e-005 -7.855648e-001 -7.152051e-003 6.582825e-005 5.162033e-005 -7.889860e-001 -7.470698e-003
308265000 -4.764873e-005 4.365427e-005 -7.836758e-001 1.394114e-002 -2.280492e-005 3.985611e-005 -7.868848e-001 1.382752e-002
308550000 2.513703e-005 2.274120e-005 -7.813797e-001 3.459157e-002 -3.226913e-005 2.323520e-005 -7.844867e-001 3.399131e-002
308835000 -2.448372e-005 -7.154395e-006 -7.789539e-001 5.452417e-002 -4.061147e-005 -6.045290e-005 -7.816787e-001 5.467758e-002
309120000 -6.778844e-006 -3.760952e-005 -7.753546e-001 7.480157e-002 -7.188871e-005 2.819617e-005 -7.787929e-001 7.486033e-002
309405000 3.789266e-006 8.090636e-005 -7.719006e-001 9.472156e-002 -2.050972e-005 5.061070e-005 -7.756379e-001 9.472796e-002
309690000 6.724212e-005 2.865496e-005 -7.687495e-001 1.147051e-001 4.563350e-005 -9.812923e-005 -7.713506e-001 1.154408e-001
309975000 4.816159e-005 -8.720124e-005 -7.647302e-001 1.346838e-001 -8.786374e-005 -5.314803e-005 -7.672345e-001 1.348717e-001
310260000 -6.417829e-005 -1.882600e-006 -7.598034e-001 1.542478e-001 -6.102984e-005 -5.509735e-006 -7.626591e-001 1.546717e-001
310545000 1.440362e-005 -3.808912e-005 -7.549407e-001 1.732377e-001 5.056399e-006 3.378403e-005 -7.580013e-001 1.746154e-001
310830000 1.360924e-004 1.959069e-005 -7.496816e-001 1.928319e-001 -1.540826e-004 3.022871e-005 -7.525592e-001 1.939847e-001
311115000 1.229632e-004 7.441473e-005 -7.441603e-001 2.125478e-001 -1.827220e-005 -8.654608e-005 -7.468124e-001 2.136039e-001
311400000 -5.732167e-005 9.905321e-005 -7.384610e-001 2.319093e-001 6.195187e-005 -2.987630e-005 -7.410894e-001 2.326159e-001
311685000 -5.958003e-005 1.056807e-004 -7.319169e-001 2.510400e-001 -4.883237e-005 -1.214786e-004 -7.345806e-001 2.521635e-001
311970000 -8.563232e-006 1.356906e-004 -7.251626e-001 2.702505e-001 -3.086774e-005 -1.341178e-004 -7.280480e-001 2.708988e-001
312255000 -4.598133e-005 5.391256e-005 -7.178363e-001 2.891476e-001 2.414507e-005 4.029549e-006 -7.210902e-001 2.905098e-001
312540000 -2.949147e-005 4.208066e-005 -7.108358e-001 3.080384e-001 -3.014953e-005 5.777568e-005 -7.135087e-001 3.094628e-001
312825000 -1.359148e-005 4.692665e-005 -7.033274e-001 3.269536e-001 6.814510e-006 1.773469e-005 -7.057993e-001 3.282514e-001
313110000 -1.147443e-005 -6.278350e-005 -6.948204e-001 3.457073e-001 6.674385e-005 1.627733e-005 -6.978548e-001 3.466978e-001
313395000 -1.624681e-004 5.537786e-005 -6.865039e-001 3.644993e-001 7.824999e-006 5.874862e-005 -6.890628e-001 3.652358e-001
313680000 -1.157399e-004 -5.031102e-005 -6.773270e-001 3.833098e-001 -6.868125e-006 -3.679107e-005 -6.802795e-001 3.844348e-001
313965000 -4.508287e-005 -5.804246e-005 -6.685137e-001 4.014302e-001 -1.369395e-004 4.300234e-005 -6.704308e-001 4.026525e-001
314250000 -1.261674e-005 2.574202e-006 -6.584041e-001 4.198480e-001 9.586502e-006 8.657495e-005 -6.614791e-001 4.214380e-001
314535000 1.790859e-005 -2.582365e-005 -6.483925e-001 4.381048e-001 -6.096865e-005 -3.876917e-005 -6.511750e-001 4.400199e-001
314820000 1.682661e-005 -4.089697e-005 -6.379536e-001 4.560075e-001 -6.402385e-005 1.052661e-004 -6.408396e-001 4.580197e-001
315105000 -7.215897e-005 -4.769717e-005 -6.272222e-001 4.740197e-001 -1.441773e-005 4.237586e-005 -6.298192e-001 4.760913e-001
315390000 8.331312e-006 2.254977e-005 -6.154228e-001 4.924777e-001 5.105850e-005 -1.354047e-005 -6.185846e-001 4.942156e-001
315675000 3.284102e-005 -1.657212e-005 -6.037306e-001 5.097991e-001 -8.008293e-005 8.665430e-005 -6.062061e-001 5.122685e-001
315960000 4.783058e-005 -1.308166e-004 -5.920393e-001 5.278835e-001 1.866801e-005 -5.985217e-005 -5.939717e-001 5.300067e-001
316245000 -6.346225e-005 2.411928e-005 -5.786006e-001 5.460047e-001 -4.043413e-005 2.413099e-005 -5.813294e-001 5.474961e-001
316530000 4.463150e-006 2.299571e-005 -5.654716e-001 5.633973e-001 7.711837e-005 -4.766991e-005 -5.677173e-001 5.654841e-001
316815000 -5.784036e-006 -1.482360e-005 -5.522043e-001 5.806930e-001 7.968699e-005 -3.177302e-005 -5.542379e-001 5.828049e-001
317100000 -1.372894e-004 5.313216e-005 -5.375662e-001 5.979184e-001 7.393328e-005 -5.257077e-005 -5.396918e-001 6.005161e-001
317385000 4.739341e-005 1.423593e-005 -5.230158e-001 6.154551e-001 -5.091328e-005 -3.446585e-005 -5.247622e-001 6.173824e-001
317670000 -1.169811e-004 -8.681654e-006 -5.071790e-001 6.324098e-001 3.058839e-005 -5.914174e-005 -5.096402e-001 6.344795e-001
317955000 7.652702e-005 5.281262e-005 -4.914470e-001 6.491333e-001 3.020981e-005 2.236351e-006 -4.932573e-001 6.520674e-001
318240000 -5.102582e-005 -6.268930e-006 -4.748818e-001 6.658048e-001 7.166894e-005 2.607044e-005 -4.772119e-001 6.683217e-001
318525000 -1.637633e-005 3.293474e-005 -4.572946e-001 6.821749e-001 7.166245e-006 -3.201011e-005 -4.597211e-001 6.849967e-001
318810000 7.912303e-007 6.795738e-005 -4.401317e-001 6.986754e-001 8.256744e-006 1.114539e-004 -4.419464e-001 7.016548e-001
319095000 7.255429e-005 3.838500e-005 -4.216754e-001 7.144254e-001 -1.007886e-004 2.738070e-005 -4.236547e-001 7.173817e-001
319380000 4.170849e-006 1.265100e-004 -4.033668e-001 7.303982e-001 -8.826521e-005 9.370428e-005 -4.044715e-001 7.329810e-001
319665000 -7.806600e-005 2.020525e-006 -3.830552e-001 7.455883e-001 -7.508573e-005 -6.683315e-005 -3.848830e-001 7.483934e-001
319950000 3.771172e-006 -7.823872e-005 -3.628528e-001 7.607155e-001 2.959343e-005 4.537942e-005 -3.648524e-001 7.638457e-001
320235000 2.587421e-005 -6.158965e-005 -3.418712e-001 7.754855e-001 -6.342304e-005 3.295750e-006 -3.438824e-001 7.782844e-001
320520000 3.787956e-006 8.413578e-005 -3.198252e-001 7.900580e-001 1.752987e-005 -8.913879e-005 -3.214506e-001 7.931110e-001
320805000 -8.450140e-005 -6.696792e-005 -2.983859e-001 8.039327e-001 -2.391809e-005 2.562466e-006 -2.990268e-001 8.066671e-001
321090000 -2.373375e-005 -1.258188e-005 -2.745678e-001 8.166031e-001 4.450594e-005 -1.776015e-005 -2.757898e-001 8.203858e-001
321375000 -3.732819e-005 -1.709263e-006 -2.505697e-001 8.307659e-001 -7.532236e-005 -8.798270e-005 -2.518288e-001 8.336594e-001
321660000 9.018937e-005 -1.254882e-004 -2.269140e-001 8.429064e-001 -1.714295e-004 -1.102679e-004 -2.273118e-001 8.461478e-001
321945000 7.752429e-005 7.726112e-006 -2.004949e-001 8.543649e-001 4.124631e-005 2.822628e-005 -2.018541e-001 8.589638e-001
322230000 -4.972161e-005 -1.081060e-004 -1.751223e-001 8.662608e-001 -3.355709e-005 -1.002866e-005 -1.755548e-001 8.697543e-001
322515000 2.870568e-005 1.254116e-005 -1.475014e-001 8.765723e-001 2.940784e-005 -1.175525e-004 -1.489038e-001 8.803178e-001
322800000 1.030134e-005 -3.757956e-005 -1.205905e-001 8.871107e-001 -6.833281e-005 7.882631e-005 -1.206250e-001 8.900842e-001
323085000 4.093209e-006 6.846404e-005 -9.261005e-002 8.957075e-001 2.469725e-005 -4.065136e-006 -9.294208e-002 8.998909e-001
323370000 1.950561e-005 3.502376e-005 -6.354861e-002 9.035634e-001 -3.359796e-005 2.562632e-005 -6.369899e-002 9.079772e-001
323655000 -3.233995e-005 -2.728607e-005 -3.337686e-002 9.115556e-001 3.050566e-005 2.608689e-005 -3.398144e-002 9.155155e-001
323940000 -8.655666e-005 4.688250e-006 -3.062870e-003 9.176857e-001 -1.231065e-005 4.857277e-005 -3.435951e-003 9.213059e-001
324225000 1.073234e-004 7.433146e-005 2.848248e-002 9.235159e-001 2.396893e-006 -2.716176e-005 2.819601e-002 9.276432e-001
324510000 -1.820493e-005 -5.511504e-005 5.961230e-002 9.280584e-001 -4.710820e-005 6.252075e-005 6.016384e-002 9.313467e-001
324795000 9.550692e-005 -2.451907e-005 9.210610e-002 9.310586e-001 -6.869966e-005 1.413307e-006 9.269763e-002 9.348650e-001
325080000 -2.536208e-005 4.922328e-006 1.253386e-001 9.329316e-001 3.851598e-005 1.293408e-004 1.262065e-001 9.371729e-001
325365000 2.557748e-005 3.664846e-005 1.585604e-001 9.347946e-001 -6.385340e-005 -4.319932e-005 1.593354e-001 9.383701e-001
325650000 -4.612637e-005 3.772987e-005 1.928499e-001 9.336058e-001 -7.790544e-005 -8.842513e-005 1.937082e-001 9.374534e-001
325935000 2.953453e-005 4.221056e-005 2.272182e-001 9.319347e-001 -2.159717e-005 -8.194186e-005 2.281685e-001 9.359488e-001
326220000 2.476375e-005 5.189614e-005 2.627130e-001 9.285226e-001 -7.002857e-005 -9.151360e-005 2.632553e-001 9.319130e-001
326505000 7.888009e-007 6.263375e-006 2.973564e-001 9.234479e-001 -5.589801e-005 -9.777334e-005 2.983214e-001 9.277415e-001
326790000 -2.441260e-005 -1.063387e-004 3.330069e-001 9.175651e-001 -7.064032e-005 1.191573e-005 3.341329e-001 9.215791e-001
327075000 5.810736e-005 -3.636780e-005 3.686289e-001 9.096450e-001 -4.282149e-005 6.259300e-005 3.699973e-001 9.129421e-001
327360000 5.999588e-005 -5.536730e-005 4.038652e-001 8.997217e-001 -3.908472e-005 7.412103e-005 4.048652e-001 9.036618e-001
327645000 5.733323e-005 -2.260708e-005 4.397000e-001 8.885584e-001 -2.956387e-005 5.536749e-006 4.413136e-001 8.921739e-001
327930000 2.382652e-005 -2.818468e-005 4.746765e-001 8.749928e-001 -1.226544e-004 -2.471915e-005 4.769736e-001 8.789260e-001
328215000 3.422002e-006 -5.319257e-005 5.095704e-001 8.605936e-001 -8.497747e-005 7.394762e-005 5.123622e-001 8.643330e-001
328500000 -1.264126e-005 -6.503361e-006 5.450778e-001 8.439947e-001 -2.148592e-005 -5.625089e-005 5.466137e-001 8.479380e-001
328785000 -4.752174e-005 1.796802e-005 5.792002e-001 8.262141e-001 1.001630e-004 -2.320974e-005 5.809388e-001 8.298066e-001
329070000 -2.591851e-005 -8.996556e-005 6.127316e-001 8.060917e-001 -4.330046e-005 1.016935e-004 6.152824e-001 8.096817e-001
329355000 6.925534e-005 5.147727e-005 6.456856e-001 7.837638e-001 -2.357707e-005 8.901591e-005 6.483343e-001 7.876197e-001
329640000 8.623214e-006 -6.839262e-005 6.778459e-001 7.607496e-001 5.582106e-005 -5.309029e-005 6.807631e-001 7.643083e-001
329925000 -3.934457e-005 2.558704e-005 7.088084e-001 7.357135e-001 7.400172e-005 2.964726e-005 7.113317e-001 7.390746e-001
330210000 -6.399050e-005 1.600434e-006 7.396902e-001 7.089391e-001 2.014221e-005 -4.035800e-005 7.425188e-001 7.118626e-001
330495000 -3.779738e-005 -6.664606e-005 7.684844e-001 6.807766e-001 -4.634914e-005 9.028397e-005 7.710317e-001 6.834754e-001
330780000 -4.662328e-005 -5.739906e-005 7.951454e-001 6.513283e-001 -5.366521e-005 -1.075371e-005 7.990688e-001 6.539066e-001
331065000 7.752974e-006 -5.505928e-005 8.214737e-001 6.203230e-001 4.461825e-005 5.953320e-005 8.254650e-001 6.229612e-001
331350000 1.005020e-005 9.205213e-005 8.466565e-001 5.875544e-001 -7.060695e-005 -1.696737e-006 8.501871e-001 5.898193e-001
331635000 5.262771e-005 2.083034e-005 8.701946e-001 5.535887e-001 1.063451e-005 6.313054e-005 8.729681e-001 5.563146e-001
331920000 5.568110e-005 8.101039e-006 8.901318e-001 5.189471e-001 5.343412e-005 -3.502847e-005 8.951604e-001 5.206335e-001
332205000 -1.430936e-005 8.502918e-006 9.107893e-001 4.828881e-001 1.559856e-005 -3.913532e-005 9.148857e-001 4.854438e-001
332490000 3.054236e-005 1.718473e-005 9.284394e-001 4.465128e-001 5.008000e-005 -1.463338e-004 9.322073e-001 4.482265e-001
332775000 -9.447282e-005 1.079444e-005 9.449384e-001 4.092410e-001 7.748294e-005 -3.213509e-005 9.491095e-001 4.109868e-001
333060000 3.980172e-005 1.507455e-004 9.594290e-001 3.711117e-001 4.976869e-005 -6.546899e-005 9.628245e-001 3.727542e-001
333345000 4.107058e-005 3.297074e-005 9.713619e-001 3.324419e-001 5.767021e-005 -5.816171e-006 9.747633e-001 3.341010e-001
333630000 1.043879e-004 9.424351e-005 9.815652e-001 2.931650e-001 -5.205140e-006 -1.448360e-005 9.860727e-001 2.946002e-001
333915000 8.471815e-005 1.251658e-005 9.901904e-001 2.542067e-001 8.787843e-005 1.427198e-005 9.946501e-001 2.549084e-001
334200000 -5.386147e-005 7.439963e-005 9.960908e-001 2.144539e-001 6.896730e-005 3.931972e-005 1.000942e+000 2.152055e-001
334485000 2.551755e-005 6.717673e-005 1.000979e+000 1.754394e-001 2.983261e-005 5.516137e-006 1.005390e+000 1.770205e-001
334770000 5.710532e-005 5.648788e-005 1.003351e+000 1.360998e-001 -4.612907e-005 1.081351e-004 1.007915e+000 1.369283e-001
335055000 7.797326e-005 3.881312e-005 1.003957e+000 9.756411e-002 -5.348025e-005 2.932772e-005 1.008682e+000 9.795860e-002
335340000 5.511341e-005 3.227801e-005 1.003533e+000 5.921822e-002 -2.445258e-005 2.084271e-005 1.007420e+000 5.928583e-002
335625000 1.245607e-005 1.400722e-004 9.999347e-001 2.096238e-002 -4.294363e-005 1.394142e-004 1.005203e+000 2.107849e-002
335910000 -6.752237e-005 9.794207e-005 9.963200e-001 -1.615212e-002 -8.769839e-006 7.440514e-005 1.000199e+000 -1.668232e-002
336195000 5.914403e-005 1.946846e-005 9.899153e-001 -5.305394e-002 6.829623e-005 1.084924e-004 9.946195e-001 -5.351982e-002
336480000 5.865318e-005 1.698617e-005 9.829043e-001 -8.957378e-002 -1.959306e-005 -5.123402e-006 9.871930e-001 -8.982766e-002
336765000 -3.873338e-005 1.240685e-004 9.732490e-001 -1.246594e-001 -9.844657e-005 9.077090e-005 9.784816e-001 -1.254201e-001
337050000 -7.011732e-005 4.606828e-005 9.630464e-001 -1.594442e-001 1.033088e-004 8.069083e-005 9.673312e-001 -1.601669e-001
337335000 2.080282e-005 1.654230e-005 9.517855e-001 -1.927858e-001 -3.860472e-005 -1.847154e-005 9.559012e-001 -1.938250e-001
337620000 -2.368796e-005 3.833968e-005 9.388928e-001 -2.253634e-001 -9.133309e-006 1.099807e-004 9.426038e-001 -2.266740e-001
337905000 -9.191283e-005 7.767241e-005 9.249195e-001 -2.567981e-001 6.393300e-005 6.799285e-005 9.285771e-001 -2.578269e-001
338190000 1.287385e-005 -2.191016e-005 9.099127e-001 -2.873567e-001 2.121569e-006 8.042278e-006 9.145476e-001 -2.886133e-001
338475000 3.133369e-005 -2.489907e-005 8.939303e-001 -3.168903e-001 6.872757e-005 9.235860e-006 8.978693e-001 -3.180996e-001
338760000 -5.236318e-005 1.057251e-004 8.770546e-001 -3.449381e-001 1.621035e-005 4.132531e-005 8.807974e-001 -3.468014e-001
339045000 -4.214526e-006 1.346795e-005 8.598199e-001 -3.727396e-001 5.446655e-006 1.971648e-005 8.629867e-001 -3.743979e-001
339330000 4.387629e-005 -3.362873e-005 8.410262e-001 -3.992076e-001 6.235648e-005 -5.956653e-005 8.447536e-001 -4.009259e-001
339615000 -2.710106e-005 -1.802420e-005 8.215172e-001 -4.244374e-001 -1.052200e-004 4.145095e-005 8.260327e-001 -4.263019e-001
339900000 5.426268e-005 1.061335e-004 8.026153e-001 -4.489383e-001 -5.917110e-006 1.874371e-005 8.056489e-001 -4.505584e-001
340185000 -3.850110e-005 -4.203945e-006 7.824667e-001 -4.712623e-001 -4.706980e-005 1.076042e-004 7.852584e-001 -4.740441e-001
340470000 -1.989963e-005 -3.361607e-005 7.621540e-001 -4.942468e-001 -8.298156e-006 -5.873395e-006 7.648265e-001 -4.959015e-001
340755000 -3.794097e-005 5.664524e-005 7.409008e-001 -5.152479e-001 2.324619e-005 6.327173e-005 7.445257e-001 -5.175604e-001
341040000 -2.443724e-006 5.621594e-005 7.196212e-001 -5.350262e-001 -5.229165e-005 5.562330e-005 7.226084e-001 -5.369831e-001
341325000 -1.336094e-004 -2.738474e-005 6.975961e-001 -5.542238e-001 -8.878722e-005 4.346891e-005 7.006653e-001 -5.566058e-001
341610000 -9.790915e-005 -6.179440e-005 6.760652e-001 -5.726022e-001 -8.860075e-005 5.350414e-005 6.785375e-001 -5.746292e-001
341895000 9.471207e-008 8.722594e-005 6.540717e-001 -5.895085e-001 -5.446106e-005 3.163271e-005 6.566205e-001 -5.920088e-001
342180000 -1.466286e-004 -4.821351e-006 6.312990e-001 -6.056833e-001 -1.273216e-005 4.035090e-005 6.340406e-001 -6.083770e-001
342465000 2.664588e-005 -9.594115e-005 6.085936e-001 -6.207334e-001 1.916542e-005 2.950475e-005 6.114047e-001 -6.239577e-001
342750000 6.190206e-005 -5.424736e-005 5.866660e-001 -6.353007e-001 -7.201554e-005 -1.853387e-005 5.890049e-001 -6.380456e-001
343035000 4.788558e-005 -3.392933e-005 5.634691e-001 -6.490864e-001 -7.099071e-006 8.221587e-005 5.665419e-001 -6.517265e-001
343320000 -3.615773e-005 8.952405e-005 5.410056e-001 -6.614488e-001 5.078607e-005 -5.668789e-006 5.434163e-001 -6.645705e-001
343605000 1.080309e-005 1.190842e-005 5.185415e-001 -6.739267e-001 4.272915e-006 6.868430e-005 5.206730e-001 -6.768007e-001
343890000 3.338094e-005 1.029034e-004 4.959259e-001 -6.847457e-001 2.059781e-005 -1.173831e-005 4.979691e-001 -6.881134e-001
