!Agilent Technologies,N5230C,SG49000117,A.08.50.07
!Agilent N5230C: A.08.50.07
!Date: Monday, March 18, 2024 18:55:33
!Correction: S11(Off) 
!S21(Off) 
!S12(Off) 
!S22(Off) 
!S2P File: Measurements: S11, S21, S12, S22:
# Hz S  RI   R 50
300000000 -6.387631e-006 -8.627989e-007 -6.366669e-001 -6.286243e-001 -3.652355e-005 -9.898255e-005 -6.391290e-001 -6.308253e-001
300285000 -3.953135e-005 7.496604e-005 -6.514097e-001 -6.050637e-001 8.091540e-005 7.637077e-006 -6.536180e-001 -6.071392e-001
300570000 -1.212706e-004 -6.192016e-005 -6.653929e-001 -5.812052e-001 4.552324e-005 7.576191e-005 -6.672240e-001 -5.837464e-001
300855000 2.863448e-005 -3.838409e-005 -6.781214e-001 -5.577416e-001 -1.054143e-004 -2.466442e-006 -6.805540e-001 -5.602784e-001
301140000 6.127588e-006 1.657944e-005 -6.907954e-001 -5.341184e-001 -8.330852e-005 -2.869203e-005 -6.927453e-001 -5.362385e-001
301425000 -4.358204e-005 -6.904302e-005 -7.014629e-001 -5.102514e-001 1.229763e-004 6.513585e-005 -7.040358e-001 -5.117275e-001
301710000 -7.949685e-006 1.296026e-006 -7.119148e-001 -4.868594e-001 1.241792e-004 -2.138150e-005 -7.147840e-001 -4.889028e-001
301995000 -5.344217e-005 -7.733308e-006 -7.216633e-001 -4.629925e-001 3.640553e-005 -7.192242e-005 -7.243176e-001 -4.647771e-001
302280000 -8.763283e-006 -6.053128e-005 -7.304038e-001 -4.399107e-001 1.343912e-004 5.437221e-005 -7.325690e-001 -4.410544e-001
302565000 -1.426961e-004 -1.629446e-005 -7.383372e-001 -4.161171e-001 -5.546608e-005 5.631234e-005 -7.411249e-001 -4.177599e-001
302850000 -8.144660e-005 2.920161e-005 -7.457135e-001 -3.926484e-001 -3.396691e-005 9.481462e-005 -7.488280e-001 -3.943447e-001
303135000 -4.758451e-005 4.557584e-006 -7.530552e-001 -3.693940e-001 1.400504e-004 1.134458e-005 -7.556549e-001 -3.708887e-001
303420000 4.149241e-005 -1.666382e-005 -7.589488e-001 -3.465590e-001 5.856241e-005 -6.786214e-005 -7.620720e-001 -3.481091e-001
303705000 7.551366e-005 -4.351279e-005 -7.641871e-001 -3.233978e-001 5.978717e-005 1.105079e-005 -7.672330e-001 -3.251039e-001
303990000 -6.623840e-005 4.484567e-005 -7.696602e-001 -3.012715e-001 3.475315e-005 -8.291831e-005 -7.722813e-001 -3.020373e-001
304275000 -1.545905e-004 -5.123275e-005 -7.740095e-001 -2.785198e-001 5.784771e-005 1.809191e-004 -7.770986e-001 -2.791381e-001
304560000 -1.681358e-005 5.228153e-005 -7.771741e-001 -2.557497e-001 -5.361794e-005 -3.933732e-005 -7.809417e-001 -2.563827e-001
304845000 -6.501577e-005 6.692361e-006 -7.809116e-001 -2.331430e-001 5.097231e-005 -5.502177e-006 -7.836041e-001 -2.343057e-001
305130000 -3.458630e-005 -1.043430e-005 -7.835829e-001 -2.108827e-001 -2.944151e-006 -4.366884e-005 -7.866489e-001 -2.119667e-001
305415000 -7.575364e-005 -4.777388e-005 -7.858671e-001 -1.889929e-001 -2.750100e-005 2.823309e-005 -7.888141e-001 -1.897607e-001
305700000 1.610782e-005 8.105841e-005 -7.875834e-001 -1.672808e-001 -8.635336e-005 -3.015916e-006 -7.902078e-001 -1.678363e-001
305985000 9.164333e-005 -2.946008e-005 -7.884908e-001 -1.454930e-001 -6.818464e-006 -1.314569e-004 -7.919808e-001 -1.457943e-001
306270000 2.778304e-005 -1.733779e-004 -7.893781e-001 -1.236663e-001 -1.015674e-004 -1.741719e-004 -7.925859e-001 -1.240022e-001
306555000 -9.765454e-005 -1.535718e-005 -7.900112e-001 -1.022590e-001 7.015320e-005 -3.562504e-005 -7.928235e-001 -1.021676e-001
306840000 8.850665e-005 1.185790e-005 -7.896767e-001 -8.058688e-002 5.727984e-005 -4.803578e-005 -7.925834e-001 -8.108728e-002
307125000 -4.513223e-005 -1.237794e-004 -7.893583e-001 -5.975262e-002 9.868518e-005 3.324368e-005 -7.922041e-001 -5.970102e-002
307410000 -2.401920e-005 4.886312e-006 -7.884650e-001 -3.875581e-002 -3.924361e-005 4.485342e-005 -7.911180e-001 -3.862935e-002
307695000 -3.346655e-005 -1.752425e-005 -7.865825e-001 -1.800582e-002 -4.551646e-005 1.839973e-004 -7.903086e-001 -1.786834e-002
307980000 1.781550e-005 -1.306497e-004 -7.850815e-001 2.833663e-003 8.900252e-006 6.388254e-005 -7.877527e-001 2.963582e-003
308265000 -3.528364e-005 5.575491e-005 -7.833018e-001 2.358552e-002 1.607751e-005 -1.357677e-005 -7.859204e-001 2.333732e-002
308550000 8.211751e-005 1.836826e-005 -7.805061e-001 4.381456e-002 3.330407e-005 -9.447770e-005 -7.837226e-001 4.384028e-002
308835000 1.664147e-004 -6.997373e-005 -7.775127e-001 6.440284e-002 4.405926e-005 1.015014e-004 -7.806550e-001 6.436952e-002
309120000 -6.732629e-005 -5.790443e-005 -7.745958e-001 8.441047e-002 -5.789940e-005 9.249839e-005 -7.770725e-001 8.498805e-002
309405000 5.345973e-005 -3.082714e-005 -7.702709e-001 1.045812e-001 2.336730e-006 5.192409e-005 -7.737806e-001 1.047821e-001
309690000 1.254045e-005 9.811969e-007 -7.666278e-001 1.244385e-001 3.323682e-006 8.271496e-005 -7.695205e-001 1.247666e-001
309975000 5.553507e-005 8.178854e-005 -7.619825e-001 1.443811e-001 -3.042280e-006 -4.001260e-005 -7.649165e-001 1.446255e-001
310260000 2.987353e-005 3.016097e-005 -7.571059e-001 1.636090e-001 -3.232641e-005 6.232134e-006 -7.607259e-001 1.643821e-001
310545000 -9.457879e-005 1.183864e-004 -7.523869e-001 1.828790e-001 -5.812512e-005 -5.985061e-005 -7.550721e-001 1.841065e-001
310830000 -8.337843e-005 -2.165833e-005 -7.470163e-001 2.027142e-001 -6.537698e-007 -1.049537e-004 -7.500228e-001 2.035007e-001
311115000 2.487987e-005 -2.440010e-005 -7.411592e-001 2.221025e-001 5.247084e-005 -1.110655e-005 -7.437924e-001 2.231668e-001
311400000 -1.081745e-004 -7.619064e-005 -7.351567e-001 2.413351e-001 3.747543e-005 1.889619e-005 -7.376154e-001 2.423334e-001
311685000 -5.402579e-005 1.109075e-006 -7.288109e-001 2.605548e-001 5.288074e-006 -3.473597e-005 -7.310535e-001 2.619379e-001
311970000 1.124688e-004 6.832062e-005 -7.216336e-001 2.795528e-001 -2.293773e-005 -3.107609e-005 -7.246155e-001 2.807537e-001
312255000 -4.631054e-005 -7.000769e-006 -7.143152e-001 2.986357e-001 3.159350e-005 -9.833911e-005 -7.177368e-001 2.995493e-001
312540000 -5.621460e-005 1.059103e-004 -7.072645e-001 3.176071e-001 -6.731037e-005 1.965901e-005 -7.097356e-001 3.183870e-001
312825000 -5.949875e-005 3.508028e-005 -6.989378e-001 3.363194e-001 8.579342e-005 -4.300321e-005 -7.017530e-001 3.373191e-001
313110000 9.904961e-007 -6.149873e-006 -6.904463e-001 3.548632e-001 -4.321990e-005 -7.719582e-006 -6.930586e-001 3.563721e-001
313395000 -9.281480e-005 5.668323e-005 -6.822122e-001 3.737657e-001 -6.317865e-007 -1.049606e-004 -6.848336e-001 3.746839e-001
313680000 -2.783408e-005 2.471822e-005 -6.730372e-001 3.919792e-001 9.007895e-006 4.135504e-005 -6.750095e-001 3.934264e-001
313965000 4.747351e-005 9.318785e-006 -6.634748e-001 4.103650e-001 3.469558e-005 -2.030321e-005 -6.663920e-001 4.118269e-001
314250000 1.041446e-004 -5.647656e-005 -6.530808e-001 4.283226e-001 -3.775940e-006 1.920724e-005 -6.560171e-001 4.301617e-001
314535000 -3.031654e-005 -1.172808e-004 -6.433516e-001 4.467272e-001 5.052335e-006 1.657414e-006 -6.454881e-001 4.487071e-001
314820000 -8.169479e-005 -2.407884e-005 -6.325555e-001 4.650330e-001 -6.964653e-005 1.121345e-004 -6.353450e-001 4.666714e-001
315105000 1.101391e-004 -1.236410e-005 -6.212093e-001 4.825064e-001 -2.316060e-004 -3.413883e-006 -6.239141e-001 4.853252e-001
315390000 -6.451847e-005 2.495245e-005 -6.100811e-001 5.007458e-001 -5.378629e-005 1.647929e-005 -6.118549e-001 5.031955e-001
315675000 5.981792e-006 -3.800100e-005 -5.973841e-001 5.187693e-001 1.049853e-007 1.481258e-005 -5.999972e-001 5.213112e-001
315960000 -2.776376e-005 5.035307e-006 -5.849996e-001 5.363088e-001 -2.154571e-005 6.803714e-005 -5.877088e-001 5.386660e-001
316245000 8.431681e-006 -4.048189e-005 -5.721934e-001 5.537039e-001 -7.429966e-005 1.451541e-005 -5.743064e-001 5.561018e-001
316530000 8.734431e-005 -1.200327e-004 -5.583477e-001 5.716902e-001 -4.115548e-005 1.096271e-004 -5.606809e-001 5.737818e-001
316815000 -5.279582e-006 -1.211713e-005 -5.447275e-001 5.889478e-001 8.884227e-006 4.022353e-005 -5.464091e-001 5.912582e-001
317100000 -1.645259e-005 -3.198591e-005 -5.301187e-001 6.065045e-001 -1.040214e-005 2.683417e-005 -5.320420e-001 6.087919e-001
317385000 4.854342e-005 -3.667404e-005 -5.147297e-001 6.228051e-001 -1.368403e-005 1.228339e-004 -5.166657e-001 6.255752e-001
317670000 -4.228255e-005 9.024784e-005 -4.992109e-001 6.402693e-001 -7.839264e-005 -1.752623e-005 -5.008283e-001 6.422015e-001
317955000 1.114999e-004 1.339556e-005 -4.826919e-001 6.565631e-001 1.489003e-005 4.700378e-005 -4.848929e-001 6.597569e-001
318240000 -3.805922e-005 1.210073e-005 -4.667310e-001 6.731899e-001 -3.886817e-005 -1.056169e-004 -4.679148e-001 6.763826e-001
318525000 2.567056e-005 2.220598e-005 -4.492456e-001 6.893084e-001 8.073136e-005 -4.070077e-006 -4.503438e-001 6.925988e-001
318810000 9.647874e-006 2.372072e-005 -4.307549e-001 7.060344e-001 -4.468237e-007 -2.087871e-005 -4.324338e-001 7.083978e-001
319095000 -2.302237e-005 -3.616252e-005 -4.121514e-001 7.216661e-001 -4.941594e-005 5.566907e-005 -4.135169e-001 7.247387e-001
319380000 -5.663360e-006 -2.092127e-005 -3.936049e-001 7.370044e-001 5.055147e-005 -2.032489e-005 -3.947686e-001 7.399865e-001
319665000 -1.155813e-004 4.062287e-005 -3.730271e-001 7.521148e-001 3.613230e-006 -4.038241e-005 -3.744883e-001 7.554184e-001
319950000 3.101666e-005 -2.818345e-005 -3.519959e-001 7.676089e-001 -6.684828e-005 6.906360e-005 -3.538525e-001 7.709071e-001
320235000 -5.702133e-005 -9.606724e-006 -3.314669e-001 7.817177e-001 -3.217834e-005 -3.768198e-005 -3.320810e-001 7.849913e-001
320520000 -5.112305e-005 8.050152e-005 -3.092979e-001 7.959499e-001 -3.444228e-005 -3.349440e-005 -3.100613e-001 7.993452e-001
320805000 -7.415936e-005 1.664033e-005 -2.859806e-001 8.098888e-001 3.495117e-005 -5.109168e-005 -2.875194e-001 8.126156e-001
321090000 1.139892e-005 9.371332e-005 -2.627332e-001 8.228525e-001 2.195928e-005 1.198405e-004 -2.639523e-001 8.264566e-001
321375000 5.180954e-006 4.110453e-005 -2.387600e-001 8.364261e-001 1.546174e-005 -5.723132e-005 -2.399914e-001 8.396532e-001
321660000 -4.842773e-005 6.872564e-005 -2.140590e-001 8.481215e-001 -3.535469e-006 4.723207e-005 -2.147505e-001 8.513334e-001
321945000 -6.051365e-005 2.683474e-005 -1.884846e-001 8.592270e-001 -1.079651e-004 7.911635e-005 -1.891114e-001 8.629394e-001
322230000 -1.236044e-004 2.075076e-005 -1.620047e-001 8.711677e-001 -1.512576e-004 -3.621702e-005 -1.627329e-001 8.742780e-001
322515000 -2.291984e-005 4.557134e-005 -1.348230e-001 8.807856e-001 -5.458079e-005 7.148262e-005 -1.352211e-001 8.844560e-001
322800000 5.787845e-005 -7.688096e-005 -1.068157e-001 8.907828e-001 -4.729719e-005 1.641420e-005 -1.072435e-001 8.939111e-001
323085000 5.158974e-005 -1.366889e-004 -7.821856e-002 8.995858e-001 -8.394833e-005 9.011461e-005 -7.870411e-002 9.030207e-001
323370000 3.261304e-005 -2.513544e-005 -4.900066e-002 9.074643e-001 -7.581961e-005 1.394038e-004 -4.858395e-002 9.107393e-001
323655000 -1.153993e-005 5.968542e-005 -1.883760e-002 9.143594e-001 1.821132e-005 6.348370e-005 -1.909375e-002 9.179597e-001
323940000 -1.856689e-006 8.659884e-005 1.159158e-002 9.197540e-001 3.426940e-005 4.021259e-006 1.186659e-002 9.238908e-001
324225000 -6.862243e-005 6.881510e-005 4.339926e-002 9.248156e-001 1.144709e-004 5.633174e-005 4.386184e-002 9.288754e-001
324510000 2.179617e-006 4.252838e-005 7.546070e-002 9.288045e-001 7.577767e-005 7.601636e-005 7.577068e-002 9.329134e-001
324795000 -3.320479e-005 -2.184313e-005 1.076371e-001 9.314904e-001 -3.404664e-005 5.497646e-005 1.091789e-001 9.355327e-001
325080000 1.511896e-006 9.714574e-005 1.411970e-001 9.335042e-001 -4.463609e-005 5.196198e-005 1.417466e-001 9.366859e-001
325365000 4.824204e-005 1.050547e-004 1.754571e-001 9.336774e-001 -6.581849e-005 -3.484737e-005 1.757989e-001 9.374223e-001
325650000 -1.237857e-005 1.775507e-004 2.090800e-001 9.322569e-001 -1.157805e-004 2.720754e-005 2.102628e-001 9.365205e-001
325935000 -1.098680e-004 4.637529e-006 2.442474e-001 9.292680e-001 5.246580e-005 -1.960571e-005 2.450865e-001 9.333387e-001
326220000 -1.383260e-004 9.232639e-005 2.786794e-001 9.258614e-001 2.475955e-005 7.977387e-005 2.794831e-001 9.288889e-001
326505000 -4.784077e-005 3.909648e-005 3.140993e-001 9.200498e-001 4.120824e-005 1.957795e-005 3.150582e-001 9.241870e-001
326790000 7.498694e-005 6.072445e-005 3.495487e-001 9.132559e-001 -1.073363e-005 -1.459525e-006 3.513827e-001 9.165156e-001
327075000 -5.717508e-006 -2.772762e-005 3.850808e-001 9.046570e-001 2.004008e-005 7.034055e-005 3.864958e-001 9.083425e-001
327360000 -3.111538e-005 -1.519611e-005 4.211162e-001 8.939355e-001 3.363589e-005 -1.108613e-004 4.219974e-001 8.977150e-001
327645000 4.034244e-005 -1.209446e-004 4.566509e-001 8.815396e-001 -1.606780e-006 -3.112990e-005 4.579258e-001 8.856003e-001
327930000 1.081988e-004 5.471388e-005 4.911861e-001 8.677060e-001 5.621192e-005 5.668893e-005 4.930233e-001 8.726436e-001
328215000 9.668787e-005 -7.215537e-006 5.262240e-001 8.526470e-001 -2.098630e-005 -6.230217e-006 5.286883e-001 8.558663e-001
328500000 7.744603e-005 -1.187373e-005 5.606253e-001 8.354501e-001 -6.962250e-005 -2.283263e-006 5.634224e-001 8.389313e-001
328785000 -6.352217e-005 1.506969e-004 5.949942e-001 8.159322e-001 -8.361560e-005 -1.240296e-005 5.973006e-001 8.193836e-001
329070000 3.917648e-005 -9.208743e-005 6.277074e-001 7.955527e-001 1.287134e-005 -2.969676e-005 6.316468e-001 7.983755e-001
329355000 -8.980255e-005 4.082513e-005 6.606706e-001 7.730134e-001 1.143923e-005 -1.155649e-005 6.636555e-001 7.757348e-001
329640000 -1.266045e-004 2.424245e-005 6.929204e-001 7.488310e-001 -2.063127e-005 -6.409598e-005 6.955339e-001 7.519470e-001
329925000 -1.442146e-004 -7.018301e-005 7.227821e-001 7.225999e-001 -1.540775e-005 6.708576e-005 7.261648e-001 7.255293e-001
330210000 -1.169129e-005 1.851321e-006 7.526227e-001 6.956296e-001 -2.897012e-005 1.564989e-004 7.557737e-001 6.983190e-001
330495000 -4.918080e-005 -3.476971e-006 7.811367e-001 6.665367e-001 -7.162344e-005 2.311703e-005 7.848946e-001 6.694072e-001
330780000 -6.336896e-005 -7.852710e-005 8.085359e-001 6.363767e-001 -5.978398e-006 -2.521515e-005 8.116170e-001 6.388826e-001
331065000 7.308490e-006 -7.449597e-005 8.338227e-001 6.050135e-001 -9.992472e-005 7.624626e-005 8.369956e-001 6.074622e-001
331350000 4.649578e-005 -1.348097e-005 8.574323e-001 5.712966e-001 -2.061634e-004 3.075976e-005 8.610433e-001 5.744832e-001
331635000 4.404640e-005 6.028383e-005 8.798485e-001 5.369824e-001 -2.964736e-005 -6.179320e-005 8.833941e-001 5.395514e-001
331920000 1.375476e-004 4.131445e-006 9.009012e-001 5.016314e-001 -1.342010e-004 -1.069494e-004 9.050011e-001 5.042055e-001
332205000 -8.964686e-006 -1.346514e-005 9.193900e-001 4.656049e-001 1.822213e-005 -1.251478e-004 9.230689e-001 4.677511e-001
332490000 -6.424242e-005 9.359379e-005 9.370091e-001 4.283376e-001 -3.730242e-005 -1.326714e-006 9.402562e-001 4.302998e-001
332775000 4.409513e-005 4.034664e-005 9.516928e-001 3.898987e-001 6.075232e-005 2.427143e-005 9.556642e-001 3.922110e-001
333060000 -3.246331e-005 1.928313e-005 9.646827e-001 3.524331e-001 -8.774213e-005 -3.062833e-005 9.688001e-001 3.539189e-001
333345000 -2.465439e-005 -1.475283e-005 9.758538e-001 3.136431e-001 -4.958325e-005 -7.386096e-006 9.807070e-001 3.145593e-001
333630000 -3.338917e-005 3.370160e-005 9.860601e-001 2.738646e-001 -7.736054e-005 -3.317460e-005 9.902448e-001 2.758011e-001
333915000 -5.935931e-005 -8.611204e-006 9.930903e-001 2.350509e-001 3.990090e-005 6.540901e-007 9.975411e-001 2.357730e-001
334200000 -1.767474e-004 -1.147041e-004 9.989226e-001 1.962019e-001 -6.956946e-005 3.011467e-006 1.002727e+000 1.966107e-001
334485000 3.973242e-005 8.391422e-005 1.001964e+000 1.561464e-001 9.287376e-005 -8.508597e-005 1.006448e+000 1.572597e-001
334770000 -2.929391e-005 1.112010e-004 1.004013e+000 1.170145e-001 -4.237661e-005 9.307239e-006 1.008451e+000 1.181720e-001
335055000 -3.963189e-005 -6.055124e-005 1.004132e+000 7.876693e-002 -1.563383e-005 1.680330e-005 1.009294e+000 7.864992e-002
335340000 -1.746274e-005 -4.579848e-005 1.002225e+000 4.019151e-002 1.563090e-006 3.734852e-005 1.007401e+000 4.102748e-002
335625000 1.699205e-005 1.776369e-004 9.983456e-001 2.997305e-003 -8.673629e-005 4.894149e-006 1.003319e+000 2.552851e-003
335910000 5.423008e-005 9.695091e-005 9.935419e-001 -3.492147e-002 6.651203e-005 -4.673184e-005 9.973722e-001 -3.457788e-002
336195000 -4.595875e-005 1.717688e-005 9.867468e-001 -7.157095e-002 4.737775e-005 -1.214465e-004 9.909199e-001 -7.123434e-002
336480000 2.852589e-005 8.303230e-006 9.789506e-001 -1.075331e-001 -4.856643e-006 -1.910189e-005 9.828537e-001 -1.066401e-001
336765000 -3.439048e-005 -4.139313e-005 9.692370e-001 -1.417916e-001 6.271365e-005 4.414928e-005 9.734026e-001 -1.423847e-001
337050000 -5.285162e-005 -2.504798e-005 9.573241e-001 -1.756729e-001 6.043417e-005 -5.918005e-005 9.616321e-001 -1.769710e-001
337335000 5.345090e-006 -1.001700e-004 9.456673e-001 -2.096483e-001 1.195353e-004 -9.638119e-006 9.499420e-001 -2.097808e-001
337620000 -8.592835e-005 4.665264e-005 9.320155e-001 -2.412516e-001 1.434535e-005 -3.249046e-005 9.361084e-001 -2.426940e-001
337905000 -3.722005e-005 1.069712e-004 9.176236e-001 -2.721404e-001 8.217614e-005 8.549041e-005 9.213949e-001 -2.741597e-001
338190000 3.571245e-005 1.141362e-004 9.023578e-001 -3.027404e-001 -3.596276e-006 -2.227289e-005 9.060138e-001 -3.033036e-001
338475000 -8.243367e-005 5.351077e-005 8.860651e-001 -3.319815e-001 -1.228672e-004 2.936987e-005 8.893600e-001 -3.324835e-001
338760000 5.753939e-005 5.033483e-005 8.687751e-001 -3.600162e-001 -4.244387e-005 2.143559e-005 8.725457e-001 -3.613392e-001
339045000 -7.307411e-005 5.082402e-005 8.504604e-001 -3.866089e-001 1.586499e-005 1.497368e-005 8.538407e-001 -3.879094e-001
339330000 -6.969144e-005 -3.811345e-005 8.320797e-001 -4.122022e-001 -4.662728e-005 -8.894566e-005 8.353742e-001 -4.144211e-001
339615000 -2.977382e-007 4.170191e-005 8.128809e-001 -4.367195e-001 -2.712276e-005 -5.995510e-005 8.163208e-001 -4.393726e-001
339900000 -7.123792e-005 2.658986e-005 7.931843e-001 -4.608995e-001 -1.148195e-004 -5.158486e-005 7.957045e-001 -4.633338e-001
340185000 -2.179807e-005 2.228508e-005 7.720212e-001 -4.832784e-001 -1.210902e-004 6.146261e-005 7.755779e-001 -4.854437e-001
340470000 -2.161537e-005 4.390308e-005 7.512991e-001 -5.052737e-001 -6.290837e-005 5.777623e-005 7.542840e-001 -5.070449e-001
340755000 9.645434e-005 -4.597203e-005 7.301506e-001 -5.260847e-001 -2.105755e-005 4.354997e-005 7.332364e-001 -5.279776e-001
341040000 1.908358e-005 -2.256240e-006 7.084818e-001 -5.457956e-001 -8.230365e-005 -2.355174e-005 7.117202e-001 -5.476156e-001
341325000 2.132968e-005 -7.094910e-005 6.866487e-001 -5.643113e-001 8.078852e-006 7.658390e-006 6.901378e-001 -5.663311e-001
341610000 9.973800e-005 -7.188539e-005 6.653852e-001 -5.819535e-001 -1.453500e-005 -2.460099e-005 6.677189e-001 -5.836124e-001
341895000 -8.033881e-005 -2.714281e-005 6.429179e-001 -5.982233e-001 2.263663e-005 -8.573620e-005 6.455999e-001 -6.008391e-001
342180000 9.543920e-005 -2.048601e-005 6.206068e-001 -6.141236e-001 -6.510194e-007 -4.572034e-005 6.227382e-001 -6.167321e-001
342465000 2.559109e-005 -5.460836e-005 5.974295e-001 -6.289065e-001 -1.312067e-005 -1.076078e-005 5.996507e-001 -6.315338e-001
342750000 4.285104e-005 -8.784454e-006 5.751097e-001 -6.431563e-001 2.779281e-005 3.287071e-005 5.771700e-001 -6.453629e-001
343035000 1.436769e-005 1.325751e-004 5.526131e-001 -6.561682e-001 3.857512e-006 1.620949e-004 5.545633e-001 -6.588405e-001
343320000 -1.863930e-004 8.199834e-006 5.298609e-001 -6.685448e-001 -8.470377e-005 -3.006804e-005 5.312667e-001 -6.713691e-001
343605000 -1.944538e-005 1.100468e-004 5.068090e-001 -6.794315e-001 7.079312e-005 -1.260506e-005 5.089776e-001 -6.828729e-001
343890000 -2.443583e-005 8.275408e-005 4.835916e-001 -6.908485e-001 7.866423e-005 -4.873613e-005 4.861179e-001 -6.935737e-001
