!Agilent Technologies,N5230C,SG49000117,A.08.50.07
!Agilent N5230C: A.08.50.07
!Date: Monday, March 18, 2024 18:56:19
!Correction: S11(Off) 
!S21(Off) 
!S12(Off) 
!S22(Off) 
!S2P File: Measurements: S11, S21, S12, S22:
# Hz S  RI   R 50
300000000 8.692728e-006 -3.223016e-005 -6.514561e-001 -6.075411e-001 -8.191077e-006 3.240356e-005 -6.533591e-001 -6.099136e-001
300285000 3.967024e-005 -1.603780e-005 -6.650547e-001 -5.841371e-001 1.479183e-004 2.424781e-005 -6.677319e-001 -5.858459e-001
300570000 -5.963802e-005 3.219622e-005 -6.779177e-001 -5.601915e-001 5.822949e-005 -1.033137e-005 -6.804008e-001 -5.625696e-001
300855000 5.003701e-005 -1.584117e-005 -6.896154e-001 -5.365807e-001 -7.367575e-005 -3.391734e-005 -6.929741e-001 -5.385334e-001
301140000 -5.530084e-005 9.255930e-005 -7.018211e-001 -5.128626e-001 -7.937285e-005 -1.462852e-004 -7.043979e-001 -5.148979e-001
301425000 -4.663352e-005 6.530554e-005 -7.118512e-001 -4.894004e-001 -7.356067e-005 7.168947e-005 -7.142568e-001 -4.908023e-001
301710000 3.790869e-005 5.684801e-005 -7.216905e-001 -4.651755e-001 6.790116e-005 2.803837e-005 -7.246645e-001 -4.673039e-001
301995000 8.894461e-005 5.764923e-005 -7.307665e-001 -4.416351e-001 -2.153952e-005 5.036670e-006 -7.335079e-001 -4.433103e-001
302280000 2.704593e-005 -4.595800e-005 -7.388485e-001 -4.189895e-001 1.247037e-004 -1.419875e-004 -7.418911e-001 -4.199997e-001
302565000 9.674943e-005 -3.219416e-006 -7.466936e-001 -3.949547e-001 -3.561204e-005 -1.266931e-004 -7.491691e-001 -3.964014e-001
302850000 3.832771e-005 -8.294815e-006 -7.531949e-001 -3.716919e-001 1.317270e-004 -1.132066e-005 -7.562619e-001 -3.729971e-001
303135000 -4.722708e-005 -6.392090e-005 -7.595742e-001 -3.483481e-001 2.041502e-004 -7.735451e-005 -7.624754e-001 -3.495694e-001
303420000 -7.665358e-006 -5.135677e-005 -7.649750e-001 -3.251552e-001 1.031441e-004 -7.084288e-005 -7.679630e-001 -3.269968e-001
303705000 -3.654659e-005 -5.916537e-005 -7.701507e-001 -3.023608e-001 5.722432e-005 1.756055e-005 -7.730054e-001 -3.034970e-001
303990000 4.842682e-005 -7.371242e-006 -7.742400e-001 -2.794589e-001 1.994901e-005 -4.496794e-005 -7.773986e-001 -2.808301e-001
304275000 3.979075e-005 -1.892540e-005 -7.785693e-001 -2.570874e-001 2.665875e-005 6.590265e-006 -7.812739e-001 -2.576932e-001
304560000 1.311782e-005 -5.285560e-005 -7.814974e-001 -2.344198e-001 2.241448e-005 -2.465331e-005 -7.849683e-001 -2.353470e-001
304845000 -1.939854e-005 -3.664851e-005 -7.840949e-001 -2.121625e-001 1.867221e-005 6.545048e-005 -7.877243e-001 -2.129031e-001
305130000 -1.041058e-004 8.650612e-005 -7.867295e-001 -1.901055e-001 6.226529e-005 -6.803613e-005 -7.895417e-001 -1.905598e-001
305415000 4.693532e-005 7.715303e-006 -7.880072e-001 -1.680389e-001 -5.109175e-006 -1.737244e-005 -7.912846e-001 -1.685515e-001
305700000 2.997279e-005 1.663506e-005 -7.894070e-001 -1.463470e-001 -4.745104e-005 -2.207591e-005 -7.924213e-001 -1.470422e-001
305985000 -1.658931e-005 -1.302633e-004 -7.904174e-001 -1.244571e-001 1.579376e-005 6.300234e-005 -7.933261e-001 -1.249376e-001
306270000 -1.672471e-005 3.453817e-005 -7.902883e-001 -1.031985e-001 2.549442e-005 -3.498711e-005 -7.931137e-001 -1.034269e-001
306555000 -2.878394e-005 5.122748e-006 -7.903526e-001 -8.129386e-002 7.955344e-005 9.428226e-005 -7.935973e-001 -8.169614e-002
306840000 -2.670903e-005 9.110241e-005 -7.895660e-001 -6.005235e-002 -7.762642e-005 3.953581e-005 -7.929296e-001 -6.069193e-002
307125000 -2.571137e-005 4.887648e-005 -7.889885e-001 -3.932871e-002 -7.516065e-005 1.369329e-004 -7.916614e-001 -3.930711e-002
307410000 1.172301e-005 2.148319e-005 -7.871186e-001 -1.862728e-002 -1.141637e-005 -8.568791e-005 -7.908151e-001 -1.833571e-002
307695000 -5.503271e-005 -3.093371e-005 -7.854066e-001 2.438395e-003 -6.008084e-005 4.501676e-005 -7.887819e-001 2.698255e-003
307980000 -1.784188e-004 -9.116973e-006 -7.830915e-001 2.311657e-002 5.543253e-005 -6.232139e-005 -7.864345e-001 2.322541e-002
308265000 -1.805991e-005 -1.134677e-004 -7.809554e-001 4.345277e-002 4.933182e-006 3.746033e-005 -7.838309e-001 4.336572e-002
308550000 4.633120e-005 1.540172e-005 -7.780051e-001 6.380868e-002 -8.717050e-005 1.663273e-005 -7.806433e-001 6.401715e-002
308835000 -7.448792e-006 -4.447143e-005 -7.741371e-001 8.393617e-002 -1.197060e-005 5.071212e-005 -7.776573e-001 8.436276e-002
309120000 5.191658e-005 -9.641292e-005 -7.707828e-001 1.038311e-001 -3.635355e-005 -1.001280e-004 -7.738884e-001 1.046718e-001
309405000 -1.055832e-005 -1.095463e-004 -7.672227e-001 1.243580e-001 9.834878e-005 -1.324157e-004 -7.698359e-001 1.243914e-001
309690000 -1.315786e-004 1.288156e-005 -7.623789e-001 1.439910e-001 4.098537e-005 -5.356142e-005 -7.652245e-001 1.440778e-001
309975000 7.227144e-005 3.435932e-005 -7.574910e-001 1.637881e-001 4.007363e-005 -5.277380e-005 -7.609437e-001 1.644909e-001
310260000 -1.117033e-006 -3.011848e-005 -7.524966e-001 1.834769e-001 4.302243e-005 -6.765929e-005 -7.554318e-001 1.841552e-001
310545000 1.134752e-004 -2.501620e-005 -7.470189e-001 2.025774e-001 3.646728e-005 8.518140e-005 -7.508121e-001 2.034105e-001
310830000 5.227995e-005 1.282108e-005 -7.415426e-001 2.216949e-001 -5.918222e-005 -2.607887e-006 -7.443390e-001 2.226306e-001
311115000 5.584613e-005 -9.729625e-007 -7.353892e-001 2.410994e-001 -5.091796e-005 1.146867e-005 -7.380828e-001 2.421491e-001
311400000 -4.345522e-005 4.891044e-005 -7.286284e-001 2.598188e-001 -5.065629e-005 6.119270e-005 -7.308210e-001 2.615506e-001
311685000 -3.266626e-006 1.176150e-004 -7.216390e-001 2.792012e-001 7.268613e-005 6.072749e-005 -7.244049e-001 2.804793e-001
311970000 -9.076321e-005 4.200438e-005 -7.147695e-001 2.980440e-001 -7.536469e-005 4.851948e-005 -7.175888e-001 2.994844e-001
312255000 2.302105e-005 3.081248e-005 -7.070544e-001 3.172266e-001 -8.002991e-005 -8.224953e-006 -7.093536e-001 3.182493e-001
312540000 -2.950422e-005 5.329126e-005 -6.990646e-001 3.363779e-001 -1.192621e-006 1.121763e-006 -7.016694e-001 3.373932e-001
312825000 6.680435e-006 3.950035e-006 -6.903884e-001 3.540724e-001 6.007540e-005 -1.824437e-005 -6.931252e-001 3.559191e-001
313110000 8.152237e-008 -2.481183e-005 -6.818548e-001 3.731129e-001 -1.946537e-005 -3.800257e-005 -6.846276e-001 3.746583e-001
313395000 -7.294583e-005 4.197554e-005 -6.724300e-001 3.914739e-001 -3.155968e-005 -3.438258e-005 -6.748167e-001 3.931388e-001
313680000 -6.872606e-005 2.491116e-005 -6.631683e-001 4.098691e-001 6.425101e-005 -8.587775e-005 -6.657159e-001 4.108286e-001
313965000 -1.340874e-004 -1.493348e-005 -6.529546e-001 4.286699e-001 -5.736324e-005 -7.753990e-005 -6.558372e-001 4.300706e-001
314250000 -4.576196e-005 -5.284530e-006 -6.425880e-001 4.466089e-001 2.518280e-005 2.767929e-005 -6.455970e-001 4.481641e-001
314535000 -7.952987e-005 -8.167188e-005 -6.320744e-001 4.647740e-001 7.074619e-005 -8.442506e-005 -6.344367e-001 4.660988e-001
314820000 -6.883757e-005 -7.642638e-005 -6.207671e-001 4.825658e-001 -1.418849e-004 -6.588665e-005 -6.229729e-001 4.847808e-001
315105000 -3.537170e-005 -6.178892e-005 -6.090303e-001 5.001151e-001 8.327734e-005 -1.534475e-005 -6.112570e-001 5.023467e-001
315390000 -1.377622e-005 -9.505124e-005 -5.972327e-001 5.182095e-001 3.397098e-005 1.348418e-005 -5.998133e-001 5.203359e-001
315675000 -3.283224e-005 -2.723067e-005 -5.843276e-001 5.358719e-001 4.437917e-005 2.307985e-005 -5.870362e-001 5.381691e-001
315960000 6.490921e-006 6.499288e-005 -5.709221e-001 5.535303e-001 -2.305803e-006 2.563686e-005 -5.740330e-001 5.559954e-001
316245000 1.210729e-004 -1.605229e-005 -5.577144e-001 5.712650e-001 -3.241970e-005 2.644575e-005 -5.602994e-001 5.735868e-001
316530000 -3.977495e-005 6.080726e-005 -5.437291e-001 5.885825e-001 2.523178e-005 -2.883394e-005 -5.459647e-001 5.907233e-001
316815000 1.501780e-004 -2.126967e-006 -5.292905e-001 6.058012e-001 -1.987153e-005 4.314166e-006 -5.318918e-001 6.073173e-001
317100000 -3.225429e-005 5.977572e-005 -5.144550e-001 6.225737e-001 1.547047e-005 -3.948056e-006 -5.164255e-001 6.251794e-001
317385000 2.115866e-005 8.542856e-005 -4.986871e-001 6.396154e-001 1.986170e-005 4.457936e-006 -5.007851e-001 6.422141e-001
317670000 4.815467e-005 1.333248e-004 -4.823777e-001 6.559042e-001 -4.614117e-005 -7.826932e-005 -4.843659e-001 6.589269e-001
317955000 7.047471e-005 7.987412e-005 -4.652016e-001 6.722394e-001 -3.680590e-005 2.358888e-005 -4.675685e-001 6.753958e-001
318240000 -3.896594e-005 -1.063319e-004 -4.487737e-001 6.886276e-001 1.223219e-004 3.141297e-005 -4.500240e-001 6.914467e-001
318525000 -6.873864e-005 -6.765972e-005 -4.302301e-001 7.045427e-001 3.205294e-005 4.788766e-005 -4.318254e-001 7.075750e-001
318810000 -7.298433e-005 -6.575503e-005 -4.121646e-001 7.206791e-001 -3.316273e-005 4.282246e-005 -4.128786e-001 7.233704e-001
319095000 -6.788594e-005 -6.467744e-005 -3.927987e-001 7.361459e-001 9.828731e-005 3.338655e-005 -3.940610e-001 7.391359e-001
319380000 -9.045125e-005 -4.695142e-005 -3.725812e-001 7.514127e-001 6.362032e-005 -8.248385e-005 -3.743915e-001 7.541593e-001
319665000 -5.952126e-005 6.749637e-005 -3.519301e-001 7.655710e-001 7.244638e-006 -1.334475e-004 -3.534182e-001 7.689716e-001
319950000 -6.322108e-005 -4.384613e-005 -3.305361e-001 7.810168e-001 -2.563156e-005 -1.097147e-004 -3.321859e-001 7.839620e-001
320235000 -7.269555e-006 -2.492514e-005 -3.088241e-001 7.950627e-001 -1.127069e-004 -2.262164e-005 -3.104400e-001 7.978173e-001
320520000 1.665943e-005 -2.066753e-005 -2.862146e-001 8.086275e-001 -6.430985e-005 -3.775051e-005 -2.868957e-001 8.115355e-001
320805000 -4.238925e-005 -4.948166e-005 -2.627874e-001 8.211236e-001 -6.638859e-005 -1.493710e-005 -2.633091e-001 8.249949e-001
321090000 7.223040e-005 -5.894512e-005 -2.389588e-001 8.345549e-001 3.214726e-005 -3.560439e-005 -2.394538e-001 8.376916e-001
321375000 -3.768268e-005 8.373729e-005 -2.132979e-001 8.460218e-001 4.649148e-005 6.947131e-005 -2.144758e-001 8.500521e-001
321660000 -8.728017e-005 4.134813e-005 -1.879912e-001 8.578042e-001 -2.192571e-005 3.801758e-005 -1.890024e-001 8.613746e-001
321945000 -7.580705e-005 1.284472e-004 -1.617699e-001 8.689248e-001 3.102750e-005 9.327893e-005 -1.629103e-001 8.726856e-001
322230000 -5.459068e-005 -1.168926e-005 -1.349295e-001 8.792444e-001 8.915464e-005 2.730979e-005 -1.354767e-001 8.831258e-001
322515000 -9.651080e-005 7.458804e-005 -1.073970e-001 8.888352e-001 -7.977022e-005 5.525052e-005 -1.076883e-001 8.926710e-001
322800000 -4.463085e-005 3.807478e-005 -7.887533e-002 8.973233e-001 7.893317e-007 3.052120e-005 -7.892303e-002 9.011847e-001
323085000 -1.263395e-004 1.400981e-005 -4.975161e-002 9.055221e-001 -1.178578e-004 1.197199e-004 -4.951996e-002 9.095063e-001
323370000 3.167521e-005 -7.711824e-005 -2.024694e-002 9.122259e-001 -5.899204e-006 -7.964891e-005 -1.888265e-002 9.162444e-001
323655000 -5.325622e-005 -6.493969e-005 1.137506e-002 9.187546e-001 -6.165006e-005 -8.353359e-005 1.124462e-002 9.222476e-001
323940000 8.753409e-005 1.701678e-005 4.249394e-002 9.230437e-001 4.754152e-005 -2.483595e-005 4.300023e-002 9.271937e-001
324225000 2.819963e-005 7.339933e-005 7.484314e-002 9.272688e-001 1.767238e-005 -1.211176e-006 7.488730e-002 9.311929e-001
324510000 1.772558e-005 -5.093870e-005 1.062463e-001 9.303789e-001 1.733367e-005 -8.721137e-005 1.078122e-001 9.338230e-001
324795000 7.204597e-005 5.510514e-006 1.402858e-001 9.311941e-001 -1.088527e-004 -1.064702e-004 1.410696e-001 9.358136e-001
325080000 -1.114157e-005 4.341261e-005 1.738853e-001 9.323174e-001 1.632776e-004 9.172008e-005 1.744451e-001 9.358246e-001
325365000 -3.348365e-005 3.952382e-005 2.081876e-001 9.301069e-001 8.807853e-005 5.211006e-005 2.091285e-001 9.340558e-001
325650000 5.121466e-005 -7.066464e-005 2.432987e-001 9.279139e-001 6.267839e-005 -1.516464e-004 2.438842e-001 9.321327e-001
325935000 3.683578e-005 1.264911e-004 2.779216e-001 9.248528e-001 -2.137548e-005 2.488290e-005 2.791075e-001 9.283339e-001
326220000 1.002207e-005 2.618867e-005 3.127152e-001 9.191923e-001 5.469227e-005 1.010246e-004 3.138969e-001 9.226976e-001
326505000 -6.841536e-005 2.058921e-005 3.479485e-001 9.120737e-001 -1.607096e-005 -1.018941e-004 3.496189e-001 9.154704e-001
326790000 -2.783457e-005 -4.007525e-005 3.833889e-001 9.039251e-001 6.026904e-005 3.757444e-005 3.849971e-001 9.072955e-001
327075000 1.206361e-005 -5.011814e-005 4.192632e-001 8.934640e-001 5.844527e-005 7.325857e-005 4.207706e-001 8.967823e-001
327360000 -5.984262e-005 6.316363e-005 4.542187e-001 8.809855e-001 1.113036e-005 2.120355e-005 4.560736e-001 8.850710e-001
327645000 5.299233e-005 1.988512e-005 4.899986e-001 8.674409e-001 4.314160e-005 1.725298e-004 4.917057e-001 8.712930e-001
327930000 4.566892e-005 -3.240235e-005 5.248119e-001 8.521109e-001 -4.785143e-005 4.131421e-005 5.265362e-001 8.555709e-001
328215000 -1.977161e-005 1.311128e-005 5.590931e-001 8.346989e-001 4.807749e-005 6.433617e-005 5.612408e-001 8.377568e-001
328500000 -9.743724e-005 -3.345792e-005 5.930626e-001 8.159467e-001 5.967849e-005 4.816814e-005 5.953367e-001 8.191392e-001
328785000 -3.195983e-007 -2.401506e-005 6.262408e-001 7.953212e-001 -1.926303e-005 2.394432e-005 6.289160e-001 7.986598e-001
329070000 1.503916e-006 -7.906985e-005 6.587354e-001 7.732937e-001 2.310438e-006 1.035375e-004 6.619466e-001 7.757527e-001
329355000 5.935031e-005 -9.287484e-005 6.911424e-001 7.487933e-001 6.758359e-005 7.676177e-005 6.936740e-001 7.521672e-001
329640000 -1.055877e-005 -2.598828e-005 7.213247e-001 7.232528e-001 3.663327e-005 -2.946012e-005 7.247954e-001 7.259256e-001
329925000 1.860806e-005 -2.822762e-006 7.510579e-001 6.952227e-001 2.394963e-005 8.874181e-005 7.546763e-001 6.986370e-001
330210000 3.265994e-005 2.537970e-006 7.796009e-001 6.662496e-001 9.105669e-005 -5.592604e-005 7.835142e-001 6.695095e-001
330495000 4.766284e-005 -4.057349e-005 8.066679e-001 6.369627e-001 2.050622e-005 7.200395e-005 8.104689e-001 6.390843e-001
330780000 1.028399e-004 -1.026451e-004 8.317484e-001 6.048805e-001 3.778159e-005 3.520317e-005 8.360762e-001 6.080164e-001
331065000 -6.460481e-005 -1.826198e-005 8.556946e-001 5.724187e-001 -1.123497e-007 1.434335e-005 8.597879e-001 5.748582e-001
331350000 3.332106e-005 2.727696e-005 8.787779e-001 5.379419e-001 -7.628054e-005 -1.129146e-004 8.828217e-001 5.400754e-001
331635000 7.275990e-006 4.395023e-005 8.994421e-001 5.022810e-001 -1.105513e-005 -3.462987e-005 9.035488e-001 5.047050e-001
331920000 -2.899121e-005 1.857074e-005 9.183114e-001 4.667601e-001 -4.529749e-006 -7.503627e-005 9.223118e-001 4.683727e-001
332205000 -3.598385e-005 1.812914e-005 9.357615e-001 4.293384e-001 -5.532337e-005 1.058276e-004 9.406089e-001 4.305989e-001
332490000 -4.184474e-005 7.608674e-006 9.510798e-001 3.915316e-001 1.162362e-004 -3.131279e-005 9.554452e-001 3.937998e-001
332775000 8.577033e-005 5.368351e-005 9.647676e-001 3.535103e-001 5.143500e-005 -1.182729e-004 9.689597e-001 3.541938e-001
333060000 -1.180986e-004 5.260466e-005 9.757619e-001 3.145369e-001 4.911716e-006 -1.537882e-004 9.799779e-001 3.156931e-001
333345000 -6.918838e-005 6.484130e-006 9.860342e-001 2.748255e-001 1.816862e-005 -3.175264e-005 9.893496e-001 2.769920e-001
333630000 -7.850748e-005 1.070387e-005 9.936438e-001 2.360714e-001 -5.101399e-006 9.224992e-007 9.973373e-001 2.371544e-001
333915000 -6.432694e-005 -7.329226e-006 9.987460e-001 1.962819e-001 -3.788423e-005 2.295869e-005 1.003398e+000 1.975188e-001
334200000 4.067341e-005 -4.640676e-005 1.001907e+000 1.567683e-001 -1.031363e-004 -3.436276e-005 1.007116e+000 1.574295e-001
334485000 3.584069e-005 1.867779e-005 1.004786e+000 1.181046e-001 -5.689747e-005 -1.851366e-005 1.008705e+000 1.181502e-001
334770000 -8.564391e-005 -2.975740e-005 1.004541e+000 7.888091e-002 4.348074e-006 1.225425e-004 1.009036e+000 7.973841e-002
335055000 -6.347306e-005 6.908621e-005 1.002786e+000 4.102436e-002 2.296186e-005 9.177332e-005 1.006957e+000 4.074619e-002
335340000 -7.514337e-005 4.712871e-005 9.994714e-001 2.867194e-003 5.766742e-005 -7.731777e-005 1.003912e+000 2.649897e-003
335625000 4.995502e-006 -2.319914e-005 9.941794e-001 -3.430074e-002 1.514422e-004 6.411779e-005 9.983970e-001 -3.434708e-002
335910000 -7.060864e-006 5.032906e-005 9.873002e-001 -7.123292e-002 8.362970e-005 -1.246362e-004 9.918615e-001 -7.111368e-002
336195000 -6.048843e-005 -1.223414e-005 9.790387e-001 -1.071483e-001 1.474664e-005 -1.083722e-005 9.832314e-001 -1.076608e-001
336480000 1.338253e-005 -1.195009e-004 9.695990e-001 -1.422486e-001 9.236153e-007 5.878270e-005 9.740906e-001 -1.427377e-001
336765000 -6.250541e-005 -5.957911e-005 9.582082e-001 -1.764938e-001 1.155090e-004 3.243065e-005 9.627210e-001 -1.773332e-001
337050000 6.576298e-006 -1.631204e-004 9.467100e-001 -2.093278e-001 1.166153e-005 2.769056e-005 9.505497e-001 -2.103747e-001
337335000 -2.166544e-005 -7.804248e-006 9.326038e-001 -2.417418e-001 -9.361508e-005 2.408448e-005 9.364409e-001 -2.429092e-001
337620000 3.319393e-006 8.199814e-005 9.186969e-001 -2.729923e-001 -5.016970e-005 8.709563e-007 9.223465e-001 -2.746893e-001
337905000 1.401875e-005 2.507696e-006 9.028708e-001 -3.035645e-001 -7.998018e-005 1.056194e-005 9.061894e-001 -3.048009e-001
338190000 -4.708024e-005 1.555351e-004 8.861682e-001 -3.329014e-001 -7.662929e-005 -1.137691e-004 8.900744e-001 -3.339000e-001
338475000 3.360181e-005 4.408298e-005 8.687449e-001 -3.599471e-001 -3.755786e-005 -6.302333e-005 8.734617e-001 -3.625542e-001
338760000 -3.339434e-005 -3.005079e-005 8.503986e-001 -3.870586e-001 -4.557940e-005 -1.134693e-004 8.548642e-001 -3.895694e-001
339045000 -4.051548e-005 -5.194341e-005 8.320341e-001 -4.135179e-001 -3.857280e-005 -1.143365e-004 8.358874e-001 -4.151085e-001
339330000 1.855276e-005 6.144906e-006 8.128234e-001 -4.383301e-001 2.663645e-006 -1.233100e-004 8.158105e-001 -4.400745e-001
339615000 8.476802e-005 2.868294e-005 7.924591e-001 -4.621747e-001 -6.323536e-007 -3.617987e-005 7.961651e-001 -4.639805e-001
339900000 1.738797e-005 8.716968e-005 7.720664e-001 -4.847932e-001 9.123667e-005 3.138038e-005 7.758623e-001 -4.867120e-001
340185000 4.634477e-006 1.000530e-004 7.510666e-001 -5.061098e-001 -4.111048e-005 2.828474e-005 7.543478e-001 -5.083637e-001
340470000 2.717629e-005 2.375347e-005 7.301883e-001 -5.269427e-001 3.175457e-005 4.012385e-005 7.334636e-001 -5.291447e-001
340755000 2.713679e-005 3.352973e-005 7.082790e-001 -5.472438e-001 -9.916569e-005 -1.384189e-005 7.114597e-001 -5.491765e-001
341040000 1.872560e-005 6.861268e-005 6.860334e-001 -5.656108e-001 -5.147123e-005 -3.390768e-005 6.887293e-001 -5.682351e-001
341325000 -7.213841e-005 -8.925189e-005 6.643243e-001 -5.837914e-001 8.325580e-005 -7.279755e-005 6.672475e-001 -5.855156e-001
341610000 -2.686032e-005 6.503761e-005 6.417876e-001 -5.998870e-001 -9.432442e-005 -1.910249e-004 6.445258e-001 -6.020766e-001
341895000 -4.465879e-005 -2.516047e-005 6.191135e-001 -6.154737e-001 -2.885762e-005 -5.359162e-006 6.221387e-001 -6.180245e-001
342180000 -2.114754e-005 2.358036e-005 5.965380e-001 -6.300783e-001 4.758861e-005 6.457410e-005 5.994997e-001 -6.330764e-001
342465000 -7.225502e-006 2.032979e-005 5.741736e-001 -6.444466e-001 2.079835e-006 2.533224e-005 5.762289e-001 -6.473219e-001
342750000 -8.369224e-006 2.806359e-005 5.512838e-001 -6.574188e-001 1.602163e-005 3.821083e-005 5.534002e-001 -6.601651e-001
343035000 2.821498e-005 -3.540599e-005 5.283839e-001 -6.696935e-001 9.686340e-006 -4.483878e-005 5.305527e-001 -6.730048e-001
343320000 -9.509678e-006 2.277339e-005 5.054546e-001 -6.816585e-001 3.391342e-005 3.661757e-005 5.073387e-001 -6.843784e-001
343605000 6.531904e-006 -5.061051e-005 4.833038e-001 -6.921064e-001 -1.509986e-005 -4.973996e-005 4.848628e-001 -6.955153e-001
343890000 3.797936e-005 -4.340995e-005 4.601821e-001 -7.021310e-001 2.874590e-005 1.405938e-005 4.620020e-001 -7.051829e-001
