!Agilent Technologies,N5230C,SG49000117,A.08.50.07
!Agilent N5230C: A.08.50.07
!Date: Monday, March 18, 2024 18:58:04
!Correction: S11(Off) 
!S21(Off) 
!S12(Off) 
!S22(Off) 
!S2P File: Measurements: S11, S21, S12, S22:
# Hz S  RI   R 50
300000000 -8.242529e-005 4.302548e-005 -6.116772e-001 -6.620730e-001 9.447297e-006 -2.771985e-005 -6.146036e-001 -6.648569e-001
300285000 -2.685390e-005 1.424058e-005 -6.274468e-001 -6.393899e-001 -3.611029e-005 1.101369e-005 -6.298239e-001 -6.418510e-001
300570000 -4.069803e-005 -4.785277e-005 -6.424446e-001 -6.156649e-001 9.049783e-005 -5.270449e-006 -6.451045e-001 -6.183802e-001
300855000 -4.494726e-007 3.931024e-005 -6.565255e-001 -5.926463e-001 7.257512e-005 -1.861892e-005 -6.592209e-001 -5.948532e-001
301140000 7.606196e-005 -9.060906e-005 -6.698585e-001 -5.694880e-001 -5.287020e-006 9.567064e-005 -6.726935e-001 -5.714600e-001
301425000 -3.866784e-005 7.783782e-005 -6.825128e-001 -5.453187e-001 5.341817e-005 -1.001842e-004 -6.850498e-001 -5.478216e-001
301710000 1.001952e-004 -3.220957e-005 -6.940851e-001 -5.223778e-001 -3.740931e-005 7.462331e-005 -6.968032e-001 -5.242859e-001
301995000 4.109191e-005 6.021422e-005 -7.051159e-001 -4.984800e-001 -2.942359e-005 3.214254e-005 -7.079192e-001 -5.010642e-001
302280000 7.787106e-005 -7.349219e-005 -7.148638e-001 -4.754808e-001 9.441145e-006 1.038076e-004 -7.174957e-001 -4.772808e-001
302565000 2.444805e-005 8.768993e-005 -7.242762e-001 -4.520603e-001 -3.668290e-005 3.064824e-005 -7.267419e-001 -4.532878e-001
302850000 6.470364e-005 5.410878e-005 -7.327595e-001 -4.286937e-001 -4.411864e-005 -2.845244e-007 -7.355095e-001 -4.303501e-001
303135000 4.352861e-005 -2.438273e-005 -7.407275e-001 -4.053542e-001 -7.612217e-005 -2.554529e-006 -7.432598e-001 -4.066580e-001
303420000 6.118761e-005 -3.729825e-007 -7.477173e-001 -3.822473e-001 -4.390677e-005 -2.320691e-005 -7.503580e-001 -3.832777e-001
303705000 1.749337e-005 -3.324216e-005 -7.541413e-001 -3.594616e-001 -1.756607e-004 1.081650e-004 -7.568566e-001 -3.605094e-001
303990000 5.689339e-005 1.554762e-005 -7.606577e-001 -3.365231e-001 -9.577684e-005 -1.210148e-004 -7.630149e-001 -3.377295e-001
304275000 6.994354e-005 6.430400e-005 -7.653059e-001 -3.140239e-001 -1.013911e-005 -9.123233e-005 -7.682479e-001 -3.145885e-001
304560000 -5.889331e-005 1.707092e-005 -7.702850e-001 -2.903993e-001 8.721078e-005 -3.021975e-005 -7.728871e-001 -2.920913e-001
304845000 3.531683e-005 2.892192e-005 -7.743720e-001 -2.685379e-001 1.801977e-005 2.692990e-005 -7.770034e-001 -2.695091e-001
305130000 -4.539202e-006 -5.613563e-005 -7.782905e-001 -2.463850e-001 1.155473e-004 -3.694621e-005 -7.803657e-001 -2.468925e-001
305415000 1.868094e-005 -7.697564e-005 -7.811283e-001 -2.241922e-001 -9.447028e-008 -5.717022e-006 -7.838832e-001 -2.246127e-001
305700000 1.710201e-004 -1.013834e-005 -7.835668e-001 -2.017138e-001 2.088527e-004 -1.803456e-005 -7.867365e-001 -2.020134e-001
305985000 -1.861850e-005 -1.024109e-004 -7.857542e-001 -1.800223e-001 8.181888e-005 4.526520e-005 -7.887231e-001 -1.801474e-001
306270000 -6.092732e-005 5.575490e-005 -7.872425e-001 -1.581702e-001 6.678331e-005 -1.515464e-005 -7.900306e-001 -1.584514e-001
306555000 3.816616e-005 1.904481e-005 -7.878706e-001 -1.361817e-001 -6.874452e-006 1.324152e-005 -7.910638e-001 -1.366271e-001
306840000 -2.340138e-005 -2.993592e-005 -7.889430e-001 -1.145517e-001 -6.930665e-006 3.447489e-005 -7.918614e-001 -1.156155e-001
307125000 -5.626033e-005 1.361006e-005 -7.888998e-001 -9.422265e-002 -7.892968e-005 4.597343e-005 -7.916029e-001 -9.369554e-002
307410000 -1.839821e-005 -8.542432e-006 -7.886693e-001 -7.231997e-002 -2.642064e-005 -3.558924e-005 -7.922074e-001 -7.287053e-002
307695000 7.714401e-005 7.928081e-005 -7.881223e-001 -5.164151e-002 -1.357914e-004 2.750494e-005 -7.908267e-001 -5.151059e-002
307980000 1.215649e-004 -6.047485e-005 -7.867942e-001 -3.027402e-002 -1.344295e-004 5.017266e-005 -7.900126e-001 -3.058976e-002
308265000 -1.665889e-005 1.469789e-005 -7.854806e-001 -9.817533e-003 6.075974e-005 5.518920e-005 -7.887673e-001 -9.864439e-003
308550000 3.805229e-005 -3.971150e-005 -7.835779e-001 1.066999e-002 1.013660e-004 -1.809207e-006 -7.869499e-001 1.055822e-002
308835000 -1.854733e-005 -1.004624e-005 -7.813404e-001 3.062459e-002 -1.727301e-005 -1.232564e-004 -7.844946e-001 3.147447e-002
309120000 5.193934e-005 -6.684297e-005 -7.789859e-001 5.175485e-002 -8.474031e-005 1.386938e-005 -7.816474e-001 5.145003e-002
309405000 2.080453e-005 -1.860614e-005 -7.758139e-001 7.119089e-002 6.984124e-006 1.771083e-005 -7.786839e-001 7.208500e-002
309690000 4.223137e-006 1.155164e-004 -7.726122e-001 9.157705e-002 3.494265e-005 -1.770109e-005 -7.755530e-001 9.191661e-002
309975000 -5.114908e-005 -8.871187e-006 -7.686800e-001 1.115345e-001 1.405993e-006 -9.258688e-005 -7.718913e-001 1.120856e-001
310260000 5.706745e-006 3.674656e-005 -7.643069e-001 1.313796e-001 -2.498128e-005 -1.171059e-007 -7.682924e-001 1.314926e-001
310545000 3.943123e-005 3.651906e-005 -7.604861e-001 1.511576e-001 -7.373625e-005 -7.588387e-006 -7.631727e-001 1.518426e-001
310830000 2.101560e-005 3.693614e-005 -7.559670e-001 1.707351e-001 -1.327877e-005 -3.292408e-005 -7.589632e-001 1.713463e-001
311115000 -4.680804e-005 -3.749087e-005 -7.507159e-001 1.903656e-001 2.394743e-005 3.796564e-005 -7.533382e-001 1.905653e-001
311400000 -8.689258e-006 8.029743e-005 -7.452158e-001 2.092168e-001 4.483439e-005 5.578280e-005 -7.481899e-001 2.105684e-001
311685000 -2.819382e-005 -3.417485e-006 -7.393144e-001 2.283683e-001 -1.488933e-005 -3.346911e-006 -7.422261e-001 2.301489e-001
311970000 -7.696799e-005 6.071012e-005 -7.332223e-001 2.484225e-001 -8.791444e-005 -1.057325e-004 -7.357790e-001 2.489980e-001
312255000 1.131133e-006 -4.953413e-005 -7.266660e-001 2.675574e-001 -8.539650e-005 -3.508635e-006 -7.298144e-001 2.678330e-001
312540000 5.857082e-005 1.234106e-004 -7.198055e-001 2.861538e-001 -9.914264e-005 -6.684143e-005 -7.223563e-001 2.875130e-001
312825000 3.062950e-005 3.984329e-005 -7.122228e-001 3.052671e-001 -5.344789e-005 1.696255e-005 -7.150003e-001 3.061388e-001
313110000 -1.021086e-005 1.124332e-004 -7.048640e-001 3.238691e-001 -3.283680e-005 -6.196199e-005 -7.074553e-001 3.253876e-001
313395000 -3.077045e-005 1.314196e-005 -6.967714e-001 3.425956e-001 -5.641417e-005 -3.847236e-005 -6.994693e-001 3.441308e-001
313680000 3.843064e-005 -4.600078e-005 -6.881876e-001 3.612295e-001 -1.944211e-005 -6.607193e-005 -6.913686e-001 3.631631e-001
313965000 -3.047392e-005 -9.457503e-005 -6.794405e-001 3.800692e-001 -5.215788e-005 -8.892504e-005 -6.819430e-001 3.815260e-001
314250000 -4.551402e-006 -9.503578e-006 -6.703139e-001 3.989308e-001 -6.773831e-007 -1.805976e-004 -6.735294e-001 4.001625e-001
314535000 -1.176204e-004 -3.508456e-005 -6.604397e-001 4.167130e-001 1.017524e-004 -4.339404e-005 -6.639979e-001 4.185416e-001
314820000 -8.491911e-005 -2.853539e-005 -6.511291e-001 4.354931e-001 8.463286e-006 -7.480066e-005 -6.531036e-001 4.368055e-001
315105000 3.638494e-006 -5.084616e-005 -6.406165e-001 4.531344e-001 -9.973296e-006 -3.583081e-005 -6.427073e-001 4.557276e-001
315390000 5.414891e-005 -4.302721e-005 -6.297017e-001 4.715638e-001 -5.862710e-005 2.944767e-006 -6.318552e-001 4.731664e-001
315675000 5.933031e-005 1.187183e-005 -6.183357e-001 4.896617e-001 1.610285e-005 -8.625666e-005 -6.206114e-001 4.913737e-001
315960000 3.865356e-005 4.411266e-006 -6.069977e-001 5.078480e-001 -5.114626e-005 -2.080518e-005 -6.094832e-001 5.098472e-001
316245000 4.913938e-005 -2.079033e-005 -5.944949e-001 5.256259e-001 -1.419163e-005 -3.765615e-005 -5.965928e-001 5.278342e-001
316530000 -9.613529e-005 2.204984e-005 -5.819365e-001 5.433497e-001 8.388556e-005 -3.959541e-005 -5.839042e-001 5.457656e-001
316815000 -4.143003e-005 -3.283526e-005 -5.689802e-001 5.610650e-001 -1.595614e-006 1.673546e-004 -5.709164e-001 5.631040e-001
317100000 3.765732e-005 -4.839047e-005 -5.552444e-001 5.782156e-001 1.080350e-004 9.779777e-005 -5.574918e-001 5.811649e-001
317385000 -1.124656e-005 5.057041e-005 -5.402212e-001 5.960337e-001 -2.259277e-005 5.377137e-005 -5.425444e-001 5.984290e-001
317670000 -6.253605e-005 4.023598e-005 -5.260398e-001 6.133128e-001 -3.489760e-005 -6.009007e-005 -5.281267e-001 6.156974e-001
317955000 -7.905796e-005 8.376277e-005 -5.106875e-001 6.300873e-001 -9.532212e-005 4.209713e-006 -5.129734e-001 6.330263e-001
318240000 -3.952247e-005 6.367458e-005 -4.951195e-001 6.472371e-001 1.314161e-005 -4.296301e-005 -4.967298e-001 6.496193e-001
318525000 6.205184e-005 5.622713e-006 -4.790497e-001 6.638881e-001 -5.369841e-005 -8.147393e-005 -4.804257e-001 6.670755e-001
318810000 -2.184225e-005 -1.203655e-004 -4.612796e-001 6.801843e-001 -4.143776e-005 -5.693571e-005 -4.634959e-001 6.834599e-001
319095000 8.205874e-005 -4.360293e-005 -4.439924e-001 6.970578e-001 2.129682e-005 -1.798562e-005 -4.457959e-001 7.000219e-001
319380000 1.539820e-004 -4.757337e-005 -4.256053e-001 7.132091e-001 1.397623e-005 -5.218307e-005 -4.270710e-001 7.158781e-001
319665000 7.862350e-005 7.591547e-005 -4.065167e-001 7.291784e-001 -2.753808e-006 -4.310297e-006 -4.085768e-001 7.313173e-001
319950000 5.350562e-005 -9.510582e-005 -3.875472e-001 7.441537e-001 2.493318e-005 6.084365e-005 -3.893440e-001 7.475728e-001
320235000 2.519765e-005 1.089613e-005 -3.665472e-001 7.601076e-001 4.956044e-005 6.489972e-005 -3.687314e-001 7.626118e-001
320520000 -2.333754e-005 -4.697032e-005 -3.461976e-001 7.747623e-001 7.593598e-005 -4.568319e-005 -3.473601e-001 7.778003e-001
320805000 5.322327e-005 -6.741685e-006 -3.246183e-001 7.889078e-001 6.442677e-005 -8.575222e-005 -3.256829e-001 7.925052e-001
321090000 2.464023e-005 3.778299e-005 -3.023898e-001 8.035002e-001 7.392391e-006 -2.890021e-005 -3.036042e-001 8.065771e-001
321375000 6.092693e-005 1.028780e-004 -2.785637e-001 8.170227e-001 3.926531e-006 1.271172e-005 -2.805241e-001 8.202776e-001
321660000 -7.584344e-005 -3.708292e-005 -2.552436e-001 8.298952e-001 2.945740e-005 3.323386e-005 -2.560269e-001 8.336138e-001
321945000 -5.914980e-005 7.748963e-005 -2.307652e-001 8.427476e-001 -6.239453e-005 3.731433e-005 -2.318010e-001 8.463193e-001
322230000 8.817368e-006 -5.654782e-005 -2.054684e-001 8.552840e-001 2.310553e-005 1.655737e-005 -2.064673e-001 8.585023e-001
322515000 -7.958754e-006 1.516818e-004 -1.793596e-001 8.666304e-001 -1.042544e-005 -3.773109e-005 -1.801351e-001 8.693756e-001
322800000 -3.040699e-005 -3.372262e-005 -1.524208e-001 8.770943e-001 -5.891561e-005 -6.443635e-005 -1.530779e-001 8.809247e-001
323085000 1.089543e-004 -1.136871e-004 -1.253634e-001 8.873792e-001 1.993173e-005 -5.731263e-005 -1.254711e-001 8.910289e-001
323370000 -2.713292e-005 -1.917696e-005 -9.697608e-002 8.967302e-001 -9.042916e-005 5.982957e-005 -9.719472e-002 9.002470e-001
323655000 1.040777e-004 7.268726e-005 -6.757831e-002 9.047328e-001 3.722787e-006 6.196845e-005 -6.810476e-002 9.083338e-001
323940000 8.897531e-005 -1.086499e-005 -3.797020e-002 9.121932e-001 -2.003085e-006 6.343621e-005 -3.808323e-002 9.169551e-001
324225000 -2.932453e-005 7.280829e-005 -7.375680e-003 9.189348e-001 5.355003e-006 -9.892545e-006 -8.246281e-003 9.231318e-001
324510000 9.951789e-005 4.299835e-005 2.350867e-002 9.251115e-001 -9.207499e-007 -4.165303e-005 2.350765e-002 9.278057e-001
324795000 1.089412e-004 1.403749e-004 5.513604e-002 9.293877e-001 -1.422193e-004 -9.271500e-006 5.566258e-002 9.333383e-001
325080000 4.160046e-005 -2.050840e-005 8.796108e-002 9.327105e-001 -1.503319e-005 4.089512e-005 8.833768e-002 9.368347e-001
325365000 1.159285e-005 -4.731145e-007 1.204941e-001 9.351093e-001 4.936984e-007 2.595552e-005 1.211744e-001 9.391597e-001
325650000 2.292811e-005 4.410804e-005 1.543106e-001 9.367686e-001 4.522502e-005 -1.712566e-005 1.554920e-001 9.399150e-001
325935000 -6.140428e-007 1.202545e-004 1.888449e-001 9.357299e-001 8.918202e-005 4.200719e-005 1.897128e-001 9.396865e-001
326220000 -5.584725e-005 7.762069e-005 2.230461e-001 9.338474e-001 -5.938558e-005 2.025784e-005 2.238751e-001 9.381352e-001
326505000 2.699103e-005 5.626282e-005 2.578170e-001 9.307340e-001 -1.842494e-005 1.195857e-005 2.595109e-001 9.346640e-001
326790000 2.822974e-005 7.954090e-006 2.929056e-001 9.267045e-001 2.979915e-005 1.326836e-004 2.941292e-001 9.302828e-001
327075000 -9.605065e-005 3.533647e-005 3.284394e-001 9.205508e-001 -2.097511e-006 6.687398e-005 3.301280e-001 9.239980e-001
327360000 -7.553578e-005 -1.283356e-005 3.639859e-001 9.128015e-001 8.175846e-006 7.787448e-005 3.664201e-001 9.160381e-001
327645000 5.763245e-005 1.051545e-006 3.996400e-001 9.028417e-001 4.466340e-005 1.072893e-004 4.015280e-001 9.063261e-001
327930000 -1.994969e-005 -2.556291e-005 4.354998e-001 8.919117e-001 -3.688878e-005 4.556377e-005 4.377972e-001 8.955825e-001
328215000 -2.597704e-005 3.947551e-005 4.709085e-001 8.791152e-001 -6.287624e-005 1.881509e-005 4.731936e-001 8.823014e-001
328500000 -2.432098e-005 -2.582428e-005 5.066146e-001 8.644224e-001 -1.352787e-004 2.277113e-005 5.077928e-001 8.678284e-001
328785000 4.490610e-005 1.475688e-005 5.407542e-001 8.474069e-001 -1.104037e-004 -4.086253e-006 5.433579e-001 8.512099e-001
329070000 6.599622e-005 -8.885848e-005 5.756852e-001 8.294466e-001 -6.748758e-005 -1.611891e-005 5.780346e-001 8.334725e-001
329355000 -1.095556e-005 -5.322596e-006 6.094733e-001 8.104607e-001 -6.356498e-005 -1.043906e-004 6.113447e-001 8.135325e-001
329640000 1.052891e-004 -1.181008e-004 6.424907e-001 7.885897e-001 -1.121636e-004 -2.089678e-005 6.455792e-001 7.913356e-001
329925000 1.039899e-004 -1.982372e-005 6.741539e-001 7.651716e-001 6.982026e-005 -6.931274e-005 6.775852e-001 7.683643e-001
330210000 4.385383e-005 -4.619919e-005 7.059870e-001 7.401592e-001 -2.644800e-005 -5.246355e-005 7.088440e-001 7.437401e-001
330495000 -1.175453e-005 -7.309379e-006 7.358490e-001 7.141781e-001 -6.584958e-006 7.059144e-005 7.394186e-001 7.160083e-001
330780000 -7.991401e-005 -6.984978e-005 7.651445e-001 6.851789e-001 -3.402403e-005 3.331031e-005 7.688602e-001 6.882073e-001
331065000 -3.885851e-005 1.079043e-004 7.926391e-001 6.557524e-001 -5.030155e-006 -1.100890e-004 7.963707e-001 6.583238e-001
331350000 -5.800706e-005 -3.205828e-005 8.190007e-001 6.248374e-001 -1.002504e-004 -8.272477e-006 8.229074e-001 6.273474e-001
331635000 2.019585e-005 6.220188e-007 8.440563e-001 5.924842e-001 1.751013e-006 8.349966e-006 8.479298e-001 5.947238e-001
331920000 -8.172021e-005 -7.595387e-005 8.674721e-001 5.584611e-001 -1.628401e-005 -8.583861e-005 8.712791e-001 5.606611e-001
332205000 -4.703704e-005 -2.618873e-006 8.888333e-001 5.235625e-001 -8.276111e-006 5.206625e-005 8.926640e-001 5.260949e-001
332490000 9.607935e-006 -3.568641e-005 9.086934e-001 4.881877e-001 -6.230898e-005 -2.041260e-005 9.130499e-001 4.899903e-001
332775000 2.112360e-005 -1.970218e-005 9.273305e-001 4.520485e-001 -5.204324e-005 -1.114539e-004 9.308569e-001 4.532105e-001
333060000 1.405917e-005 4.637657e-006 9.430324e-001 4.139145e-001 1.226627e-005 -9.319177e-005 9.473954e-001 4.159197e-001
333345000 3.664679e-005 -8.765650e-005 9.576265e-001 3.768208e-001 5.260409e-005 -6.947915e-005 9.612564e-001 3.774935e-001
333630000 -2.172273e-005 3.245076e-005 9.696642e-001 3.373795e-001 -4.295530e-005 -3.003634e-005 9.742100e-001 3.391730e-001
333915000 1.909688e-005 -2.375456e-005 9.805270e-001 2.992471e-001 -6.658170e-005 4.552645e-005 9.848792e-001 2.999700e-001
334200000 2.369716e-005 9.359735e-005 9.889773e-001 2.595862e-001 1.095873e-005 1.062354e-004 9.929712e-001 2.612741e-001
334485000 1.657982e-005 1.205251e-005 9.957324e-001 2.203773e-001 7.833022e-005 -8.236436e-006 9.999163e-001 2.218492e-001
334770000 -5.366220e-005 -2.235802e-005 1.000569e+000 1.810917e-001 1.127559e-004 6.351624e-005 1.004664e+000 1.818709e-001
335055000 7.401384e-006 6.933297e-005 1.003225e+000 1.424181e-001 -4.227977e-005 1.474047e-004 1.007529e+000 1.423509e-001
335340000 8.939259e-005 -9.374824e-005 1.003091e+000 1.027549e-001 4.412367e-005 -5.457255e-005 1.008655e+000 1.032425e-001
335625000 -3.076041e-005 5.559196e-005 1.002919e+000 6.513905e-002 2.653445e-005 -5.263715e-005 1.007190e+000 6.473001e-002
335910000 -1.114015e-004 5.526753e-005 1.000674e+000 2.687859e-002 5.917270e-005 -3.559443e-005 1.005216e+000 2.734468e-002
336195000 1.065333e-004 7.164092e-005 9.966203e-001 -1.050525e-002 -8.366450e-005 -1.337503e-005 1.000433e+000 -1.027268e-002
336480000 1.420726e-004 2.097819e-005 9.897583e-001 -4.686724e-002 -3.775247e-005 -2.218414e-006 9.943683e-001 -4.764330e-002
336765000 1.354736e-004 -2.948193e-005 9.829782e-001 -8.334665e-002 4.647964e-005 -7.846247e-005 9.873508e-001 -8.391174e-002
337050000 5.998047e-005 8.828169e-006 9.745829e-001 -1.189987e-001 -1.847736e-005 -8.108659e-005 9.786679e-001 -1.198984e-001
337335000 -2.193844e-005 1.825558e-004 9.644822e-001 -1.536898e-001 1.028735e-004 7.682021e-005 9.686936e-001 -1.538843e-001
337620000 -6.405108e-005 1.134429e-004 9.528605e-001 -1.866547e-001 2.776986e-005 -4.478458e-006 9.571777e-001 -1.871937e-001
337905000 -6.201121e-005 1.543147e-004 9.404105e-001 -2.194089e-001 1.352022e-005 6.393006e-005 9.442759e-001 -2.209104e-001
338190000 -5.603408e-005 2.384572e-005 9.268671e-001 -2.511555e-001 -7.478677e-005 3.480481e-005 9.306884e-001 -2.518746e-001
338475000 -2.174605e-005 -8.272989e-005 9.123395e-001 -2.814917e-001 7.913350e-005 -8.594297e-006 9.158298e-001 -2.824148e-001
338760000 -5.056352e-005 -9.681286e-006 8.961793e-001 -3.111196e-001 -4.389658e-005 -6.907916e-005 8.999093e-001 -3.123373e-001
339045000 8.443752e-006 4.607405e-005 8.792170e-001 -3.395464e-001 -4.985039e-005 -8.527791e-007 8.832261e-001 -3.409759e-001
339330000 -3.431328e-005 5.981001e-005 8.621144e-001 -3.670157e-001 7.477922e-005 8.708720e-005 8.658411e-001 -3.685637e-001
339615000 -9.749644e-005 2.822950e-005 8.436321e-001 -3.936672e-001 1.386183e-005 7.365944e-005 8.474250e-001 -3.954287e-001
339900000 -3.645936e-005 -7.844951e-005 8.248819e-001 -4.183046e-001 -2.288536e-005 1.146843e-004 8.285420e-001 -4.206100e-001
340185000 -5.513162e-005 1.691177e-005 8.055475e-001 -4.437772e-001 3.495373e-005 3.686361e-005 8.093519e-001 -4.452742e-001
340470000 -3.146234e-005 3.050333e-005 7.857192e-001 -4.668046e-001 -5.649257e-005 6.479417e-005 7.892629e-001 -4.686859e-001
340755000 6.390390e-005 -7.742802e-005 7.652405e-001 -4.886444e-001 -4.165185e-005 1.086313e-004 7.687127e-001 -4.914510e-001
341040000 1.115541e-005 -1.510095e-005 7.445331e-001 -5.100468e-001 -1.191623e-004 -1.007539e-004 7.476074e-001 -5.119018e-001
341325000 8.310225e-006 4.053064e-005 7.237818e-001 -5.302128e-001 -7.269702e-005 6.063315e-005 7.263658e-001 -5.326275e-001
341610000 -4.310557e-005 -3.818842e-006 7.021303e-001 -5.492904e-001 1.398743e-005 2.772408e-005 7.050127e-001 -5.516751e-001
341895000 4.340560e-005 2.793770e-005 6.803746e-001 -5.675382e-001 2.293270e-006 -4.300275e-005 6.822988e-001 -5.698122e-001
342180000 4.463801e-005 1.144131e-005 6.582807e-001 -5.852244e-001 4.003518e-005 5.438774e-007 6.607810e-001 -5.880599e-001
342465000 -8.144868e-006 -3.685146e-005 6.357805e-001 -6.013701e-001 1.355809e-004 5.480788e-005 6.387037e-001 -6.037692e-001
342750000 -3.889679e-005 6.741661e-005 6.142973e-001 -6.168641e-001 2.665764e-005 -2.190376e-005 6.166222e-001 -6.193878e-001
343035000 -4.280737e-005 -1.707983e-006 5.911803e-001 -6.314364e-001 -3.859715e-006 3.783343e-005 5.939530e-001 -6.337183e-001
343320000 -5.280238e-005 6.461437e-005 5.689009e-001 -6.454425e-001 6.991144e-006 1.339571e-004 5.711430e-001 -6.477744e-001
343605000 2.223659e-005 1.127875e-005 5.466698e-001 -6.580884e-001 -8.242605e-005 -3.956580e-005 5.490873e-001 -6.611308e-001
343890000 -6.339556e-005 -5.116303e-005 5.238374e-001 -6.701447e-001 -3.621854e-005 1.662275e-005 5.258933e-001 -6.736667e-001
