!Agilent Technologies,N5230C,SG49000117,A.08.50.07
!Agilent N5230C: A.08.50.07
!Date: Monday, March 18, 2024 18:59:11
!Correction: S11(Off) 
!S21(Off) 
!S12(Off) 
!S22(Off) 
!S2P File: Measurements: S11, S21, S12, S22:
# Hz S  RI   R 50
300000000 7.951772e-005 -8.305342e-005 -6.220123e-001 -6.480814e-001 9.253008e-005 2.193386e-005 -6.243746e-001 -6.508887e-001
300285000 3.440824e-005 3.104377e-005 -6.374294e-001 -6.252597e-001 -5.191518e-005 6.480450e-005 -6.398448e-001 -6.270990e-001
300570000 1.596253e-004 1.937065e-005 -6.518988e-001 -6.018090e-001 -4.914722e-005 -7.600443e-005 -6.549599e-001 -6.041372e-001
300855000 4.808457e-005 8.778161e-006 -6.655383e-001 -5.786838e-001 -9.464913e-005 -6.072202e-005 -6.678790e-001 -5.807218e-001
301140000 4.602790e-005 2.922073e-006 -6.787368e-001 -5.551921e-001 3.235454e-005 1.928380e-005 -6.808457e-001 -5.572788e-001
301425000 7.505343e-006 -3.030004e-006 -6.897906e-001 -5.308563e-001 -3.594905e-006 -3.837429e-005 -6.929846e-001 -5.325899e-001
301710000 4.015317e-005 6.031556e-006 -7.013657e-001 -5.076900e-001 2.179226e-005 -3.037928e-005 -7.038141e-001 -5.100908e-001
301995000 1.625412e-006 -6.737011e-005 -7.119015e-001 -4.840876e-001 7.681543e-005 2.457329e-005 -7.143881e-001 -4.861116e-001
302280000 -5.981458e-005 2.732967e-005 -7.210448e-001 -4.604546e-001 -2.877083e-005 -1.088206e-004 -7.237682e-001 -4.624209e-001
302565000 6.741373e-006 4.752289e-006 -7.305323e-001 -4.369507e-001 5.946591e-005 1.822951e-005 -7.328903e-001 -4.386862e-001
302850000 7.107440e-005 -5.152461e-005 -7.386826e-001 -4.137113e-001 -5.713076e-005 7.308586e-007 -7.409081e-001 -4.154275e-001
303135000 4.358423e-005 3.248086e-005 -7.453379e-001 -3.903753e-001 1.298108e-004 1.266699e-004 -7.481899e-001 -3.920888e-001
303420000 1.063960e-004 -4.957622e-006 -7.525740e-001 -3.680347e-001 3.082125e-005 -7.466310e-006 -7.551758e-001 -3.689311e-001
303705000 6.913403e-005 2.126069e-005 -7.582878e-001 -3.444182e-001 -9.503717e-007 1.330326e-005 -7.613088e-001 -3.453594e-001
303990000 2.361471e-005 -2.632479e-006 -7.636430e-001 -3.218636e-001 5.836870e-005 -1.779247e-005 -7.666519e-001 -3.229400e-001
304275000 2.583557e-005 -6.861650e-005 -7.690740e-001 -2.991638e-001 -5.256076e-005 2.400340e-005 -7.713476e-001 -3.000446e-001
304560000 4.214242e-005 -4.600921e-005 -7.730581e-001 -2.761950e-001 -3.120869e-005 3.879609e-005 -7.757214e-001 -2.774781e-001
304845000 -7.009789e-005 -2.712326e-006 -7.773926e-001 -2.539945e-001 1.059636e-004 5.956779e-005 -7.799108e-001 -2.548885e-001
305130000 -6.876900e-005 4.104159e-005 -7.803531e-001 -2.315508e-001 -8.599144e-005 -4.824735e-006 -7.830637e-001 -2.323423e-001
305415000 1.766450e-005 1.294719e-004 -7.829737e-001 -2.096901e-001 8.194592e-005 5.083291e-005 -7.860843e-001 -2.103607e-001
305700000 -3.205923e-005 -2.987672e-005 -7.853557e-001 -1.874454e-001 -1.277883e-005 1.947831e-006 -7.882377e-001 -1.882375e-001
305985000 -2.002387e-005 -7.091981e-005 -7.867467e-001 -1.656936e-001 2.454949e-005 -1.440825e-005 -7.903068e-001 -1.663497e-001
306270000 -3.833598e-005 3.745059e-005 -7.880446e-001 -1.435166e-001 -9.397722e-005 3.428506e-005 -7.910330e-001 -1.440096e-001
306555000 -5.491426e-005 5.441171e-005 -7.889413e-001 -1.223541e-001 -2.043166e-005 6.063067e-005 -7.918943e-001 -1.230005e-001
306840000 6.186791e-007 -1.032240e-004 -7.893288e-001 -1.012461e-001 1.027016e-004 -3.729738e-006 -7.925104e-001 -1.004568e-001
307125000 1.032074e-004 2.947194e-005 -7.892606e-001 -7.988446e-002 -3.840509e-005 -1.626224e-005 -7.921731e-001 -7.994247e-002
307410000 2.134230e-004 -5.289253e-005 -7.888523e-001 -5.870555e-002 -5.726063e-005 7.382841e-005 -7.917711e-001 -5.847501e-002
307695000 -1.140366e-005 -8.837666e-005 -7.878206e-001 -3.781867e-002 -7.314812e-005 -2.525126e-005 -7.906823e-001 -3.827260e-002
307980000 -4.933697e-005 -6.146140e-005 -7.859169e-001 -1.696716e-002 -4.290834e-005 3.096645e-005 -7.890633e-001 -1.680076e-002
308265000 9.271864e-005 -5.039969e-007 -7.849004e-001 4.041678e-003 1.401786e-004 4.272817e-005 -7.875910e-001 3.880595e-003
308550000 -1.805822e-004 -4.409549e-005 -7.825915e-001 2.454269e-002 6.229215e-005 2.462359e-005 -7.855806e-001 2.423599e-002
308835000 6.657581e-005 5.165971e-005 -7.798489e-001 4.499487e-002 6.756464e-005 4.241530e-005 -7.829698e-001 4.474512e-002
309120000 2.565754e-005 -2.604216e-006 -7.772918e-001 6.500160e-002 1.020798e-004 -9.050709e-005 -7.798371e-001 6.550349e-002
309405000 4.843839e-005 1.155983e-004 -7.733179e-001 8.456238e-002 9.687947e-005 -8.035733e-005 -7.766362e-001 8.514981e-002
309690000 1.257919e-004 1.043209e-005 -7.698393e-001 1.048960e-001 1.148175e-004 4.443084e-005 -7.729499e-001 1.053473e-001
309975000 8.132591e-005 3.716285e-005 -7.657626e-001 1.248243e-001 -4.733611e-007 -3.226143e-005 -7.692677e-001 1.253188e-001
310260000 4.243659e-005 -3.046300e-005 -7.619539e-001 1.442012e-001 6.385396e-005 -3.087213e-005 -7.648099e-001 1.452612e-001
310545000 1.198003e-004 -3.663517e-005 -7.570672e-001 1.645106e-001 -2.709786e-005 7.258570e-005 -7.605543e-001 1.651957e-001
310830000 2.841952e-005 1.551658e-004 -7.521610e-001 1.841521e-001 9.764858e-005 6.899390e-005 -7.550418e-001 1.849168e-001
311115000 1.070288e-004 8.405483e-005 -7.467016e-001 2.033841e-001 6.130784e-005 -1.330383e-005 -7.494135e-001 2.040798e-001
311400000 -2.476045e-006 -4.626800e-005 -7.408167e-001 2.225582e-001 5.759464e-006 -4.767449e-005 -7.441435e-001 2.237392e-001
311685000 -4.947983e-005 -2.057870e-005 -7.345489e-001 2.417626e-001 -4.261268e-006 1.623900e-005 -7.377284e-001 2.428743e-001
311970000 -9.451075e-005 -3.410339e-005 -7.282558e-001 2.608845e-001 5.479823e-005 5.061287e-005 -7.316947e-001 2.620147e-001
312255000 -6.261197e-005 5.437480e-005 -7.217668e-001 2.800924e-001 4.817207e-005 -1.111113e-005 -7.246805e-001 2.817087e-001
312540000 -1.192685e-004 -7.174101e-005 -7.144459e-001 2.992272e-001 3.832973e-005 -1.102592e-005 -7.173230e-001 3.005128e-001
312825000 -3.998591e-005 -5.148133e-005 -7.075440e-001 3.177774e-001 -3.378412e-005 3.456860e-006 -7.098678e-001 3.187916e-001
313110000 2.587671e-006 -6.723659e-005 -6.994987e-001 3.363067e-001 -6.072075e-005 -7.767996e-006 -7.020168e-001 3.375083e-001
313395000 8.605226e-005 -1.660389e-004 -6.909651e-001 3.554889e-001 4.231631e-005 -3.585389e-005 -6.936435e-001 3.563578e-001
313680000 1.146942e-004 -4.965266e-005 -6.819978e-001 3.740878e-001 1.710214e-004 3.617507e-005 -6.850780e-001 3.749683e-001
313965000 1.297759e-005 -1.877218e-005 -6.728443e-001 3.924298e-001 -3.072244e-005 4.934794e-005 -6.760078e-001 3.940561e-001
314250000 5.081560e-005 1.748118e-005 -6.639255e-001 4.103447e-001 4.874208e-005 6.376400e-005 -6.661136e-001 4.123878e-001
314535000 -7.248362e-006 4.532237e-005 -6.536560e-001 4.293764e-001 -1.393287e-005 5.711304e-005 -6.568487e-001 4.309078e-001
314820000 7.261318e-005 4.908099e-005 -6.437190e-001 4.477619e-001 6.891613e-005 7.244767e-007 -6.462891e-001 4.487847e-001
315105000 1.272685e-005 6.673695e-005 -6.329691e-001 4.652778e-001 -1.101413e-004 -3.953355e-006 -6.352348e-001 4.672105e-001
315390000 7.580081e-005 2.061541e-005 -6.214955e-001 4.836221e-001 -3.499660e-005 -1.417579e-004 -6.239350e-001 4.860582e-001
315675000 -2.096409e-005 3.342545e-005 -6.101273e-001 5.016099e-001 -5.297740e-005 3.950181e-005 -6.127456e-001 5.033619e-001
315960000 -1.676921e-005 -1.048045e-004 -5.978475e-001 5.196317e-001 4.499468e-005 3.576291e-005 -6.001399e-001 5.216535e-001
316245000 -4.891478e-005 -6.922560e-005 -5.849797e-001 5.373191e-001 2.289134e-006 -6.282744e-005 -5.879510e-001 5.390648e-001
316530000 3.446244e-005 -1.114222e-004 -5.725729e-001 5.550190e-001 -1.923346e-006 1.163937e-004 -5.742493e-001 5.569439e-001
316815000 -1.018073e-005 1.262981e-005 -5.587496e-001 5.725814e-001 -9.977605e-006 -6.649632e-005 -5.613356e-001 5.746945e-001
317100000 -3.172607e-005 -3.280713e-005 -5.447122e-001 5.899661e-001 2.199020e-005 -3.552139e-005 -5.466352e-001 5.922640e-001
317385000 2.368802e-005 1.296195e-004 -5.298592e-001 6.070928e-001 8.663911e-005 -9.822982e-006 -5.322267e-001 6.096840e-001
317670000 -2.775244e-005 6.882416e-005 -5.151116e-001 6.243072e-001 2.446721e-005 -1.007832e-004 -5.175022e-001 6.267332e-001
317955000 -1.610649e-005 3.609565e-005 -4.993499e-001 6.411502e-001 3.771342e-005 2.212120e-005 -5.015191e-001 6.441466e-001
318240000 -4.134434e-005 1.100812e-004 -4.831243e-001 6.580084e-001 -1.340337e-005 -5.760075e-005 -4.851468e-001 6.607352e-001
318525000 -5.865604e-006 -3.612294e-005 -4.664025e-001 6.744968e-001 1.872146e-005 -4.924771e-005 -4.686143e-001 6.774162e-001
318810000 3.641836e-006 3.980008e-006 -4.492755e-001 6.912744e-001 1.827829e-005 -1.612325e-005 -4.509685e-001 6.937205e-001
319095000 -9.125979e-005 3.931359e-005 -4.310322e-001 7.070778e-001 1.576401e-005 3.935426e-005 -4.323851e-001 7.103163e-001
319380000 -1.967393e-005 -4.169904e-005 -4.122870e-001 7.228521e-001 -4.553026e-005 -5.702467e-006 -4.138720e-001 7.256275e-001
319665000 -1.926712e-004 -1.956014e-005 -3.930135e-001 7.386153e-001 -9.961878e-005 1.400828e-004 -3.947021e-001 7.411271e-001
319950000 -1.541091e-005 4.720010e-005 -3.727800e-001 7.535085e-001 -2.908204e-005 -4.818168e-005 -3.745448e-001 7.569247e-001
320235000 -1.772467e-005 5.534068e-005 -3.521769e-001 7.689047e-001 -7.420876e-005 -3.723049e-005 -3.538761e-001 7.720014e-001
320520000 -1.650183e-005 3.617496e-005 -3.311484e-001 7.834228e-001 1.190185e-004 -7.273563e-005 -3.324014e-001 7.872112e-001
320805000 -8.015494e-007 -4.197683e-005 -3.088090e-001 7.978472e-001 -6.390358e-006 1.666982e-005 -3.104468e-001 8.010830e-001
321090000 -1.538951e-005 6.266210e-005 -2.864893e-001 8.112794e-001 1.467043e-005 9.286966e-005 -2.872870e-001 8.148995e-001
321375000 -8.470439e-005 -2.562955e-005 -2.624072e-001 8.249863e-001 -7.436223e-005 1.036023e-004 -2.642961e-001 8.277700e-001
321660000 -2.383338e-005 9.020034e-005 -2.383510e-001 8.376285e-001 -1.250094e-004 -5.910702e-006 -2.395516e-001 8.405321e-001
321945000 -6.564801e-005 -4.762024e-005 -2.133652e-001 8.497797e-001 -2.661019e-005 8.349102e-005 -2.145221e-001 8.535098e-001
322230000 -8.559313e-005 6.444334e-006 -1.882718e-001 8.607628e-001 6.590960e-006 -2.592907e-005 -1.884923e-001 8.645678e-001
322515000 -7.567755e-005 5.038645e-005 -1.607576e-001 8.721415e-001 5.690938e-005 3.125072e-005 -1.619997e-001 8.759473e-001
322800000 -2.302920e-005 8.935727e-005 -1.339632e-001 8.827600e-001 3.985996e-006 -4.547512e-005 -1.348953e-001 8.861647e-001
323085000 -6.189477e-005 -6.675383e-005 -1.060107e-001 8.920106e-001 -3.348706e-005 9.512868e-007 -1.071517e-001 8.952634e-001
323370000 3.815145e-005 -9.417044e-005 -7.743013e-002 9.009355e-001 3.920793e-005 -5.889532e-005 -7.735524e-002 9.052434e-001
323655000 -2.310128e-005 -2.848726e-005 -4.785039e-002 9.085219e-001 -1.077336e-004 -6.316478e-005 -4.851363e-002 9.126335e-001
323940000 5.513322e-005 -2.952768e-005 -1.752440e-002 9.161425e-001 -1.376666e-004 2.071981e-005 -1.784618e-002 9.196499e-001
324225000 -4.699140e-005 -5.245758e-005 1.305554e-002 9.215059e-001 2.342791e-005 2.192696e-005 1.338387e-002 9.256917e-001
324510000 4.375960e-005 -4.962981e-005 4.483712e-002 9.263378e-001 1.444820e-004 -1.401696e-005 4.493779e-002 9.303478e-001
324795000 3.914789e-005 3.716195e-005 7.703156e-002 9.305978e-001 -6.357401e-005 -1.572038e-005 7.728557e-002 9.339864e-001
325080000 7.617963e-005 7.241214e-005 1.092938e-001 9.332665e-001 6.523792e-005 4.786178e-006 1.099913e-001 9.371431e-001
325365000 6.668847e-005 -2.915410e-005 1.428059e-001 9.345502e-001 -1.618591e-005 1.374935e-004 1.437085e-001 9.387677e-001
325650000 5.725323e-005 3.969884e-005 1.766565e-001 9.345523e-001 1.049689e-004 -2.508813e-005 1.773319e-001 9.382009e-001
325935000 1.001899e-004 2.778021e-005 2.113270e-001 9.335163e-001 2.417438e-005 1.323197e-004 2.118858e-001 9.377406e-001
326220000 -2.180143e-006 1.429986e-004 2.454883e-001 9.310024e-001 -3.498491e-005 -2.102397e-005 2.466287e-001 9.346790e-001
326505000 -2.006964e-005 1.240865e-004 2.807175e-001 9.269860e-001 1.850803e-005 1.016019e-005 2.816755e-001 9.305384e-001
326790000 -5.737688e-005 2.773156e-005 3.158426e-001 9.215869e-001 4.871510e-005 6.052375e-005 3.172147e-001 9.248533e-001
327075000 -8.453648e-005 -1.190211e-006 3.518538e-001 9.139401e-001 -1.839554e-005 -6.550330e-005 3.533302e-001 9.182007e-001
327360000 -5.300959e-005 5.086763e-005 3.872407e-001 9.052893e-001 1.387606e-006 -2.091146e-005 3.885244e-001 9.088768e-001
327645000 5.593145e-006 2.465656e-005 4.225736e-001 8.944890e-001 -1.708728e-005 8.339123e-006 4.247074e-001 8.980970e-001
327930000 -1.401481e-005 -9.295825e-005 4.582324e-001 8.826135e-001 -1.172661e-004 5.375602e-005 4.604559e-001 8.862008e-001
328215000 5.626323e-005 -6.137393e-005 4.930650e-001 8.675724e-001 -1.058616e-004 -7.956121e-005 4.955990e-001 8.720742e-001
328500000 1.921705e-005 2.754767e-005 5.282319e-001 8.528713e-001 -1.203800e-005 -7.157685e-006 5.309739e-001 8.563300e-001
328785000 1.513139e-005 1.341905e-004 5.632811e-001 8.351029e-001 3.317331e-005 -2.070520e-005 5.657972e-001 8.391028e-001
329070000 4.697108e-005 1.510625e-004 5.971618e-001 8.164221e-001 -2.951295e-005 -2.762703e-005 5.996056e-001 8.195158e-001
329355000 6.707248e-005 -7.841729e-005 6.308764e-001 7.949497e-001 -1.863861e-005 -9.427054e-006 6.337520e-001 7.979664e-001
329640000 1.566666e-005 -3.108335e-005 6.626855e-001 7.728145e-001 7.197769e-005 -2.104646e-005 6.657912e-001 7.756595e-001
329925000 1.356728e-004 -6.522343e-005 6.951320e-001 7.479855e-001 -6.647189e-005 1.003811e-004 6.976369e-001 7.515723e-001
330210000 8.036703e-005 -2.911580e-005 7.255127e-001 7.219144e-001 -5.836229e-005 -5.334355e-005 7.288422e-001 7.251047e-001
330495000 -2.132023e-006 -7.440367e-005 7.549894e-001 6.947734e-001 5.739095e-005 -1.615355e-005 7.577388e-001 6.972999e-001
330780000 5.193221e-005 3.035232e-005 7.837098e-001 6.658255e-001 2.317115e-005 -9.038987e-006 7.864831e-001 6.683493e-001
331065000 2.488286e-005 -1.056054e-005 8.099548e-001 6.349453e-001 4.810373e-005 -9.079595e-005 8.135902e-001 6.370756e-001
331350000 3.799980e-005 -2.547997e-005 8.356285e-001 6.032304e-001 4.941514e-005 -8.362599e-005 8.385834e-001 6.056414e-001
331635000 1.070067e-004 2.603579e-005 8.590667e-001 5.699480e-001 6.922357e-006 -1.405237e-004 8.630829e-001 5.724224e-001
331920000 -9.913630e-006 -1.588190e-004 8.808920e-001 5.356751e-001 -7.019180e-005 -8.449228e-005 8.852618e-001 5.377945e-001
332205000 -1.113893e-004 -6.739383e-006 9.018688e-001 5.000685e-001 5.455910e-005 -8.454297e-006 9.056234e-001 5.019354e-001
332490000 -9.144824e-005 -1.887056e-005 9.202275e-001 4.631334e-001 1.958125e-005 -3.335773e-005 9.245741e-001 4.659797e-001
332775000 6.117873e-005 1.007049e-004 9.370160e-001 4.261145e-001 -5.392319e-005 -5.849560e-005 9.416985e-001 4.286662e-001
333060000 6.118493e-005 1.232883e-004 9.520873e-001 3.886276e-001 2.343732e-005 1.158155e-005 9.564996e-001 3.908326e-001
333345000 2.493387e-005 -8.143288e-006 9.656184e-001 3.503008e-001 -1.235601e-005 -3.508663e-005 9.696916e-001 3.521731e-001
333630000 -8.609738e-005 4.357280e-005 9.765937e-001 3.114718e-001 7.581023e-005 -1.961052e-005 9.812117e-001 3.130921e-001
333915000 -4.446034e-005 -7.278113e-005 9.857221e-001 2.724963e-001 6.053726e-005 -5.268146e-005 9.906719e-001 2.733420e-001
334200000 9.607076e-005 1.845090e-005 9.933141e-001 2.331991e-001 -1.570798e-005 1.647815e-005 9.981530e-001 2.343746e-001
334485000 2.304094e-005 -7.724701e-005 9.986742e-001 1.943182e-001 2.171176e-005 5.795238e-005 1.003236e+000 1.948470e-001
334770000 3.757271e-005 5.310303e-006 1.002540e+000 1.546069e-001 7.510518e-005 1.265670e-004 1.007033e+000 1.557390e-001
335055000 -4.711556e-005 4.295625e-005 1.003789e+000 1.159320e-001 -5.500339e-005 4.699102e-005 1.008440e+000 1.160437e-001
335340000 -1.320388e-005 -1.166896e-004 1.002919e+000 7.752248e-002 -1.213659e-004 1.864784e-005 1.007504e+000 7.739444e-002
335625000 -5.418410e-005 1.274793e-005 1.001673e+000 3.921872e-002 9.889641e-006 4.607450e-005 1.006462e+000 3.939517e-002
335910000 9.406357e-005 7.459628e-005 9.981321e-001 8.408169e-004 -8.259263e-005 -5.124812e-005 1.001741e+000 1.612182e-003
336195000 7.877358e-005 5.773330e-006 9.927242e-001 -3.514412e-002 3.185033e-005 1.842268e-005 9.970721e-001 -3.530028e-002
336480000 -2.260554e-005 3.106484e-005 9.853445e-001 -7.233817e-002 7.966883e-005 -7.095197e-007 9.903296e-001 -7.288488e-002
336765000 -1.669443e-005 2.250303e-005 9.777296e-001 -1.073693e-001 4.434599e-005 -8.490260e-005 9.818400e-001 -1.076458e-001
337050000 -7.112721e-005 3.310482e-005 9.676169e-001 -1.419980e-001 6.066734e-005 -1.487519e-004 9.723064e-001 -1.427259e-001
337335000 1.187921e-005 -4.779393e-005 9.572023e-001 -1.761014e-001 7.318617e-005 -1.475016e-004 9.613817e-001 -1.773202e-001
337620000 -1.399281e-005 -1.931040e-005 9.446645e-001 -2.093935e-001 4.849012e-005 9.601621e-006 9.485979e-001 -2.095146e-001
337905000 -7.810740e-006 -8.808952e-005 9.311792e-001 -2.412000e-001 3.477672e-005 1.197974e-004 9.349757e-001 -2.423495e-001
338190000 6.419940e-005 4.367871e-005 9.174128e-001 -2.726558e-001 7.656875e-005 6.447388e-005 9.210851e-001 -2.726826e-001
338475000 6.122753e-005 -1.889641e-005 9.013121e-001 -3.028066e-001 1.323444e-005 8.590135e-005 9.052544e-001 -3.034610e-001
338760000 1.195551e-004 -1.653876e-005 8.847010e-001 -3.315983e-001 -9.002083e-005 8.349482e-005 8.882989e-001 -3.324054e-001
339045000 3.249368e-005 2.957784e-005 8.680817e-001 -3.591470e-001 -9.524601e-006 -3.380969e-006 8.716000e-001 -3.606962e-001
339330000 4.018032e-005 -2.902660e-005 8.494502e-001 -3.863388e-001 5.251854e-005 2.798538e-005 8.534289e-001 -3.878226e-001
339615000 4.971330e-005 -4.371176e-005 8.308417e-001 -4.119645e-001 1.350432e-005 -2.087976e-005 8.346225e-001 -4.136301e-001
339900000 1.091308e-004 -1.298102e-005 8.117329e-001 -4.367561e-001 3.609617e-005 -1.004160e-004 8.153239e-001 -4.380603e-001
340185000 -1.798286e-004 -1.092681e-006 7.916542e-001 -4.600153e-001 4.179730e-005 2.710029e-005 7.949913e-001 -4.621035e-001
340470000 2.991468e-005 1.792026e-005 7.715678e-001 -4.821568e-001 2.486246e-005 -7.182057e-005 7.752680e-001 -4.849111e-001
340755000 1.029782e-005 3.441870e-005 7.510061e-001 -5.038548e-001 1.194706e-004 1.635506e-005 7.544662e-001 -5.068670e-001
341040000 5.236768e-005 -1.194372e-004 7.299641e-001 -5.251436e-001 -3.667822e-005 1.461921e-005 7.330945e-001 -5.273778e-001
341325000 5.777471e-006 -1.246506e-006 7.083855e-001 -5.442266e-001 -1.766296e-006 5.333250e-005 7.115270e-001 -5.466174e-001
341610000 -2.963282e-005 -7.700844e-006 6.864117e-001 -5.629994e-001 -7.049806e-005 2.691380e-006 6.897109e-001 -5.648888e-001
341895000 -1.025822e-004 -3.574374e-005 6.650979e-001 -5.805758e-001 -4.845623e-005 -3.752744e-005 6.674538e-001 -5.826378e-001
342180000 -1.375017e-005 -1.335761e-006 6.425425e-001 -5.974112e-001 -4.899938e-005 1.376156e-006 6.459305e-001 -5.998273e-001
342465000 1.473935e-006 -3.083209e-005 6.207218e-001 -6.125915e-001 3.830601e-005 -3.122045e-005 6.228902e-001 -6.150326e-001
342750000 9.890210e-005 -3.593240e-005 5.978307e-001 -6.280997e-001 -1.379330e-005 -1.810200e-004 6.004163e-001 -6.303368e-001
343035000 3.961277e-005 1.054303e-007 5.752125e-001 -6.415266e-001 -3.849694e-006 -2.408801e-005 5.776164e-001 -6.440921e-001
343320000 6.879389e-005 -8.018920e-005 5.531064e-001 -6.545473e-001 -1.474033e-005 1.452751e-005 5.555491e-001 -6.574104e-001
343605000 -4.534550e-005 4.752883e-005 5.297795e-001 -6.675099e-001 -2.549699e-005 -3.413867e-005 5.325160e-001 -6.701790e-001
343890000 1.786200e-005 4.608197e-005 5.078219e-001 -6.787585e-001 -9.795291e-005 -1.208531e-004 5.098572e-001 -6.818931e-001
