!Agilent Technologies,N5230C,SG49000117,A.08.50.07
!Agilent N5230C: A.08.50.07
!Date: Monday, March 18, 2024 19:00:29
!Correction: S11(Off) 
!S21(Off) 
!S12(Off) 
!S22(Off) 
!S2P File: Measurements: S11, S21, S12, S22:
# Hz S  RI   R 50
300000000 -9.624222e-005 -1.193627e-005 -6.321301e-001 -6.351848e-001 2.403631e-005 7.090093e-005 -6.346220e-001 -6.378285e-001
300285000 7.797962e-005 -3.531783e-005 -6.477375e-001 -6.126825e-001 5.935850e-006 -7.480551e-006 -6.494644e-001 -6.143029e-001
300570000 1.217679e-005 -4.792057e-005 -6.612134e-001 -5.894271e-001 -4.209186e-005 -8.693992e-005 -6.637548e-001 -5.910498e-001
300855000 2.619053e-005 -1.197494e-004 -6.739939e-001 -5.652476e-001 -3.159390e-005 -8.573054e-005 -6.768349e-001 -5.676297e-001
301140000 1.971682e-005 -3.053493e-005 -6.862040e-001 -5.415629e-001 1.781762e-006 -1.113948e-004 -6.891330e-001 -5.439445e-001
301425000 6.817561e-005 -8.526033e-005 -6.983057e-001 -5.181586e-001 5.351291e-005 3.810775e-005 -7.009465e-001 -5.199841e-001
301710000 -9.723439e-006 6.990027e-005 -7.084910e-001 -4.942070e-001 -1.659474e-005 -2.676737e-005 -7.114656e-001 -4.958876e-001
301995000 4.064701e-005 4.535711e-005 -7.189035e-001 -4.705749e-001 1.237390e-005 6.818518e-006 -7.218910e-001 -4.725947e-001
302280000 4.672232e-005 -4.773521e-005 -7.277627e-001 -4.466627e-001 1.443850e-004 -3.202710e-006 -7.308325e-001 -4.485455e-001
302565000 -2.557389e-005 -7.074752e-008 -7.359037e-001 -4.240872e-001 3.563418e-005 1.151705e-004 -7.388433e-001 -4.257746e-001
302850000 3.710781e-005 1.462517e-005 -7.442737e-001 -4.001692e-001 2.441826e-005 -3.958424e-005 -7.470031e-001 -4.019010e-001
303135000 -7.667349e-005 4.621307e-005 -7.510212e-001 -3.777442e-001 1.437307e-004 2.201371e-005 -7.533650e-001 -3.789349e-001
303420000 -9.190909e-006 -7.463320e-005 -7.572021e-001 -3.538858e-001 -1.114118e-004 -7.261526e-005 -7.601957e-001 -3.552919e-001
303705000 2.510024e-005 -2.285254e-005 -7.631208e-001 -3.312435e-001 1.963085e-005 -3.142482e-005 -7.660225e-001 -3.326393e-001
303990000 -3.844806e-006 5.421781e-005 -7.687267e-001 -3.082783e-001 -6.293187e-005 3.091758e-005 -7.712096e-001 -3.091143e-001
304275000 -8.836830e-006 4.248172e-005 -7.723842e-001 -2.850918e-001 -2.626177e-005 -9.646141e-005 -7.756051e-001 -2.866935e-001
304560000 -4.671889e-005 1.360133e-004 -7.772300e-001 -2.627938e-001 2.470325e-006 -6.969544e-005 -7.799775e-001 -2.640410e-001
304845000 -2.536389e-006 7.471212e-005 -7.800281e-001 -2.404622e-001 -1.401639e-005 4.677489e-005 -7.833298e-001 -2.413508e-001
305130000 -3.840963e-006 -1.387802e-005 -7.833643e-001 -2.182763e-001 -6.619288e-005 1.312234e-005 -7.858487e-001 -2.187941e-001
305415000 -4.226815e-005 -6.412904e-005 -7.855202e-001 -1.960123e-001 -1.034757e-004 1.979271e-005 -7.890149e-001 -1.965866e-001
305700000 -8.389921e-005 -6.710028e-006 -7.875620e-001 -1.740885e-001 -3.955942e-005 -8.546942e-005 -7.906258e-001 -1.744795e-001
305985000 -5.434768e-005 -1.688496e-005 -7.888672e-001 -1.521064e-001 -3.689730e-005 -7.859943e-005 -7.919337e-001 -1.527410e-001
306270000 1.537548e-005 5.152562e-006 -7.895874e-001 -1.305105e-001 -2.413323e-005 -4.691914e-005 -7.926843e-001 -1.310240e-001
306555000 -4.631436e-005 -5.767255e-005 -7.902963e-001 -1.090545e-001 -6.055649e-005 6.134120e-005 -7.931454e-001 -1.092339e-001
306840000 -6.317810e-005 6.208386e-005 -7.902306e-001 -8.786988e-002 6.102248e-005 1.582704e-005 -7.931837e-001 -8.759841e-002
307125000 -1.806998e-005 -1.050941e-005 -7.899030e-001 -6.619396e-002 -5.749269e-005 -2.920791e-005 -7.925856e-001 -6.686605e-002
307410000 9.837595e-006 -9.421961e-005 -7.892584e-001 -4.575124e-002 -2.585779e-005 1.592592e-005 -7.918676e-001 -4.601096e-002
307695000 3.169316e-005 -1.000563e-004 -7.874460e-001 -2.451836e-002 -6.091938e-005 -8.874628e-005 -7.906032e-001 -2.494904e-002
307980000 7.865350e-005 -2.797725e-005 -7.862400e-001 -3.763449e-003 1.334817e-004 2.602582e-005 -7.892762e-001 -3.794996e-003
308265000 -4.955278e-005 -8.371138e-005 -7.842135e-001 1.681319e-002 7.126554e-005 -2.201139e-005 -7.870426e-001 1.685650e-002
308550000 8.169839e-005 -3.434821e-005 -7.815750e-001 3.741691e-002 5.946464e-005 1.878861e-005 -7.846775e-001 3.771259e-002
308835000 -3.360934e-005 -9.495770e-005 -7.788005e-001 5.732068e-002 4.830809e-005 -1.890703e-005 -7.822721e-001 5.750100e-002
309120000 2.357501e-005 -2.424234e-005 -7.754171e-001 7.768615e-002 8.034392e-005 -9.352549e-005 -7.789118e-001 7.809555e-002
309405000 6.393910e-005 4.057110e-005 -7.722192e-001 9.784295e-002 -3.992396e-005 1.417656e-006 -7.747462e-001 9.762567e-002
309690000 1.692812e-005 -8.256604e-005 -7.684383e-001 1.176516e-001 3.624502e-005 9.545073e-005 -7.714240e-001 1.182632e-001
309975000 -7.524007e-005 -7.903779e-005 -7.639547e-001 1.377667e-001 -4.455286e-005 3.475824e-006 -7.673708e-001 1.381347e-001
310260000 3.979211e-005 1.522288e-004 -7.594021e-001 1.576788e-001 -1.416710e-004 4.853433e-005 -7.629120e-001 1.579885e-001
310545000 -1.128560e-004 1.637098e-004 -7.546244e-001 1.766293e-001 -7.488317e-005 -3.289734e-005 -7.573345e-001 1.776710e-001
310830000 7.985550e-005 7.200116e-005 -7.496057e-001 1.968442e-001 -1.769214e-004 -4.553176e-005 -7.522522e-001 1.974017e-001
311115000 -7.924104e-005 5.809143e-005 -7.439299e-001 2.154594e-001 -6.137924e-005 6.284076e-005 -7.462206e-001 2.170005e-001
311400000 -6.414093e-005 5.693324e-005 -7.378995e-001 2.351729e-001 1.833577e-006 -3.583765e-005 -7.403499e-001 2.360754e-001
311685000 -8.687114e-005 -5.565130e-005 -7.314973e-001 2.545886e-001 -8.735869e-006 -6.150728e-005 -7.342538e-001 2.551674e-001
311970000 -5.955428e-005 4.928471e-006 -7.245443e-001 2.739213e-001 -1.085211e-004 2.743344e-005 -7.274520e-001 2.740943e-001
312255000 -8.522386e-006 3.094440e-005 -7.176563e-001 2.919415e-001 6.402792e-005 -5.680767e-005 -7.199957e-001 2.930548e-001
312540000 8.336979e-006 1.056749e-004 -7.103014e-001 3.115430e-001 1.412666e-005 4.063919e-005 -7.131960e-001 3.126365e-001
312825000 -3.406751e-005 -1.334262e-005 -7.023130e-001 3.300651e-001 1.097172e-005 -1.849610e-005 -7.053642e-001 3.311058e-001
313110000 -8.351653e-005 2.648757e-005 -6.945729e-001 3.485375e-001 -5.211694e-005 1.012564e-004 -6.968251e-001 3.501519e-001
313395000 -3.125079e-005 -1.223500e-004 -6.852567e-001 3.672829e-001 -1.693359e-006 1.129177e-005 -6.885155e-001 3.688816e-001
313680000 -1.338906e-004 3.764986e-005 -6.765689e-001 3.856217e-001 -1.027434e-004 -2.311817e-005 -6.795380e-001 3.877034e-001
313965000 -1.681157e-006 -1.691022e-005 -6.673269e-001 4.045444e-001 -5.295195e-005 6.637676e-005 -6.701503e-001 4.059013e-001
314250000 -4.198484e-006 3.615097e-005 -6.575557e-001 4.227006e-001 1.291578e-005 1.178873e-005 -6.599134e-001 4.239633e-001
314535000 -2.178557e-005 -6.143454e-005 -6.473078e-001 4.412859e-001 1.364454e-004 2.407350e-005 -6.499589e-001 4.429499e-001
314820000 4.952584e-006 -7.332110e-005 -6.366848e-001 4.593206e-001 -1.228688e-004 -9.937031e-005 -6.397288e-001 4.608784e-001
315105000 -6.269175e-005 8.796571e-005 -6.256603e-001 4.773337e-001 5.696416e-005 2.702430e-005 -6.278571e-001 4.794790e-001
315390000 -4.319902e-005 -2.665121e-005 -6.146221e-001 4.952350e-001 -5.049283e-005 -3.156890e-005 -6.166909e-001 4.973017e-001
315675000 1.021995e-004 -2.665527e-005 -6.019031e-001 5.137847e-001 3.130787e-006 4.798275e-005 -6.051084e-001 5.151381e-001
315960000 -1.667028e-005 3.138379e-005 -5.902628e-001 5.315070e-001 6.835126e-005 -3.097882e-005 -5.926937e-001 5.330624e-001
316245000 -3.807414e-006 2.632928e-005 -5.772430e-001 5.488307e-001 -5.139325e-005 -7.437963e-005 -5.796263e-001 5.506074e-001
316530000 9.280141e-005 -4.860339e-005 -5.638320e-001 5.665698e-001 5.296536e-005 6.179533e-006 -5.659736e-001 5.680930e-001
316815000 -3.374464e-005 -6.456047e-005 -5.499035e-001 5.833735e-001 -3.777925e-005 2.353881e-006 -5.519201e-001 5.865144e-001
317100000 -3.335891e-005 -2.314156e-005 -5.356898e-001 6.010529e-001 1.807499e-005 -3.798113e-006 -5.379182e-001 6.035377e-001
317385000 4.322743e-006 6.251796e-005 -5.208446e-001 6.179135e-001 7.439627e-005 -3.489697e-006 -5.226341e-001 6.207274e-001
317670000 1.109864e-004 4.614804e-005 -5.051824e-001 6.354182e-001 1.504481e-004 5.763398e-005 -5.076244e-001 6.380086e-001
317955000 -2.921770e-005 -8.795117e-005 -4.892933e-001 6.523151e-001 -7.289143e-005 -3.127161e-005 -4.904944e-001 6.545467e-001
318240000 -1.301369e-005 -1.738883e-005 -4.724549e-001 6.686273e-001 4.531466e-005 -3.385726e-006 -4.744476e-001 6.713719e-001
318525000 -6.697830e-005 -3.484507e-005 -4.551364e-001 6.848494e-001 3.522310e-005 -6.916494e-005 -4.569947e-001 6.880916e-001
318810000 -1.636584e-005 -1.008266e-005 -4.379293e-001 7.013728e-001 1.574068e-004 7.005796e-005 -4.394033e-001 7.042789e-001
319095000 -8.478473e-005 -1.892275e-005 -4.187700e-001 7.171758e-001 4.420015e-005 5.347524e-005 -4.205953e-001 7.200728e-001
319380000 -4.795431e-005 -3.491263e-005 -4.001313e-001 7.329141e-001 -6.748003e-005 3.448902e-005 -4.014392e-001 7.359222e-001
319665000 -2.032730e-005 -6.959743e-005 -3.803839e-001 7.479205e-001 3.296299e-005 3.515435e-005 -3.818905e-001 7.514430e-001
319950000 -1.141956e-005 -6.463238e-005 -3.598132e-001 7.634588e-001 -1.605159e-005 5.037814e-005 -3.614102e-001 7.670013e-001
320235000 -1.386374e-005 7.260320e-005 -3.394253e-001 7.780810e-001 1.237870e-004 4.569007e-005 -3.400753e-001 7.813223e-001
320520000 1.629271e-004 -6.466325e-005 -3.170539e-001 7.929199e-001 6.350713e-006 6.969718e-006 -3.182521e-001 7.955307e-001
320805000 1.043856e-004 -4.040093e-005 -2.945739e-001 8.065936e-001 -5.282080e-005 -5.792225e-005 -2.959703e-001 8.096716e-001
321090000 1.533554e-005 4.495133e-005 -2.709100e-001 8.200195e-001 -1.146748e-004 9.545951e-005 -2.730757e-001 8.234853e-001
321375000 4.791292e-005 -3.324141e-005 -2.475410e-001 8.328535e-001 2.880438e-005 6.199600e-005 -2.482137e-001 8.360463e-001
321660000 -1.827337e-006 5.393300e-005 -2.228222e-001 8.452049e-001 -1.802114e-004 -1.769564e-005 -2.236857e-001 8.486403e-001
321945000 2.167435e-005 -1.713696e-005 -1.973739e-001 8.566015e-001 -4.522021e-005 1.580512e-005 -1.985693e-001 8.610243e-001
322230000 -1.197680e-004 1.196042e-004 -1.714132e-001 8.682863e-001 4.055868e-006 -7.441504e-006 -1.711359e-001 8.718216e-001
322515000 -7.705844e-005 4.020990e-005 -1.440974e-001 8.788202e-001 -9.031731e-005 3.640305e-005 -1.446164e-001 8.825302e-001
322800000 -1.049288e-005 2.541513e-005 -1.159873e-001 8.884824e-001 -1.065873e-005 -6.350167e-005 -1.169401e-001 8.922706e-001
323085000 -5.325975e-006 -1.333100e-005 -8.810835e-002 8.974829e-001 7.356220e-006 -4.392157e-005 -8.833755e-002 9.013289e-001
323370000 7.186973e-006 -4.975161e-005 -5.842739e-002 9.058847e-001 1.553443e-005 3.722471e-005 -5.883785e-002 9.098715e-001
323655000 3.359847e-005 -3.839485e-005 -2.895534e-002 9.132613e-001 7.104529e-005 6.651623e-005 -2.903251e-002 9.171821e-001
323940000 -6.375367e-005 -5.383529e-005 1.800559e-003 9.198162e-001 7.783795e-005 -2.810964e-005 1.710731e-003 9.227681e-001
324225000 7.811339e-005 -4.479595e-005 3.221709e-002 9.250614e-001 2.951471e-005 4.049616e-005 3.335857e-002 9.286529e-001
324510000 3.181581e-005 -5.802091e-005 6.505483e-002 9.297548e-001 -8.426016e-005 4.399901e-005 6.472885e-002 9.330204e-001
324795000 4.246080e-005 3.232286e-005 9.699190e-002 9.325597e-001 -1.019224e-005 8.392684e-005 9.766145e-002 9.361829e-001
325080000 -8.071082e-005 -7.006327e-005 1.302712e-001 9.346061e-001 -7.275841e-005 -1.689517e-005 1.309513e-001 9.386368e-001
325365000 -2.883351e-006 2.103907e-005 1.645175e-001 9.347435e-001 -8.534572e-005 -7.908538e-005 1.644361e-001 9.388147e-001
325650000 9.733834e-006 -1.122230e-004 1.983132e-001 9.343362e-001 -5.473461e-005 7.057200e-005 1.996151e-001 9.382076e-001
325935000 1.259910e-005 2.723870e-006 2.327221e-001 9.323759e-001 1.214494e-005 -6.781555e-005 2.334971e-001 9.359164e-001
326220000 1.006073e-004 -6.842727e-006 2.675148e-001 9.287856e-001 -4.777026e-006 9.139867e-005 2.688670e-001 9.328616e-001
326505000 8.196577e-005 -5.394882e-005 3.027411e-001 9.240201e-001 5.819186e-005 -3.103920e-005 3.041532e-001 9.273277e-001
326790000 7.072203e-005 -6.093466e-006 3.380823e-001 9.171167e-001 9.484858e-005 -7.828643e-006 3.405858e-001 9.200692e-001
327075000 -1.034399e-005 -8.447127e-005 3.732554e-001 9.081921e-001 1.785149e-005 8.592496e-005 3.754751e-001 9.122964e-001
327360000 2.021102e-005 -2.727483e-006 4.091250e-001 8.987957e-001 -2.731996e-005 -6.803568e-005 4.110009e-001 9.025049e-001
327645000 1.611701e-006 2.570918e-005 4.449072e-001 8.873401e-001 3.397877e-005 -4.369350e-006 4.469512e-001 8.911093e-001
327930000 -1.919945e-005 -1.872246e-005 4.808014e-001 8.738796e-001 3.232887e-005 1.529548e-004 4.823852e-001 8.780719e-001
328215000 1.630389e-005 -5.567384e-005 5.153762e-001 8.598588e-001 -5.956087e-005 1.022591e-005 5.176128e-001 8.626871e-001
328500000 7.900893e-005 -7.850786e-006 5.504867e-001 8.422712e-001 -7.268519e-005 1.428637e-006 5.532755e-001 8.460357e-001
328785000 1.051180e-004 5.390650e-005 5.845231e-001 8.239953e-001 -1.207403e-004 4.010379e-006 5.871815e-001 8.273577e-001
329070000 -4.505135e-005 -9.549795e-005 6.178555e-001 8.034129e-001 -4.450306e-005 6.717261e-005 6.210282e-001 8.075238e-001
329355000 6.110426e-005 1.653955e-005 6.515940e-001 7.815828e-001 -6.927305e-005 7.050482e-005 6.537040e-001 7.847571e-001
329640000 -5.186547e-005 1.005990e-004 6.828692e-001 7.582324e-001 -1.266652e-005 -1.068541e-004 6.863871e-001 7.608139e-001
329925000 -7.290293e-005 5.001104e-005 7.140942e-001 7.330106e-001 -4.473472e-006 4.268671e-005 7.180178e-001 7.356311e-001
330210000 -7.312601e-005 3.305506e-005 7.443981e-001 7.056348e-001 5.694268e-006 -1.326877e-005 7.479097e-001 7.084810e-001
330495000 2.713751e-005 8.401467e-005 7.733393e-001 6.769834e-001 1.260187e-004 3.597016e-005 7.764923e-001 6.801405e-001
330780000 -4.557467e-005 -5.243946e-005 7.999997e-001 6.472167e-001 3.045115e-005 4.127425e-005 8.035074e-001 6.496676e-001
331065000 8.322719e-005 -6.398918e-005 8.269682e-001 6.158888e-001 3.470893e-006 -8.928450e-006 8.304331e-001 6.181691e-001
331350000 -8.524627e-006 -7.843591e-005 8.515444e-001 5.824909e-001 6.675644e-005 -8.726725e-005 8.548021e-001 5.848095e-001
331635000 2.558831e-005 -2.704786e-005 8.735530e-001 5.488895e-001 -1.146326e-005 -1.581442e-005 8.775296e-001 5.520580e-001
331920000 2.751592e-005 -1.009089e-005 8.955732e-001 5.135851e-001 2.719202e-005 3.255651e-005 8.989638e-001 5.161766e-001
332205000 6.612068e-005 3.496804e-005 9.145886e-001 4.782897e-001 2.013278e-005 -7.582231e-006 9.185858e-001 4.801809e-001
332490000 6.614730e-005 6.434062e-005 9.326845e-001 4.414513e-001 1.147050e-004 -7.198460e-005 9.365178e-001 4.427690e-001
332775000 3.988836e-005 3.159544e-005 9.482712e-001 4.039221e-001 -3.381961e-005 -8.786975e-005 9.523483e-001 4.050994e-001
333060000 6.132073e-005 -2.860692e-005 9.616531e-001 3.655598e-001 1.036203e-004 1.211185e-005 9.655148e-001 3.671513e-001
333345000 7.969891e-005 2.697103e-005 9.734676e-001 3.260278e-001 1.000752e-004 -3.383883e-006 9.782432e-001 3.273950e-001
333630000 2.337006e-005 -5.222738e-007 9.843885e-001 2.876737e-001 -5.394836e-005 1.786229e-005 9.879110e-001 2.890058e-001
333915000 6.062852e-005 4.658478e-005 9.918892e-001 2.484240e-001 1.694919e-006 8.192111e-005 9.958742e-001 2.491937e-001
334200000 3.871551e-005 -3.643724e-005 9.986025e-001 2.089370e-001 -5.995219e-006 -2.706624e-005 1.002218e+000 2.093413e-001
334485000 -5.017995e-007 -5.397960e-005 1.001967e+000 1.700778e-001 -3.320514e-005 -2.900007e-005 1.007054e+000 1.702673e-001
334770000 5.538472e-005 -1.959857e-005 1.004976e+000 1.305987e-001 -2.316669e-005 3.876421e-005 1.009370e+000 1.305829e-001
335055000 -1.175235e-004 3.480045e-005 1.005499e+000 9.178878e-002 6.112480e-005 4.097628e-005 1.009806e+000 9.179580e-002
335340000 8.811749e-005 -6.819547e-005 1.004101e+000 5.309231e-002 -1.418385e-004 -3.937462e-005 1.008824e+000 5.337694e-002
335625000 -7.162520e-005 -2.150502e-005 1.001365e+000 1.484301e-002 9.196909e-005 2.446959e-005 1.005196e+000 1.506750e-002
335910000 -3.066914e-005 -1.259656e-004 9.961774e-001 -2.212688e-002 -2.256594e-005 1.023201e-005 1.000736e+000 -2.265458e-002
336195000 5.240489e-005 -8.810620e-005 9.900051e-001 -5.917721e-002 -6.513904e-005 1.414791e-004 9.947289e-001 -5.937859e-002
336480000 -2.304684e-005 6.700414e-005 9.823821e-001 -9.524942e-002 -6.533636e-005 -1.744334e-005 9.861724e-001 -9.586239e-002
336765000 -1.834377e-005 5.795190e-005 9.729521e-001 -1.301810e-001 2.172942e-005 -2.948441e-005 9.772359e-001 -1.309090e-001
337050000 1.411501e-005 -1.563699e-006 9.626437e-001 -1.643664e-001 3.101009e-005 5.191318e-005 9.665858e-001 -1.654501e-001
337335000 -8.051868e-005 3.320360e-006 9.506167e-001 -1.984974e-001 -4.963213e-005 1.012927e-004 9.546115e-001 -1.994311e-001
337620000 3.501527e-005 9.240567e-006 9.374488e-001 -2.304042e-001 -4.630605e-005 -3.761059e-005 9.417975e-001 -2.321066e-001
337905000 3.673102e-005 6.745620e-005 9.238347e-001 -2.623547e-001 -3.217035e-006 3.258677e-005 9.276623e-001 -2.629802e-001
338190000 -4.794930e-006 1.015456e-004 9.085704e-001 -2.923179e-001 4.470647e-005 -2.629474e-005 9.122680e-001 -2.935044e-001
338475000 1.927496e-005 3.578467e-006 8.923407e-001 -3.222347e-001 3.363544e-005 -3.704608e-005 8.963335e-001 -3.236140e-001
338760000 -3.774395e-005 -3.720984e-005 8.753645e-001 -3.508528e-001 -4.154438e-005 -1.140220e-004 8.788889e-001 -3.523813e-001
339045000 -3.152543e-005 -7.838602e-005 8.572967e-001 -3.774970e-001 4.738596e-005 4.650095e-005 8.612630e-001 -3.792118e-001
339330000 -2.161379e-005 5.786706e-005 8.394837e-001 -4.040899e-001 1.562527e-005 3.511860e-005 8.423151e-001 -4.055273e-001
339615000 -8.443597e-005 1.025381e-004 8.196809e-001 -4.292316e-001 -1.754440e-004 2.524587e-005 8.232189e-001 -4.307318e-001
339900000 -2.147588e-005 -3.562182e-005 8.005200e-001 -4.527150e-001 -1.385217e-004 6.282628e-005 8.035067e-001 -4.547773e-001
340185000 2.266164e-005 4.047302e-006 7.799056e-001 -4.759800e-001 3.698985e-006 -1.118656e-004 7.832010e-001 -4.784281e-001
340470000 8.130819e-005 -7.375474e-005 7.590819e-001 -4.978547e-001 -4.295183e-005 -1.982327e-005 7.623164e-001 -5.002556e-001
340755000 4.446738e-005 -6.306555e-005 7.378656e-001 -5.190915e-001 1.474282e-005 -1.786295e-005 7.408147e-001 -5.210946e-001
341040000 4.925820e-005 5.867555e-006 7.162817e-001 -5.389619e-001 -4.543697e-005 -2.233053e-006 7.200351e-001 -5.410529e-001
341325000 5.038236e-005 4.511281e-005 6.946668e-001 -5.579422e-001 8.388359e-006 3.626307e-005 6.974753e-001 -5.606623e-001
341610000 2.342177e-005 2.149985e-005 6.721646e-001 -5.758752e-001 8.959881e-005 -3.647738e-005 6.756150e-001 -5.782773e-001
341895000 8.765332e-005 1.572796e-006 6.502895e-001 -5.928097e-001 2.356379e-005 5.595036e-005 6.534629e-001 -5.957193e-001
342180000 5.350720e-005 -4.941946e-005 6.282746e-001 -6.092376e-001 5.604568e-005 -1.355126e-004 6.304051e-001 -6.108373e-001
342465000 -1.022260e-005 -1.131890e-004 6.059172e-001 -6.243330e-001 -1.717132e-005 -6.285960e-005 6.083703e-001 -6.270096e-001
342750000 4.389526e-005 3.310460e-005 5.833422e-001 -6.383656e-001 -7.670550e-005 -5.530948e-005 5.859855e-001 -6.410328e-001
343035000 -8.192015e-005 1.213031e-004 5.607328e-001 -6.521546e-001 4.168857e-005 -8.947994e-005 5.634727e-001 -6.540303e-001
343320000 1.774434e-005 -5.856453e-007 5.377999e-001 -6.645668e-001 -2.627745e-005 -8.397335e-005 5.401863e-001 -6.674425e-001
343605000 -5.174779e-005 -5.242608e-005 5.151206e-001 -6.767986e-001 -3.711092e-005 -1.506622e-004 5.178759e-001 -6.793190e-001
343890000 1.324034e-005 1.351880e-006 4.924741e-001 -6.875012e-001 1.656790e-005 1.446978e-005 4.942571e-001 -6.906487e-001
