!Agilent Technologies,N5230C,SG49000117,A.08.50.07
!Agilent N5230C: A.08.50.07
!Date: Monday, March 18, 2024 19:01:28
!Correction: S11(Off) 
!S21(Off) 
!S12(Off) 
!S22(Off) 
!S2P File: Measurements: S11, S21, S12, S22:
# Hz S  RI   R 50
300000000 1.164697e-004 -1.785356e-005 -6.423341e-001 -6.213768e-001 -6.936463e-005 -2.965303e-005 -6.442032e-001 -6.237041e-001
300285000 -1.854346e-005 -2.417356e-005 -6.565024e-001 -5.984733e-001 -2.742378e-005 -5.964747e-005 -6.588624e-001 -5.996860e-001
300570000 5.165019e-005 7.874193e-005 -6.696349e-001 -5.743954e-001 -5.999773e-005 -7.185235e-006 -6.720589e-001 -5.770500e-001
300855000 2.036521e-005 -2.963650e-006 -6.824989e-001 -5.506048e-001 -4.633014e-005 -6.401953e-005 -6.852000e-001 -5.529194e-001
301140000 -1.465586e-005 -5.488077e-007 -6.939802e-001 -5.271894e-001 1.033443e-005 -1.150334e-004 -6.969302e-001 -5.288701e-001
301425000 -4.962166e-005 -5.642155e-005 -7.052557e-001 -5.034626e-001 1.577077e-005 -2.905131e-005 -7.079121e-001 -5.051083e-001
301710000 -3.760975e-005 4.824004e-005 -7.156096e-001 -4.796425e-001 1.317547e-004 9.442329e-005 -7.177869e-001 -4.819607e-001
301995000 1.113142e-005 -5.898624e-005 -7.248893e-001 -4.559712e-001 3.567933e-006 -7.653396e-005 -7.279640e-001 -4.579983e-001
302280000 6.750267e-005 7.762698e-005 -7.337636e-001 -4.324529e-001 6.142203e-005 -8.893973e-005 -7.364299e-001 -4.342499e-001
302565000 2.033915e-005 -1.557701e-005 -7.417414e-001 -4.087611e-001 -7.454704e-006 1.951229e-005 -7.447529e-001 -4.107250e-001
302850000 -1.092200e-005 -1.649294e-004 -7.489063e-001 -3.859613e-001 -1.015367e-004 2.363715e-005 -7.515554e-001 -3.875025e-001
303135000 2.514732e-005 -1.215557e-004 -7.554201e-001 -3.629078e-001 2.090377e-005 1.372773e-005 -7.583495e-001 -3.642399e-001
303420000 2.181455e-005 4.053809e-005 -7.614977e-001 -3.389865e-001 -1.129100e-005 -1.587889e-005 -7.646323e-001 -3.404738e-001
303705000 -3.541084e-005 -8.701842e-005 -7.665641e-001 -3.164189e-001 -2.313169e-005 5.802386e-005 -7.698934e-001 -3.177467e-001
303990000 -4.251470e-005 2.350618e-005 -7.718691e-001 -2.938766e-001 6.445463e-005 1.245004e-004 -7.746316e-001 -2.944397e-001
304275000 -2.629412e-005 4.946812e-006 -7.753243e-001 -2.710055e-001 -6.708405e-005 -5.944860e-006 -7.787217e-001 -2.719809e-001
304560000 8.872372e-005 -6.294491e-005 -7.789190e-001 -2.482855e-001 -1.166827e-005 -2.389407e-005 -7.824420e-001 -2.495869e-001
304845000 1.664940e-005 -3.330082e-005 -7.824063e-001 -2.263554e-001 -8.194549e-005 3.280021e-005 -7.856520e-001 -2.268644e-001
305130000 1.834474e-004 -7.359028e-005 -7.848204e-001 -2.041222e-001 -1.315219e-005 7.241927e-005 -7.879182e-001 -2.046394e-001
305415000 5.174618e-005 3.438889e-005 -7.863513e-001 -1.814523e-001 1.994645e-005 4.966114e-005 -7.903088e-001 -1.826444e-001
305700000 -1.034650e-004 2.152729e-005 -7.886889e-001 -1.601003e-001 -1.352644e-005 -2.272791e-005 -7.918754e-001 -1.604360e-001
305985000 -3.576549e-005 9.682981e-006 -7.892630e-001 -1.381966e-001 -4.430677e-005 1.688147e-005 -7.928032e-001 -1.386777e-001
306270000 -7.657312e-005 1.046448e-006 -7.900148e-001 -1.165492e-001 -3.416110e-005 4.295602e-005 -7.929909e-001 -1.167146e-001
306555000 -7.846129e-005 -1.531863e-005 -7.899031e-001 -9.493896e-002 4.289837e-005 -2.007741e-005 -7.933178e-001 -9.502049e-002
306840000 1.253608e-004 6.168947e-005 -7.903927e-001 -7.373339e-002 3.015611e-006 -4.162883e-006 -7.928533e-001 -7.419628e-002
307125000 -1.940067e-005 -7.373046e-005 -7.893082e-001 -5.252244e-002 -8.921392e-005 -3.541331e-005 -7.922370e-001 -5.273511e-002
307410000 -4.053014e-005 -1.504631e-005 -7.887309e-001 -3.151229e-002 -4.707795e-005 -4.968858e-005 -7.909296e-001 -3.184189e-002
307695000 -6.065825e-006 7.279960e-005 -7.871881e-001 -1.091210e-002 7.385108e-005 5.459116e-005 -7.899752e-001 -1.090793e-002
307980000 3.736902e-005 7.077140e-005 -7.845551e-001 1.002899e-002 1.328148e-004 -4.176951e-005 -7.877726e-001 9.956233e-003
308265000 1.038353e-004 2.812241e-006 -7.826275e-001 3.066113e-002 3.090462e-005 2.803461e-006 -7.859502e-001 3.067104e-002
308550000 9.227946e-005 -1.079373e-005 -7.801298e-001 5.070658e-002 9.842115e-005 1.619488e-006 -7.825390e-001 5.093259e-002
308835000 7.924330e-005 2.820986e-005 -7.771237e-001 7.107515e-002 8.901097e-005 9.509132e-005 -7.793919e-001 7.122763e-002
309120000 1.445442e-004 4.550061e-005 -7.740698e-001 9.094441e-002 7.793951e-005 8.115017e-007 -7.762572e-001 9.217448e-002
309405000 -8.497229e-005 -3.968087e-005 -7.700173e-001 1.106531e-001 -2.583282e-006 1.170593e-004 -7.726601e-001 1.113195e-001
309690000 3.572786e-005 3.109590e-005 -7.656087e-001 1.310720e-001 1.241584e-004 -1.268357e-005 -7.686137e-001 1.317742e-001
309975000 6.983311e-005 -5.025100e-005 -7.606611e-001 1.511506e-001 -1.845941e-006 5.506146e-005 -7.643507e-001 1.515006e-001
310260000 -1.142568e-005 -1.473717e-005 -7.562517e-001 1.701228e-001 1.195862e-004 4.791811e-005 -7.591273e-001 1.714834e-001
310545000 -4.910216e-005 -8.411594e-005 -7.509260e-001 1.899878e-001 -1.199220e-004 -7.702088e-005 -7.540750e-001 1.906748e-001
310830000 2.645282e-005 1.190570e-005 -7.449195e-001 2.091632e-001 2.419255e-005 -4.327557e-005 -7.483976e-001 2.099425e-001
311115000 -6.518696e-005 -1.284387e-004 -7.395158e-001 2.284294e-001 1.549532e-005 -7.165593e-005 -7.426147e-001 2.294194e-001
311400000 1.357978e-005 -1.218006e-004 -7.332209e-001 2.476461e-001 3.159215e-005 -6.818613e-005 -7.358434e-001 2.485410e-001
311685000 8.844451e-005 8.282123e-006 -7.265381e-001 2.666157e-001 2.167823e-005 -2.936848e-005 -7.294831e-001 2.683159e-001
311970000 1.107341e-005 -6.986863e-005 -7.194966e-001 2.863148e-001 -7.792140e-005 -2.314284e-005 -7.225723e-001 2.867112e-001
312255000 -1.689396e-005 4.529065e-005 -7.118534e-001 3.046303e-001 1.284105e-005 -4.899028e-005 -7.155534e-001 3.063821e-001
312540000 5.210598e-005 -3.166247e-005 -7.044976e-001 3.235970e-001 1.805002e-005 -3.116897e-005 -7.072116e-001 3.250489e-001
312825000 2.966665e-005 8.732118e-005 -6.963963e-001 3.427446e-001 -7.709131e-005 1.051554e-004 -6.991483e-001 3.436985e-001
313110000 2.874977e-005 -2.066209e-005 -6.879901e-001 3.612626e-001 -2.144257e-005 8.257402e-005 -6.909407e-001 3.630413e-001
313395000 -4.688099e-005 8.200952e-005 -6.792712e-001 3.795540e-001 -1.030657e-005 1.369251e-006 -6.822087e-001 3.813312e-001
313680000 7.746570e-005 -9.054452e-006 -6.700623e-001 3.982536e-001 3.039839e-005 -8.600338e-006 -6.727568e-001 4.000039e-001
313965000 -1.352266e-004 -3.631108e-005 -6.599550e-001 4.166159e-001 -4.615424e-005 -5.511300e-006 -6.628730e-001 4.184174e-001
314250000 -2.546947e-006 2.810424e-005 -6.503230e-001 4.346128e-001 -3.126271e-005 -3.438162e-005 -6.526654e-001 4.364808e-001
314535000 -1.313116e-004 -8.921079e-005 -6.398139e-001 4.529445e-001 -6.877206e-006 6.213711e-005 -6.427162e-001 4.548916e-001
314820000 8.896500e-005 1.064666e-004 -6.288443e-001 4.707610e-001 -7.667957e-005 -6.501935e-005 -6.307802e-001 4.730679e-001
315105000 1.075732e-005 4.119165e-005 -6.175655e-001 4.889927e-001 7.121591e-005 -5.277871e-006 -6.196788e-001 4.914158e-001
315390000 8.187650e-005 -2.273132e-005 -6.057919e-001 5.072192e-001 1.079324e-004 -9.784124e-005 -6.079717e-001 5.090951e-001
315675000 5.487699e-005 -4.078286e-005 -5.934250e-001 5.243226e-001 -4.611794e-006 -9.273711e-005 -5.954862e-001 5.273063e-001
315960000 -1.103997e-004 -5.903439e-005 -5.807917e-001 5.426065e-001 1.291101e-006 8.121998e-005 -5.830868e-001 5.446811e-001
316245000 8.924079e-005 6.220278e-005 -5.676837e-001 5.602325e-001 -4.837600e-006 6.838033e-005 -5.695481e-001 5.624223e-001
316530000 4.910482e-005 1.812978e-004 -5.538877e-001 5.777773e-001 3.419229e-005 -1.251398e-005 -5.562329e-001 5.801301e-001
316815000 -7.665342e-006 -6.824362e-005 -5.392917e-001 5.949573e-001 3.484133e-005 7.148701e-005 -5.415294e-001 5.970765e-001
317100000 1.786678e-005 4.011655e-005 -5.250646e-001 6.120218e-001 8.953938e-005 -2.646766e-005 -5.266724e-001 6.147923e-001
317385000 -1.090800e-005 3.096199e-005 -5.096597e-001 6.290917e-001 6.625105e-005 4.359845e-005 -5.119983e-001 6.314030e-001
317670000 9.344233e-006 -3.577064e-005 -4.938194e-001 6.457210e-001 4.960382e-005 4.970914e-005 -4.961047e-001 6.483241e-001
317955000 7.857555e-005 -4.665261e-005 -4.775182e-001 6.629749e-001 -6.763938e-006 7.890618e-005 -4.789611e-001 6.653506e-001
318240000 4.090242e-005 1.935879e-007 -4.603104e-001 6.789799e-001 -5.309089e-005 2.742244e-005 -4.619619e-001 6.815359e-001
318525000 2.645652e-006 7.455276e-006 -4.428237e-001 6.957066e-001 -1.468088e-005 9.418969e-005 -4.445711e-001 6.980352e-001
318810000 2.473252e-005 2.346074e-005 -4.246889e-001 7.108797e-001 -6.339957e-005 1.759701e-005 -4.264279e-001 7.138664e-001
319095000 1.522891e-004 2.744272e-005 -4.056012e-001 7.266793e-001 -2.738552e-005 9.904909e-005 -4.069755e-001 7.300963e-001
319380000 -5.624206e-006 -6.425026e-006 -3.863582e-001 7.424014e-001 1.430081e-005 1.200792e-005 -3.879045e-001 7.454675e-001
319665000 1.876732e-005 1.658387e-004 -3.660127e-001 7.575229e-001 -4.939811e-005 -7.209369e-005 -3.675188e-001 7.605759e-001
319950000 6.790800e-005 6.315413e-005 -3.451900e-001 7.722195e-001 3.435991e-005 -2.049014e-005 -3.463755e-001 7.754771e-001
320235000 -5.050601e-005 1.289617e-007 -3.235982e-001 7.866353e-001 1.615174e-006 4.420227e-005 -3.249808e-001 7.897704e-001
320520000 5.589674e-005 7.997985e-005 -3.018821e-001 8.002338e-001 -3.907269e-005 -5.500775e-005 -3.023316e-001 8.033438e-001
320805000 -3.623483e-005 5.292919e-005 -2.786497e-001 8.138752e-001 3.044337e-005 -4.423425e-005 -2.797725e-001 8.174333e-001
321090000 5.388789e-005 4.434966e-006 -2.550841e-001 8.271176e-001 -5.707750e-005 8.356008e-006 -2.563842e-001 8.307272e-001
321375000 2.826537e-005 -3.741877e-005 -2.303776e-001 8.398024e-001 3.857061e-005 -3.287764e-005 -2.316967e-001 8.433304e-001
321660000 4.667766e-005 9.206049e-005 -2.052845e-001 8.514069e-001 -1.582116e-005 6.598810e-005 -2.059150e-001 8.554577e-001
321945000 -2.676035e-005 -7.628942e-005 -1.796134e-001 8.631483e-001 1.190312e-004 -9.842893e-005 -1.804045e-001 8.666611e-001
322230000 2.920919e-005 4.300986e-005 -1.527681e-001 8.737664e-001 -8.966216e-006 -3.827431e-005 -1.533411e-001 8.776068e-001
322515000 7.255301e-005 2.426811e-005 -1.252587e-001 8.838446e-001 2.273358e-005 -2.137091e-005 -1.261786e-001 8.874984e-001
322800000 -1.137714e-004 -2.821470e-005 -9.752686e-002 8.935241e-001 7.794576e-005 -7.293688e-005 -9.779041e-002 8.972342e-001
323085000 9.612338e-005 4.233993e-005 -6.834380e-002 9.018481e-001 -8.920791e-006 7.242586e-006 -6.877418e-002 9.056497e-001
323370000 -4.927591e-005 -4.110736e-005 -3.910295e-002 9.096214e-001 -1.493262e-005 -1.493758e-005 -3.897050e-002 9.132245e-001
323655000 6.438116e-005 -9.792103e-006 -9.231408e-003 9.159449e-001 -3.760925e-006 4.794801e-006 -8.389940e-003 9.203592e-001
323940000 -2.609000e-005 5.709087e-005 2.242675e-002 9.216161e-001 1.711669e-005 -9.306004e-006 2.193684e-002 9.251873e-001
324225000 3.516701e-005 -3.422247e-005 5.420654e-002 9.264160e-001 5.997947e-005 2.479518e-005 5.359986e-002 9.300345e-001
324510000 1.134142e-005 5.144375e-005 8.586131e-002 9.295880e-001 -5.108287e-005 2.751657e-005 8.714569e-002 9.337427e-001
324795000 -6.215800e-005 8.785304e-005 1.184024e-001 9.318423e-001 2.946048e-005 -6.212991e-005 1.196537e-001 9.361963e-001
325080000 -7.781108e-005 4.912991e-005 1.520154e-001 9.336795e-001 1.297716e-005 2.778113e-005 1.528190e-001 9.372952e-001
325365000 -3.344127e-005 3.877735e-005 1.865626e-001 9.331490e-001 -2.238932e-005 -9.884932e-006 1.863420e-001 9.367394e-001
325650000 6.558799e-005 2.217038e-005 2.210404e-001 9.312065e-001 6.406778e-006 1.690101e-005 2.216786e-001 9.357958e-001
325935000 1.422070e-005 4.666669e-005 2.556351e-001 9.283088e-001 -6.811926e-005 -1.574624e-005 2.563309e-001 9.320905e-001
326220000 -8.619224e-005 -6.616599e-005 2.900088e-001 9.238592e-001 -4.716797e-005 -8.559872e-005 2.917358e-001 9.277220e-001
326505000 -3.282052e-005 2.251036e-005 3.257535e-001 9.178454e-001 1.132607e-005 -3.619930e-005 3.271397e-001 9.219388e-001
326790000 -4.839139e-006 3.213235e-005 3.610085e-001 9.103774e-001 8.213807e-005 -6.875214e-005 3.628941e-001 9.142160e-001
327075000 3.283237e-005 -5.969228e-005 3.967371e-001 9.004796e-001 1.343102e-005 -1.881173e-005 3.983182e-001 9.049496e-001
327360000 -1.304715e-004 1.009045e-004 4.327702e-001 8.901931e-001 8.015519e-005 1.337270e-004 4.339629e-001 8.935608e-001
327645000 1.386164e-005 -3.630987e-005 4.677483e-001 8.775170e-001 7.086934e-005 5.193052e-005 4.694963e-001 8.816932e-001
327930000 9.744983e-005 -7.536101e-005 5.028397e-001 8.625031e-001 1.503696e-005 4.462993e-005 5.049424e-001 8.670489e-001
328215000 -6.827203e-006 -1.744220e-005 5.376856e-001 8.469821e-001 -1.429921e-004 2.845439e-005 5.399886e-001 8.508992e-001
328500000 6.424051e-005 -1.804163e-005 5.726922e-001 8.294483e-001 7.971888e-005 1.879485e-004 5.745510e-001 8.331246e-001
328785000 1.000866e-004 6.099340e-005 6.059746e-001 8.093110e-001 2.940824e-005 -4.796002e-005 6.084120e-001 8.131487e-001
329070000 -9.395953e-006 2.463528e-005 6.386138e-001 7.886854e-001 -6.030690e-005 7.376767e-005 6.422545e-001 7.919428e-001
329355000 1.974395e-005 -1.018238e-005 6.715011e-001 7.652859e-001 -1.155348e-004 -7.439697e-005 6.742082e-001 7.685205e-001
329640000 3.115756e-005 9.714311e-005 7.029859e-001 7.407381e-001 -5.206287e-005 5.252689e-005 7.058802e-001 7.441976e-001
329925000 -2.127864e-005 -9.946374e-006 7.334210e-001 7.137856e-001 -1.937729e-005 -4.993540e-005 7.354981e-001 7.171178e-001
330210000 -1.077641e-005 -2.464503e-006 7.624251e-001 6.868977e-001 -2.203833e-006 -1.641560e-005 7.655320e-001 6.891391e-001
330495000 -4.596011e-005 4.726782e-006 7.898060e-001 6.562148e-001 5.634385e-006 -5.387661e-005 7.936255e-001 6.597272e-001
330780000 -1.135957e-004 8.739055e-005 8.173898e-001 6.257221e-001 -7.178586e-005 -1.424370e-005 8.202090e-001 6.290212e-001
331065000 -3.030571e-005 -1.346453e-006 8.421302e-001 5.938019e-001 1.167739e-005 -1.561290e-005 8.460472e-001 5.961346e-001
331350000 1.878707e-006 -1.337682e-004 8.654181e-001 5.603073e-001 -4.553769e-006 -5.720475e-005 8.697348e-001 5.628597e-001
331635000 5.227477e-005 1.868836e-005 8.875608e-001 5.260825e-001 1.157621e-004 -3.977662e-005 8.909021e-001 5.277643e-001
331920000 -4.551968e-005 -4.687059e-005 9.076693e-001 4.902681e-001 5.695295e-005 1.486232e-004 9.112231e-001 4.923494e-001
332205000 1.405742e-005 -3.501765e-005 9.259239e-001 4.531603e-001 5.020780e-005 -1.156829e-004 9.299291e-001 4.551901e-001
332490000 9.726047e-005 -6.682401e-005 9.418167e-001 4.162878e-001 -6.256028e-005 1.578094e-005 9.460354e-001 4.175812e-001
332775000 6.336799e-005 -3.350274e-005 9.570108e-001 3.777523e-001 1.052180e-005 -6.523749e-006 9.608413e-001 3.793318e-001
333060000 -2.167779e-005 -6.036305e-005 9.703091e-001 3.395803e-001 -3.858657e-005 5.573920e-005 9.738910e-001 3.408486e-001
333345000 -6.162083e-006 -8.850527e-005 9.801542e-001 3.006411e-001 -3.843390e-005 -7.665435e-005 9.844337e-001 3.021670e-001
333630000 6.991019e-005 -3.862858e-005 9.889466e-001 2.615120e-001 -6.361523e-005 3.083244e-005 9.929909e-001 2.622746e-001
333915000 1.211924e-004 -2.772184e-005 9.954154e-001 2.219991e-001 -2.007086e-005 1.939895e-005 1.000436e+000 2.225978e-001
334200000 -4.058513e-005 -9.794111e-005 1.000548e+000 1.824766e-001 -1.477102e-004 6.585926e-005 1.004740e+000 1.834277e-001
334485000 -6.815974e-005 -3.686475e-005 1.004000e+000 1.430925e-001 -9.939582e-005 5.776262e-006 1.008205e+000 1.444415e-001
334770000 -1.692468e-005 -1.048651e-005 1.005105e+000 1.046035e-001 2.656369e-005 -1.152435e-004 1.009413e+000 1.046527e-001
335055000 -1.015717e-004 -4.907398e-005 1.004180e+000 6.572557e-002 -6.088657e-006 2.844867e-005 1.008487e+000 6.566609e-002
335340000 3.017978e-005 3.093238e-005 1.001403e+000 2.747887e-002 1.677398e-005 -5.067917e-005 1.006258e+000 2.732393e-002
335625000 1.811574e-007 -3.153519e-005 9.979692e-001 -1.051477e-002 -3.956259e-005 1.208781e-005 1.001994e+000 -1.040648e-002
335910000 -8.471447e-005 6.192637e-005 9.921399e-001 -4.712534e-002 -2.059440e-005 -2.798818e-005 9.966546e-001 -4.735187e-002
336195000 -1.031700e-004 -7.257963e-005 9.851568e-001 -8.370072e-002 3.868919e-005 2.130497e-005 9.889722e-001 -8.367960e-002
336480000 2.982040e-005 7.588833e-005 9.763184e-001 -1.192406e-001 -6.837148e-005 -6.025067e-005 9.803595e-001 -1.198943e-001
336765000 -3.605451e-005 -7.931372e-005 9.653643e-001 -1.534323e-001 -2.211821e-005 -3.365971e-005 9.698685e-001 -1.543857e-001
337050000 5.290889e-005 -1.055070e-004 9.546036e-001 -1.873003e-001 -3.224215e-005 2.504287e-005 9.584275e-001 -1.882845e-001
337335000 -3.489223e-005 -6.614396e-005 9.417393e-001 -2.208027e-001 -7.294044e-006 -6.757567e-005 9.462543e-001 -2.213668e-001
337620000 -3.569595e-005 -6.206702e-005 9.282684e-001 -2.517703e-001 4.693209e-005 -6.407114e-005 9.322252e-001 -2.534539e-001
337905000 -4.785121e-005 3.550439e-006 9.130871e-001 -2.829801e-001 1.593644e-004 2.197063e-005 9.168877e-001 -2.841432e-001
338190000 -3.887348e-005 -2.508780e-005 8.974940e-001 -3.129173e-001 -6.543516e-006 -5.110959e-005 9.011087e-001 -3.146439e-001
338475000 -4.046861e-005 2.864755e-005 8.806331e-001 -3.418084e-001 1.380662e-004 7.757739e-006 8.845552e-001 -3.433782e-001
338760000 4.796359e-005 3.021797e-005 8.631690e-001 -3.699329e-001 8.882755e-005 1.560128e-004 8.667712e-001 -3.710861e-001
339045000 8.693180e-005 -6.129900e-005 8.444980e-001 -3.960798e-001 -2.433705e-005 2.158978e-005 8.483427e-001 -3.979307e-001
339330000 9.936644e-005 -1.894235e-005 8.260135e-001 -4.218912e-001 6.503767e-005 1.336427e-004 8.290988e-001 -4.232546e-001
339615000 6.868447e-005 4.073546e-005 8.063414e-001 -4.461711e-001 -9.558369e-005 -5.174275e-006 8.097687e-001 -4.478215e-001
339900000 -1.297313e-004 1.072051e-004 7.859724e-001 -4.697125e-001 5.274856e-005 5.448325e-005 7.897990e-001 -4.717181e-001
340185000 -1.739082e-005 7.508439e-005 7.655655e-001 -4.914744e-001 4.231127e-005 1.211939e-004 7.685615e-001 -4.939837e-001
340470000 -4.168973e-006 6.112287e-005 7.441978e-001 -5.129405e-001 -6.513865e-005 -3.642248e-005 7.473580e-001 -5.149719e-001
340755000 -7.597845e-005 1.297992e-004 7.226539e-001 -5.330985e-001 2.280914e-005 1.057644e-004 7.259429e-001 -5.357517e-001
341040000 -1.168004e-004 2.980895e-005 7.014805e-001 -5.526414e-001 -1.795302e-004 1.140329e-004 7.047880e-001 -5.554835e-001
341325000 -1.085139e-004 5.815149e-005 6.789989e-001 -5.702499e-001 -5.748454e-005 2.433927e-005 6.820116e-001 -5.731440e-001
341610000 6.895478e-005 -2.010917e-005 6.565583e-001 -5.876727e-001 8.967253e-005 1.103946e-004 6.601549e-001 -5.909154e-001
341895000 -1.404608e-005 8.110106e-006 6.348882e-001 -6.044151e-001 2.574512e-005 4.565120e-005 6.376508e-001 -6.067740e-001
342180000 -9.484790e-005 -3.642460e-005 6.120380e-001 -6.202564e-001 -7.317765e-005 1.145542e-005 6.145893e-001 -6.232347e-001
342465000 4.285742e-005 -1.169864e-004 5.897489e-001 -6.348046e-001 -2.306321e-005 7.203851e-005 5.924629e-001 -6.373268e-001
342750000 -1.789200e-006 2.025334e-005 5.675267e-001 -6.489301e-001 -6.232833e-005 7.159349e-005 5.694596e-001 -6.514840e-001
343035000 -2.145432e-005 2.851408e-005 5.441557e-001 -6.611342e-001 -2.443303e-006 -4.448776e-005 5.466570e-001 -6.643066e-001
343320000 -1.055637e-004 -4.282014e-005 5.217475e-001 -6.735814e-001 9.395115e-005 -4.077503e-006 5.236285e-001 -6.761146e-001
343605000 7.888254e-007 -2.773148e-006 4.987078e-001 -6.841147e-001 5.196972e-005 -5.043076e-005 5.012595e-001 -6.877301e-001
343890000 -4.900681e-006 -3.569761e-005 4.758121e-001 -6.952095e-001 -1.057945e-004 -9.658236e-005 4.784840e-001 -6.979042e-001
