!Agilent Technologies,N5230C,SG49000117,A.08.50.07
!Agilent N5230C: A.08.50.07
!Date: Thursday, May 09, 2024 01:42:34
!Correction: S11(Full 2 Port(1,2)) 
!S21(Full 2 Port(1,2)) 
!S12(Full 2 Port(1,2)) 
!S22(Full 2 Port(1,2)) 
!S2P File: Measurements: S11, S21, S12, S22:
# Hz S  MA   R 50
2000000000 1.055708e+000 -2.536577e+001 9.627467e-004 -1.038174e+002 1.768659e-003 -1.233006e+002 1.132500e+000 -3.993314e+001
2000100000 1.055514e+000 -2.537068e+001 9.895233e-004 -1.047135e+002 1.813272e-003 -1.230545e+002 1.132818e+000 -3.992042e+001
2000200000 1.055339e+000 -2.537564e+001 1.006470e-003 -1.045703e+002 1.788166e-003 -1.229974e+002 1.133021e+000 -3.992715e+001
2000300000 1.055265e+000 -2.538229e+001 9.974443e-004 -1.047535e+002 1.807483e-003 -1.241167e+002 1.133211e+000 -3.992920e+001
2000400000 1.055134e+000 -2.538735e+001 9.963643e-004 -1.039487e+002 1.783614e-003 -1.239385e+002 1.133542e+000 -3.992762e+001
2000500000 1.055026e+000 -2.540107e+001 9.830537e-004 -1.051550e+002 1.792535e-003 -1.245650e+002 1.133677e+000 -3.994163e+001
2000600000 1.054941e+000 -2.538924e+001 9.794496e-004 -1.051139e+002 1.779825e-003 -1.242599e+002 1.133646e+000 -3.992065e+001
2000700000 1.055061e+000 -2.538017e+001 9.795185e-004 -1.053069e+002 1.790471e-003 -1.242649e+002 1.133576e+000 -3.989964e+001
2000800000 1.055047e+000 -2.536850e+001 9.860364e-004 -1.047419e+002 1.810748e-003 -1.245393e+002 1.133488e+000 -3.988913e+001
2000900000 1.054944e+000 -2.536363e+001 9.806369e-004 -1.054534e+002 1.792109e-003 -1.242540e+002 1.133380e+000 -3.987516e+001
2001000000 1.054970e+000 -2.535281e+001 9.857103e-004 -1.053467e+002 1.791021e-003 -1.245220e+002 1.133260e+000 -3.986713e+001
2001100000 1.054911e+000 -2.534486e+001 9.955800e-004 -1.058918e+002 1.810432e-003 -1.243897e+002 1.133080e+000 -3.985645e+001
2001200000 1.054898e+000 -2.533820e+001 9.831651e-004 -1.052885e+002 1.793826e-003 -1.248021e+002 1.133022e+000 -3.985439e+001
2001300000 1.054908e+000 -2.533889e+001 9.908649e-004 -1.057925e+002 1.784120e-003 -1.253809e+002 1.132704e+000 -3.986312e+001
2001400000 1.055056e+000 -2.535696e+001 9.852729e-004 -1.059372e+002 1.782795e-003 -1.251519e+002 1.132671e+000 -3.989373e+001
2001500000 1.055134e+000 -2.537530e+001 1.014685e-003 -1.058735e+002 1.796436e-003 -1.243638e+002 1.132383e+000 -3.992306e+001
2001600000 1.055433e+000 -2.538454e+001 9.927085e-004 -1.053959e+002 1.827029e-003 -1.255159e+002 1.132080e+000 -3.994793e+001
2001700000 1.055478e+000 -2.539771e+001 9.881322e-004 -1.061246e+002 1.767564e-003 -1.254266e+002 1.131971e+000 -3.997591e+001
2001800000 1.055763e+000 -2.539992e+001 1.004733e-003 -1.062430e+002 1.791294e-003 -1.255612e+002 1.131761e+000 -3.999823e+001
2001900000 1.055940e+000 -2.540915e+001 9.898058e-004 -1.066514e+002 1.767636e-003 -1.251924e+002 1.131556e+000 -4.001949e+001
2002000000 1.056115e+000 -2.541451e+001 1.005857e-003 -1.068906e+002 1.805607e-003 -1.257602e+002 1.131498e+000 -4.004673e+001
2002100000 1.056116e+000 -2.540032e+001 9.976665e-004 -1.062497e+002 1.795198e-003 -1.253004e+002 1.131655e+000 -4.001833e+001
2002200000 1.056115e+000 -2.538705e+001 1.015745e-003 -1.065298e+002 1.794082e-003 -1.258679e+002 1.131980e+000 -3.998418e+001
2002300000 1.056066e+000 -2.537671e+001 1.003653e-003 -1.068453e+002 1.803881e-003 -1.243846e+002 1.132119e+000 -3.996696e+001
2002400000 1.056050e+000 -2.536789e+001 1.004827e-003 -1.063798e+002 1.793135e-003 -1.251397e+002 1.132208e+000 -3.994268e+001
2002500000 1.055999e+000 -2.535647e+001 1.003463e-003 -1.066199e+002 1.789860e-003 -1.252822e+002 1.132383e+000 -3.992442e+001
2002600000 1.055909e+000 -2.535210e+001 9.917391e-004 -1.071605e+002 1.806267e-003 -1.269744e+002 1.132463e+000 -3.989092e+001
2002700000 1.055843e+000 -2.534536e+001 1.002913e-003 -1.061144e+002 1.800518e-003 -1.257856e+002 1.132616e+000 -3.987655e+001
2002800000 1.055696e+000 -2.534613e+001 1.007929e-003 -1.069422e+002 1.832125e-003 -1.260193e+002 1.132656e+000 -3.987176e+001
2002900000 1.055502e+000 -2.535709e+001 9.943167e-004 -1.065589e+002 1.809278e-003 -1.264201e+002 1.132774e+000 -3.988292e+001
2003000000 1.055429e+000 -2.536661e+001 1.000807e-003 -1.075167e+002 1.815533e-003 -1.267015e+002 1.132748e+000 -3.989594e+001
2003100000 1.055372e+000 -2.537030e+001 1.008761e-003 -1.073077e+002 1.806628e-003 -1.264522e+002 1.132788e+000 -3.991487e+001
2003200000 1.055343e+000 -2.537997e+001 1.001543e-003 -1.073585e+002 1.807436e-003 -1.269739e+002 1.132938e+000 -3.992837e+001
2003300000 1.055241e+000 -2.538477e+001 1.014558e-003 -1.066467e+002 1.815947e-003 -1.265000e+002 1.133019e+000 -3.994298e+001
2003400000 1.055185e+000 -2.539636e+001 1.015609e-003 -1.072231e+002 1.807854e-003 -1.267504e+002 1.133208e+000 -3.996195e+001
2003500000 1.055238e+000 -2.539755e+001 1.006304e-003 -1.071740e+002 1.810183e-003 -1.267577e+002 1.133177e+000 -3.997546e+001
2003600000 1.055282e+000 -2.540298e+001 1.027343e-003 -1.075624e+002 1.835739e-003 -1.274442e+002 1.133332e+000 -3.997214e+001
2003700000 1.055340e+000 -2.541346e+001 1.019715e-003 -1.078304e+002 1.840442e-003 -1.278162e+002 1.133488e+000 -3.995716e+001
2003800000 1.055324e+000 -2.541837e+001 1.010994e-003 -1.086925e+002 1.797754e-003 -1.270512e+002 1.133669e+000 -3.995794e+001
2003900000 1.055366e+000 -2.542241e+001 1.012031e-003 -1.080403e+002 1.815287e-003 -1.282913e+002 1.133739e+000 -3.996070e+001
2004000000 1.055403e+000 -2.543089e+001 1.003012e-003 -1.075801e+002 1.809272e-003 -1.273543e+002 1.133801e+000 -3.995611e+001
2004100000 1.055255e+000 -2.543540e+001 1.015469e-003 -1.084794e+002 1.817654e-003 -1.275909e+002 1.133860e+000 -3.994481e+001
2004200000 1.055367e+000 -2.544028e+001 1.023255e-003 -1.085259e+002 1.810947e-003 -1.274205e+002 1.133709e+000 -3.994813e+001
2004300000 1.055411e+000 -2.544189e+001 1.011647e-003 -1.081009e+002 1.828918e-003 -1.281257e+002 1.133584e+000 -3.994717e+001
2004400000 1.055516e+000 -2.543953e+001 1.017876e-003 -1.089645e+002 1.822260e-003 -1.290707e+002 1.133209e+000 -3.994923e+001
2004500000 1.055601e+000 -2.543856e+001 1.021226e-003 -1.091983e+002 1.827821e-003 -1.272764e+002 1.133226e+000 -3.994808e+001
2004600000 1.055673e+000 -2.543675e+001 1.008023e-003 -1.094779e+002 1.857887e-003 -1.285309e+002 1.132967e+000 -3.994435e+001
2004700000 1.055734e+000 -2.543246e+001 1.023438e-003 -1.084134e+002 1.838949e-003 -1.276024e+002 1.132794e+000 -3.994612e+001
2004800000 1.055778e+000 -2.543687e+001 1.023591e-003 -1.094943e+002 1.828990e-003 -1.284069e+002 1.132484e+000 -3.994633e+001
2004900000 1.055864e+000 -2.543733e+001 1.013941e-003 -1.097091e+002 1.801383e-003 -1.281823e+002 1.132560e+000 -3.995075e+001
2005000000 1.055997e+000 -2.543323e+001 1.024386e-003 -1.091506e+002 1.817738e-003 -1.279338e+002 1.132400e+000 -3.994803e+001
2005100000 1.055911e+000 -2.544220e+001 1.016552e-003 -1.097074e+002 1.822578e-003 -1.290719e+002 1.132563e+000 -3.993334e+001
2005200000 1.055906e+000 -2.544743e+001 1.018935e-003 -1.099468e+002 1.831200e-003 -1.280975e+002 1.132672e+000 -3.993066e+001
2005300000 1.055785e+000 -2.545076e+001 1.010299e-003 -1.108640e+002 1.857745e-003 -1.281854e+002 1.132918e+000 -3.991566e+001
2005400000 1.055839e+000 -2.545605e+001 1.021626e-003 -1.104023e+002 1.856930e-003 -1.283362e+002 1.132999e+000 -3.991443e+001
2005500000 1.055795e+000 -2.546106e+001 1.023100e-003 -1.096535e+002 1.822957e-003 -1.285387e+002 1.133241e+000 -3.990981e+001
2005600000 1.055896e+000 -2.546254e+001 1.038901e-003 -1.096274e+002 1.794049e-003 -1.289184e+002 1.133490e+000 -3.990206e+001
2005700000 1.055798e+000 -2.546718e+001 1.026492e-003 -1.090995e+002 1.850509e-003 -1.288239e+002 1.133639e+000 -3.989409e+001
2005800000 1.055799e+000 -2.546323e+001 1.012711e-003 -1.102387e+002 1.822230e-003 -1.290125e+002 1.133788e+000 -3.989872e+001
2005900000 1.055870e+000 -2.546234e+001 1.014572e-003 -1.099565e+002 1.844776e-003 -1.291183e+002 1.134018e+000 -3.991110e+001
2006000000 1.055985e+000 -2.546527e+001 1.031939e-003 -1.104712e+002 1.864848e-003 -1.289134e+002 1.134108e+000 -3.991511e+001
2006100000 1.055981e+000 -2.546521e+001 1.021544e-003 -1.104043e+002 1.807889e-003 -1.303916e+002 1.134215e+000 -3.992924e+001
2006200000 1.055981e+000 -2.546595e+001 1.015258e-003 -1.095247e+002 1.827412e-003 -1.296329e+002 1.134292e+000 -3.994051e+001
2006300000 1.056055e+000 -2.546460e+001 1.031920e-003 -1.103037e+002 1.856491e-003 -1.292415e+002 1.134353e+000 -3.995718e+001
2006400000 1.056083e+000 -2.546728e+001 1.032765e-003 -1.109329e+002 1.820068e-003 -1.306401e+002 1.134314e+000 -3.996498e+001
2006500000 1.056084e+000 -2.546782e+001 1.005021e-003 -1.105791e+002 1.814228e-003 -1.295846e+002 1.134403e+000 -3.999055e+001
2006600000 1.055972e+000 -2.547139e+001 1.025414e-003 -1.110604e+002 1.823539e-003 -1.303482e+002 1.134308e+000 -3.998628e+001
2006700000 1.055925e+000 -2.547384e+001 1.028551e-003 -1.112552e+002 1.837416e-003 -1.302605e+002 1.134366e+000 -3.999081e+001
2006800000 1.055755e+000 -2.548121e+001 1.028417e-003 -1.106595e+002 1.810902e-003 -1.296219e+002 1.134345e+000 -3.999101e+001
2006900000 1.055802e+000 -2.548006e+001 1.033141e-003 -1.112595e+002 1.858516e-003 -1.299853e+002 1.134334e+000 -4.000301e+001
2007000000 1.055704e+000 -2.548210e+001 1.009263e-003 -1.101227e+002 1.828999e-003 -1.297055e+002 1.134312e+000 -4.000113e+001
2007100000 1.055673e+000 -2.548509e+001 1.036581e-003 -1.107595e+002 1.853543e-003 -1.300672e+002 1.134196e+000 -4.000579e+001
2007200000 1.055711e+000 -2.548616e+001 1.036282e-003 -1.108254e+002 1.829484e-003 -1.303150e+002 1.134021e+000 -4.000940e+001
2007300000 1.055760e+000 -2.549401e+001 1.025510e-003 -1.120877e+002 1.849064e-003 -1.314007e+002 1.133857e+000 -4.000601e+001
2007400000 1.055825e+000 -2.550134e+001 1.045283e-003 -1.122340e+002 1.832735e-003 -1.308350e+002 1.133683e+000 -4.000043e+001
2007500000 1.055721e+000 -2.551340e+001 1.036853e-003 -1.130338e+002 1.832026e-003 -1.308495e+002 1.133501e+000 -3.999482e+001
2007600000 1.055791e+000 -2.551619e+001 1.040575e-003 -1.126399e+002 1.839046e-003 -1.318151e+002 1.133264e+000 -3.998811e+001
2007700000 1.055801e+000 -2.552339e+001 1.019702e-003 -1.118590e+002 1.817133e-003 -1.304430e+002 1.133150e+000 -3.998127e+001
2007800000 1.055779e+000 -2.552888e+001 1.024296e-003 -1.115021e+002 1.858295e-003 -1.318146e+002 1.132997e+000 -3.997561e+001
2007900000 1.055736e+000 -2.553023e+001 1.043473e-003 -1.109722e+002 1.806980e-003 -1.306656e+002 1.132780e+000 -3.996734e+001
2008000000 1.055749e+000 -2.553546e+001 1.027837e-003 -1.124876e+002 1.846074e-003 -1.312610e+002 1.132658e+000 -3.996770e+001
2008100000 1.055839e+000 -2.552681e+001 1.038130e-003 -1.124120e+002 1.852457e-003 -1.319438e+002 1.132382e+000 -3.996205e+001
2008200000 1.055671e+000 -2.550946e+001 1.042920e-003 -1.125276e+002 1.865138e-003 -1.319735e+002 1.132270e+000 -3.996754e+001
2008300000 1.055607e+000 -2.550333e+001 1.027728e-003 -1.125308e+002 1.820598e-003 -1.317946e+002 1.132162e+000 -3.996835e+001
2008400000 1.055603e+000 -2.548955e+001 1.028641e-003 -1.130132e+002 1.843326e-003 -1.313692e+002 1.131976e+000 -3.997976e+001
2008500000 1.055471e+000 -2.548124e+001 1.017622e-003 -1.132565e+002 1.813349e-003 -1.314536e+002 1.131984e+000 -3.997655e+001
2008600000 1.055432e+000 -2.547840e+001 1.035735e-003 -1.134026e+002 1.825443e-003 -1.313146e+002 1.131939e+000 -3.998627e+001
2008700000 1.055504e+000 -2.546714e+001 1.027363e-003 -1.131290e+002 1.857655e-003 -1.317480e+002 1.131997e+000 -3.999287e+001
2008800000 1.055487e+000 -2.546664e+001 1.022457e-003 -1.125479e+002 1.834615e-003 -1.327643e+002 1.132205e+000 -3.999416e+001
2008900000 1.055482e+000 -2.547472e+001 1.027010e-003 -1.134555e+002 1.841386e-003 -1.323862e+002 1.132457e+000 -4.000896e+001
2009000000 1.055346e+000 -2.548007e+001 1.045643e-003 -1.132795e+002 1.822548e-003 -1.327906e+002 1.132624e+000 -4.002805e+001
2009100000 1.055397e+000 -2.549052e+001 1.044571e-003 -1.128084e+002 1.833064e-003 -1.317393e+002 1.132867e+000 -4.002973e+001
2009200000 1.055413e+000 -2.549491e+001 1.027060e-003 -1.131760e+002 1.844941e-003 -1.316191e+002 1.133049e+000 -4.004216e+001
2009300000 1.055323e+000 -2.550028e+001 1.037005e-003 -1.140765e+002 1.862678e-003 -1.325808e+002 1.133249e+000 -4.005266e+001
2009400000 1.055473e+000 -2.550462e+001 1.032869e-003 -1.139591e+002 1.850932e-003 -1.316646e+002 1.133495e+000 -4.006073e+001
2009500000 1.055371e+000 -2.551052e+001 1.024696e-003 -1.142805e+002 1.883626e-003 -1.329756e+002 1.133628e+000 -4.007151e+001
2009600000 1.055574e+000 -2.551391e+001 1.032725e-003 -1.140426e+002 1.864112e-003 -1.331414e+002 1.133676e+000 -4.007467e+001
2009700000 1.055611e+000 -2.550804e+001 1.030889e-003 -1.142198e+002 1.818221e-003 -1.326572e+002 1.133698e+000 -4.007537e+001
2009800000 1.055735e+000 -2.550396e+001 1.047694e-003 -1.141322e+002 1.849191e-003 -1.324559e+002 1.133710e+000 -4.008239e+001
2009900000 1.055866e+000 -2.550441e+001 1.051636e-003 -1.134776e+002 1.835493e-003 -1.330525e+002 1.133693e+000 -4.008157e+001
2010000000 1.055916e+000 -2.549977e+001 1.045204e-003 -1.143553e+002 1.857866e-003 -1.334922e+002 1.133745e+000 -4.008512e+001
2010100000 1.056048e+000 -2.550147e+001 1.043656e-003 -1.148636e+002 1.880623e-003 -1.338059e+002 1.133610e+000 -4.009361e+001
2010200000 1.055984e+000 -2.550056e+001 1.032837e-003 -1.151590e+002 1.805964e-003 -1.340824e+002 1.133666e+000 -4.009915e+001
2010300000 1.056134e+000 -2.549193e+001 1.053118e-003 -1.138177e+002 1.811894e-003 -1.346689e+002 1.133349e+000 -4.010469e+001
2010400000 1.056079e+000 -2.549260e+001 1.014145e-003 -1.144503e+002 1.841908e-003 -1.336461e+002 1.133135e+000 -4.010185e+001
2010500000 1.056035e+000 -2.548904e+001 1.041098e-003 -1.149389e+002 1.832249e-003 -1.332705e+002 1.132771e+000 -4.010492e+001
2010600000 1.056058e+000 -2.548944e+001 1.042011e-003 -1.150871e+002 1.848005e-003 -1.331903e+002 1.132565e+000 -4.010502e+001
2010700000 1.055971e+000 -2.548520e+001 1.044753e-003 -1.143740e+002 1.848454e-003 -1.340527e+002 1.132449e+000 -4.010919e+001
2010800000 1.056039e+000 -2.548594e+001 1.029921e-003 -1.150354e+002 1.857821e-003 -1.338423e+002 1.132268e+000 -4.010904e+001
2010900000 1.055996e+000 -2.549198e+001 1.052337e-003 -1.151851e+002 1.847425e-003 -1.347626e+002 1.132010e+000 -4.011671e+001
2011000000 1.055890e+000 -2.548824e+001 1.038869e-003 -1.150944e+002 1.824816e-003 -1.349065e+002 1.131991e+000 -4.012200e+001
2011100000 1.055598e+000 -2.548874e+001 1.040410e-003 -1.142563e+002 1.843181e-003 -1.344631e+002 1.131982e+000 -4.009426e+001
2011200000 1.055367e+000 -2.549784e+001 1.033114e-003 -1.163039e+002 1.843208e-003 -1.346274e+002 1.132408e+000 -4.008088e+001
2011300000 1.055097e+000 -2.549984e+001 1.023915e-003 -1.146612e+002 1.811243e-003 -1.343376e+002 1.132380e+000 -4.006429e+001
2011400000 1.054908e+000 -2.549549e+001 1.025251e-003 -1.150016e+002 1.849005e-003 -1.348161e+002 1.132782e+000 -4.004667e+001
2011500000 1.054708e+000 -2.550103e+001 1.037267e-003 -1.168261e+002 1.790386e-003 -1.344474e+002 1.132893e+000 -4.003176e+001
2011600000 1.054554e+000 -2.550191e+001 1.046122e-003 -1.146790e+002 1.834749e-003 -1.342713e+002 1.133229e+000 -4.001772e+001
2011700000 1.054492e+000 -2.550859e+001 1.041670e-003 -1.154736e+002 1.806033e-003 -1.340015e+002 1.133273e+000 -4.000484e+001
2011800000 1.054472e+000 -2.551949e+001 1.051837e-003 -1.153127e+002 1.838646e-003 -1.332500e+002 1.133150e+000 -4.000343e+001
2011900000 1.054569e+000 -2.553373e+001 1.028613e-003 -1.158447e+002 1.841185e-003 -1.347726e+002 1.132600e+000 -4.002089e+001
2012000000 1.054877e+000 -2.554252e+001 1.029609e-003 -1.151154e+002 1.869761e-003 -1.337328e+002 1.132125e+000 -4.003278e+001
2012100000 1.054986e+000 -2.555277e+001 1.055440e-003 -1.164082e+002 1.817664e-003 -1.355539e+002 1.131821e+000 -4.004496e+001
2012200000 1.055249e+000 -2.556310e+001 1.032604e-003 -1.164951e+002 1.828369e-003 -1.343013e+002 1.131578e+000 -4.007051e+001
2012300000 1.055550e+000 -2.556291e+001 1.029738e-003 -1.161655e+002 1.830183e-003 -1.355368e+002 1.131290e+000 -4.007991e+001
2012400000 1.055776e+000 -2.556634e+001 1.029867e-003 -1.156177e+002 1.833670e-003 -1.346232e+002 1.131265e+000 -4.009680e+001
2012500000 1.056153e+000 -2.557129e+001 1.045852e-003 -1.167727e+002 1.846421e-003 -1.353433e+002 1.131213e+000 -4.012075e+001
2012600000 1.056344e+000 -2.553663e+001 1.042901e-003 -1.162701e+002 1.808101e-003 -1.349913e+002 1.132126e+000 -4.011557e+001
2012700000 1.056652e+000 -2.550880e+001 1.049481e-003 -1.160524e+002 1.829624e-003 -1.355069e+002 1.132974e+000 -4.012341e+001
2012800000 1.056895e+000 -2.548769e+001 1.030695e-003 -1.158057e+002 1.853652e-003 -1.343336e+002 1.133723e+000 -4.011720e+001
2012900000 1.057103e+000 -2.547111e+001 1.027473e-003 -1.167090e+002 1.885460e-003 -1.352715e+002 1.134372e+000 -4.011503e+001
2013000000 1.057206e+000 -2.545230e+001 1.032570e-003 -1.169112e+002 1.825485e-003 -1.355693e+002 1.135050e+000 -4.010070e+001
2013100000 1.057295e+000 -2.543811e+001 1.051060e-003 -1.162348e+002 1.860020e-003 -1.354818e+002 1.135586e+000 -4.009725e+001
2013200000 1.057421e+000 -2.543387e+001 1.043230e-003 -1.157137e+002 1.879554e-003 -1.357207e+002 1.135844e+000 -4.008291e+001
2013300000 1.057047e+000 -2.544208e+001 1.051657e-003 -1.167975e+002 1.833560e-003 -1.360975e+002 1.136079e+000 -4.007692e+001
2013400000 1.056421e+000 -2.546016e+001 1.052381e-003 -1.162781e+002 1.830593e-003 -1.359477e+002 1.135783e+000 -4.006029e+001
2013500000 1.055854e+000 -2.547663e+001 1.038615e-003 -1.173612e+002 1.855589e-003 -1.352260e+002 1.135554e+000 -4.005420e+001
2013600000 1.055371e+000 -2.549335e+001 1.041136e-003 -1.174118e+002 1.834350e-003 -1.353605e+002 1.135245e+000 -4.004918e+001
2013700000 1.054971e+000 -2.551193e+001 1.031344e-003 -1.162720e+002 1.838355e-003 -1.353160e+002 1.135243e+000 -4.004376e+001
2013800000 1.054652e+000 -2.552614e+001 1.042152e-003 -1.177094e+002 1.849741e-003 -1.362976e+002 1.134823e+000 -4.003419e+001
2013900000 1.054494e+000 -2.554079e+001 1.048401e-003 -1.180297e+002 1.871698e-003 -1.354845e+002 1.134541e+000 -4.002879e+001
2014000000 1.054352e+000 -2.555256e+001 1.051623e-003 -1.173873e+002 1.832470e-003 -1.366871e+002 1.134491e+000 -4.002943e+001
2014100000 1.054567e+000 -2.554475e+001 1.052962e-003 -1.175127e+002 1.845261e-003 -1.365849e+002 1.134406e+000 -4.003567e+001
2014200000 1.054793e+000 -2.552857e+001 1.041962e-003 -1.169738e+002 1.873096e-003 -1.367499e+002 1.134211e+000 -4.005980e+001
2014300000 1.055165e+000 -2.552631e+001 1.042715e-003 -1.168511e+002 1.859496e-003 -1.373435e+002 1.133993e+000 -4.007645e+001
2014400000 1.055318e+000 -2.551177e+001 1.046672e-003 -1.179575e+002 1.838771e-003 -1.357553e+002 1.133909e+000 -4.008768e+001
2014500000 1.055471e+000 -2.550512e+001 1.044986e-003 -1.175661e+002 1.845777e-003 -1.360211e+002 1.133677e+000 -4.010671e+001
2014600000 1.055606e+000 -2.549537e+001 1.044410e-003 -1.179475e+002 1.832310e-003 -1.374722e+002 1.133376e+000 -4.012329e+001
2014700000 1.055614e+000 -2.549553e+001 1.065227e-003 -1.180331e+002 1.873445e-003 -1.369163e+002 1.133261e+000 -4.013314e+001
2014800000 1.055541e+000 -2.549683e+001 1.052799e-003 -1.174709e+002 1.838418e-003 -1.366596e+002 1.133010e+000 -4.013728e+001
2014900000 1.055277e+000 -2.551366e+001 1.064688e-003 -1.168864e+002 1.866509e-003 -1.359416e+002 1.132550e+000 -4.012383e+001
2015000000 1.055091e+000 -2.552605e+001 1.046158e-003 -1.181606e+002 1.862331e-003 -1.367397e+002 1.132441e+000 -4.010889e+001
2015100000 1.054909e+000 -2.553545e+001 1.038448e-003 -1.177379e+002 1.862649e-003 -1.373196e+002 1.132197e+000 -4.010696e+001
2015200000 1.054749e+000 -2.555004e+001 1.048205e-003 -1.179174e+002 1.876511e-003 -1.377917e+002 1.132176e+000 -4.009082e+001
