!Agilent Technologies,N5230C,SG49000117,A.08.50.07
!Agilent N5230C: A.08.50.07
!Date: Thursday, May 09, 2024 01:09:16
!Correction: S11(Full 2 Port(1,2)) 
!S21(Full 2 Port(1,2)) 
!S12(Full 2 Port(1,2)) 
!S22(Full 2 Port(1,2)) 
!S2P File: Measurements: S11, S21, S12, S22:
# Hz S  MA   R 50
2000000000 1.056356e+000 -2.535823e+001 1.213444e-003 -1.214733e+002 2.166844e-003 -1.420028e+002 1.135088e+000 -3.995453e+001
2000125000 1.056138e+000 -2.535856e+001 1.204700e-003 -1.223436e+002 2.191179e-003 -1.405143e+002 1.135538e+000 -3.994286e+001
2000250000 1.056041e+000 -2.537327e+001 1.194803e-003 -1.229547e+002 2.239580e-003 -1.419436e+002 1.135783e+000 -3.994209e+001
2000375000 1.055791e+000 -2.538366e+001 1.203574e-003 -1.237993e+002 2.153607e-003 -1.434126e+002 1.135907e+000 -3.995810e+001
2000500000 1.055608e+000 -2.538333e+001 1.207244e-003 -1.218046e+002 2.167213e-003 -1.436460e+002 1.136218e+000 -3.996345e+001
2000625000 1.055691e+000 -2.537461e+001 1.238723e-003 -1.218922e+002 2.188971e-003 -1.410252e+002 1.136124e+000 -3.993219e+001
2000750000 1.055653e+000 -2.536337e+001 1.201919e-003 -1.226424e+002 2.151183e-003 -1.418421e+002 1.136021e+000 -3.992200e+001
2000875000 1.055704e+000 -2.534970e+001 1.223821e-003 -1.230630e+002 2.176696e-003 -1.406609e+002 1.135790e+000 -3.990298e+001
2001000000 1.055580e+000 -2.533815e+001 1.212962e-003 -1.218130e+002 2.200026e-003 -1.417229e+002 1.135772e+000 -3.990210e+001
2001125000 1.055800e+000 -2.533333e+001 1.200059e-003 -1.224192e+002 2.210955e-003 -1.419660e+002 1.135655e+000 -3.988790e+001
2001250000 1.055416e+000 -2.531659e+001 1.219152e-003 -1.215192e+002 2.215546e-003 -1.416428e+002 1.135442e+000 -3.987710e+001
2001375000 1.055773e+000 -2.534871e+001 1.231536e-003 -1.237544e+002 2.170543e-003 -1.416715e+002 1.135177e+000 -3.990364e+001
2001500000 1.055701e+000 -2.535249e+001 1.208319e-003 -1.219772e+002 2.249310e-003 -1.415361e+002 1.134640e+000 -3.995078e+001
2001625000 1.055942e+000 -2.538322e+001 1.224641e-003 -1.238545e+002 2.230836e-003 -1.415705e+002 1.134632e+000 -3.997741e+001
2001750000 1.056337e+000 -2.538648e+001 1.230507e-003 -1.233651e+002 2.221064e-003 -1.422598e+002 1.134426e+000 -4.000388e+001
2001875000 1.056481e+000 -2.540192e+001 1.224671e-003 -1.230386e+002 2.153814e-003 -1.437367e+002 1.133859e+000 -4.003970e+001
2002000000 1.056719e+000 -2.540792e+001 1.178552e-003 -1.237474e+002 2.194934e-003 -1.435592e+002 1.133666e+000 -4.006977e+001
2002125000 1.056957e+000 -2.539366e+001 1.224000e-003 -1.225618e+002 2.260595e-003 -1.414311e+002 1.133752e+000 -4.002223e+001
2002250000 1.056860e+000 -2.537060e+001 1.204548e-003 -1.236202e+002 2.205502e-003 -1.428205e+002 1.134167e+000 -3.998898e+001
2002375000 1.056664e+000 -2.535892e+001 1.251554e-003 -1.235763e+002 2.175309e-003 -1.420758e+002 1.134644e+000 -3.997001e+001
2002500000 1.056570e+000 -2.535641e+001 1.224618e-003 -1.224136e+002 2.272362e-003 -1.434229e+002 1.134810e+000 -3.993990e+001
2002625000 1.056629e+000 -2.534387e+001 1.223344e-003 -1.237716e+002 2.162886e-003 -1.436515e+002 1.134841e+000 -3.991597e+001
2002750000 1.056339e+000 -2.533426e+001 1.219927e-003 -1.243328e+002 2.242290e-003 -1.435009e+002 1.134919e+000 -3.989083e+001
2002875000 1.056212e+000 -2.534132e+001 1.203731e-003 -1.232932e+002 2.226415e-003 -1.426235e+002 1.135187e+000 -3.990398e+001
2003000000 1.056125e+000 -2.535470e+001 1.242967e-003 -1.238213e+002 2.221619e-003 -1.434486e+002 1.135199e+000 -3.991959e+001
2003125000 1.055905e+000 -2.537233e+001 1.239300e-003 -1.244563e+002 2.169957e-003 -1.422320e+002 1.135383e+000 -3.994426e+001
2003250000 1.055920e+000 -2.537250e+001 1.195408e-003 -1.232899e+002 2.164742e-003 -1.450310e+002 1.135503e+000 -3.996290e+001
2003375000 1.055844e+000 -2.538205e+001 1.250557e-003 -1.232911e+002 2.184658e-003 -1.436386e+002 1.135385e+000 -3.998721e+001
2003500000 1.055832e+000 -2.538754e+001 1.243362e-003 -1.246283e+002 2.295252e-003 -1.437012e+002 1.135368e+000 -4.000600e+001
2003625000 1.055894e+000 -2.539491e+001 1.230140e-003 -1.246908e+002 2.174352e-003 -1.436061e+002 1.135613e+000 -3.998956e+001
2003750000 1.055890e+000 -2.540831e+001 1.235457e-003 -1.246905e+002 2.236119e-003 -1.425345e+002 1.135890e+000 -3.998180e+001
2003875000 1.056072e+000 -2.541265e+001 1.237668e-003 -1.238630e+002 2.276779e-003 -1.431382e+002 1.135860e+000 -3.997372e+001
2004000000 1.055998e+000 -2.541368e+001 1.249013e-003 -1.236512e+002 2.202600e-003 -1.458291e+002 1.136077e+000 -3.998030e+001
2004125000 1.056017e+000 -2.543227e+001 1.239220e-003 -1.242464e+002 2.290492e-003 -1.442448e+002 1.136278e+000 -3.997268e+001
2004250000 1.056126e+000 -2.543651e+001 1.243468e-003 -1.235162e+002 2.201751e-003 -1.455539e+002 1.135910e+000 -3.997513e+001
2004375000 1.056122e+000 -2.543664e+001 1.203789e-003 -1.256731e+002 2.184411e-003 -1.433102e+002 1.135831e+000 -3.997250e+001
2004500000 1.056323e+000 -2.542664e+001 1.229478e-003 -1.255732e+002 2.280585e-003 -1.451849e+002 1.135336e+000 -3.996730e+001
2004625000 1.056328e+000 -2.542341e+001 1.252683e-003 -1.251059e+002 2.229529e-003 -1.456683e+002 1.135219e+000 -3.997050e+001
2004750000 1.056442e+000 -2.542163e+001 1.256277e-003 -1.245499e+002 2.274594e-003 -1.458457e+002 1.134942e+000 -3.997708e+001
2004875000 1.056496e+000 -2.543292e+001 1.250769e-003 -1.261991e+002 2.295728e-003 -1.450466e+002 1.134842e+000 -3.997972e+001
2005000000 1.056610e+000 -2.542868e+001 1.288428e-003 -1.260318e+002 2.230567e-003 -1.452607e+002 1.134688e+000 -3.998521e+001
2005125000 1.056680e+000 -2.543276e+001 1.255110e-003 -1.255372e+002 2.291088e-003 -1.442754e+002 1.134776e+000 -3.997051e+001
2005250000 1.056540e+000 -2.543993e+001 1.256393e-003 -1.251663e+002 2.260178e-003 -1.446676e+002 1.134931e+000 -3.995116e+001
2005375000 1.056419e+000 -2.545083e+001 1.281800e-003 -1.265178e+002 2.300355e-003 -1.448113e+002 1.135475e+000 -3.994030e+001
2005500000 1.056547e+000 -2.545340e+001 1.218141e-003 -1.246351e+002 2.214346e-003 -1.448841e+002 1.135550e+000 -3.993406e+001
2005625000 1.056463e+000 -2.546084e+001 1.241781e-003 -1.255797e+002 2.253397e-003 -1.454541e+002 1.135753e+000 -3.992213e+001
2005750000 1.056382e+000 -2.545178e+001 1.247267e-003 -1.262306e+002 2.266221e-003 -1.448931e+002 1.135985e+000 -3.992646e+001
2005875000 1.056513e+000 -2.545374e+001 1.287228e-003 -1.260482e+002 2.238996e-003 -1.453944e+002 1.136107e+000 -3.993495e+001
2006000000 1.056668e+000 -2.545465e+001 1.238412e-003 -1.244969e+002 2.274525e-003 -1.457441e+002 1.136372e+000 -3.994116e+001
2006125000 1.056559e+000 -2.545427e+001 1.269826e-003 -1.254370e+002 2.211115e-003 -1.444980e+002 1.136586e+000 -3.995252e+001
2006250000 1.056612e+000 -2.545955e+001 1.274070e-003 -1.273748e+002 2.263272e-003 -1.449216e+002 1.136743e+000 -3.996669e+001
2006375000 1.056635e+000 -2.546348e+001 1.284105e-003 -1.260399e+002 2.221112e-003 -1.447635e+002 1.136655e+000 -3.998651e+001
2006500000 1.056709e+000 -2.546803e+001 1.253090e-003 -1.272068e+002 2.241446e-003 -1.446524e+002 1.136761e+000 -4.001056e+001
2006625000 1.056645e+000 -2.546823e+001 1.290743e-003 -1.268742e+002 2.266239e-003 -1.455725e+002 1.136585e+000 -4.001034e+001
2006750000 1.056429e+000 -2.546740e+001 1.281083e-003 -1.275111e+002 2.204389e-003 -1.458613e+002 1.136513e+000 -4.002159e+001
2006875000 1.056438e+000 -2.547128e+001 1.277339e-003 -1.278077e+002 2.343763e-003 -1.448298e+002 1.136619e+000 -4.002725e+001
2007000000 1.056382e+000 -2.547596e+001 1.235184e-003 -1.288553e+002 2.285840e-003 -1.468550e+002 1.136656e+000 -4.002620e+001
2007125000 1.056342e+000 -2.548123e+001 1.291979e-003 -1.268466e+002 2.237697e-003 -1.466963e+002 1.136435e+000 -4.003677e+001
2007250000 1.056334e+000 -2.548538e+001 1.274955e-003 -1.276095e+002 2.262238e-003 -1.474032e+002 1.136228e+000 -4.003906e+001
2007375000 1.056344e+000 -2.549153e+001 1.293124e-003 -1.270652e+002 2.236245e-003 -1.462583e+002 1.135949e+000 -4.001649e+001
2007500000 1.056491e+000 -2.549325e+001 1.265178e-003 -1.285815e+002 2.314345e-003 -1.453706e+002 1.135819e+000 -4.000436e+001
2007625000 1.056384e+000 -2.550394e+001 1.251673e-003 -1.272535e+002 2.316292e-003 -1.453525e+002 1.135430e+000 -4.000936e+001
2007750000 1.056536e+000 -2.552290e+001 1.264993e-003 -1.278473e+002 2.236658e-003 -1.451299e+002 1.135422e+000 -4.000185e+001
2007875000 1.056426e+000 -2.552489e+001 1.279288e-003 -1.272080e+002 2.297167e-003 -1.456566e+002 1.135198e+000 -3.999542e+001
2008000000 1.056379e+000 -2.553207e+001 1.307160e-003 -1.280368e+002 2.229280e-003 -1.460986e+002 1.134679e+000 -3.999236e+001
2008125000 1.056328e+000 -2.551353e+001 1.310676e-003 -1.279368e+002 2.219668e-003 -1.478721e+002 1.134572e+000 -3.999178e+001
2008250000 1.056217e+000 -2.550817e+001 1.281812e-003 -1.274299e+002 2.290595e-003 -1.465695e+002 1.134454e+000 -3.998556e+001
2008375000 1.056227e+000 -2.548583e+001 1.298084e-003 -1.273680e+002 2.318568e-003 -1.466068e+002 1.134264e+000 -3.999120e+001
2008500000 1.056156e+000 -2.547002e+001 1.281159e-003 -1.274762e+002 2.320858e-003 -1.457009e+002 1.134071e+000 -4.000475e+001
2008625000 1.056099e+000 -2.545786e+001 1.257040e-003 -1.275540e+002 2.361941e-003 -1.479472e+002 1.133955e+000 -4.002426e+001
2008750000 1.056163e+000 -2.545760e+001 1.292903e-003 -1.285580e+002 2.316519e-003 -1.475555e+002 1.134365e+000 -4.003259e+001
2008875000 1.056108e+000 -2.546523e+001 1.297859e-003 -1.276874e+002 2.338351e-003 -1.458421e+002 1.134558e+000 -4.004014e+001
2009000000 1.056044e+000 -2.547580e+001 1.289470e-003 -1.282206e+002 2.218638e-003 -1.466669e+002 1.134913e+000 -4.005725e+001
2009125000 1.056089e+000 -2.548368e+001 1.292535e-003 -1.276648e+002 2.328606e-003 -1.488916e+002 1.135207e+000 -4.006624e+001
2009250000 1.055874e+000 -2.548318e+001 1.278760e-003 -1.289983e+002 2.330070e-003 -1.463512e+002 1.135203e+000 -4.008424e+001
2009375000 1.056073e+000 -2.549989e+001 1.321820e-003 -1.287633e+002 2.374168e-003 -1.469044e+002 1.135695e+000 -4.009694e+001
2009500000 1.055954e+000 -2.550598e+001 1.276061e-003 -1.287707e+002 2.312985e-003 -1.466222e+002 1.135678e+000 -4.008784e+001
2009625000 1.056223e+000 -2.550634e+001 1.300084e-003 -1.299697e+002 2.238670e-003 -1.480684e+002 1.135831e+000 -4.010432e+001
2009750000 1.056360e+000 -2.550253e+001 1.302079e-003 -1.278815e+002 2.315463e-003 -1.475178e+002 1.135868e+000 -4.010829e+001
2009875000 1.056458e+000 -2.550478e+001 1.254900e-003 -1.280926e+002 2.285766e-003 -1.494188e+002 1.135941e+000 -4.010870e+001
2010000000 1.056592e+000 -2.549429e+001 1.302919e-003 -1.290176e+002 2.303522e-003 -1.491702e+002 1.135617e+000 -4.012223e+001
2010125000 1.056693e+000 -2.548917e+001 1.293684e-003 -1.280450e+002 2.329997e-003 -1.471460e+002 1.135645e+000 -4.014055e+001
2010250000 1.056711e+000 -2.548445e+001 1.317694e-003 -1.279445e+002 2.311019e-003 -1.464248e+002 1.135687e+000 -4.013454e+001
2010375000 1.056612e+000 -2.548259e+001 1.294674e-003 -1.284147e+002 2.311951e-003 -1.481700e+002 1.135254e+000 -4.013257e+001
2010500000 1.056749e+000 -2.549234e+001 1.321952e-003 -1.281836e+002 2.312597e-003 -1.476629e+002 1.134976e+000 -4.014819e+001
2010625000 1.056686e+000 -2.548025e+001 1.321617e-003 -1.286009e+002 2.383088e-003 -1.483160e+002 1.134803e+000 -4.013330e+001
2010750000 1.056670e+000 -2.548461e+001 1.302632e-003 -1.288285e+002 2.325689e-003 -1.476432e+002 1.134429e+000 -4.013749e+001
2010875000 1.056610e+000 -2.547675e+001 1.293304e-003 -1.279472e+002 2.288907e-003 -1.487135e+002 1.134145e+000 -4.013426e+001
2011000000 1.056646e+000 -2.547976e+001 1.315874e-003 -1.303091e+002 2.370223e-003 -1.491543e+002 1.134037e+000 -4.014705e+001
2011125000 1.056136e+000 -2.548454e+001 1.319608e-003 -1.291691e+002 2.337556e-003 -1.476400e+002 1.134234e+000 -4.012378e+001
2011250000 1.055825e+000 -2.549655e+001 1.294896e-003 -1.310346e+002 2.357858e-003 -1.477615e+002 1.134415e+000 -4.010200e+001
2011375000 1.055684e+000 -2.549730e+001 1.304318e-003 -1.293467e+002 2.351516e-003 -1.486855e+002 1.134923e+000 -4.009056e+001
2011500000 1.055376e+000 -2.549711e+001 1.324091e-003 -1.293827e+002 2.348054e-003 -1.489602e+002 1.134996e+000 -4.006150e+001
2011625000 1.055291e+000 -2.550530e+001 1.282901e-003 -1.299473e+002 2.390047e-003 -1.497663e+002 1.135212e+000 -4.005132e+001
2011750000 1.055125e+000 -2.551149e+001 1.302826e-003 -1.300950e+002 2.366415e-003 -1.498857e+002 1.135527e+000 -4.002020e+001
2011875000 1.055328e+000 -2.552457e+001 1.326194e-003 -1.311307e+002 2.328657e-003 -1.498955e+002 1.134792e+000 -4.004580e+001
2012000000 1.055504e+000 -2.554075e+001 1.260587e-003 -1.303711e+002 2.275232e-003 -1.470904e+002 1.134220e+000 -4.006704e+001
2012125000 1.055854e+000 -2.555056e+001 1.314437e-003 -1.312687e+002 2.372028e-003 -1.499166e+002 1.133685e+000 -4.008085e+001
2012250000 1.056104e+000 -2.556254e+001 1.337325e-003 -1.280081e+002 2.439220e-003 -1.471710e+002 1.133234e+000 -4.010740e+001
2012375000 1.056504e+000 -2.555775e+001 1.339165e-003 -1.290943e+002 2.295437e-003 -1.492936e+002 1.133160e+000 -4.012575e+001
2012500000 1.056827e+000 -2.556025e+001 1.355792e-003 -1.298383e+002 2.385895e-003 -1.489312e+002 1.133079e+000 -4.015040e+001
2012625000 1.057118e+000 -2.552458e+001 1.313078e-003 -1.293728e+002 2.326612e-003 -1.484237e+002 1.134367e+000 -4.015857e+001
2012750000 1.057608e+000 -2.550095e+001 1.318887e-003 -1.309914e+002 2.349896e-003 -1.508696e+002 1.135461e+000 -4.014541e+001
2012875000 1.057714e+000 -2.546717e+001 1.303171e-003 -1.302767e+002 2.362647e-003 -1.492556e+002 1.136225e+000 -4.013160e+001
2013000000 1.057801e+000 -2.545312e+001 1.310502e-003 -1.308647e+002 2.431397e-003 -1.489403e+002 1.137063e+000 -4.013011e+001
2013125000 1.058049e+000 -2.544310e+001 1.341740e-003 -1.296345e+002 2.332865e-003 -1.500639e+002 1.137777e+000 -4.012246e+001
2013250000 1.058231e+000 -2.543421e+001 1.337151e-003 -1.306619e+002 2.333805e-003 -1.504329e+002 1.138118e+000 -4.011203e+001
2013375000 1.057280e+000 -2.544499e+001 1.341169e-003 -1.310016e+002 2.357041e-003 -1.496837e+002 1.137750e+000 -4.009585e+001
2013500000 1.056673e+000 -2.547599e+001 1.337530e-003 -1.310774e+002 2.283703e-003 -1.501717e+002 1.137442e+000 -4.008158e+001
2013625000 1.056015e+000 -2.549048e+001 1.336970e-003 -1.307234e+002 2.368746e-003 -1.482931e+002 1.137313e+000 -4.007199e+001
2013750000 1.055566e+000 -2.551940e+001 1.298661e-003 -1.311836e+002 2.373101e-003 -1.502365e+002 1.137232e+000 -4.007413e+001
2013875000 1.055067e+000 -2.553661e+001 1.323278e-003 -1.315541e+002 2.315400e-003 -1.502417e+002 1.136803e+000 -4.006033e+001
2014000000 1.054969e+000 -2.555330e+001 1.329212e-003 -1.316518e+002 2.324965e-003 -1.508492e+002 1.136361e+000 -4.005960e+001
2014125000 1.055297e+000 -2.552743e+001 1.312215e-003 -1.321928e+002 2.418046e-003 -1.485340e+002 1.136431e+000 -4.006457e+001
2014250000 1.055714e+000 -2.552060e+001 1.335687e-003 -1.325982e+002 2.368801e-003 -1.517185e+002 1.136299e+000 -4.008408e+001
2014375000 1.055836e+000 -2.550510e+001 1.383794e-003 -1.304081e+002 2.424279e-003 -1.497361e+002 1.135759e+000 -4.011642e+001
2014500000 1.056209e+000 -2.550510e+001 1.326840e-003 -1.333742e+002 2.438633e-003 -1.497927e+002 1.135280e+000 -4.014180e+001
2014625000 1.056292e+000 -2.549468e+001 1.343952e-003 -1.320065e+002 2.368571e-003 -1.508630e+002 1.135378e+000 -4.015066e+001
2014750000 1.056355e+000 -2.548979e+001 1.340106e-003 -1.332115e+002 2.412857e-003 -1.514526e+002 1.134940e+000 -4.015749e+001
2014875000 1.056058e+000 -2.551790e+001 1.356198e-003 -1.328688e+002 2.420292e-003 -1.501551e+002 1.134792e+000 -4.014952e+001
2015000000 1.055700e+000 -2.551988e+001 1.339146e-003 -1.318581e+002 2.397525e-003 -1.486251e+002 1.134508e+000 -4.014359e+001
2015125000 1.055770e+000 -2.554459e+001 1.373024e-003 -1.320339e+002 2.413766e-003 -1.511482e+002 1.133995e+000 -4.012831e+001
2015250000 1.055398e+000 -2.555323e+001 1.325495e-003 -1.320441e+002 2.357199e-003 -1.509281e+002 1.133965e+000 -4.012069e+001
2015375000 1.055351e+000 -2.557796e+001 1.373192e-003 -1.341485e+002 2.354409e-003 -1.503516e+002 1.133772e+000 -4.009093e+001
2015500000 1.055339e+000 -2.559503e+001 1.351990e-003 -1.320554e+002 2.395140e-003 -1.525196e+002 1.133796e+000 -4.008762e+001
2015625000 1.055845e+000 -2.559487e+001 1.332445e-003 -1.321038e+002 2.447133e-003 -1.503075e+002 1.134244e+000 -4.008067e+001
2015750000 1.055741e+000 -2.561004e+001 1.340395e-003 -1.323158e+002 2.456380e-003 -1.511022e+002 1.134405e+000 -4.009858e+001
2015875000 1.056135e+000 -2.560820e+001 1.369531e-003 -1.337590e+002 2.374572e-003 -1.517502e+002 1.134686e+000 -4.010036e+001
2016000000 1.056193e+000 -2.561635e+001 1.354490e-003 -1.333465e+002 2.443841e-003 -1.517496e+002 1.135051e+000 -4.011874e+001
2016125000 1.056315e+000 -2.561942e+001 1.358802e-003 -1.316277e+002 2.415689e-003 -1.510091e+002 1.135307e+000 -4.010679e+001
2016250000 1.056444e+000 -2.561778e+001 1.331762e-003 -1.338174e+002 2.376208e-003 -1.509364e+002 1.135595e+000 -4.011834e+001
2016375000 1.056220e+000 -2.560827e+001 1.410372e-003 -1.328153e+002 2.409494e-003 -1.505175e+002 1.135567e+000 -4.013974e+001
2016500000 1.056272e+000 -2.560816e+001 1.358924e-003 -1.335140e+002 2.430360e-003 -1.519677e+002 1.135178e+000 -4.015456e+001
2016625000 1.056185e+000 -2.561372e+001 1.374239e-003 -1.314395e+002 2.404353e-003 -1.507488e+002 1.135045e+000 -4.016829e+001
2016750000 1.056012e+000 -2.560738e+001 1.365754e-003 -1.325117e+002 2.472593e-003 -1.511501e+002 1.135105e+000 -4.019445e+001
2016875000 1.055921e+000 -2.562215e+001 1.359039e-003 -1.332349e+002 2.416693e-003 -1.528857e+002 1.134962e+000 -4.020299e+001
2017000000 1.055612e+000 -2.562157e+001 1.373161e-003 -1.336651e+002 2.468881e-003 -1.513985e+002 1.135173e+000 -4.019723e+001
2017125000 1.055287e+000 -2.563057e+001 1.371313e-003 -1.332410e+002 2.459813e-003 -1.525944e+002 1.135398e+000 -4.021638e+001
2017250000 1.055154e+000 -2.563968e+001 1.388822e-003 -1.340262e+002 2.478240e-003 -1.520945e+002 1.135864e+000 -4.021550e+001
2017375000 1.054948e+000 -2.563993e+001 1.408323e-003 -1.344144e+002 2.442008e-003 -1.511387e+002 1.135695e+000 -4.022159e+001
2017500000 1.054791e+000 -2.563939e+001 1.367381e-003 -1.342448e+002 2.432329e-003 -1.517428e+002 1.136245e+000 -4.024665e+001
2017625000 1.054768e+000 -2.564426e+001 1.400382e-003 -1.331708e+002 2.420872e-003 -1.532037e+002 1.136229e+000 -4.023724e+001
2017750000 1.054631e+000 -2.564586e+001 1.375064e-003 -1.348260e+002 2.508990e-003 -1.511721e+002 1.136381e+000 -4.024918e+001
2017875000 1.054900e+000 -2.562929e+001 1.342726e-003 -1.342879e+002 2.435905e-003 -1.518079e+002 1.135569e+000 -4.024345e+001
2018000000 1.054819e+000 -2.562356e+001 1.414116e-003 -1.331644e+002 2.526071e-003 -1.533352e+002 1.135735e+000 -4.023980e+001
2018125000 1.055152e+000 -2.559981e+001 1.415925e-003 -1.340569e+002 2.535072e-003 -1.535731e+002 1.135328e+000 -4.024514e+001
2018250000 1.055387e+000 -2.558362e+001 1.419599e-003 -1.343202e+002 2.478490e-003 -1.532367e+002 1.135135e+000 -4.023833e+001
2018375000 1.055421e+000 -2.556615e+001 1.376170e-003 -1.342312e+002 2.431317e-003 -1.519223e+002 1.135428e+000 -4.022501e+001
2018500000 1.055808e+000 -2.556253e+001 1.389953e-003 -1.336749e+002 2.411589e-003 -1.532361e+002 1.135199e+000 -4.023280e+001
2018625000 1.056393e+000 -2.556390e+001 1.406151e-003 -1.331431e+002 2.390966e-003 -1.519067e+002 1.134557e+000 -4.022906e+001
2018750000 1.056762e+000 -2.557298e+001 1.415773e-003 -1.346353e+002 2.496724e-003 -1.526759e+002 1.134321e+000 -4.023562e+001
2018875000 1.056870e+000 -2.558150e+001 1.402234e-003 -1.348853e+002 2.546282e-003 -1.514848e+002 1.134077e+000 -4.023102e+001
2019000000 1.057168e+000 -2.558941e+001 1.379099e-003 -1.334799e+002 2.437052e-003 -1.530002e+002 1.134041e+000 -4.022573e+001
