!Agilent Technologies,N5230C,SG49000117,A.08.50.07
!Agilent N5230C: A.08.50.07
!Date: Thursday, May 09, 2024 01:59:58
!Correction: S11(Full 2 Port(1,2)) 
!S21(Full 2 Port(1,2)) 
!S12(Full 2 Port(1,2)) 
!S22(Full 2 Port(1,2)) 
!S2P File: Measurements: S11, S21, S12, S22:
# Hz S  MA   R 50
2000000000 1.055680e+000 -2.528990e+001 1.179281e-003 -1.023216e+002 2.123811e-003 -1.215555e+002 1.132448e+000 -3.996233e+001
2000100000 1.055490e+000 -2.529424e+001 1.186366e-003 -1.023949e+002 2.152845e-003 -1.220995e+002 1.132967e+000 -3.994412e+001
2000200000 1.055398e+000 -2.530281e+001 1.192766e-003 -1.014030e+002 2.127541e-003 -1.218648e+002 1.133223e+000 -3.995671e+001
2000300000 1.055246e+000 -2.531003e+001 1.205653e-003 -1.026713e+002 2.156602e-003 -1.218322e+002 1.133399e+000 -3.995948e+001
2000400000 1.055096e+000 -2.531592e+001 1.189346e-003 -1.028074e+002 2.143734e-003 -1.220867e+002 1.133689e+000 -3.996710e+001
2000500000 1.055014e+000 -2.531984e+001 1.196467e-003 -1.032213e+002 2.152609e-003 -1.219956e+002 1.133785e+000 -3.996940e+001
2000600000 1.054989e+000 -2.531904e+001 1.191827e-003 -1.023221e+002 2.128256e-003 -1.216634e+002 1.133723e+000 -3.995152e+001
2000700000 1.054935e+000 -2.530712e+001 1.192146e-003 -1.033239e+002 2.166799e-003 -1.220346e+002 1.133727e+000 -3.993599e+001
2000800000 1.055045e+000 -2.529306e+001 1.183039e-003 -1.021556e+002 2.171476e-003 -1.222622e+002 1.133564e+000 -3.991713e+001
2000900000 1.055061e+000 -2.528455e+001 1.193420e-003 -1.035142e+002 2.187147e-003 -1.232992e+002 1.133538e+000 -3.990875e+001
2001000000 1.055054e+000 -2.527971e+001 1.192207e-003 -1.028657e+002 2.196951e-003 -1.230003e+002 1.133290e+000 -3.989378e+001
2001100000 1.054958e+000 -2.527192e+001 1.193258e-003 -1.036500e+002 2.166105e-003 -1.227800e+002 1.133175e+000 -3.988214e+001
2001200000 1.054921e+000 -2.526341e+001 1.184986e-003 -1.046985e+002 2.175745e-003 -1.230495e+002 1.133229e+000 -3.988238e+001
2001300000 1.054914e+000 -2.526869e+001 1.189859e-003 -1.040372e+002 2.196081e-003 -1.230654e+002 1.133011e+000 -3.989874e+001
2001400000 1.055075e+000 -2.528567e+001 1.185629e-003 -1.052410e+002 2.131110e-003 -1.230783e+002 1.132791e+000 -3.992503e+001
2001500000 1.055125e+000 -2.529751e+001 1.197431e-003 -1.042524e+002 2.186739e-003 -1.238652e+002 1.132504e+000 -3.996180e+001
2001600000 1.055334e+000 -2.531028e+001 1.200119e-003 -1.037307e+002 2.159085e-003 -1.230225e+002 1.132325e+000 -3.998387e+001
2001700000 1.055560e+000 -2.531908e+001 1.233304e-003 -1.045499e+002 2.191443e-003 -1.232137e+002 1.132143e+000 -4.000488e+001
2001800000 1.055711e+000 -2.532825e+001 1.226717e-003 -1.047442e+002 2.162768e-003 -1.240194e+002 1.131843e+000 -4.003233e+001
2001900000 1.055937e+000 -2.533971e+001 1.211797e-003 -1.046668e+002 2.187191e-003 -1.236609e+002 1.131650e+000 -4.005758e+001
2002000000 1.056085e+000 -2.533620e+001 1.215670e-003 -1.050447e+002 2.140380e-003 -1.241206e+002 1.131723e+000 -4.007470e+001
2002100000 1.056114e+000 -2.532895e+001 1.211215e-003 -1.051952e+002 2.188025e-003 -1.244212e+002 1.131816e+000 -4.005154e+001
2002200000 1.056257e+000 -2.531646e+001 1.211758e-003 -1.050732e+002 2.201075e-003 -1.248795e+002 1.131995e+000 -4.001461e+001
2002300000 1.056046e+000 -2.530158e+001 1.196104e-003 -1.050168e+002 2.192189e-003 -1.249798e+002 1.132231e+000 -3.999526e+001
2002400000 1.056051e+000 -2.529500e+001 1.229654e-003 -1.059579e+002 2.182700e-003 -1.232111e+002 1.132507e+000 -3.997262e+001
2002500000 1.056017e+000 -2.528614e+001 1.215505e-003 -1.061287e+002 2.199620e-003 -1.256049e+002 1.132591e+000 -3.994785e+001
2002600000 1.055886e+000 -2.527832e+001 1.205364e-003 -1.053180e+002 2.157225e-003 -1.257025e+002 1.132746e+000 -3.992227e+001
2002700000 1.055772e+000 -2.527452e+001 1.220630e-003 -1.052877e+002 2.132140e-003 -1.258908e+002 1.132804e+000 -3.990834e+001
2002800000 1.055687e+000 -2.526843e+001 1.226210e-003 -1.056111e+002 2.175023e-003 -1.262745e+002 1.132849e+000 -3.990292e+001
2002900000 1.055604e+000 -2.527827e+001 1.224426e-003 -1.052155e+002 2.168013e-003 -1.251661e+002 1.132865e+000 -3.991211e+001
2003000000 1.055484e+000 -2.528744e+001 1.203480e-003 -1.057943e+002 2.118975e-003 -1.253536e+002 1.132982e+000 -3.993641e+001
2003100000 1.055397e+000 -2.529484e+001 1.194010e-003 -1.068781e+002 2.153608e-003 -1.249621e+002 1.133007e+000 -3.994350e+001
2003200000 1.055312e+000 -2.529771e+001 1.188440e-003 -1.080416e+002 2.157837e-003 -1.253729e+002 1.133127e+000 -3.996805e+001
2003300000 1.055357e+000 -2.531429e+001 1.231681e-003 -1.068231e+002 2.190028e-003 -1.261104e+002 1.133098e+000 -3.998188e+001
2003400000 1.055285e+000 -2.531847e+001 1.205378e-003 -1.077013e+002 2.202781e-003 -1.262549e+002 1.133360e+000 -4.000137e+001
2003500000 1.055313e+000 -2.532668e+001 1.205721e-003 -1.075062e+002 2.240482e-003 -1.260358e+002 1.133282e+000 -4.000842e+001
2003600000 1.055301e+000 -2.532556e+001 1.229480e-003 -1.065828e+002 2.170097e-003 -1.269594e+002 1.133440e+000 -4.000962e+001
2003700000 1.055310e+000 -2.533605e+001 1.207349e-003 -1.079692e+002 2.173704e-003 -1.266076e+002 1.133662e+000 -3.999767e+001
2003800000 1.055433e+000 -2.533951e+001 1.211868e-003 -1.082554e+002 2.188922e-003 -1.275991e+002 1.133911e+000 -3.999523e+001
2003900000 1.055455e+000 -2.535756e+001 1.239063e-003 -1.085140e+002 2.181914e-003 -1.275771e+002 1.133919e+000 -3.999069e+001
2004000000 1.055389e+000 -2.535528e+001 1.202612e-003 -1.073982e+002 2.207145e-003 -1.271556e+002 1.133888e+000 -3.998806e+001
2004100000 1.055547e+000 -2.535721e+001 1.214780e-003 -1.083799e+002 2.201635e-003 -1.270374e+002 1.134122e+000 -3.999088e+001
2004200000 1.055417e+000 -2.536223e+001 1.235434e-003 -1.084247e+002 2.162210e-003 -1.277944e+002 1.134079e+000 -3.998908e+001
2004300000 1.055408e+000 -2.536924e+001 1.212283e-003 -1.083993e+002 2.160985e-003 -1.283054e+002 1.133827e+000 -3.998282e+001
2004400000 1.055515e+000 -2.536425e+001 1.225200e-003 -1.101878e+002 2.219895e-003 -1.284564e+002 1.133608e+000 -3.997882e+001
2004500000 1.055540e+000 -2.536347e+001 1.220633e-003 -1.079245e+002 2.184205e-003 -1.277973e+002 1.133157e+000 -3.998719e+001
2004600000 1.055667e+000 -2.536153e+001 1.215913e-003 -1.098102e+002 2.180829e-003 -1.293827e+002 1.133091e+000 -3.998425e+001
2004700000 1.055705e+000 -2.535958e+001 1.224837e-003 -1.086973e+002 2.191598e-003 -1.276766e+002 1.132912e+000 -3.998681e+001
2004800000 1.055905e+000 -2.535936e+001 1.220036e-003 -1.075452e+002 2.177393e-003 -1.283601e+002 1.132921e+000 -3.998552e+001
2004900000 1.055936e+000 -2.535325e+001 1.222607e-003 -1.101631e+002 2.160226e-003 -1.282493e+002 1.132682e+000 -3.997928e+001
2005000000 1.055979e+000 -2.535644e+001 1.211655e-003 -1.092806e+002 2.170439e-003 -1.281758e+002 1.132584e+000 -3.998556e+001
2005100000 1.055976e+000 -2.536078e+001 1.219498e-003 -1.092734e+002 2.183212e-003 -1.295021e+002 1.132812e+000 -3.997722e+001
2005200000 1.055882e+000 -2.536956e+001 1.227060e-003 -1.088323e+002 2.207768e-003 -1.289371e+002 1.132970e+000 -3.996562e+001
2005300000 1.055884e+000 -2.537568e+001 1.215944e-003 -1.087612e+002 2.150858e-003 -1.284028e+002 1.133290e+000 -3.995942e+001
2005400000 1.055880e+000 -2.537691e+001 1.252307e-003 -1.097196e+002 2.142976e-003 -1.279095e+002 1.133350e+000 -3.994871e+001
2005500000 1.055824e+000 -2.537966e+001 1.219595e-003 -1.100473e+002 2.189596e-003 -1.284694e+002 1.133451e+000 -3.994100e+001
2005600000 1.055783e+000 -2.538624e+001 1.211344e-003 -1.095922e+002 2.197727e-003 -1.291935e+002 1.133655e+000 -3.993481e+001
2005700000 1.055892e+000 -2.538766e+001 1.223165e-003 -1.099197e+002 2.228699e-003 -1.282965e+002 1.133924e+000 -3.993691e+001
2005800000 1.055904e+000 -2.538913e+001 1.232345e-003 -1.100187e+002 2.188653e-003 -1.296597e+002 1.134006e+000 -3.993771e+001
2005900000 1.055910e+000 -2.538820e+001 1.242993e-003 -1.102358e+002 2.202268e-003 -1.300998e+002 1.134260e+000 -3.994215e+001
2006000000 1.055863e+000 -2.538647e+001 1.222552e-003 -1.097987e+002 2.159511e-003 -1.295347e+002 1.134358e+000 -3.995580e+001
2006100000 1.056046e+000 -2.538915e+001 1.206763e-003 -1.100889e+002 2.168304e-003 -1.301992e+002 1.134394e+000 -3.997222e+001
2006200000 1.056188e+000 -2.538802e+001 1.243720e-003 -1.110206e+002 2.200143e-003 -1.299127e+002 1.134562e+000 -3.998767e+001
2006300000 1.056090e+000 -2.539108e+001 1.242896e-003 -1.112074e+002 2.176305e-003 -1.296750e+002 1.134633e+000 -3.999516e+001
2006400000 1.056131e+000 -2.539187e+001 1.219377e-003 -1.116139e+002 2.183933e-003 -1.307738e+002 1.134667e+000 -4.000372e+001
2006500000 1.056092e+000 -2.539262e+001 1.197617e-003 -1.109097e+002 2.218735e-003 -1.301864e+002 1.134805e+000 -4.002851e+001
2006600000 1.055964e+000 -2.539694e+001 1.224918e-003 -1.110259e+002 2.183264e-003 -1.314316e+002 1.134756e+000 -4.002475e+001
2006700000 1.055955e+000 -2.539795e+001 1.235208e-003 -1.122043e+002 2.184381e-003 -1.304235e+002 1.134733e+000 -4.003009e+001
2006800000 1.055813e+000 -2.540597e+001 1.227385e-003 -1.119985e+002 2.172049e-003 -1.310927e+002 1.134596e+000 -4.003185e+001
2006900000 1.055837e+000 -2.540483e+001 1.230876e-003 -1.124464e+002 2.183355e-003 -1.308414e+002 1.134628e+000 -4.003766e+001
2007000000 1.055814e+000 -2.540385e+001 1.238649e-003 -1.119341e+002 2.162406e-003 -1.312351e+002 1.134512e+000 -4.004100e+001
2007100000 1.055874e+000 -2.540927e+001 1.246892e-003 -1.118829e+002 2.158092e-003 -1.317453e+002 1.134378e+000 -4.004939e+001
2007200000 1.055821e+000 -2.541122e+001 1.243722e-003 -1.122887e+002 2.209710e-003 -1.313369e+002 1.134325e+000 -4.005150e+001
2007300000 1.055681e+000 -2.541504e+001 1.241092e-003 -1.116358e+002 2.179290e-003 -1.313418e+002 1.134263e+000 -4.005421e+001
2007400000 1.055767e+000 -2.542465e+001 1.233955e-003 -1.125706e+002 2.229796e-003 -1.313168e+002 1.133981e+000 -4.004079e+001
2007500000 1.055851e+000 -2.543246e+001 1.200472e-003 -1.128872e+002 2.222706e-003 -1.302655e+002 1.133848e+000 -4.003067e+001
2007600000 1.055838e+000 -2.544097e+001 1.217522e-003 -1.125413e+002 2.193950e-003 -1.317845e+002 1.133516e+000 -4.003019e+001
2007700000 1.055827e+000 -2.544917e+001 1.233160e-003 -1.138360e+002 2.201667e-003 -1.329578e+002 1.133353e+000 -4.001833e+001
2007800000 1.055828e+000 -2.545194e+001 1.239895e-003 -1.129212e+002 2.165830e-003 -1.322745e+002 1.133185e+000 -4.001307e+001
2007900000 1.055938e+000 -2.545528e+001 1.228855e-003 -1.133220e+002 2.200777e-003 -1.332152e+002 1.132949e+000 -4.001158e+001
2008000000 1.055826e+000 -2.546151e+001 1.222487e-003 -1.132255e+002 2.200177e-003 -1.321937e+002 1.132936e+000 -4.000035e+001
2008100000 1.055720e+000 -2.545091e+001 1.242295e-003 -1.145971e+002 2.190350e-003 -1.330694e+002 1.132692e+000 -4.001038e+001
2008200000 1.055809e+000 -2.543919e+001 1.229476e-003 -1.133616e+002 2.192009e-003 -1.324486e+002 1.132415e+000 -4.000324e+001
2008300000 1.055745e+000 -2.542737e+001 1.235112e-003 -1.132187e+002 2.198404e-003 -1.324242e+002 1.132423e+000 -4.000563e+001
2008400000 1.055612e+000 -2.541169e+001 1.234606e-003 -1.147055e+002 2.154550e-003 -1.322692e+002 1.132314e+000 -4.001746e+001
2008500000 1.055686e+000 -2.540312e+001 1.242220e-003 -1.142848e+002 2.155084e-003 -1.341846e+002 1.132178e+000 -4.001722e+001
2008600000 1.055509e+000 -2.540009e+001 1.231623e-003 -1.144610e+002 2.192493e-003 -1.325216e+002 1.132337e+000 -4.001761e+001
2008700000 1.055509e+000 -2.538449e+001 1.238855e-003 -1.142896e+002 2.193957e-003 -1.323799e+002 1.132327e+000 -4.003152e+001
2008800000 1.055584e+000 -2.539100e+001 1.225111e-003 -1.137931e+002 2.200910e-003 -1.331867e+002 1.132428e+000 -4.003634e+001
2008900000 1.055613e+000 -2.539969e+001 1.226488e-003 -1.143172e+002 2.213462e-003 -1.340309e+002 1.132715e+000 -4.005643e+001
2009000000 1.055370e+000 -2.540512e+001 1.236097e-003 -1.148173e+002 2.174788e-003 -1.339256e+002 1.132891e+000 -4.006455e+001
2009100000 1.055554e+000 -2.541449e+001 1.232442e-003 -1.158454e+002 2.214467e-003 -1.336956e+002 1.133098e+000 -4.007337e+001
2009200000 1.055437e+000 -2.542017e+001 1.220168e-003 -1.145806e+002 2.209014e-003 -1.343851e+002 1.133428e+000 -4.007632e+001
2009300000 1.055547e+000 -2.542383e+001 1.243947e-003 -1.138471e+002 2.198913e-003 -1.341708e+002 1.133550e+000 -4.008730e+001
2009400000 1.055541e+000 -2.543721e+001 1.226839e-003 -1.165812e+002 2.218678e-003 -1.342231e+002 1.133641e+000 -4.010248e+001
2009500000 1.055454e+000 -2.543719e+001 1.224964e-003 -1.151771e+002 2.177341e-003 -1.347994e+002 1.133886e+000 -4.011908e+001
2009600000 1.055585e+000 -2.543646e+001 1.218370e-003 -1.151592e+002 2.200024e-003 -1.344975e+002 1.133947e+000 -4.012064e+001
2009700000 1.055719e+000 -2.543090e+001 1.224629e-003 -1.150344e+002 2.212496e-003 -1.342433e+002 1.133996e+000 -4.012158e+001
2009800000 1.055859e+000 -2.543236e+001 1.213201e-003 -1.158419e+002 2.195164e-003 -1.352278e+002 1.133720e+000 -4.013004e+001
2009900000 1.056010e+000 -2.542663e+001 1.236297e-003 -1.152530e+002 2.219019e-003 -1.350354e+002 1.133995e+000 -4.013586e+001
2010000000 1.056026e+000 -2.542772e+001 1.241371e-003 -1.161790e+002 2.150426e-003 -1.357773e+002 1.133818e+000 -4.013364e+001
2010100000 1.056103e+000 -2.542571e+001 1.248387e-003 -1.155748e+002 2.173438e-003 -1.355616e+002 1.133756e+000 -4.013639e+001
2010200000 1.056065e+000 -2.542282e+001 1.234230e-003 -1.155716e+002 2.247331e-003 -1.351597e+002 1.133798e+000 -4.014571e+001
2010300000 1.056143e+000 -2.541834e+001 1.211767e-003 -1.161558e+002 2.191958e-003 -1.366108e+002 1.133519e+000 -4.014418e+001
2010400000 1.056089e+000 -2.541369e+001 1.226702e-003 -1.161372e+002 2.182304e-003 -1.360509e+002 1.133441e+000 -4.014605e+001
2010500000 1.056143e+000 -2.541101e+001 1.212100e-003 -1.169710e+002 2.199818e-003 -1.368075e+002 1.133136e+000 -4.014896e+001
2010600000 1.056097e+000 -2.541109e+001 1.220154e-003 -1.168269e+002 2.177579e-003 -1.364513e+002 1.132761e+000 -4.015205e+001
2010700000 1.056070e+000 -2.541394e+001 1.239864e-003 -1.171523e+002 2.205571e-003 -1.371657e+002 1.132568e+000 -4.015886e+001
2010800000 1.056152e+000 -2.541033e+001 1.217576e-003 -1.168482e+002 2.186751e-003 -1.363391e+002 1.132496e+000 -4.015247e+001
2010900000 1.056123e+000 -2.541460e+001 1.220326e-003 -1.167500e+002 2.182761e-003 -1.360563e+002 1.132163e+000 -4.015892e+001
2011000000 1.055990e+000 -2.541520e+001 1.218623e-003 -1.175250e+002 2.177537e-003 -1.353211e+002 1.132260e+000 -4.016142e+001
2011100000 1.055619e+000 -2.540971e+001 1.208315e-003 -1.171585e+002 2.175927e-003 -1.366596e+002 1.132436e+000 -4.014955e+001
2011200000 1.055352e+000 -2.542056e+001 1.233827e-003 -1.170672e+002 2.194106e-003 -1.361218e+002 1.132578e+000 -4.011897e+001
2011300000 1.055190e+000 -2.542313e+001 1.189907e-003 -1.180836e+002 2.215821e-003 -1.349119e+002 1.132861e+000 -4.009933e+001
2011400000 1.054954e+000 -2.542594e+001 1.235801e-003 -1.178982e+002 2.158814e-003 -1.362903e+002 1.132959e+000 -4.008873e+001
2011500000 1.054815e+000 -2.542746e+001 1.234239e-003 -1.172227e+002 2.184930e-003 -1.358698e+002 1.133201e+000 -4.006971e+001
2011600000 1.054543e+000 -2.543292e+001 1.239506e-003 -1.179250e+002 2.206472e-003 -1.354390e+002 1.133400e+000 -4.005966e+001
2011700000 1.054572e+000 -2.543440e+001 1.220376e-003 -1.190521e+002 2.186532e-003 -1.365941e+002 1.133366e+000 -4.004676e+001
2011800000 1.054709e+000 -2.544303e+001 1.231386e-003 -1.192962e+002 2.154538e-003 -1.364514e+002 1.133202e+000 -4.004897e+001
2011900000 1.054777e+000 -2.545889e+001 1.237876e-003 -1.186898e+002 2.176841e-003 -1.368786e+002 1.132863e+000 -4.006057e+001
2012000000 1.054837e+000 -2.547008e+001 1.220106e-003 -1.190712e+002 2.193240e-003 -1.373141e+002 1.132428e+000 -4.008080e+001
2012100000 1.055124e+000 -2.547459e+001 1.229977e-003 -1.184727e+002 2.173172e-003 -1.375676e+002 1.132283e+000 -4.009606e+001
2012200000 1.055315e+000 -2.548497e+001 1.206729e-003 -1.191981e+002 2.170481e-003 -1.378239e+002 1.131801e+000 -4.011692e+001
2012300000 1.055537e+000 -2.548653e+001 1.249652e-003 -1.194569e+002 2.127028e-003 -1.378051e+002 1.131601e+000 -4.013451e+001
2012400000 1.055841e+000 -2.549047e+001 1.202627e-003 -1.196889e+002 2.152136e-003 -1.369035e+002 1.131504e+000 -4.014914e+001
2012500000 1.056167e+000 -2.549132e+001 1.222778e-003 -1.182226e+002 2.171826e-003 -1.375550e+002 1.131597e+000 -4.016849e+001
2012600000 1.056559e+000 -2.546597e+001 1.232362e-003 -1.183989e+002 2.141121e-003 -1.378227e+002 1.132185e+000 -4.015902e+001
2012700000 1.056839e+000 -2.543224e+001 1.226195e-003 -1.201756e+002 2.198476e-003 -1.380429e+002 1.133170e+000 -4.016015e+001
2012800000 1.057056e+000 -2.541124e+001 1.211997e-003 -1.189300e+002 2.176744e-003 -1.383011e+002 1.133868e+000 -4.016109e+001
2012900000 1.057217e+000 -2.539372e+001 1.233081e-003 -1.193914e+002 2.197367e-003 -1.386450e+002 1.134628e+000 -4.015479e+001
2013000000 1.057388e+000 -2.537345e+001 1.234666e-003 -1.193737e+002 2.211159e-003 -1.387674e+002 1.135259e+000 -4.014725e+001
2013100000 1.057401e+000 -2.536665e+001 1.234503e-003 -1.194378e+002 2.128097e-003 -1.381936e+002 1.135791e+000 -4.013837e+001
2013200000 1.057461e+000 -2.536045e+001 1.210306e-003 -1.194386e+002 2.223182e-003 -1.381544e+002 1.136408e+000 -4.013586e+001
2013300000 1.057152e+000 -2.535748e+001 1.209253e-003 -1.202956e+002 2.198902e-003 -1.387595e+002 1.136389e+000 -4.012953e+001
2013400000 1.056492e+000 -2.537932e+001 1.240634e-003 -1.191867e+002 2.150171e-003 -1.386770e+002 1.136033e+000 -4.011934e+001
2013500000 1.055946e+000 -2.539860e+001 1.214383e-003 -1.208008e+002 2.181238e-003 -1.383460e+002 1.135756e+000 -4.010827e+001
2013600000 1.055520e+000 -2.541682e+001 1.231957e-003 -1.203795e+002 2.151431e-003 -1.391693e+002 1.135477e+000 -4.009476e+001
2013700000 1.055109e+000 -2.542966e+001 1.233290e-003 -1.210907e+002 2.182809e-003 -1.403376e+002 1.135366e+000 -4.008637e+001
2013800000 1.054794e+000 -2.544414e+001 1.232738e-003 -1.202998e+002 2.141309e-003 -1.375449e+002 1.135070e+000 -4.008784e+001
2013900000 1.054515e+000 -2.546096e+001 1.226258e-003 -1.214711e+002 2.155999e-003 -1.384873e+002 1.135135e+000 -4.008064e+001
2014000000 1.054487e+000 -2.547692e+001 1.208553e-003 -1.205741e+002 2.210483e-003 -1.399530e+002 1.134849e+000 -4.006351e+001
2014100000 1.054655e+000 -2.547058e+001 1.247884e-003 -1.209711e+002 2.209227e-003 -1.396679e+002 1.134445e+000 -4.009046e+001
2014200000 1.054919e+000 -2.545438e+001 1.213995e-003 -1.204131e+002 2.133461e-003 -1.402491e+002 1.134349e+000 -4.011322e+001
2014300000 1.055198e+000 -2.544593e+001 1.220924e-003 -1.214218e+002 2.149447e-003 -1.390522e+002 1.134276e+000 -4.012659e+001
2014400000 1.055332e+000 -2.543744e+001 1.215783e-003 -1.218880e+002 2.174186e-003 -1.401731e+002 1.134022e+000 -4.014450e+001
2014500000 1.055587e+000 -2.542694e+001 1.235197e-003 -1.213097e+002 2.134277e-003 -1.403763e+002 1.133834e+000 -4.016401e+001
2014600000 1.055532e+000 -2.541848e+001 1.215840e-003 -1.218664e+002 2.143463e-003 -1.405131e+002 1.133574e+000 -4.017407e+001
2014700000 1.055673e+000 -2.542089e+001 1.220646e-003 -1.222121e+002 2.184330e-003 -1.395874e+002 1.133391e+000 -4.018392e+001
2014800000 1.055620e+000 -2.541400e+001 1.227904e-003 -1.217275e+002 2.135994e-003 -1.403597e+002 1.133182e+000 -4.018744e+001
2014900000 1.055408e+000 -2.543269e+001 1.233392e-003 -1.224529e+002 2.155993e-003 -1.402653e+002 1.132944e+000 -4.017178e+001
2015000000 1.055122e+000 -2.544527e+001 1.212458e-003 -1.218152e+002 2.141229e-003 -1.396944e+002 1.132647e+000 -4.016420e+001
2015100000 1.055089e+000 -2.546846e+001 1.236806e-003 -1.220119e+002 2.163669e-003 -1.402466e+002 1.132403e+000 -4.015830e+001
2015200000 1.054866e+000 -2.547548e+001 1.210727e-003 -1.220422e+002 2.152407e-003 -1.410669e+002 1.132203e+000 -4.014210e+001
