!Agilent Technologies,N5230C,SG49000117,A.08.50.07
!Agilent N5230C: A.08.50.07
!Date: Thursday, May 09, 2024 01:55:19
!Correction: S11(Full 2 Port(1,2)) 
!S21(Full 2 Port(1,2)) 
!S12(Full 2 Port(1,2)) 
!S22(Full 2 Port(1,2)) 
!S2P File: Measurements: S11, S21, S12, S22:
# Hz S  MA   R 50
2000000000 1.056026e+000 -2.528747e+001 1.184943e-003 -8.247832e+001 2.143753e-003 -1.019422e+002 1.132645e+000 -3.954222e+001
2000100000 1.055823e+000 -2.529140e+001 1.194734e-003 -8.245361e+001 2.193114e-003 -1.018008e+002 1.132942e+000 -3.953486e+001
2000200000 1.055583e+000 -2.529191e+001 1.188416e-003 -8.366752e+001 2.146487e-003 -1.016394e+002 1.133193e+000 -3.953945e+001
2000300000 1.055429e+000 -2.529873e+001 1.204208e-003 -8.304166e+001 2.147902e-003 -1.023819e+002 1.133474e+000 -3.953771e+001
2000400000 1.055374e+000 -2.530840e+001 1.207868e-003 -8.311871e+001 2.146212e-003 -1.029534e+002 1.133705e+000 -3.954717e+001
2000500000 1.055168e+000 -2.531734e+001 1.175425e-003 -8.302763e+001 2.148947e-003 -1.035230e+002 1.133850e+000 -3.955704e+001
2000600000 1.055216e+000 -2.530759e+001 1.200060e-003 -8.344606e+001 2.155801e-003 -1.026888e+002 1.133745e+000 -3.953071e+001
2000700000 1.055195e+000 -2.530058e+001 1.190193e-003 -8.426133e+001 2.154926e-003 -1.040969e+002 1.133832e+000 -3.951613e+001
2000800000 1.055252e+000 -2.528791e+001 1.197180e-003 -8.405638e+001 2.176259e-003 -1.037354e+002 1.133838e+000 -3.951024e+001
2000900000 1.055226e+000 -2.527895e+001 1.189921e-003 -8.480762e+001 2.135106e-003 -1.036362e+002 1.133703e+000 -3.948612e+001
2001000000 1.055108e+000 -2.527026e+001 1.186518e-003 -8.486868e+001 2.177042e-003 -1.048525e+002 1.133604e+000 -3.947693e+001
2001100000 1.055162e+000 -2.526478e+001 1.186718e-003 -8.525535e+001 2.139791e-003 -1.042010e+002 1.133541e+000 -3.947025e+001
2001200000 1.055086e+000 -2.525438e+001 1.187922e-003 -8.593454e+001 2.187714e-003 -1.045005e+002 1.133191e+000 -3.946867e+001
2001300000 1.055136e+000 -2.525590e+001 1.202489e-003 -8.488505e+001 2.172717e-003 -1.045125e+002 1.133164e+000 -3.947536e+001
2001400000 1.055223e+000 -2.527451e+001 1.204197e-003 -8.612351e+001 2.132599e-003 -1.039877e+002 1.132909e+000 -3.951352e+001
2001500000 1.055416e+000 -2.529372e+001 1.190612e-003 -8.601329e+001 2.131516e-003 -1.056810e+002 1.132567e+000 -3.953082e+001
2001600000 1.055593e+000 -2.530503e+001 1.206181e-003 -8.557681e+001 2.148543e-003 -1.042761e+002 1.132518e+000 -3.956319e+001
2001700000 1.055794e+000 -2.531291e+001 1.176151e-003 -8.616363e+001 2.172861e-003 -1.058952e+002 1.132264e+000 -3.958813e+001
2001800000 1.055936e+000 -2.532258e+001 1.178371e-003 -8.620635e+001 2.122579e-003 -1.063988e+002 1.132099e+000 -3.961472e+001
2001900000 1.056111e+000 -2.532956e+001 1.203911e-003 -8.648067e+001 2.164741e-003 -1.054703e+002 1.131855e+000 -3.963107e+001
2002000000 1.056409e+000 -2.532978e+001 1.192295e-003 -8.682655e+001 2.150405e-003 -1.057400e+002 1.131718e+000 -3.964935e+001
2002100000 1.056282e+000 -2.531637e+001 1.186448e-003 -8.728751e+001 2.152806e-003 -1.055706e+002 1.131898e+000 -3.963719e+001
2002200000 1.056339e+000 -2.530658e+001 1.193176e-003 -8.677358e+001 2.165396e-003 -1.070732e+002 1.132334e+000 -3.959911e+001
2002300000 1.056369e+000 -2.529169e+001 1.180381e-003 -8.661333e+001 2.168067e-003 -1.061505e+002 1.132422e+000 -3.957850e+001
2002400000 1.056328e+000 -2.528671e+001 1.219548e-003 -8.780260e+001 2.126970e-003 -1.057991e+002 1.132654e+000 -3.955635e+001
2002500000 1.056184e+000 -2.527115e+001 1.209946e-003 -8.755209e+001 2.164857e-003 -1.063286e+002 1.132711e+000 -3.952909e+001
2002600000 1.056170e+000 -2.526947e+001 1.212707e-003 -8.733628e+001 2.114778e-003 -1.071046e+002 1.132803e+000 -3.951205e+001
2002700000 1.055975e+000 -2.526001e+001 1.204762e-003 -8.810626e+001 2.161480e-003 -1.079745e+002 1.132970e+000 -3.949591e+001
2002800000 1.055917e+000 -2.526154e+001 1.186734e-003 -8.862997e+001 2.103776e-003 -1.070171e+002 1.133135e+000 -3.949204e+001
2002900000 1.055752e+000 -2.527471e+001 1.191984e-003 -8.914500e+001 2.153311e-003 -1.080557e+002 1.133224e+000 -3.949398e+001
2003000000 1.055650e+000 -2.527658e+001 1.204201e-003 -8.839113e+001 2.162149e-003 -1.074655e+002 1.133287e+000 -3.952029e+001
2003100000 1.055588e+000 -2.528980e+001 1.195194e-003 -8.800185e+001 2.158158e-003 -1.072368e+002 1.133277e+000 -3.952724e+001
2003200000 1.055476e+000 -2.529710e+001 1.190111e-003 -8.864411e+001 2.138899e-003 -1.079277e+002 1.133446e+000 -3.954833e+001
2003300000 1.055513e+000 -2.530293e+001 1.185557e-003 -8.865591e+001 2.156214e-003 -1.078393e+002 1.133351e+000 -3.955701e+001
2003400000 1.055444e+000 -2.530756e+001 1.185909e-003 -8.912451e+001 2.148142e-003 -1.089001e+002 1.133644e+000 -3.958834e+001
2003500000 1.055487e+000 -2.531574e+001 1.200891e-003 -8.924936e+001 2.157839e-003 -1.086964e+002 1.133624e+000 -3.959781e+001
2003600000 1.055494e+000 -2.532088e+001 1.196023e-003 -9.015163e+001 2.118814e-003 -1.085113e+002 1.133733e+000 -3.959233e+001
2003700000 1.055590e+000 -2.532366e+001 1.189932e-003 -9.068495e+001 2.142285e-003 -1.080606e+002 1.133993e+000 -3.958443e+001
2003800000 1.055579e+000 -2.533304e+001 1.222882e-003 -8.964883e+001 2.173450e-003 -1.082639e+002 1.134137e+000 -3.958137e+001
2003900000 1.055552e+000 -2.534229e+001 1.195818e-003 -9.048148e+001 2.133364e-003 -1.088733e+002 1.134299e+000 -3.957043e+001
2004000000 1.055618e+000 -2.534296e+001 1.189674e-003 -9.027357e+001 2.183923e-003 -1.093592e+002 1.134264e+000 -3.957389e+001
2004100000 1.055658e+000 -2.535677e+001 1.207573e-003 -9.094629e+001 2.151214e-003 -1.104139e+002 1.134355e+000 -3.956380e+001
2004200000 1.055630e+000 -2.535839e+001 1.206142e-003 -9.134435e+001 2.164375e-003 -1.083107e+002 1.134450e+000 -3.957035e+001
2004300000 1.055678e+000 -2.535446e+001 1.194631e-003 -9.129916e+001 2.158977e-003 -1.106237e+002 1.134330e+000 -3.957370e+001
2004400000 1.055762e+000 -2.535601e+001 1.214337e-003 -9.168811e+001 2.159248e-003 -1.109143e+002 1.133857e+000 -3.956608e+001
2004500000 1.055806e+000 -2.535228e+001 1.191034e-003 -9.134024e+001 2.161874e-003 -1.114116e+002 1.133622e+000 -3.956828e+001
2004600000 1.055812e+000 -2.534987e+001 1.214597e-003 -9.191745e+001 2.140858e-003 -1.104669e+002 1.133331e+000 -3.956255e+001
2004700000 1.055970e+000 -2.534816e+001 1.209377e-003 -9.175156e+001 2.132892e-003 -1.109144e+002 1.133432e+000 -3.956161e+001
2004800000 1.056065e+000 -2.535125e+001 1.175746e-003 -9.237675e+001 2.152963e-003 -1.114700e+002 1.133163e+000 -3.956997e+001
2004900000 1.056182e+000 -2.534977e+001 1.219727e-003 -9.229195e+001 2.157663e-003 -1.120095e+002 1.133088e+000 -3.956728e+001
2005000000 1.056287e+000 -2.534800e+001 1.196206e-003 -9.173438e+001 2.152467e-003 -1.120261e+002 1.133063e+000 -3.957247e+001
2005100000 1.056238e+000 -2.535687e+001 1.220073e-003 -9.267576e+001 2.137612e-003 -1.110379e+002 1.133283e+000 -3.956335e+001
2005200000 1.056126e+000 -2.536256e+001 1.183882e-003 -9.304325e+001 2.193518e-003 -1.111118e+002 1.133402e+000 -3.954945e+001
2005300000 1.056106e+000 -2.536336e+001 1.214601e-003 -9.357646e+001 2.090542e-003 -1.112409e+002 1.133479e+000 -3.953954e+001
2005400000 1.056079e+000 -2.537287e+001 1.211559e-003 -9.315679e+001 2.134333e-003 -1.118662e+002 1.133801e+000 -3.953170e+001
2005500000 1.056045e+000 -2.537205e+001 1.194283e-003 -9.385558e+001 2.109438e-003 -1.122280e+002 1.134009e+000 -3.953231e+001
2005600000 1.055992e+000 -2.537580e+001 1.200326e-003 -9.369849e+001 2.130245e-003 -1.126255e+002 1.134018e+000 -3.951736e+001
2005700000 1.056112e+000 -2.538276e+001 1.216807e-003 -9.355679e+001 2.140290e-003 -1.129298e+002 1.134308e+000 -3.951847e+001
2005800000 1.056075e+000 -2.537889e+001 1.182444e-003 -9.369916e+001 2.152314e-003 -1.130851e+002 1.134459e+000 -3.951728e+001
2005900000 1.056181e+000 -2.538668e+001 1.197804e-003 -9.481986e+001 2.143274e-003 -1.132912e+002 1.134665e+000 -3.953453e+001
2006000000 1.056151e+000 -2.537851e+001 1.190766e-003 -9.470651e+001 2.156031e-003 -1.129579e+002 1.134634e+000 -3.954575e+001
2006100000 1.056278e+000 -2.538157e+001 1.179289e-003 -9.366639e+001 2.141302e-003 -1.129254e+002 1.135004e+000 -3.955496e+001
2006200000 1.056314e+000 -2.537819e+001 1.210209e-003 -9.522261e+001 2.150538e-003 -1.133582e+002 1.135084e+000 -3.957218e+001
2006300000 1.056341e+000 -2.538431e+001 1.199667e-003 -9.482828e+001 2.150657e-003 -1.138319e+002 1.135060e+000 -3.958191e+001
2006400000 1.056289e+000 -2.538395e+001 1.205426e-003 -9.432293e+001 2.132078e-003 -1.127289e+002 1.135082e+000 -3.958994e+001
2006500000 1.056383e+000 -2.538241e+001 1.205100e-003 -9.515791e+001 2.136203e-003 -1.132631e+002 1.135093e+000 -3.960954e+001
2006600000 1.056319e+000 -2.538752e+001 1.176932e-003 -9.538697e+001 2.126159e-003 -1.140895e+002 1.135087e+000 -3.960831e+001
2006700000 1.056098e+000 -2.539099e+001 1.190276e-003 -9.532017e+001 2.148844e-003 -1.135253e+002 1.135032e+000 -3.962344e+001
2006800000 1.056122e+000 -2.539300e+001 1.196582e-003 -9.511217e+001 2.110082e-003 -1.141375e+002 1.135230e+000 -3.962337e+001
2006900000 1.056039e+000 -2.539838e+001 1.203797e-003 -9.523905e+001 2.120793e-003 -1.140912e+002 1.135007e+000 -3.961913e+001
2007000000 1.056035e+000 -2.539783e+001 1.202109e-003 -9.525301e+001 2.134498e-003 -1.154336e+002 1.135070e+000 -3.962973e+001
2007100000 1.055993e+000 -2.539728e+001 1.204514e-003 -9.670860e+001 2.140790e-003 -1.153002e+002 1.134999e+000 -3.963540e+001
2007200000 1.056024e+000 -2.539832e+001 1.194803e-003 -9.631660e+001 2.178676e-003 -1.150676e+002 1.134791e+000 -3.963726e+001
2007300000 1.056038e+000 -2.540820e+001 1.190937e-003 -9.726534e+001 2.092765e-003 -1.146982e+002 1.134717e+000 -3.963675e+001
2007400000 1.055949e+000 -2.541074e+001 1.186436e-003 -9.673258e+001 2.123402e-003 -1.150570e+002 1.134491e+000 -3.962956e+001
2007500000 1.056086e+000 -2.542306e+001 1.209585e-003 -9.679955e+001 2.136996e-003 -1.158267e+002 1.134282e+000 -3.962468e+001
2007600000 1.056058e+000 -2.542919e+001 1.203164e-003 -9.631374e+001 2.169562e-003 -1.160236e+002 1.134087e+000 -3.961753e+001
2007700000 1.056031e+000 -2.544359e+001 1.189624e-003 -9.719954e+001 2.137955e-003 -1.155623e+002 1.133791e+000 -3.960209e+001
2007800000 1.056090e+000 -2.543657e+001 1.193025e-003 -9.659570e+001 2.140800e-003 -1.155307e+002 1.133602e+000 -3.960502e+001
2007900000 1.056030e+000 -2.544656e+001 1.191322e-003 -9.680473e+001 2.102452e-003 -1.153659e+002 1.133533e+000 -3.959983e+001
2008000000 1.056094e+000 -2.545006e+001 1.200794e-003 -9.777110e+001 2.113260e-003 -1.167897e+002 1.133373e+000 -3.959558e+001
2008100000 1.056042e+000 -2.544020e+001 1.206369e-003 -9.833203e+001 2.163193e-003 -1.168203e+002 1.133168e+000 -3.959413e+001
2008200000 1.055881e+000 -2.542896e+001 1.184283e-003 -9.799807e+001 2.122275e-003 -1.164700e+002 1.133130e+000 -3.959806e+001
2008300000 1.055881e+000 -2.541298e+001 1.203465e-003 -9.820881e+001 2.123529e-003 -1.173736e+002 1.132840e+000 -3.960101e+001
2008400000 1.055864e+000 -2.540393e+001 1.211850e-003 -9.937717e+001 2.172292e-003 -1.163269e+002 1.132868e+000 -3.960596e+001
2008500000 1.055858e+000 -2.539746e+001 1.201584e-003 -9.820615e+001 2.113885e-003 -1.171916e+002 1.132900e+000 -3.961095e+001
2008600000 1.055828e+000 -2.538663e+001 1.173921e-003 -9.855138e+001 2.097561e-003 -1.168639e+002 1.132803e+000 -3.961407e+001
2008700000 1.055769e+000 -2.537586e+001 1.189078e-003 -9.863920e+001 2.122681e-003 -1.171642e+002 1.132758e+000 -3.961716e+001
2008800000 1.055830e+000 -2.538144e+001 1.209915e-003 -9.830369e+001 2.116808e-003 -1.173821e+002 1.132908e+000 -3.962989e+001
2008900000 1.055735e+000 -2.538941e+001 1.203269e-003 -9.742756e+001 2.121867e-003 -1.177351e+002 1.133317e+000 -3.964264e+001
2009000000 1.055694e+000 -2.539498e+001 1.191197e-003 -9.880504e+001 2.099209e-003 -1.170451e+002 1.133545e+000 -3.965699e+001
2009100000 1.055756e+000 -2.540302e+001 1.191946e-003 -9.943380e+001 2.145722e-003 -1.181258e+002 1.133745e+000 -3.965880e+001
2009200000 1.055782e+000 -2.541190e+001 1.197242e-003 -9.981707e+001 2.142597e-003 -1.178646e+002 1.133964e+000 -3.967627e+001
2009300000 1.055725e+000 -2.542051e+001 1.189065e-003 -9.866901e+001 2.140603e-003 -1.186427e+002 1.134237e+000 -3.968488e+001
2009400000 1.055736e+000 -2.542442e+001 1.178799e-003 -9.904584e+001 2.126921e-003 -1.180959e+002 1.134243e+000 -3.969640e+001
2009500000 1.055654e+000 -2.542852e+001 1.200192e-003 -9.964491e+001 2.129650e-003 -1.202180e+002 1.134335e+000 -3.969828e+001
2009600000 1.055869e+000 -2.542241e+001 1.182613e-003 -1.000545e+002 2.138092e-003 -1.189062e+002 1.134737e+000 -3.971186e+001
2009700000 1.055940e+000 -2.542397e+001 1.199654e-003 -9.971278e+001 2.132446e-003 -1.189049e+002 1.134547e+000 -3.971684e+001
2009800000 1.056143e+000 -2.542202e+001 1.187297e-003 -1.007400e+002 2.124378e-003 -1.192533e+002 1.134525e+000 -3.971410e+001
2009900000 1.056299e+000 -2.541512e+001 1.189429e-003 -9.973621e+001 2.113169e-003 -1.195989e+002 1.134703e+000 -3.973022e+001
2010000000 1.056221e+000 -2.541160e+001 1.196288e-003 -1.009671e+002 2.131484e-003 -1.189194e+002 1.134538e+000 -3.971644e+001
2010100000 1.056369e+000 -2.541388e+001 1.192737e-003 -9.974249e+001 2.098340e-003 -1.183134e+002 1.134460e+000 -3.973286e+001
2010200000 1.056375e+000 -2.541195e+001 1.193898e-003 -1.013774e+002 2.106383e-003 -1.195830e+002 1.134440e+000 -3.973282e+001
2010300000 1.056275e+000 -2.541009e+001 1.191861e-003 -1.015323e+002 2.135211e-003 -1.183147e+002 1.134275e+000 -3.974387e+001
2010400000 1.056445e+000 -2.540399e+001 1.179618e-003 -1.013138e+002 2.092516e-003 -1.192516e+002 1.133962e+000 -3.973760e+001
2010500000 1.056330e+000 -2.540749e+001 1.201250e-003 -1.006596e+002 2.074597e-003 -1.193056e+002 1.133851e+000 -3.974068e+001
2010600000 1.056375e+000 -2.540240e+001 1.198438e-003 -1.012208e+002 2.074119e-003 -1.203350e+002 1.133568e+000 -3.973899e+001
2010700000 1.056350e+000 -2.540065e+001 1.195852e-003 -1.011693e+002 2.143685e-003 -1.207835e+002 1.133447e+000 -3.974781e+001
2010800000 1.056396e+000 -2.540272e+001 1.208339e-003 -1.018474e+002 2.130086e-003 -1.205509e+002 1.133047e+000 -3.974644e+001
2010900000 1.056269e+000 -2.540419e+001 1.189566e-003 -1.013937e+002 2.137884e-003 -1.205401e+002 1.132952e+000 -3.975467e+001
2011000000 1.056148e+000 -2.540126e+001 1.184006e-003 -1.027911e+002 2.157054e-003 -1.206369e+002 1.132927e+000 -3.976109e+001
2011100000 1.055928e+000 -2.541316e+001 1.190042e-003 -1.026661e+002 2.081201e-003 -1.219679e+002 1.133130e+000 -3.974073e+001
2011200000 1.055635e+000 -2.541206e+001 1.175159e-003 -1.021958e+002 2.097598e-003 -1.211360e+002 1.133248e+000 -3.971756e+001
2011300000 1.055371e+000 -2.541067e+001 1.192827e-003 -1.024941e+002 2.080556e-003 -1.213306e+002 1.133446e+000 -3.969665e+001
2011400000 1.055214e+000 -2.542117e+001 1.200049e-003 -1.022249e+002 2.090610e-003 -1.216216e+002 1.133687e+000 -3.968136e+001
2011500000 1.055111e+000 -2.541993e+001 1.183924e-003 -1.022173e+002 2.084440e-003 -1.212877e+002 1.133876e+000 -3.966341e+001
2011600000 1.054874e+000 -2.541941e+001 1.189562e-003 -1.032239e+002 2.110174e-003 -1.207945e+002 1.133905e+000 -3.965571e+001
2011700000 1.054791e+000 -2.542113e+001 1.184430e-003 -1.033656e+002 2.109291e-003 -1.213786e+002 1.134304e+000 -3.964156e+001
2011800000 1.054841e+000 -2.542787e+001 1.199380e-003 -1.027903e+002 2.107024e-003 -1.209418e+002 1.133951e+000 -3.964053e+001
2011900000 1.054967e+000 -2.543984e+001 1.164851e-003 -1.036107e+002 2.088009e-003 -1.221576e+002 1.133551e+000 -3.965484e+001
2012000000 1.055217e+000 -2.545515e+001 1.192570e-003 -1.042825e+002 2.120010e-003 -1.212980e+002 1.133176e+000 -3.967626e+001
2012100000 1.055439e+000 -2.546612e+001 1.171388e-003 -1.029535e+002 2.107435e-003 -1.228320e+002 1.132872e+000 -3.969564e+001
2012200000 1.055612e+000 -2.547603e+001 1.166288e-003 -1.029729e+002 2.086077e-003 -1.219725e+002 1.132460e+000 -3.971009e+001
2012300000 1.055875e+000 -2.548076e+001 1.184480e-003 -1.046891e+002 2.066039e-003 -1.227374e+002 1.132248e+000 -3.972401e+001
2012400000 1.056073e+000 -2.548295e+001 1.197204e-003 -1.035648e+002 2.052659e-003 -1.223956e+002 1.132223e+000 -3.973749e+001
2012500000 1.056472e+000 -2.547708e+001 1.181351e-003 -1.036803e+002 2.074183e-003 -1.209770e+002 1.132118e+000 -3.976188e+001
2012600000 1.056769e+000 -2.544749e+001 1.199541e-003 -1.034112e+002 2.124038e-003 -1.232271e+002 1.132998e+000 -3.976212e+001
2012700000 1.057000e+000 -2.542807e+001 1.163601e-003 -1.047782e+002 2.104684e-003 -1.220956e+002 1.133939e+000 -3.976557e+001
2012800000 1.057179e+000 -2.539881e+001 1.163735e-003 -1.040285e+002 2.070915e-003 -1.234639e+002 1.134687e+000 -3.976168e+001
2012900000 1.057417e+000 -2.538066e+001 1.163894e-003 -1.051197e+002 2.106362e-003 -1.227161e+002 1.135285e+000 -3.975103e+001
2013000000 1.057529e+000 -2.536904e+001 1.187005e-003 -1.043736e+002 2.096561e-003 -1.231446e+002 1.136022e+000 -3.974904e+001
2013100000 1.057669e+000 -2.535766e+001 1.166633e-003 -1.048078e+002 2.079302e-003 -1.229471e+002 1.136505e+000 -3.973904e+001
2013200000 1.057792e+000 -2.534322e+001 1.173727e-003 -1.049793e+002 2.107536e-003 -1.231764e+002 1.136886e+000 -3.973621e+001
2013300000 1.057348e+000 -2.535208e+001 1.169189e-003 -1.051542e+002 2.101584e-003 -1.232070e+002 1.137135e+000 -3.971333e+001
2013400000 1.056639e+000 -2.537489e+001 1.189919e-003 -1.054113e+002 2.069755e-003 -1.240418e+002 1.136892e+000 -3.971030e+001
2013500000 1.056127e+000 -2.538825e+001 1.173229e-003 -1.052154e+002 2.050865e-003 -1.233376e+002 1.136490e+000 -3.969838e+001
2013600000 1.055782e+000 -2.541134e+001 1.189118e-003 -1.046099e+002 2.100864e-003 -1.237202e+002 1.136311e+000 -3.968969e+001
2013700000 1.055248e+000 -2.542241e+001 1.154141e-003 -1.054010e+002 2.079325e-003 -1.241814e+002 1.136233e+000 -3.968588e+001
2013800000 1.054963e+000 -2.544307e+001 1.183631e-003 -1.068569e+002 2.090680e-003 -1.242614e+002 1.135803e+000 -3.967915e+001
2013900000 1.054774e+000 -2.545305e+001 1.190067e-003 -1.051262e+002 2.053074e-003 -1.243263e+002 1.135831e+000 -3.967060e+001
2014000000 1.054672e+000 -2.546798e+001 1.177885e-003 -1.066585e+002 2.098695e-003 -1.238631e+002 1.135434e+000 -3.966485e+001
2014100000 1.054926e+000 -2.545880e+001 1.173784e-003 -1.045330e+002 2.042600e-003 -1.244030e+002 1.135449e+000 -3.968774e+001
2014200000 1.055163e+000 -2.544762e+001 1.194549e-003 -1.061937e+002 2.089230e-003 -1.249330e+002 1.135368e+000 -3.970713e+001
2014300000 1.055364e+000 -2.543249e+001 1.159891e-003 -1.049793e+002 2.042332e-003 -1.239265e+002 1.135020e+000 -3.972522e+001
2014400000 1.055627e+000 -2.542167e+001 1.176553e-003 -1.067736e+002 2.061550e-003 -1.249160e+002 1.134930e+000 -3.974927e+001
2014500000 1.055798e+000 -2.542158e+001 1.177188e-003 -1.059874e+002 2.102464e-003 -1.254608e+002 1.134796e+000 -3.975608e+001
2014600000 1.056064e+000 -2.541033e+001 1.170352e-003 -1.064345e+002 2.045374e-003 -1.242549e+002 1.134423e+000 -3.977094e+001
2014700000 1.056052e+000 -2.540831e+001 1.161568e-003 -1.063988e+002 2.044365e-003 -1.262269e+002 1.134260e+000 -3.978376e+001
2014800000 1.055880e+000 -2.541400e+001 1.164687e-003 -1.068303e+002 2.039604e-003 -1.252706e+002 1.134034e+000 -3.978356e+001
2014900000 1.055680e+000 -2.542177e+001 1.159612e-003 -1.076693e+002 2.044379e-003 -1.253293e+002 1.133675e+000 -3.977433e+001
2015000000 1.055475e+000 -2.543427e+001 1.152809e-003 -1.070190e+002 2.034605e-003 -1.246414e+002 1.133377e+000 -3.976498e+001
2015100000 1.055225e+000 -2.545076e+001 1.174116e-003 -1.074637e+002 2.047929e-003 -1.253857e+002 1.133274e+000 -3.975037e+001
2015200000 1.055205e+000 -2.546711e+001 1.152017e-003 -1.066062e+002 2.043790e-003 -1.247643e+002 1.132967e+000 -3.974060e+001
