!Agilent Technologies,N5230C,SG49000117,A.08.50.07
!Agilent N5230C: A.08.50.07
!Date: Thursday, May 09, 2024 01:51:48
!Correction: S11(Full 2 Port(1,2)) 
!S21(Full 2 Port(1,2)) 
!S12(Full 2 Port(1,2)) 
!S22(Full 2 Port(1,2)) 
!S2P File: Measurements: S11, S21, S12, S22:
# Hz S  MA   R 50
2000000000 1.055831e+000 -2.527134e+001 1.227260e-003 -9.362505e+001 2.256699e-003 -1.116359e+002 1.132865e+000 -3.971938e+001
2000100000 1.055602e+000 -2.527529e+001 1.238241e-003 -9.384478e+001 2.217183e-003 -1.132919e+002 1.132957e+000 -3.970615e+001
2000200000 1.055413e+000 -2.528667e+001 1.211128e-003 -9.220915e+001 2.230162e-003 -1.125772e+002 1.133210e+000 -3.970567e+001
2000300000 1.055322e+000 -2.529398e+001 1.243701e-003 -9.336458e+001 2.228081e-003 -1.142743e+002 1.133492e+000 -3.971143e+001
2000400000 1.055136e+000 -2.529683e+001 1.244626e-003 -9.435462e+001 2.259637e-003 -1.136476e+002 1.133745e+000 -3.971031e+001
2000500000 1.055091e+000 -2.530981e+001 1.228564e-003 -9.343430e+001 2.257857e-003 -1.137156e+002 1.133958e+000 -3.971849e+001
2000600000 1.055162e+000 -2.529915e+001 1.236157e-003 -9.505365e+001 2.203158e-003 -1.139374e+002 1.133933e+000 -3.970576e+001
2000700000 1.055093e+000 -2.528952e+001 1.227094e-003 -9.401360e+001 2.248229e-003 -1.148739e+002 1.133804e+000 -3.968513e+001
2000800000 1.055028e+000 -2.528335e+001 1.233195e-003 -9.612225e+001 2.258888e-003 -1.140813e+002 1.133702e+000 -3.967217e+001
2000900000 1.055005e+000 -2.527005e+001 1.230552e-003 -9.487206e+001 2.285338e-003 -1.136129e+002 1.133851e+000 -3.965644e+001
2001000000 1.055137e+000 -2.526131e+001 1.235992e-003 -9.500279e+001 2.234600e-003 -1.150993e+002 1.133549e+000 -3.965977e+001
2001100000 1.055014e+000 -2.525818e+001 1.244792e-003 -9.602013e+001 2.224821e-003 -1.147116e+002 1.133500e+000 -3.963654e+001
2001200000 1.055011e+000 -2.524525e+001 1.228457e-003 -9.490245e+001 2.295768e-003 -1.144582e+002 1.133363e+000 -3.963757e+001
2001300000 1.055000e+000 -2.524925e+001 1.245430e-003 -9.569407e+001 2.284486e-003 -1.158272e+002 1.133103e+000 -3.965333e+001
2001400000 1.055087e+000 -2.527432e+001 1.235503e-003 -9.657624e+001 2.270356e-003 -1.166683e+002 1.132785e+000 -3.969030e+001
2001500000 1.055268e+000 -2.528025e+001 1.254329e-003 -9.701746e+001 2.211644e-003 -1.148847e+002 1.132738e+000 -3.970387e+001
2001600000 1.055502e+000 -2.529465e+001 1.250835e-003 -9.618763e+001 2.237296e-003 -1.153182e+002 1.132688e+000 -3.973178e+001
2001700000 1.055590e+000 -2.530785e+001 1.248842e-003 -9.683925e+001 2.254361e-003 -1.155675e+002 1.132377e+000 -3.975771e+001
2001800000 1.055742e+000 -2.530958e+001 1.242500e-003 -9.731054e+001 2.197503e-003 -1.159764e+002 1.132153e+000 -3.978512e+001
2001900000 1.055931e+000 -2.531222e+001 1.230276e-003 -9.691670e+001 2.244664e-003 -1.157417e+002 1.131864e+000 -3.980283e+001
2002000000 1.056192e+000 -2.532070e+001 1.246912e-003 -9.719149e+001 2.264051e-003 -1.160993e+002 1.131904e+000 -3.982536e+001
2002100000 1.056247e+000 -2.531201e+001 1.209011e-003 -9.671729e+001 2.273666e-003 -1.172608e+002 1.131895e+000 -3.979716e+001
2002200000 1.056200e+000 -2.530084e+001 1.247351e-003 -9.824541e+001 2.279171e-003 -1.164318e+002 1.132274e+000 -3.977280e+001
2002300000 1.056124e+000 -2.528861e+001 1.248044e-003 -9.734499e+001 2.233195e-003 -1.166104e+002 1.132446e+000 -3.974297e+001
2002400000 1.056053e+000 -2.527686e+001 1.234852e-003 -9.750449e+001 2.224799e-003 -1.170543e+002 1.132515e+000 -3.972691e+001
2002500000 1.056063e+000 -2.526398e+001 1.244006e-003 -9.810899e+001 2.198690e-003 -1.161885e+002 1.132718e+000 -3.970349e+001
2002600000 1.056014e+000 -2.525905e+001 1.232176e-003 -9.751447e+001 2.228422e-003 -1.168624e+002 1.132875e+000 -3.967842e+001
2002700000 1.055951e+000 -2.525919e+001 1.243046e-003 -9.748426e+001 2.235838e-003 -1.166916e+002 1.133030e+000 -3.966246e+001
2002800000 1.055723e+000 -2.525110e+001 1.246131e-003 -9.902777e+001 2.240711e-003 -1.176784e+002 1.133194e+000 -3.965913e+001
2002900000 1.055685e+000 -2.526137e+001 1.250913e-003 -9.902189e+001 2.267107e-003 -1.182522e+002 1.133269e+000 -3.967149e+001
2003000000 1.055505e+000 -2.526677e+001 1.240316e-003 -9.861199e+001 2.266408e-003 -1.175176e+002 1.133240e+000 -3.968617e+001
2003100000 1.055374e+000 -2.527820e+001 1.259856e-003 -9.961968e+001 2.259814e-003 -1.186470e+002 1.133244e+000 -3.969779e+001
2003200000 1.055408e+000 -2.528822e+001 1.217425e-003 -9.885446e+001 2.241293e-003 -1.181077e+002 1.133287e+000 -3.972327e+001
2003300000 1.055235e+000 -2.529276e+001 1.244991e-003 -9.888197e+001 2.233540e-003 -1.175659e+002 1.133251e+000 -3.973558e+001
2003400000 1.055257e+000 -2.529391e+001 1.227108e-003 -9.904510e+001 2.238453e-003 -1.181837e+002 1.133480e+000 -3.975484e+001
2003500000 1.055304e+000 -2.530459e+001 1.256399e-003 -9.930840e+001 2.229478e-003 -1.186854e+002 1.133650e+000 -3.977293e+001
2003600000 1.055336e+000 -2.531552e+001 1.229464e-003 -9.951841e+001 2.240393e-003 -1.189811e+002 1.133868e+000 -3.976204e+001
2003700000 1.055359e+000 -2.532229e+001 1.259699e-003 -9.989276e+001 2.271516e-003 -1.193664e+002 1.134116e+000 -3.976377e+001
2003800000 1.055408e+000 -2.532198e+001 1.233023e-003 -1.005613e+002 2.241790e-003 -1.190200e+002 1.134118e+000 -3.974904e+001
2003900000 1.055461e+000 -2.533344e+001 1.240322e-003 -9.990454e+001 2.259126e-003 -1.195797e+002 1.134266e+000 -3.974574e+001
2004000000 1.055462e+000 -2.533393e+001 1.239196e-003 -9.982289e+001 2.228105e-003 -1.202994e+002 1.134205e+000 -3.974138e+001
2004100000 1.055449e+000 -2.534448e+001 1.239396e-003 -1.000277e+002 2.212030e-003 -1.187802e+002 1.134382e+000 -3.974940e+001
2004200000 1.055435e+000 -2.534820e+001 1.244392e-003 -1.010620e+002 2.253723e-003 -1.192623e+002 1.134171e+000 -3.974333e+001
2004300000 1.055514e+000 -2.534508e+001 1.239016e-003 -1.016963e+002 2.278795e-003 -1.199287e+002 1.134169e+000 -3.974150e+001
2004400000 1.055605e+000 -2.535101e+001 1.244480e-003 -1.007947e+002 2.220612e-003 -1.207129e+002 1.133796e+000 -3.973558e+001
2004500000 1.055714e+000 -2.534242e+001 1.233645e-003 -1.015643e+002 2.272128e-003 -1.204660e+002 1.133641e+000 -3.973839e+001
2004600000 1.055689e+000 -2.534393e+001 1.222741e-003 -1.016854e+002 2.262060e-003 -1.200028e+002 1.133641e+000 -3.973703e+001
2004700000 1.055825e+000 -2.534154e+001 1.242431e-003 -1.019536e+002 2.258113e-003 -1.206814e+002 1.133347e+000 -3.973445e+001
2004800000 1.055922e+000 -2.534466e+001 1.247489e-003 -1.014959e+002 2.244645e-003 -1.206338e+002 1.133175e+000 -3.973734e+001
2004900000 1.055945e+000 -2.533959e+001 1.234707e-003 -1.011051e+002 2.244033e-003 -1.206169e+002 1.133032e+000 -3.974042e+001
2005000000 1.056079e+000 -2.534173e+001 1.256467e-003 -1.019706e+002 2.223541e-003 -1.201180e+002 1.132944e+000 -3.973984e+001
2005100000 1.055963e+000 -2.534310e+001 1.226614e-003 -1.018934e+002 2.261221e-003 -1.222222e+002 1.133002e+000 -3.973027e+001
2005200000 1.055945e+000 -2.535133e+001 1.252331e-003 -1.021532e+002 2.287278e-003 -1.217977e+002 1.133233e+000 -3.972518e+001
2005300000 1.055917e+000 -2.535962e+001 1.237975e-003 -1.030976e+002 2.240106e-003 -1.230609e+002 1.133610e+000 -3.971709e+001
2005400000 1.056014e+000 -2.536357e+001 1.247861e-003 -1.021517e+002 2.246167e-003 -1.220256e+002 1.133682e+000 -3.969779e+001
2005500000 1.055924e+000 -2.536646e+001 1.247810e-003 -1.021865e+002 2.220829e-003 -1.222103e+002 1.133726e+000 -3.970265e+001
2005600000 1.055909e+000 -2.537050e+001 1.248467e-003 -1.027977e+002 2.214212e-003 -1.218231e+002 1.134066e+000 -3.969393e+001
2005700000 1.055933e+000 -2.536878e+001 1.238785e-003 -1.033638e+002 2.232875e-003 -1.220591e+002 1.134041e+000 -3.969059e+001
2005800000 1.055895e+000 -2.536948e+001 1.260109e-003 -1.042629e+002 2.268328e-003 -1.226307e+002 1.134379e+000 -3.969733e+001
2005900000 1.055955e+000 -2.536959e+001 1.244813e-003 -1.025295e+002 2.225171e-003 -1.219980e+002 1.134563e+000 -3.970686e+001
2006000000 1.056082e+000 -2.537315e+001 1.246826e-003 -1.036216e+002 2.228722e-003 -1.226310e+002 1.134610e+000 -3.971348e+001
2006100000 1.056069e+000 -2.536932e+001 1.255616e-003 -1.039299e+002 2.259240e-003 -1.235678e+002 1.134854e+000 -3.971672e+001
2006200000 1.056138e+000 -2.537537e+001 1.268859e-003 -1.027560e+002 2.216629e-003 -1.230588e+002 1.134817e+000 -3.974197e+001
2006300000 1.056133e+000 -2.537422e+001 1.235119e-003 -1.049667e+002 2.216682e-003 -1.220835e+002 1.134945e+000 -3.975613e+001
2006400000 1.056122e+000 -2.537326e+001 1.241296e-003 -1.042533e+002 2.227654e-003 -1.220869e+002 1.135018e+000 -3.976466e+001
2006500000 1.056076e+000 -2.537391e+001 1.253530e-003 -1.049491e+002 2.219493e-003 -1.239061e+002 1.135138e+000 -3.978155e+001
2006600000 1.056057e+000 -2.537918e+001 1.241460e-003 -1.049242e+002 2.220206e-003 -1.238359e+002 1.134899e+000 -3.978320e+001
2006700000 1.055989e+000 -2.538538e+001 1.235118e-003 -1.044704e+002 2.265916e-003 -1.245857e+002 1.135034e+000 -3.978871e+001
2006800000 1.055969e+000 -2.538861e+001 1.243121e-003 -1.051075e+002 2.235656e-003 -1.241684e+002 1.134940e+000 -3.979293e+001
2006900000 1.055909e+000 -2.538786e+001 1.235004e-003 -1.054910e+002 2.242354e-003 -1.248319e+002 1.134889e+000 -3.980078e+001
2007000000 1.055807e+000 -2.539297e+001 1.238193e-003 -1.047588e+002 2.235102e-003 -1.232545e+002 1.134682e+000 -3.979367e+001
2007100000 1.055771e+000 -2.539327e+001 1.253578e-003 -1.045111e+002 2.213044e-003 -1.233114e+002 1.134697e+000 -3.980440e+001
2007200000 1.055879e+000 -2.539479e+001 1.238221e-003 -1.059639e+002 2.225044e-003 -1.251096e+002 1.134677e+000 -3.980248e+001
2007300000 1.055842e+000 -2.540512e+001 1.243931e-003 -1.050215e+002 2.235166e-003 -1.257049e+002 1.134555e+000 -3.980857e+001
2007400000 1.055735e+000 -2.541053e+001 1.265802e-003 -1.055020e+002 2.235273e-003 -1.246645e+002 1.134407e+000 -3.980065e+001
2007500000 1.055939e+000 -2.541414e+001 1.240678e-003 -1.061241e+002 2.173805e-003 -1.236200e+002 1.134052e+000 -3.978089e+001
2007600000 1.055995e+000 -2.542467e+001 1.271635e-003 -1.060742e+002 2.193707e-003 -1.248294e+002 1.133894e+000 -3.978699e+001
2007700000 1.055943e+000 -2.542972e+001 1.251865e-003 -1.062882e+002 2.215544e-003 -1.256907e+002 1.133618e+000 -3.977596e+001
2007800000 1.055897e+000 -2.543780e+001 1.235720e-003 -1.064133e+002 2.194953e-003 -1.246760e+002 1.133474e+000 -3.977186e+001
2007900000 1.055920e+000 -2.543727e+001 1.221878e-003 -1.072222e+002 2.227330e-003 -1.249855e+002 1.133480e+000 -3.976967e+001
2008000000 1.055863e+000 -2.544497e+001 1.225255e-003 -1.066411e+002 2.210604e-003 -1.251001e+002 1.133324e+000 -3.976156e+001
2008100000 1.055705e+000 -2.543650e+001 1.253988e-003 -1.077942e+002 2.240793e-003 -1.251291e+002 1.133100e+000 -3.976834e+001
2008200000 1.055775e+000 -2.542067e+001 1.237990e-003 -1.072920e+002 2.210260e-003 -1.259913e+002 1.132737e+000 -3.976039e+001
2008300000 1.055698e+000 -2.541101e+001 1.264813e-003 -1.077257e+002 2.236982e-003 -1.257043e+002 1.132674e+000 -3.977412e+001
2008400000 1.055763e+000 -2.539666e+001 1.237376e-003 -1.072755e+002 2.207867e-003 -1.260770e+002 1.132721e+000 -3.977897e+001
2008500000 1.055650e+000 -2.538868e+001 1.239358e-003 -1.074396e+002 2.238248e-003 -1.267279e+002 1.132573e+000 -3.977981e+001
2008600000 1.055696e+000 -2.537551e+001 1.253419e-003 -1.062785e+002 2.161732e-003 -1.262925e+002 1.132548e+000 -3.978488e+001
2008700000 1.055654e+000 -2.537524e+001 1.244677e-003 -1.075073e+002 2.223542e-003 -1.269446e+002 1.132453e+000 -3.979316e+001
2008800000 1.055588e+000 -2.537999e+001 1.257705e-003 -1.077479e+002 2.215069e-003 -1.270010e+002 1.132798e+000 -3.979808e+001
2008900000 1.055511e+000 -2.538587e+001 1.237652e-003 -1.071706e+002 2.230011e-003 -1.262988e+002 1.133008e+000 -3.981588e+001
2009000000 1.055593e+000 -2.538468e+001 1.247125e-003 -1.075224e+002 2.223995e-003 -1.268980e+002 1.133359e+000 -3.982083e+001
2009100000 1.055414e+000 -2.539653e+001 1.229831e-003 -1.086525e+002 2.213876e-003 -1.264453e+002 1.133617e+000 -3.983048e+001
2009200000 1.055531e+000 -2.539917e+001 1.246727e-003 -1.080508e+002 2.197913e-003 -1.256715e+002 1.133763e+000 -3.985400e+001
2009300000 1.055606e+000 -2.540990e+001 1.230270e-003 -1.083790e+002 2.237595e-003 -1.272573e+002 1.134007e+000 -3.985725e+001
2009400000 1.055393e+000 -2.541128e+001 1.243573e-003 -1.090300e+002 2.243835e-003 -1.274954e+002 1.134032e+000 -3.986930e+001
2009500000 1.055423e+000 -2.541707e+001 1.240358e-003 -1.073237e+002 2.215451e-003 -1.274343e+002 1.134180e+000 -3.987883e+001
2009600000 1.055773e+000 -2.541979e+001 1.229753e-003 -1.091465e+002 2.215429e-003 -1.283635e+002 1.134257e+000 -3.988189e+001
2009700000 1.055963e+000 -2.541998e+001 1.248627e-003 -1.097795e+002 2.207937e-003 -1.293490e+002 1.134293e+000 -3.988097e+001
2009800000 1.055868e+000 -2.541524e+001 1.239661e-003 -1.093022e+002 2.177630e-003 -1.293594e+002 1.134387e+000 -3.989408e+001
2009900000 1.056072e+000 -2.541290e+001 1.219303e-003 -1.095539e+002 2.179612e-003 -1.305404e+002 1.134361e+000 -3.989495e+001
2010000000 1.056079e+000 -2.541013e+001 1.246501e-003 -1.095462e+002 2.185001e-003 -1.292693e+002 1.134365e+000 -3.989699e+001
2010100000 1.056099e+000 -2.540905e+001 1.249072e-003 -1.095593e+002 2.201421e-003 -1.278170e+002 1.134222e+000 -3.990687e+001
2010200000 1.056081e+000 -2.540653e+001 1.253020e-003 -1.091654e+002 2.190660e-003 -1.278562e+002 1.134107e+000 -3.990261e+001
2010300000 1.056149e+000 -2.539649e+001 1.252914e-003 -1.090633e+002 2.199593e-003 -1.287081e+002 1.134038e+000 -3.990828e+001
2010400000 1.056290e+000 -2.539401e+001 1.233325e-003 -1.101237e+002 2.230375e-003 -1.288423e+002 1.133810e+000 -3.990877e+001
2010500000 1.056084e+000 -2.539988e+001 1.250387e-003 -1.107259e+002 2.155886e-003 -1.295590e+002 1.133351e+000 -3.990981e+001
2010600000 1.056116e+000 -2.539382e+001 1.238963e-003 -1.103666e+002 2.174120e-003 -1.293760e+002 1.133196e+000 -3.991929e+001
2010700000 1.056220e+000 -2.540071e+001 1.243621e-003 -1.110925e+002 2.189385e-003 -1.293182e+002 1.133082e+000 -3.991707e+001
2010800000 1.056126e+000 -2.539164e+001 1.219874e-003 -1.101988e+002 2.180087e-003 -1.297476e+002 1.132956e+000 -3.991946e+001
2010900000 1.056031e+000 -2.539589e+001 1.249074e-003 -1.108196e+002 2.209452e-003 -1.282607e+002 1.132763e+000 -3.992479e+001
2011000000 1.056093e+000 -2.539824e+001 1.236499e-003 -1.102181e+002 2.160019e-003 -1.291020e+002 1.132494e+000 -3.992531e+001
2011100000 1.055742e+000 -2.539634e+001 1.228003e-003 -1.109717e+002 2.171339e-003 -1.299393e+002 1.132666e+000 -3.991113e+001
2011200000 1.055438e+000 -2.540017e+001 1.229968e-003 -1.105526e+002 2.203135e-003 -1.303770e+002 1.132979e+000 -3.989108e+001
2011300000 1.055202e+000 -2.540520e+001 1.224347e-003 -1.111954e+002 2.167810e-003 -1.295518e+002 1.133137e+000 -3.986925e+001
2011400000 1.054997e+000 -2.540750e+001 1.224302e-003 -1.122215e+002 2.211214e-003 -1.301903e+002 1.133234e+000 -3.985887e+001
2011500000 1.054882e+000 -2.541641e+001 1.223552e-003 -1.106407e+002 2.200752e-003 -1.302520e+002 1.133498e+000 -3.983750e+001
2011600000 1.054776e+000 -2.541421e+001 1.207866e-003 -1.110651e+002 2.197767e-003 -1.297101e+002 1.133592e+000 -3.983016e+001
2011700000 1.054541e+000 -2.541462e+001 1.259080e-003 -1.121170e+002 2.187438e-003 -1.301302e+002 1.133842e+000 -3.980780e+001
2011800000 1.054615e+000 -2.542158e+001 1.234949e-003 -1.122459e+002 2.175954e-003 -1.312317e+002 1.133811e+000 -3.980905e+001
2011900000 1.054828e+000 -2.544149e+001 1.217250e-003 -1.121985e+002 2.157092e-003 -1.304283e+002 1.133103e+000 -3.983377e+001
2012000000 1.055019e+000 -2.544946e+001 1.232748e-003 -1.116558e+002 2.188820e-003 -1.300118e+002 1.132768e+000 -3.984371e+001
2012100000 1.055065e+000 -2.545807e+001 1.230892e-003 -1.120330e+002 2.223821e-003 -1.312937e+002 1.132609e+000 -3.986651e+001
2012200000 1.055415e+000 -2.547259e+001 1.219496e-003 -1.124849e+002 2.151162e-003 -1.299742e+002 1.132220e+000 -3.987744e+001
2012300000 1.055640e+000 -2.547500e+001 1.234102e-003 -1.124977e+002 2.107872e-003 -1.300538e+002 1.132005e+000 -3.989351e+001
2012400000 1.056005e+000 -2.546655e+001 1.261585e-003 -1.118866e+002 2.154641e-003 -1.304494e+002 1.131828e+000 -3.991068e+001
2012500000 1.056215e+000 -2.547543e+001 1.221540e-003 -1.127529e+002 2.177327e-003 -1.314123e+002 1.131829e+000 -3.993130e+001
2012600000 1.056603e+000 -2.544463e+001 1.220373e-003 -1.118231e+002 2.176336e-003 -1.320972e+002 1.132782e+000 -3.992928e+001
2012700000 1.056804e+000 -2.541882e+001 1.219157e-003 -1.122046e+002 2.192616e-003 -1.323280e+002 1.133528e+000 -3.994220e+001
2012800000 1.057049e+000 -2.539685e+001 1.241454e-003 -1.126011e+002 2.120588e-003 -1.308016e+002 1.134406e+000 -3.993600e+001
2012900000 1.057269e+000 -2.537707e+001 1.239733e-003 -1.127417e+002 2.187519e-003 -1.312729e+002 1.134966e+000 -3.992827e+001
2013000000 1.057369e+000 -2.536195e+001 1.228097e-003 -1.144667e+002 2.166421e-003 -1.316658e+002 1.135658e+000 -3.991629e+001
2013100000 1.057428e+000 -2.534904e+001 1.239050e-003 -1.134249e+002 2.185950e-003 -1.328333e+002 1.136321e+000 -3.991745e+001
2013200000 1.057464e+000 -2.533843e+001 1.223710e-003 -1.135156e+002 2.167116e-003 -1.312921e+002 1.136621e+000 -3.989156e+001
2013300000 1.057210e+000 -2.534197e+001 1.241003e-003 -1.144809e+002 2.173476e-003 -1.329672e+002 1.136846e+000 -3.989211e+001
2013400000 1.056611e+000 -2.536286e+001 1.180796e-003 -1.129418e+002 2.167603e-003 -1.319379e+002 1.136472e+000 -3.988240e+001
2013500000 1.056001e+000 -2.538761e+001 1.233251e-003 -1.130097e+002 2.161156e-003 -1.316334e+002 1.136163e+000 -3.987689e+001
2013600000 1.055499e+000 -2.540409e+001 1.220866e-003 -1.132001e+002 2.172336e-003 -1.319392e+002 1.135947e+000 -3.987422e+001
2013700000 1.055044e+000 -2.542196e+001 1.210887e-003 -1.139356e+002 2.146569e-003 -1.327871e+002 1.135702e+000 -3.986323e+001
2013800000 1.054764e+000 -2.543739e+001 1.215180e-003 -1.147954e+002 2.163725e-003 -1.326333e+002 1.135581e+000 -3.985277e+001
2013900000 1.054564e+000 -2.544343e+001 1.215028e-003 -1.149027e+002 2.191882e-003 -1.323472e+002 1.135266e+000 -3.984938e+001
2014000000 1.054418e+000 -2.546098e+001 1.236592e-003 -1.151845e+002 2.138321e-003 -1.330467e+002 1.135190e+000 -3.984425e+001
2014100000 1.054698e+000 -2.544462e+001 1.212447e-003 -1.160688e+002 2.161202e-003 -1.327078e+002 1.135226e+000 -3.985939e+001
2014200000 1.054831e+000 -2.544093e+001 1.219000e-003 -1.152783e+002 2.167233e-003 -1.322411e+002 1.134824e+000 -3.987582e+001
2014300000 1.055172e+000 -2.542839e+001 1.194588e-003 -1.151555e+002 2.133515e-003 -1.328828e+002 1.134639e+000 -3.989952e+001
2014400000 1.055465e+000 -2.541916e+001 1.222518e-003 -1.150196e+002 2.162832e-003 -1.345439e+002 1.134554e+000 -3.990315e+001
2014500000 1.055570e+000 -2.540829e+001 1.226574e-003 -1.141458e+002 2.160151e-003 -1.341773e+002 1.134335e+000 -3.992595e+001
2014600000 1.055731e+000 -2.540435e+001 1.222070e-003 -1.149003e+002 2.156619e-003 -1.335664e+002 1.134023e+000 -3.993582e+001
2014700000 1.055767e+000 -2.540623e+001 1.226020e-003 -1.156833e+002 2.165450e-003 -1.344957e+002 1.133992e+000 -3.995463e+001
2014800000 1.055638e+000 -2.540345e+001 1.224068e-003 -1.153651e+002 2.169846e-003 -1.344377e+002 1.133705e+000 -3.994631e+001
2014900000 1.055373e+000 -2.542001e+001 1.221706e-003 -1.147245e+002 2.160287e-003 -1.345885e+002 1.133199e+000 -3.993978e+001
2015000000 1.055150e+000 -2.543180e+001 1.214074e-003 -1.155201e+002 2.159035e-003 -1.338644e+002 1.133060e+000 -3.993324e+001
2015100000 1.055032e+000 -2.544289e+001 1.240069e-003 -1.152246e+002 2.168842e-003 -1.341391e+002 1.132889e+000 -3.992335e+001
2015200000 1.054949e+000 -2.545915e+001 1.209842e-003 -1.164380e+002 2.128433e-003 -1.352718e+002 1.132758e+000 -3.991637e+001
