!Agilent Technologies,N5230C,SG49000117,A.08.50.07
!Agilent N5230C: A.08.50.07
!Date: Thursday, May 09, 2024 01:48:29
!Correction: S11(Full 2 Port(1,2)) 
!S21(Full 2 Port(1,2)) 
!S12(Full 2 Port(1,2)) 
!S22(Full 2 Port(1,2)) 
!S2P File: Measurements: S11, S21, S12, S22:
# Hz S  MA   R 50
2000000000 1.055752e+000 -2.527427e+001 9.517231e-004 -1.017566e+002 1.716845e-003 -1.210141e+002 1.132715e+000 -3.979868e+001
2000100000 1.055686e+000 -2.527592e+001 9.514319e-004 -1.012059e+002 1.725934e-003 -1.215809e+002 1.132914e+000 -3.978189e+001
2000200000 1.055459e+000 -2.528420e+001 9.510505e-004 -1.015362e+002 1.713895e-003 -1.222297e+002 1.133259e+000 -3.978688e+001
2000300000 1.055270e+000 -2.528156e+001 9.534329e-004 -1.020355e+002 1.725413e-003 -1.219702e+002 1.133534e+000 -3.979087e+001
2000400000 1.055212e+000 -2.529963e+001 9.426242e-004 -1.021089e+002 1.676094e-003 -1.216202e+002 1.133773e+000 -3.979354e+001
2000500000 1.055044e+000 -2.530365e+001 9.534996e-004 -1.022553e+002 1.706003e-003 -1.223983e+002 1.133755e+000 -3.980541e+001
2000600000 1.055028e+000 -2.530084e+001 9.375780e-004 -1.025672e+002 1.708385e-003 -1.213450e+002 1.133859e+000 -3.978458e+001
2000700000 1.055082e+000 -2.528694e+001 9.571857e-004 -1.013146e+002 1.719803e-003 -1.215116e+002 1.133741e+000 -3.976945e+001
2000800000 1.055112e+000 -2.527623e+001 9.607060e-004 -1.032675e+002 1.740425e-003 -1.216318e+002 1.133548e+000 -3.975310e+001
2000900000 1.055155e+000 -2.526762e+001 9.598808e-004 -1.027630e+002 1.698527e-003 -1.214246e+002 1.133524e+000 -3.973999e+001
2001000000 1.055025e+000 -2.526017e+001 9.693629e-004 -1.026523e+002 1.743427e-003 -1.219969e+002 1.133463e+000 -3.972123e+001
2001100000 1.054949e+000 -2.525111e+001 9.574378e-004 -1.026150e+002 1.712972e-003 -1.211711e+002 1.133303e+000 -3.972557e+001
2001200000 1.054949e+000 -2.524302e+001 9.350545e-004 -1.036663e+002 1.716621e-003 -1.223079e+002 1.133056e+000 -3.971135e+001
2001300000 1.054996e+000 -2.524732e+001 9.499732e-004 -1.032386e+002 1.728458e-003 -1.207201e+002 1.132980e+000 -3.972577e+001
2001400000 1.055098e+000 -2.526253e+001 9.495633e-004 -1.032347e+002 1.695608e-003 -1.222721e+002 1.132755e+000 -3.976089e+001
2001500000 1.055314e+000 -2.527695e+001 9.737310e-004 -1.029142e+002 1.711057e-003 -1.218337e+002 1.132571e+000 -3.979176e+001
2001600000 1.055467e+000 -2.528831e+001 9.483002e-004 -1.046736e+002 1.744577e-003 -1.229885e+002 1.132232e+000 -3.981477e+001
2001700000 1.055570e+000 -2.529895e+001 9.769222e-004 -1.034974e+002 1.758567e-003 -1.225701e+002 1.132110e+000 -3.983514e+001
2001800000 1.055765e+000 -2.530909e+001 9.607889e-004 -1.047469e+002 1.752677e-003 -1.214211e+002 1.131940e+000 -3.986402e+001
2001900000 1.056010e+000 -2.531772e+001 9.519592e-004 -1.024133e+002 1.745272e-003 -1.224006e+002 1.131697e+000 -3.988077e+001
2002000000 1.056210e+000 -2.532434e+001 9.661552e-004 -1.031371e+002 1.738061e-003 -1.227971e+002 1.131629e+000 -3.990602e+001
2002100000 1.056179e+000 -2.530787e+001 9.792837e-004 -1.029129e+002 1.727379e-003 -1.231094e+002 1.131947e+000 -3.987836e+001
2002200000 1.056138e+000 -2.529349e+001 9.765462e-004 -1.046482e+002 1.751609e-003 -1.229411e+002 1.131970e+000 -3.985028e+001
2002300000 1.056136e+000 -2.528657e+001 9.756259e-004 -1.041428e+002 1.719416e-003 -1.237757e+002 1.132232e+000 -3.982822e+001
2002400000 1.056186e+000 -2.527420e+001 9.651576e-004 -1.025853e+002 1.735187e-003 -1.242009e+002 1.132392e+000 -3.980608e+001
2002500000 1.055965e+000 -2.526576e+001 9.728421e-004 -1.051074e+002 1.745332e-003 -1.234593e+002 1.132533e+000 -3.977650e+001
2002600000 1.056030e+000 -2.525583e+001 9.753189e-004 -1.047171e+002 1.733512e-003 -1.237788e+002 1.132659e+000 -3.974775e+001
2002700000 1.055915e+000 -2.525413e+001 9.874196e-004 -1.042989e+002 1.724574e-003 -1.240817e+002 1.132807e+000 -3.973910e+001
2002800000 1.055782e+000 -2.525157e+001 9.743552e-004 -1.040482e+002 1.757528e-003 -1.247694e+002 1.132942e+000 -3.973508e+001
2002900000 1.055587e+000 -2.526288e+001 9.638347e-004 -1.049946e+002 1.784294e-003 -1.246558e+002 1.132798e+000 -3.974408e+001
2003000000 1.055499e+000 -2.527261e+001 9.846136e-004 -1.049292e+002 1.734543e-003 -1.250862e+002 1.132921e+000 -3.976308e+001
2003100000 1.055414e+000 -2.527738e+001 9.591870e-004 -1.046021e+002 1.793908e-003 -1.254998e+002 1.132898e+000 -3.977796e+001
2003200000 1.055363e+000 -2.528208e+001 9.788985e-004 -1.046642e+002 1.802423e-003 -1.256802e+002 1.133019e+000 -3.979742e+001
2003300000 1.055361e+000 -2.528742e+001 9.902726e-004 -1.046747e+002 1.734606e-003 -1.251910e+002 1.133095e+000 -3.981249e+001
2003400000 1.055308e+000 -2.529563e+001 9.856417e-004 -1.050591e+002 1.783728e-003 -1.234988e+002 1.133301e+000 -3.982381e+001
2003500000 1.055304e+000 -2.530276e+001 9.774806e-004 -1.063562e+002 1.779608e-003 -1.252146e+002 1.133295e+000 -3.984124e+001
2003600000 1.055254e+000 -2.530619e+001 9.867109e-004 -1.055900e+002 1.747425e-003 -1.248016e+002 1.133490e+000 -3.984019e+001
2003700000 1.055329e+000 -2.531854e+001 9.982387e-004 -1.049103e+002 1.783034e-003 -1.249356e+002 1.133717e+000 -3.982738e+001
2003800000 1.055361e+000 -2.532094e+001 1.002626e-003 -1.053244e+002 1.721818e-003 -1.254803e+002 1.133822e+000 -3.982298e+001
2003900000 1.055407e+000 -2.532990e+001 9.759258e-004 -1.056563e+002 1.779355e-003 -1.253668e+002 1.133792e+000 -3.981847e+001
2004000000 1.055449e+000 -2.533963e+001 1.007276e-003 -1.054606e+002 1.752228e-003 -1.251805e+002 1.134019e+000 -3.981853e+001
2004100000 1.055431e+000 -2.534204e+001 1.001502e-003 -1.061166e+002 1.797306e-003 -1.244784e+002 1.134154e+000 -3.980711e+001
2004200000 1.055424e+000 -2.534224e+001 9.728250e-004 -1.066246e+002 1.777997e-003 -1.256134e+002 1.133904e+000 -3.981564e+001
2004300000 1.055512e+000 -2.534322e+001 9.929765e-004 -1.067649e+002 1.735182e-003 -1.255459e+002 1.133859e+000 -3.981105e+001
2004400000 1.055579e+000 -2.534632e+001 9.850459e-004 -1.061433e+002 1.744122e-003 -1.250731e+002 1.133443e+000 -3.980679e+001
2004500000 1.055666e+000 -2.534443e+001 9.742854e-004 -1.071310e+002 1.752552e-003 -1.264323e+002 1.133232e+000 -3.981061e+001
2004600000 1.055665e+000 -2.534282e+001 9.912119e-004 -1.077821e+002 1.759712e-003 -1.256503e+002 1.133152e+000 -3.979976e+001
2004700000 1.055828e+000 -2.534033e+001 9.832217e-004 -1.056800e+002 1.787836e-003 -1.264166e+002 1.132936e+000 -3.980312e+001
2004800000 1.055809e+000 -2.534356e+001 9.952723e-004 -1.073502e+002 1.817025e-003 -1.266629e+002 1.132650e+000 -3.980199e+001
2004900000 1.055982e+000 -2.534064e+001 9.861980e-004 -1.065606e+002 1.862045e-003 -1.276048e+002 1.132594e+000 -3.980684e+001
2005000000 1.055894e+000 -2.533931e+001 9.863975e-004 -1.070962e+002 1.778079e-003 -1.259474e+002 1.132660e+000 -3.980849e+001
2005100000 1.055861e+000 -2.534479e+001 9.929229e-004 -1.086359e+002 1.799203e-003 -1.273824e+002 1.132871e+000 -3.979612e+001
2005200000 1.055913e+000 -2.535074e+001 1.017331e-003 -1.079981e+002 1.787006e-003 -1.276283e+002 1.132878e+000 -3.978840e+001
2005300000 1.055865e+000 -2.535598e+001 1.015974e-003 -1.077229e+002 1.762770e-003 -1.267562e+002 1.133056e+000 -3.978017e+001
2005400000 1.055881e+000 -2.536193e+001 1.006844e-003 -1.066989e+002 1.821152e-003 -1.268198e+002 1.133222e+000 -3.977074e+001
2005500000 1.055904e+000 -2.536636e+001 1.010332e-003 -1.079853e+002 1.830927e-003 -1.271852e+002 1.133275e+000 -3.976971e+001
2005600000 1.055827e+000 -2.536824e+001 1.009497e-003 -1.079861e+002 1.782116e-003 -1.264535e+002 1.133741e+000 -3.976205e+001
2005700000 1.055892e+000 -2.536850e+001 1.002083e-003 -1.068188e+002 1.823926e-003 -1.263282e+002 1.133777e+000 -3.976059e+001
2005800000 1.055863e+000 -2.537186e+001 1.016591e-003 -1.091040e+002 1.815856e-003 -1.272502e+002 1.133937e+000 -3.975432e+001
2005900000 1.055998e+000 -2.537186e+001 1.012198e-003 -1.077937e+002 1.807130e-003 -1.261401e+002 1.134139e+000 -3.976543e+001
2006000000 1.056057e+000 -2.537062e+001 1.038663e-003 -1.083572e+002 1.778651e-003 -1.285900e+002 1.134369e+000 -3.977366e+001
2006100000 1.056071e+000 -2.536903e+001 1.017446e-003 -1.090339e+002 1.830760e-003 -1.272482e+002 1.134477e+000 -3.979082e+001
2006200000 1.056064e+000 -2.537176e+001 1.009077e-003 -1.096146e+002 1.813567e-003 -1.276446e+002 1.134473e+000 -3.980300e+001
2006300000 1.056168e+000 -2.537085e+001 1.010994e-003 -1.089849e+002 1.792021e-003 -1.276132e+002 1.134593e+000 -3.981540e+001
2006400000 1.056193e+000 -2.536776e+001 1.003997e-003 -1.089834e+002 1.814628e-003 -1.280935e+002 1.134584e+000 -3.982996e+001
2006500000 1.056124e+000 -2.537540e+001 9.998251e-004 -1.091821e+002 1.805342e-003 -1.267265e+002 1.134699e+000 -3.984594e+001
2006600000 1.056088e+000 -2.538053e+001 1.019284e-003 -1.096163e+002 1.793157e-003 -1.273034e+002 1.134645e+000 -3.984885e+001
2006700000 1.055947e+000 -2.538566e+001 1.019938e-003 -1.093374e+002 1.843287e-003 -1.289334e+002 1.134561e+000 -3.985430e+001
2006800000 1.055931e+000 -2.538718e+001 1.020299e-003 -1.095850e+002 1.824208e-003 -1.283077e+002 1.134539e+000 -3.985921e+001
2006900000 1.055833e+000 -2.539208e+001 9.908556e-004 -1.097327e+002 1.776085e-003 -1.281246e+002 1.134256e+000 -3.985814e+001
2007000000 1.055850e+000 -2.538807e+001 1.015641e-003 -1.097572e+002 1.823129e-003 -1.284291e+002 1.134465e+000 -3.986152e+001
2007100000 1.055736e+000 -2.539084e+001 1.024386e-003 -1.094200e+002 1.840687e-003 -1.286338e+002 1.134298e+000 -3.986521e+001
2007200000 1.055711e+000 -2.539690e+001 1.028849e-003 -1.098770e+002 1.794178e-003 -1.283945e+002 1.134297e+000 -3.987378e+001
2007300000 1.055768e+000 -2.539842e+001 9.999102e-004 -1.101407e+002 1.780910e-003 -1.293007e+002 1.134221e+000 -3.986922e+001
2007400000 1.055858e+000 -2.540374e+001 1.023877e-003 -1.106345e+002 1.829271e-003 -1.286653e+002 1.133851e+000 -3.985942e+001
2007500000 1.055909e+000 -2.541844e+001 1.045015e-003 -1.105020e+002 1.822643e-003 -1.295670e+002 1.133837e+000 -3.985631e+001
2007600000 1.055816e+000 -2.542495e+001 1.025667e-003 -1.113883e+002 1.825775e-003 -1.283475e+002 1.133470e+000 -3.984654e+001
2007700000 1.055881e+000 -2.542390e+001 1.013673e-003 -1.099066e+002 1.824650e-003 -1.287327e+002 1.133277e+000 -3.983905e+001
2007800000 1.055814e+000 -2.543835e+001 1.032226e-003 -1.113871e+002 1.833969e-003 -1.302766e+002 1.133047e+000 -3.983590e+001
2007900000 1.055801e+000 -2.543196e+001 1.012963e-003 -1.101086e+002 1.828166e-003 -1.302005e+002 1.132944e+000 -3.982628e+001
2008000000 1.055994e+000 -2.544055e+001 1.041007e-003 -1.107445e+002 1.861775e-003 -1.296302e+002 1.132831e+000 -3.982548e+001
2008100000 1.055845e+000 -2.543157e+001 1.052901e-003 -1.111622e+002 1.827376e-003 -1.291033e+002 1.132600e+000 -3.982049e+001
2008200000 1.055668e+000 -2.541749e+001 1.054169e-003 -1.107972e+002 1.823686e-003 -1.302681e+002 1.132390e+000 -3.982595e+001
2008300000 1.055784e+000 -2.540888e+001 1.030293e-003 -1.104213e+002 1.808319e-003 -1.298581e+002 1.132265e+000 -3.982867e+001
2008400000 1.055637e+000 -2.539695e+001 1.027300e-003 -1.116427e+002 1.848787e-003 -1.299691e+002 1.132213e+000 -3.983002e+001
2008500000 1.055623e+000 -2.538998e+001 1.014340e-003 -1.107875e+002 1.835486e-003 -1.304150e+002 1.132248e+000 -3.983664e+001
2008600000 1.055466e+000 -2.538139e+001 1.050112e-003 -1.121550e+002 1.814813e-003 -1.306949e+002 1.132142e+000 -3.984090e+001
2008700000 1.055477e+000 -2.537167e+001 1.015141e-003 -1.118450e+002 1.882142e-003 -1.292166e+002 1.132165e+000 -3.984904e+001
2008800000 1.055494e+000 -2.536976e+001 1.009170e-003 -1.116568e+002 1.871201e-003 -1.306513e+002 1.132294e+000 -3.985992e+001
2008900000 1.055576e+000 -2.537949e+001 1.021748e-003 -1.122439e+002 1.843453e-003 -1.307645e+002 1.132690e+000 -3.987254e+001
2009000000 1.055561e+000 -2.538522e+001 1.048225e-003 -1.113043e+002 1.861201e-003 -1.306200e+002 1.132954e+000 -3.988120e+001
2009100000 1.055460e+000 -2.539375e+001 1.023588e-003 -1.104897e+002 1.879485e-003 -1.313267e+002 1.133107e+000 -3.988857e+001
2009200000 1.055470e+000 -2.540149e+001 1.036855e-003 -1.117978e+002 1.780624e-003 -1.321202e+002 1.133206e+000 -3.989818e+001
2009300000 1.055449e+000 -2.540830e+001 1.049509e-003 -1.122776e+002 1.861193e-003 -1.312155e+002 1.133513e+000 -3.991789e+001
2009400000 1.055484e+000 -2.541359e+001 1.042003e-003 -1.129186e+002 1.828072e-003 -1.310369e+002 1.133623e+000 -3.991442e+001
2009500000 1.055485e+000 -2.542004e+001 1.031154e-003 -1.129270e+002 1.894107e-003 -1.318122e+002 1.133655e+000 -3.992643e+001
2009600000 1.055524e+000 -2.541162e+001 1.056974e-003 -1.125929e+002 1.883120e-003 -1.320042e+002 1.133868e+000 -3.992964e+001
2009700000 1.055756e+000 -2.541847e+001 1.027878e-003 -1.126833e+002 1.847745e-003 -1.317526e+002 1.133775e+000 -3.993289e+001
2009800000 1.055862e+000 -2.541306e+001 1.047064e-003 -1.125034e+002 1.864234e-003 -1.300850e+002 1.133921e+000 -3.993805e+001
2009900000 1.055946e+000 -2.540625e+001 1.045421e-003 -1.123312e+002 1.882456e-003 -1.313121e+002 1.133894e+000 -3.994993e+001
2010000000 1.055976e+000 -2.540512e+001 1.048712e-003 -1.135067e+002 1.855265e-003 -1.311004e+002 1.133933e+000 -3.994659e+001
2010100000 1.056035e+000 -2.540278e+001 1.055691e-003 -1.123916e+002 1.882208e-003 -1.315595e+002 1.133734e+000 -3.995959e+001
2010200000 1.056087e+000 -2.540164e+001 1.045995e-003 -1.119273e+002 1.882339e-003 -1.312188e+002 1.133815e+000 -3.995796e+001
2010300000 1.056084e+000 -2.539902e+001 1.044615e-003 -1.124372e+002 1.886276e-003 -1.320673e+002 1.133544e+000 -3.996072e+001
2010400000 1.056170e+000 -2.539654e+001 1.052073e-003 -1.140211e+002 1.889002e-003 -1.326810e+002 1.133253e+000 -3.996283e+001
2010500000 1.056114e+000 -2.539485e+001 1.035250e-003 -1.120259e+002 1.876337e-003 -1.323513e+002 1.133061e+000 -3.996403e+001
2010600000 1.056085e+000 -2.539527e+001 1.039081e-003 -1.136970e+002 1.899179e-003 -1.323285e+002 1.132786e+000 -3.996443e+001
2010700000 1.056107e+000 -2.539539e+001 1.053548e-003 -1.135343e+002 1.873172e-003 -1.339949e+002 1.132503e+000 -3.996568e+001
2010800000 1.056112e+000 -2.539183e+001 1.047769e-003 -1.136500e+002 1.854904e-003 -1.314925e+002 1.132519e+000 -3.997225e+001
2010900000 1.056075e+000 -2.539557e+001 1.054765e-003 -1.138674e+002 1.854964e-003 -1.329363e+002 1.132239e+000 -3.997332e+001
2011000000 1.055992e+000 -2.539216e+001 1.045749e-003 -1.143196e+002 1.859772e-003 -1.334387e+002 1.132105e+000 -3.997691e+001
2011100000 1.055588e+000 -2.540010e+001 1.058087e-003 -1.138719e+002 1.860085e-003 -1.331016e+002 1.132275e+000 -3.995481e+001
2011200000 1.055354e+000 -2.540441e+001 1.048919e-003 -1.142276e+002 1.877640e-003 -1.332995e+002 1.132539e+000 -3.993219e+001
2011300000 1.055127e+000 -2.540454e+001 1.066880e-003 -1.137637e+002 1.862126e-003 -1.323142e+002 1.132602e+000 -3.992312e+001
2011400000 1.054931e+000 -2.540547e+001 1.048954e-003 -1.145235e+002 1.886512e-003 -1.330450e+002 1.132962e+000 -3.989705e+001
2011500000 1.054778e+000 -2.540822e+001 1.059410e-003 -1.142327e+002 1.886766e-003 -1.329974e+002 1.133256e+000 -3.989301e+001
2011600000 1.054680e+000 -2.540764e+001 1.072855e-003 -1.138581e+002 1.884864e-003 -1.332866e+002 1.133316e+000 -3.986830e+001
2011700000 1.054609e+000 -2.541456e+001 1.061677e-003 -1.139140e+002 1.881280e-003 -1.329690e+002 1.133412e+000 -3.985933e+001
2011800000 1.054551e+000 -2.542226e+001 1.079176e-003 -1.157388e+002 1.916487e-003 -1.332357e+002 1.133249e+000 -3.985932e+001
2011900000 1.054665e+000 -2.543934e+001 1.062034e-003 -1.151331e+002 1.889336e-003 -1.333112e+002 1.132766e+000 -3.987009e+001
2012000000 1.054898e+000 -2.544690e+001 1.071599e-003 -1.156196e+002 1.887799e-003 -1.341845e+002 1.132416e+000 -3.988847e+001
2012100000 1.055035e+000 -2.546037e+001 1.058115e-003 -1.155567e+002 1.898143e-003 -1.347765e+002 1.132009e+000 -3.990195e+001
2012200000 1.055286e+000 -2.546673e+001 1.068325e-003 -1.152719e+002 1.865075e-003 -1.335957e+002 1.131769e+000 -3.992682e+001
2012300000 1.055575e+000 -2.546855e+001 1.058345e-003 -1.160514e+002 1.904134e-003 -1.331781e+002 1.131535e+000 -3.993981e+001
2012400000 1.055867e+000 -2.546640e+001 1.060172e-003 -1.140364e+002 1.870493e-003 -1.345550e+002 1.131371e+000 -3.995896e+001
2012500000 1.056123e+000 -2.547069e+001 1.049593e-003 -1.163936e+002 1.901297e-003 -1.336095e+002 1.131410e+000 -3.997836e+001
2012600000 1.056470e+000 -2.544000e+001 1.071902e-003 -1.160687e+002 1.858672e-003 -1.335084e+002 1.132271e+000 -3.998072e+001
2012700000 1.056648e+000 -2.541912e+001 1.065793e-003 -1.149943e+002 1.885537e-003 -1.356781e+002 1.133168e+000 -3.997433e+001
2012800000 1.057023e+000 -2.539387e+001 1.061491e-003 -1.155927e+002 1.931329e-003 -1.343894e+002 1.134032e+000 -3.998068e+001
2012900000 1.057142e+000 -2.537739e+001 1.069071e-003 -1.163944e+002 1.893786e-003 -1.345484e+002 1.134726e+000 -3.996705e+001
2013000000 1.057179e+000 -2.535773e+001 1.043590e-003 -1.157816e+002 1.897463e-003 -1.351950e+002 1.135294e+000 -3.996045e+001
2013100000 1.057434e+000 -2.534844e+001 1.084488e-003 -1.155341e+002 1.884947e-003 -1.353541e+002 1.135656e+000 -3.995414e+001
2013200000 1.057402e+000 -2.533616e+001 1.063205e-003 -1.173804e+002 1.872288e-003 -1.347876e+002 1.136232e+000 -3.994249e+001
2013300000 1.057031e+000 -2.534249e+001 1.047240e-003 -1.167871e+002 1.895639e-003 -1.348127e+002 1.136365e+000 -3.993652e+001
2013400000 1.056525e+000 -2.536411e+001 1.056685e-003 -1.166390e+002 1.883310e-003 -1.350100e+002 1.135969e+000 -3.992082e+001
2013500000 1.055932e+000 -2.538390e+001 1.066376e-003 -1.159872e+002 1.899021e-003 -1.341221e+002 1.135745e+000 -3.991608e+001
2013600000 1.055400e+000 -2.540197e+001 1.054744e-003 -1.169623e+002 1.894628e-003 -1.337739e+002 1.135534e+000 -3.990384e+001
2013700000 1.055017e+000 -2.541346e+001 1.081191e-003 -1.174516e+002 1.893370e-003 -1.349314e+002 1.135237e+000 -3.990361e+001
2013800000 1.054665e+000 -2.543005e+001 1.034966e-003 -1.167206e+002 1.886452e-003 -1.353664e+002 1.134980e+000 -3.989578e+001
2013900000 1.054543e+000 -2.544319e+001 1.077588e-003 -1.172095e+002 1.907256e-003 -1.352562e+002 1.134938e+000 -3.988644e+001
2014000000 1.054335e+000 -2.546436e+001 1.066759e-003 -1.173399e+002 1.904357e-003 -1.350002e+002 1.134738e+000 -3.988491e+001
2014100000 1.054655e+000 -2.544949e+001 1.080525e-003 -1.172423e+002 1.883021e-003 -1.354465e+002 1.134588e+000 -3.990333e+001
2014200000 1.054837e+000 -2.543759e+001 1.073274e-003 -1.173213e+002 1.914819e-003 -1.355473e+002 1.134351e+000 -3.992671e+001
2014300000 1.055170e+000 -2.542638e+001 1.056149e-003 -1.172558e+002 1.915504e-003 -1.365596e+002 1.134304e+000 -3.993409e+001
2014400000 1.055301e+000 -2.542028e+001 1.054562e-003 -1.167896e+002 1.922593e-003 -1.359386e+002 1.134112e+000 -3.994957e+001
2014500000 1.055562e+000 -2.540945e+001 1.093336e-003 -1.170740e+002 1.909931e-003 -1.360548e+002 1.133868e+000 -3.996588e+001
2014600000 1.055604e+000 -2.540400e+001 1.093019e-003 -1.164779e+002 1.907497e-003 -1.361226e+002 1.133671e+000 -3.997906e+001
2014700000 1.055595e+000 -2.539842e+001 1.096769e-003 -1.172171e+002 1.921853e-003 -1.371965e+002 1.133572e+000 -3.998862e+001
2014800000 1.055627e+000 -2.540516e+001 1.070902e-003 -1.170164e+002 1.864137e-003 -1.361926e+002 1.133239e+000 -3.999415e+001
2014900000 1.055377e+000 -2.541654e+001 1.084782e-003 -1.184036e+002 1.936061e-003 -1.348157e+002 1.132809e+000 -3.998920e+001
2015000000 1.055076e+000 -2.542694e+001 1.059312e-003 -1.172375e+002 1.909660e-003 -1.362412e+002 1.132681e+000 -3.997020e+001
2015100000 1.054878e+000 -2.544114e+001 1.082844e-003 -1.187984e+002 1.902546e-003 -1.364121e+002 1.132485e+000 -3.995874e+001
2015200000 1.054855e+000 -2.545409e+001 1.086278e-003 -1.186058e+002 1.882812e-003 -1.373322e+002 1.132293e+000 -3.994888e+001
