!Agilent Technologies,N5230C,SG49000117,A.08.50.07
!Agilent N5230C: A.08.50.07
!Date: Sunday, March 17, 2024 05:39:24
!Correction: S11(Off) 
!S21(Off) 
!S12(Off) 
!S22(Full 1 Port(2)) 
!S2P File: Measurements: S11, S21, S12, S22:
# Hz S  RI   R 50
300000000 1.055289e-005 -1.106448e-005 -6.262124e-001 -6.452584e-001 2.409738e-006 -8.370828e-006 1.008751e+000 -1.801367e-001
300285000 3.574220e-006 -1.046923e-005 -6.414490e-001 -6.220662e-001 2.573187e-005 2.671453e-006 1.009120e+000 -1.801542e-001
300570000 2.706594e-006 7.504611e-006 -6.558285e-001 -5.985059e-001 4.016026e-006 -1.086407e-005 1.009600e+000 -1.807832e-001
300855000 7.629762e-006 1.885075e-006 -6.693275e-001 -5.751450e-001 -2.246000e-007 2.936941e-006 1.009954e+000 -1.799418e-001
301140000 -1.831788e-005 -4.381408e-007 -6.818834e-001 -5.513362e-001 2.367030e-006 2.607859e-006 1.009521e+000 -1.811543e-001
301425000 2.005712e-005 -5.241922e-006 -6.937729e-001 -5.276637e-001 -1.324091e-005 2.290543e-006 1.010416e+000 -1.807780e-001
301710000 7.215523e-006 -3.576380e-006 -7.045850e-001 -5.041763e-001 2.993195e-006 -5.762416e-006 1.010453e+000 -1.825903e-001
301995000 8.897669e-006 3.930372e-006 -7.149131e-001 -4.805246e-001 1.315409e-005 -1.591600e-005 1.009223e+000 -1.808835e-001
302280000 1.907302e-005 -8.719368e-006 -7.242818e-001 -4.569770e-001 -7.483559e-007 -4.619549e-007 1.010171e+000 -1.816332e-001
302565000 2.566125e-006 -3.725857e-006 -7.329745e-001 -4.334667e-001 -1.356128e-005 1.029818e-006 1.010826e+000 -1.821458e-001
302850000 1.888835e-005 -5.446275e-006 -7.409840e-001 -4.101848e-001 -7.093119e-006 -4.535351e-006 1.009501e+000 -1.810012e-001
303135000 6.735274e-006 -1.337274e-005 -7.482477e-001 -3.869419e-001 -5.874464e-006 -1.722515e-005 1.009177e+000 -1.819408e-001
303420000 2.504433e-007 -1.263427e-005 -7.548339e-001 -3.636616e-001 1.015195e-005 -1.867329e-005 1.009200e+000 -1.835695e-001
303705000 2.656812e-006 -9.184245e-006 -7.608359e-001 -3.407061e-001 9.174969e-006 -1.539352e-005 1.011060e+000 -1.829859e-001
303990000 -7.416298e-006 -1.792636e-005 -7.662860e-001 -3.178557e-001 -8.815525e-006 -7.112267e-006 1.009020e+000 -1.822681e-001
304275000 5.320849e-006 1.407510e-005 -7.711057e-001 -2.950602e-001 1.006178e-005 -8.474114e-006 1.009751e+000 -1.827586e-001
304560000 -6.794707e-006 8.525930e-007 -7.752970e-001 -2.723570e-001 -7.723273e-006 -7.410586e-007 1.009658e+000 -1.828490e-001
304845000 6.519411e-007 -4.736167e-006 -7.789311e-001 -2.500267e-001 7.792238e-006 -2.423119e-007 1.009139e+000 -1.828177e-001
305130000 8.365844e-007 -4.285819e-006 -7.820305e-001 -2.276457e-001 -2.954776e-006 -2.071992e-005 1.008670e+000 -1.826962e-001
305415000 1.372121e-005 5.517317e-006 -7.846484e-001 -2.055574e-001 2.323789e-005 2.656387e-006 1.009520e+000 -1.836081e-001
305700000 -1.302429e-006 -1.348467e-005 -7.867721e-001 -1.834411e-001 1.409933e-005 1.731909e-005 1.009680e+000 -1.830875e-001
305985000 9.163793e-006 1.408093e-005 -7.883555e-001 -1.616211e-001 1.584204e-005 -3.550723e-006 1.010069e+000 -1.840990e-001
306270000 -3.774534e-006 -1.093437e-005 -7.894834e-001 -1.398214e-001 2.006844e-006 3.548945e-006 1.011170e+000 -1.829414e-001
306555000 -4.509459e-006 -6.367940e-006 -7.901440e-001 -1.182807e-001 -3.975520e-006 -3.490646e-006 1.010497e+000 -1.852122e-001
306840000 -5.003551e-006 1.541672e-007 -7.903970e-001 -9.690207e-002 2.701534e-007 1.973916e-006 1.009289e+000 -1.830647e-001
307125000 -9.692641e-007 -1.158048e-005 -7.901968e-001 -7.554585e-002 9.462549e-006 1.035935e-005 1.009277e+000 -1.842689e-001
307410000 3.015525e-006 6.242949e-006 -7.895703e-001 -5.454390e-002 1.090505e-006 -1.589974e-005 1.010273e+000 -1.844302e-001
307695000 -2.864407e-006 -9.390486e-006 -7.885244e-001 -3.356547e-002 1.445808e-005 9.809317e-006 1.010154e+000 -1.852678e-001
307980000 -7.855377e-006 -4.746775e-006 -7.870882e-001 -1.270845e-002 2.732458e-006 7.205489e-006 1.008594e+000 -1.850037e-001
308265000 1.426400e-006 -1.456862e-006 -7.851896e-001 7.922278e-003 -8.098910e-007 3.913324e-006 1.008846e+000 -1.854869e-001
308550000 2.184010e-005 -1.238142e-005 -7.830487e-001 2.839235e-002 -1.343998e-005 -7.422834e-006 1.008653e+000 -1.847061e-001
308835000 -1.481010e-005 -7.624012e-006 -7.805186e-001 4.871154e-002 5.472905e-006 -1.557925e-006 1.008566e+000 -1.859789e-001
309120000 7.287124e-006 -1.519773e-006 -7.774435e-001 6.903495e-002 -1.028888e-005 -2.025624e-006 1.009829e+000 -1.867933e-001
309405000 2.369142e-006 -1.057607e-005 -7.741513e-001 8.918192e-002 1.734776e-006 -5.970510e-006 1.011824e+000 -1.859188e-001
309690000 5.799881e-006 -2.948552e-006 -7.704648e-001 1.091696e-001 -1.299910e-005 -9.004993e-006 1.010385e+000 -1.860345e-001
309975000 3.167878e-006 1.807566e-005 -7.663432e-001 1.289823e-001 -4.821203e-006 -3.973234e-006 1.009339e+000 -1.862290e-001
310260000 2.914558e-006 7.133305e-007 -7.620235e-001 1.487386e-001 5.943000e-006 -9.102895e-006 1.011119e+000 -1.863049e-001
310545000 -8.245021e-006 1.013787e-005 -7.573183e-001 1.684655e-001 1.020780e-005 -5.373053e-006 1.009905e+000 -1.872139e-001
310830000 1.558047e-006 1.087578e-005 -7.521094e-001 1.878450e-001 -4.747293e-006 -7.036389e-006 1.011293e+000 -1.872540e-001
311115000 -1.229564e-005 5.990045e-006 -7.465879e-001 2.073993e-001 -9.529168e-006 8.568652e-006 1.009204e+000 -1.870762e-001
311400000 5.659144e-006 -1.084795e-005 -7.408644e-001 2.266538e-001 -7.609809e-006 1.892886e-005 1.009627e+000 -1.874100e-001
311685000 -7.879995e-006 -5.508662e-006 -7.347016e-001 2.458677e-001 -1.053933e-005 9.062067e-006 1.010031e+000 -1.869218e-001
311970000 -2.017072e-005 -5.152618e-006 -7.280768e-001 2.650414e-001 -4.672159e-006 3.401170e-006 1.008537e+000 -1.873203e-001
312255000 2.186355e-006 -4.752200e-006 -7.211858e-001 2.840317e-001 1.750031e-005 7.837038e-006 1.009280e+000 -1.874913e-001
312540000 4.027458e-007 -1.048213e-005 -7.139551e-001 3.029496e-001 1.016830e-005 7.689684e-006 1.009061e+000 -1.877895e-001
312825000 1.179530e-005 -9.245908e-006 -7.064003e-001 3.218570e-001 9.008614e-007 -1.088471e-006 1.009412e+000 -1.882085e-001
313110000 -1.193264e-005 5.655080e-006 -6.982735e-001 3.406315e-001 1.071873e-005 -6.526393e-006 1.009295e+000 -1.893060e-001
313395000 2.040442e-005 6.433702e-008 -6.899478e-001 3.592359e-001 -1.085627e-005 -9.626075e-006 1.009643e+000 -1.878521e-001
313680000 -2.479409e-006 -1.345372e-005 -6.811755e-001 3.778459e-001 2.190176e-006 -1.537551e-005 1.010309e+000 -1.881256e-001
313965000 4.681529e-006 1.489097e-005 -6.720310e-001 3.964182e-001 -3.280550e-006 -6.952985e-007 1.010038e+000 -1.887589e-001
314250000 6.891656e-006 -6.199084e-006 -6.624374e-001 4.148584e-001 -1.241704e-005 8.462945e-006 1.008768e+000 -1.889778e-001
314535000 -5.506232e-006 4.603104e-006 -6.525750e-001 4.331980e-001 -5.497757e-008 2.664438e-007 1.009048e+000 -1.887750e-001
314820000 2.895515e-006 -4.470644e-006 -6.421624e-001 4.513661e-001 -2.170029e-006 5.059154e-006 1.009170e+000 -1.899482e-001
315105000 1.179240e-005 -7.649077e-006 -6.312767e-001 4.695855e-001 3.489424e-006 -4.086580e-007 1.006907e+000 -1.899191e-001
315390000 -1.646358e-005 -5.277313e-006 -6.201156e-001 4.876409e-001 1.012447e-005 -9.517918e-006 1.009682e+000 -1.899363e-001
315675000 -1.530839e-005 1.333311e-005 -6.084539e-001 5.056595e-001 1.944002e-006 -4.405490e-006 1.008078e+000 -1.891999e-001
315960000 4.870843e-006 -4.635452e-006 -5.961983e-001 5.234981e-001 -1.959161e-005 9.059374e-006 1.008397e+000 -1.899662e-001
316245000 -1.421856e-005 1.097129e-005 -5.835280e-001 5.412850e-001 7.986698e-007 2.689439e-007 1.007980e+000 -1.896548e-001
316530000 -9.896531e-006 -5.425809e-006 -5.704450e-001 5.589657e-001 -2.091703e-006 1.079744e-006 1.009159e+000 -1.906043e-001
316815000 -1.779237e-006 -4.476569e-006 -5.568151e-001 5.765275e-001 2.984772e-006 1.833068e-006 1.009546e+000 -1.894907e-001
317100000 8.101827e-006 -2.307896e-005 -5.426713e-001 5.939279e-001 1.727525e-007 -1.801373e-005 1.008029e+000 -1.895291e-001
317385000 1.294463e-005 -4.840348e-006 -5.279462e-001 6.111348e-001 -5.686371e-006 -3.410616e-006 1.009833e+000 -1.893641e-001
317670000 -2.103870e-005 5.742939e-006 -5.127867e-001 6.281758e-001 1.015448e-006 1.328702e-005 1.009793e+000 -1.911725e-001
317955000 1.350088e-006 -3.888464e-007 -4.969638e-001 6.452101e-001 -7.867421e-006 -2.338612e-005 1.010124e+000 -1.906505e-001
318240000 6.494115e-006 -4.667066e-006 -4.806746e-001 6.619646e-001 -1.327975e-005 -1.317643e-005 1.009150e+000 -1.913944e-001
318525000 4.559526e-006 -7.194680e-006 -4.637708e-001 6.785518e-001 -1.353646e-006 -1.127018e-005 1.009261e+000 -1.908483e-001
318810000 1.190338e-005 -1.149182e-005 -4.461883e-001 6.948479e-001 2.084044e-006 -1.719920e-005 1.008603e+000 -1.913678e-001
319095000 -4.921083e-006 -9.936699e-006 -4.280391e-001 7.109888e-001 2.048967e-006 -1.588100e-005 1.008356e+000 -1.907967e-001
319380000 6.615534e-006 -4.361710e-006 -4.092627e-001 7.268102e-001 -1.064974e-005 -1.813544e-006 1.009372e+000 -1.928435e-001
319665000 -5.842220e-007 -2.685982e-006 -3.897395e-001 7.423583e-001 -3.192971e-006 -1.323877e-005 1.009771e+000 -1.911790e-001
319950000 3.203093e-006 -1.447742e-005 -3.696655e-001 7.576776e-001 1.308548e-005 2.048375e-005 1.008964e+000 -1.932636e-001
320235000 -1.229651e-005 6.013282e-006 -3.488352e-001 7.725113e-001 8.536992e-007 -1.139829e-005 1.009440e+000 -1.934952e-001
320520000 -8.773944e-006 4.713500e-007 -3.273795e-001 7.870958e-001 -6.384927e-006 -9.676000e-008 1.009132e+000 -1.930113e-001
320805000 8.737114e-006 7.796013e-006 -3.050322e-001 8.013151e-001 -7.644076e-008 -1.799352e-005 1.008176e+000 -1.924626e-001
321090000 8.278130e-006 -5.069168e-006 -2.822612e-001 8.149334e-001 -3.963943e-007 -2.558195e-006 1.008077e+000 -1.925175e-001
321375000 -1.324057e-005 -3.118884e-006 -2.585444e-001 8.281532e-001 2.238683e-006 2.684399e-006 1.008731e+000 -1.928115e-001
321660000 -1.010555e-005 4.536041e-008 -2.341700e-001 8.408175e-001 4.103132e-006 -5.020125e-006 1.009504e+000 -1.933479e-001
321945000 -1.115332e-005 -1.998585e-005 -2.090053e-001 8.529850e-001 -4.405350e-006 -1.091494e-005 1.008759e+000 -1.943406e-001
322230000 -2.086328e-005 -2.242215e-005 -1.831137e-001 8.645680e-001 -7.424661e-006 -1.744666e-005 1.008172e+000 -1.943808e-001
322515000 -1.376606e-005 -1.420162e-005 -1.565749e-001 8.753387e-001 7.042153e-006 -1.276527e-005 1.007851e+000 -1.946049e-001
322800000 -1.139806e-006 -1.332495e-005 -1.291253e-001 8.856643e-001 1.332689e-005 -5.458137e-006 1.010030e+000 -1.940779e-001
323085000 1.124860e-005 -1.271132e-005 -1.009715e-001 8.950115e-001 8.597441e-006 -2.166189e-005 1.008820e+000 -1.943559e-001
323370000 -8.762883e-006 -9.643396e-006 -7.208858e-002 9.036611e-001 1.111812e-005 -1.122694e-005 1.009267e+000 -1.948549e-001
323655000 -1.439804e-007 -1.904605e-006 -4.245583e-002 9.114295e-001 -5.745345e-006 -2.052827e-007 1.008456e+000 -1.954274e-001
323940000 9.028034e-006 -4.462315e-006 -1.215142e-002 9.182051e-001 4.096498e-007 -3.447528e-006 1.008241e+000 -1.957462e-001
324225000 -2.735102e-006 7.905952e-006 1.880283e-002 9.240054e-001 2.449865e-006 2.597086e-006 1.006788e+000 -1.953671e-001
324510000 5.463698e-006 1.159366e-005 5.053699e-002 9.287823e-001 -5.002904e-006 -1.031282e-006 1.009545e+000 -1.968006e-001
324795000 2.105588e-005 8.272168e-006 8.285155e-002 9.323823e-001 6.035595e-006 -9.924852e-006 1.008872e+000 -1.958838e-001
325080000 6.755541e-006 5.190612e-006 1.156977e-001 9.348500e-001 -7.807644e-006 -6.051452e-006 1.008495e+000 -1.956081e-001
325365000 4.653873e-007 1.317976e-005 1.493177e-001 9.361873e-001 1.408430e-005 5.995859e-006 1.009093e+000 -1.958509e-001
325650000 -4.738297e-006 1.615756e-005 1.832668e-001 9.361317e-001 2.818439e-006 7.874234e-006 1.008876e+000 -1.956182e-001
325935000 -1.782954e-005 5.913112e-006 2.176925e-001 9.345925e-001 -6.466289e-006 1.314774e-005 1.008623e+000 -1.969060e-001
326220000 -1.942088e-005 1.507836e-005 2.524463e-001 9.316753e-001 -4.429258e-006 -3.548536e-006 1.009155e+000 -1.969011e-001
326505000 -2.508720e-006 -1.497386e-005 2.877114e-001 9.273130e-001 6.291209e-008 -3.017680e-007 1.008451e+000 -1.972767e-001
326790000 -1.026846e-005 7.151239e-006 3.231327e-001 9.214178e-001 -1.273532e-005 7.271264e-006 1.007288e+000 -1.963311e-001
327075000 -1.231320e-005 -1.266611e-005 3.587390e-001 9.139341e-001 -8.009553e-006 4.570750e-006 1.008293e+000 -1.978492e-001
327360000 -6.413879e-006 -4.214207e-006 3.944834e-001 9.047938e-001 2.467630e-006 1.121765e-005 1.009474e+000 -1.976773e-001
327645000 -8.679260e-006 -9.098576e-006 4.300813e-001 8.939245e-001 -1.292294e-005 -1.988729e-006 1.008764e+000 -1.973649e-001
327930000 2.137725e-006 7.061286e-006 4.656240e-001 8.814020e-001 1.313792e-005 -3.631170e-006 1.008082e+000 -1.971619e-001
328215000 1.282230e-005 -1.581040e-007 5.009993e-001 8.671790e-001 8.502935e-006 1.412170e-006 1.008450e+000 -1.980486e-001
328500000 -7.383594e-006 9.109252e-006 5.359292e-001 8.510602e-001 2.253556e-006 -2.220626e-005 1.007778e+000 -1.985543e-001
328785000 6.999924e-006 -5.941246e-006 5.704430e-001 8.334109e-001 -1.684876e-006 -1.619658e-006 1.007858e+000 -1.976317e-001
329070000 1.173947e-005 -7.530415e-006 6.043758e-001 8.138844e-001 -1.034850e-005 -1.893446e-006 1.008139e+000 -1.981146e-001
329355000 -3.127244e-006 -9.065147e-006 6.378146e-001 7.925349e-001 2.163315e-006 -1.135870e-005 1.008253e+000 -1.992401e-001
329640000 3.725868e-006 -2.655696e-006 6.702263e-001 7.695338e-001 5.401537e-006 9.641120e-006 1.008329e+000 -1.989857e-001
329925000 3.940297e-007 -2.900444e-006 7.016729e-001 7.448540e-001 -5.744545e-006 1.250167e-005 1.007805e+000 -1.988765e-001
330210000 -4.649989e-007 5.601375e-006 7.322246e-001 7.185023e-001 4.502642e-006 1.545020e-005 1.006993e+000 -1.992913e-001
330495000 4.682252e-006 -1.060697e-005 7.615646e-001 6.906064e-001 -1.294882e-005 6.751881e-007 1.007414e+000 -1.993065e-001
330780000 7.475004e-006 -1.247197e-006 7.896071e-001 6.611759e-001 -2.654004e-006 -1.045532e-005 1.008527e+000 -2.003851e-001
331065000 -5.071493e-006 7.899805e-006 8.163136e-001 6.303253e-001 -3.163719e-006 -3.859946e-006 1.006603e+000 -1.989919e-001
331350000 -1.225995e-005 -2.888574e-005 8.415450e-001 5.981172e-001 8.574428e-006 -5.507528e-006 1.007228e+000 -1.997559e-001
331635000 -1.525186e-005 -2.929930e-006 8.651039e-001 5.646439e-001 -1.682326e-005 3.015644e-006 1.008371e+000 -1.999227e-001
331920000 2.095147e-005 -7.998194e-006 8.871320e-001 5.300103e-001 4.167788e-006 1.417308e-005 1.008163e+000 -1.999500e-001
332205000 4.779035e-006 -3.119410e-006 9.073192e-001 4.944002e-001 4.998600e-007 4.540520e-006 1.007402e+000 -2.009551e-001
332490000 1.222738e-005 -9.793074e-006 9.257588e-001 4.578445e-001 -9.659978e-006 4.739981e-006 1.008140e+000 -2.006047e-001
332775000 -2.354693e-006 -4.170374e-006 9.423999e-001 4.204332e-001 -8.103916e-006 5.025542e-006 1.007671e+000 -2.013206e-001
333060000 -8.687914e-006 1.088371e-005 9.569547e-001 3.824441e-001 -1.525017e-005 -6.611500e-006 1.007940e+000 -2.009610e-001
333345000 1.152345e-005 9.210487e-006 9.698570e-001 3.438839e-001 -8.893147e-006 4.358751e-006 1.008674e+000 -2.006380e-001
333630000 1.617835e-005 5.382205e-006 9.807217e-001 3.050228e-001 -3.060826e-006 1.991861e-005 1.007895e+000 -2.026169e-001
333915000 2.845142e-006 5.847569e-007 9.896005e-001 2.656807e-001 -2.482765e-005 2.615138e-005 1.007433e+000 -2.016777e-001
334200000 1.232076e-005 6.320570e-006 9.965933e-001 2.264193e-001 6.892263e-006 3.755074e-006 1.008322e+000 -2.026726e-001
334485000 -3.200328e-006 -7.493300e-006 1.001584e+000 1.868906e-001 2.174987e-006 -2.085441e-006 1.007434e+000 -2.015035e-001
334770000 -7.479505e-006 -8.916613e-006 1.004786e+000 1.476827e-001 -8.982478e-006 -4.198556e-006 1.007956e+000 -2.022374e-001
335055000 -9.007918e-007 1.076209e-005 1.006046e+000 1.087351e-001 3.525697e-006 4.442682e-006 1.008457e+000 -2.022973e-001
335340000 7.255297e-006 1.071936e-005 1.005517e+000 7.003994e-002 -4.795765e-006 2.591303e-006 1.008250e+000 -2.036239e-001
335625000 -1.356227e-005 3.925993e-006 1.003237e+000 3.185263e-002 -1.801607e-006 1.011201e-006 1.007830e+000 -2.031778e-001
335910000 1.089813e-005 5.886112e-006 9.992064e-001 -5.888808e-003 1.026917e-005 6.378285e-006 1.007835e+000 -2.026921e-001
336195000 -1.131279e-005 5.444263e-006 9.936417e-001 -4.285621e-002 -6.747323e-006 -1.887081e-006 1.006808e+000 -2.031720e-001
336480000 -6.668751e-006 4.958847e-006 9.865311e-001 -7.924460e-002 -1.200529e-005 -1.500139e-006 1.007797e+000 -2.029491e-001
336765000 -1.566318e-005 -1.130652e-005 9.778962e-001 -1.147813e-001 -2.736087e-006 -4.802952e-006 1.007561e+000 -2.033834e-001
337050000 -1.812181e-005 3.743439e-006 9.679001e-001 -1.495306e-001 -6.063662e-006 -2.854668e-006 1.008112e+000 -2.035010e-001
337335000 -1.262374e-006 -3.554520e-006 9.566609e-001 -1.833862e-001 -1.433148e-005 2.640041e-006 1.007443e+000 -2.055206e-001
337620000 2.929871e-006 9.048990e-006 9.441330e-001 -2.162198e-001 9.945114e-006 4.495946e-006 1.007482e+000 -2.051199e-001
337905000 9.071000e-007 7.887003e-006 9.303932e-001 -2.481406e-001 7.046957e-007 -1.169653e-005 1.006313e+000 -2.034762e-001
338190000 1.863785e-006 7.416135e-006 9.157121e-001 -2.791433e-001 -9.981797e-006 6.678854e-007 1.007105e+000 -2.050751e-001
338475000 8.317691e-006 1.330832e-005 9.000621e-001 -3.089215e-001 5.960293e-006 -2.285214e-006 1.007868e+000 -2.037559e-001
338760000 1.492641e-006 1.473586e-005 8.833586e-001 -3.378164e-001 -6.571583e-006 5.496503e-006 1.007594e+000 -2.044880e-001
339045000 -9.743460e-007 -4.282766e-006 8.659661e-001 -3.655250e-001 -1.084210e-006 1.614015e-005 1.007555e+000 -2.046463e-001
339330000 4.567234e-006 2.412483e-005 8.477461e-001 -3.922169e-001 -5.921793e-006 -4.259511e-006 1.008277e+000 -2.037712e-001
339615000 -3.467084e-006 7.276569e-006 8.289246e-001 -4.178635e-001 5.381489e-006 4.731788e-006 1.007806e+000 -2.056849e-001
339900000 4.073293e-006 -5.782245e-006 8.094082e-001 -4.422925e-001 -1.115034e-005 1.819714e-005 1.007182e+000 -2.060877e-001
340185000 3.555456e-006 -4.978278e-006 7.894700e-001 -4.658395e-001 -1.282071e-005 7.448621e-006 1.007427e+000 -2.061668e-001
340470000 -1.360908e-005 -9.617944e-006 7.690232e-001 -4.882248e-001 -1.674022e-005 -1.410142e-006 1.007469e+000 -2.049880e-001
340755000 1.394454e-005 -1.311108e-005 7.480505e-001 -5.096491e-001 -8.771372e-006 -2.732259e-006 1.007376e+000 -2.067909e-001
341040000 1.035640e-005 -7.551737e-006 7.268251e-001 -5.300122e-001 3.839901e-006 -5.425819e-006 1.006913e+000 -2.069196e-001
341325000 -7.050902e-006 -7.603422e-006 7.051457e-001 -5.493346e-001 -1.476913e-005 -2.031709e-005 1.007842e+000 -2.049255e-001
341610000 -6.889873e-006 -7.563492e-006 6.833918e-001 -5.676897e-001 -1.320780e-005 4.872067e-006 1.008566e+000 -2.057280e-001
341895000 -3.439294e-006 8.999956e-006 6.613136e-001 -5.850585e-001 1.082310e-005 -1.183802e-005 1.006653e+000 -2.072374e-001
342180000 -2.780442e-006 5.242458e-006 6.389993e-001 -6.016448e-001 -2.528840e-006 1.639288e-005 1.007874e+000 -2.072908e-001
342465000 9.362433e-006 -1.233536e-005 6.166077e-001 -6.172254e-001 1.464533e-005 8.172864e-006 1.007302e+000 -2.076230e-001
342750000 -4.774306e-006 7.924988e-006 5.940640e-001 -6.318738e-001 9.364971e-006 1.519834e-006 1.008797e+000 -2.065698e-001
343035000 7.736383e-006 1.141024e-005 5.714834e-001 -6.456693e-001 1.016408e-006 1.270048e-005 1.007048e+000 -2.085619e-001
343320000 6.586088e-006 5.436925e-006 5.488511e-001 -6.587662e-001 -1.148774e-005 1.109679e-005 1.006638e+000 -2.077250e-001
343605000 4.351765e-006 -1.261749e-006 5.261880e-001 -6.710319e-001 8.080226e-006 3.800537e-006 1.006657e+000 -2.077571e-001
343890000 -1.916976e-005 3.174359e-006 5.035047e-001 -6.824809e-001 -1.017635e-005 5.843114e-006 1.007432e+000 -2.083757e-001
