!Agilent Technologies,E8362B,MY43021131,A.07.50.67
!Agilent E8362B: A.07.50.67
!Date: Thursday, March 14, 2024 13:41:25
!Correction: S11(Off) 
!S21(Off) 
!S12(Off) 
!S22(Off) 
!S2P File: Measurements: S11, S21, S12, S22:
# Hz S  RI   R 50
2000000000 -4.818031e-001 7.190213e-001 7.071068e-011 7.071068e-011 7.071068e-011 7.071068e-011 7.071068e-011 7.071068e-011
2000100000 -4.730723e-001 7.264430e-001 7.071068e-011 7.071068e-011 7.071068e-011 7.071068e-011 7.071068e-011 7.071068e-011
2000200000 -4.640909e-001 7.303118e-001 7.071068e-011 7.071068e-011 7.071068e-011 7.071068e-011 7.071068e-011 7.071068e-011
2000300000 -4.556705e-001 7.371653e-001 7.071068e-011 7.071068e-011 7.071068e-011 7.071068e-011 7.071068e-011 7.071068e-011
2000400000 -4.460092e-001 7.410812e-001 7.071068e-011 7.071068e-011 7.071068e-011 7.071068e-011 7.071068e-011 7.071068e-011
2000500000 -4.384709e-001 7.472875e-001 7.071068e-011 7.071068e-011 7.071068e-011 7.071068e-011 7.071068e-011 7.071068e-011
2000600000 -4.286146e-001 7.511719e-001 7.071068e-011 7.071068e-011 7.071068e-011 7.071068e-011 7.071068e-011 7.071068e-011
2000700000 -4.199874e-001 7.545854e-001 7.071068e-011 7.071068e-011 7.071068e-011 7.071068e-011 7.071068e-011 7.071068e-011
2000800000 -4.101437e-001 7.609214e-001 7.071068e-011 7.071068e-011 7.071068e-011 7.071068e-011 7.071068e-011 7.071068e-011
2000900000 -4.003947e-001 7.659590e-001 7.071068e-011 7.071068e-011 7.071068e-011 7.071068e-011 7.071068e-011 7.071068e-011
2001000000 -3.911603e-001 7.698672e-001 7.071068e-011 7.071068e-011 7.071068e-011 7.071068e-011 7.071068e-011 7.071068e-011
2001100000 -3.833513e-001 7.736265e-001 7.071068e-011 7.071068e-011 7.071068e-011 7.071068e-011 7.071068e-011 7.071068e-011
2001200000 -3.735904e-001 7.781766e-001 7.071068e-011 7.071068e-011 7.071068e-011 7.071068e-011 7.071068e-011 7.071068e-011
2001300000 -3.644321e-001 7.827261e-001 7.071068e-011 7.071068e-011 7.071068e-011 7.071068e-011 7.071068e-011 7.071068e-011
2001400000 -3.548577e-001 7.863953e-001 7.071068e-011 7.071068e-011 7.071068e-011 7.071068e-011 7.071068e-011 7.071068e-011
2001500000 -3.452967e-001 7.907274e-001 7.071068e-011 7.071068e-011 7.071068e-011 7.071068e-011 7.071068e-011 7.071068e-011
2001600000 -3.363580e-001 7.952631e-001 7.071068e-011 7.071068e-011 7.071068e-011 7.071068e-011 7.071068e-011 7.071068e-011
2001700000 -3.260610e-001 7.994255e-001 7.071068e-011 7.071068e-011 7.071068e-011 7.071068e-011 7.071068e-011 7.071068e-011
2001800000 -3.170407e-001 8.030496e-001 7.071068e-011 7.071068e-011 7.071068e-011 7.071068e-011 7.071068e-011 7.071068e-011
2001900000 -3.061900e-001 8.047990e-001 7.071068e-011 7.071068e-011 7.071068e-011 7.071068e-011 7.071068e-011 7.071068e-011
2002000000 -2.976255e-001 8.096152e-001 7.071068e-011 7.071068e-011 7.071068e-011 7.071068e-011 7.071068e-011 7.071068e-011
2002100000 -2.868231e-001 8.129978e-001 7.071068e-011 7.071068e-011 7.071068e-011 7.071068e-011 7.071068e-011 7.071068e-011
2002200000 -2.779299e-001 8.166777e-001 7.071068e-011 7.071068e-011 7.071068e-011 7.071068e-011 7.071068e-011 7.071068e-011
2002300000 -2.690316e-001 8.192683e-001 7.071068e-011 7.071068e-011 7.071068e-011 7.071068e-011 7.071068e-011 7.071068e-011
2002400000 -2.583566e-001 8.220823e-001 7.071068e-011 7.071068e-011 7.071068e-011 7.071068e-011 7.071068e-011 7.071068e-011
2002500000 -2.480172e-001 8.245381e-001 7.071068e-011 7.071068e-011 7.071068e-011 7.071068e-011 7.071068e-011 7.071068e-011
2002600000 -2.391814e-001 8.276895e-001 7.071068e-011 7.071068e-011 7.071068e-011 7.071068e-011 7.071068e-011 7.071068e-011
2002700000 -2.292331e-001 8.304446e-001 7.071068e-011 7.071068e-011 7.071068e-011 7.071068e-011 7.071068e-011 7.071068e-011
2002800000 -2.203914e-001 8.331571e-001 7.071068e-011 7.071068e-011 7.071068e-011 7.071068e-011 7.071068e-011 7.071068e-011
2002900000 -2.099581e-001 8.353482e-001 7.071068e-011 7.071068e-011 7.071068e-011 7.071068e-011 7.071068e-011 7.071068e-011
2003000000 -1.996700e-001 8.386912e-001 7.071068e-011 7.071068e-011 7.071068e-011 7.071068e-011 7.071068e-011 7.071068e-011
2003100000 -1.897154e-001 8.418030e-001 7.071068e-011 7.071068e-011 7.071068e-011 7.071068e-011 7.071068e-011 7.071068e-011
2003200000 -1.804805e-001 8.430783e-001 7.071068e-011 7.071068e-011 7.071068e-011 7.071068e-011 7.071068e-011 7.071068e-011
2003300000 -1.701842e-001 8.439330e-001 7.071068e-011 7.071068e-011 7.071068e-011 7.071068e-011 7.071068e-011 7.071068e-011
2003400000 -1.601976e-001 8.458973e-001 7.071068e-011 7.071068e-011 7.071068e-011 7.071068e-011 7.071068e-011 7.071068e-011
2003500000 -1.505080e-001 8.488536e-001 7.071068e-011 7.071068e-011 7.071068e-011 7.071068e-011 7.071068e-011 7.071068e-011
2003600000 -1.385848e-001 8.492529e-001 7.071068e-011 7.071068e-011 7.071068e-011 7.071068e-011 7.071068e-011 7.071068e-011
2003700000 -1.285165e-001 8.509529e-001 7.071068e-011 7.071068e-011 7.071068e-011 7.071068e-011 7.071068e-011 7.071068e-011
2003800000 -1.180752e-001 8.513941e-001 7.071068e-011 7.071068e-011 7.071068e-011 7.071068e-011 7.071068e-011 7.071068e-011
2003900000 -1.085727e-001 8.526778e-001 7.071068e-011 7.071068e-011 7.071068e-011 7.071068e-011 7.071068e-011 7.071068e-011
2004000000 -9.845670e-002 8.551552e-001 7.071068e-011 7.071068e-011 7.071068e-011 7.071068e-011 7.071068e-011 7.071068e-011
2004100000 -8.816209e-002 8.547770e-001 7.071068e-011 7.071068e-011 7.071068e-011 7.071068e-011 7.071068e-011 7.071068e-011
2004200000 -7.751157e-002 8.572617e-001 7.071068e-011 7.071068e-011 7.071068e-011 7.071068e-011 7.071068e-011 7.071068e-011
2004300000 -6.815857e-002 8.583649e-001 7.071068e-011 7.071068e-011 7.071068e-011 7.071068e-011 7.071068e-011 7.071068e-011
2004400000 -5.833139e-002 8.596996e-001 7.071068e-011 7.071068e-011 7.071068e-011 7.071068e-011 7.071068e-011 7.071068e-011
2004500000 -4.740069e-002 8.593345e-001 7.071068e-011 7.071068e-011 7.071068e-011 7.071068e-011 7.071068e-011 7.071068e-011
2004600000 -3.691409e-002 8.603559e-001 7.071068e-011 7.071068e-011 7.071068e-011 7.071068e-011 7.071068e-011 7.071068e-011
2004700000 -2.705053e-002 8.605698e-001 7.071068e-011 7.071068e-011 7.071068e-011 7.071068e-011 7.071068e-011 7.071068e-011
2004800000 -1.585442e-002 8.610938e-001 7.071068e-011 7.071068e-011 7.071068e-011 7.071068e-011 7.071068e-011 7.071068e-011
2004900000 -8.026212e-003 8.610586e-001 7.071068e-011 7.071068e-011 7.071068e-011 7.071068e-011 7.071068e-011 7.071068e-011
2005000000 3.946682e-003 8.607653e-001 7.071068e-011 7.071068e-011 7.071068e-011 7.071068e-011 7.071068e-011 7.071068e-011
2005100000 1.547176e-002 8.614963e-001 7.071068e-011 7.071068e-011 7.071068e-011 7.071068e-011 7.071068e-011 7.071068e-011
2005200000 2.486263e-002 8.614089e-001 7.071068e-011 7.071068e-011 7.071068e-011 7.071068e-011 7.071068e-011 7.071068e-011
2005300000 3.381442e-002 8.604881e-001 7.071068e-011 7.071068e-011 7.071068e-011 7.071068e-011 7.071068e-011 7.071068e-011
2005400000 4.606650e-002 8.600303e-001 7.071068e-011 7.071068e-011 7.071068e-011 7.071068e-011 7.071068e-011 7.071068e-011
2005500000 5.436116e-002 8.599671e-001 7.071068e-011 7.071068e-011 7.071068e-011 7.071068e-011 7.071068e-011 7.071068e-011
2005600000 6.608165e-002 8.594503e-001 7.071068e-011 7.071068e-011 7.071068e-011 7.071068e-011 7.071068e-011 7.071068e-011
2005700000 7.657151e-002 8.582016e-001 7.071068e-011 7.071068e-011 7.071068e-011 7.071068e-011 7.071068e-011 7.071068e-011
2005800000 8.713403e-002 8.577803e-001 7.071068e-011 7.071068e-011 7.071068e-011 7.071068e-011 7.071068e-011 7.071068e-011
2005900000 9.708381e-002 8.571019e-001 7.071068e-011 7.071068e-011 7.071068e-011 7.071068e-011 7.071068e-011 7.071068e-011
2006000000 1.066520e-001 8.562123e-001 7.071068e-011 7.071068e-011 7.071068e-011 7.071068e-011 7.071068e-011 7.071068e-011
2006100000 1.173072e-001 8.550002e-001 7.071068e-011 7.071068e-011 7.071068e-011 7.071068e-011 7.071068e-011 7.071068e-011
2006200000 1.264254e-001 8.535036e-001 7.071068e-011 7.071068e-011 7.071068e-011 7.071068e-011 7.071068e-011 7.071068e-011
2006300000 1.370872e-001 8.517478e-001 7.071068e-011 7.071068e-011 7.071068e-011 7.071068e-011 7.071068e-011 7.071068e-011
2006400000 1.471903e-001 8.514909e-001 7.071068e-011 7.071068e-011 7.071068e-011 7.071068e-011 7.071068e-011 7.071068e-011
2006500000 1.577133e-001 8.489078e-001 7.071068e-011 7.071068e-011 7.071068e-011 7.071068e-011 7.071068e-011 7.071068e-011
2006600000 1.678889e-001 8.468754e-001 7.071068e-011 7.071068e-011 7.071068e-011 7.071068e-011 7.071068e-011 7.071068e-011
2006700000 1.763844e-001 8.454291e-001 7.071068e-011 7.071068e-011 7.071068e-011 7.071068e-011 7.071068e-011 7.071068e-011
2006800000 1.880463e-001 8.440016e-001 7.071068e-011 7.071068e-011 7.071068e-011 7.071068e-011 7.071068e-011 7.071068e-011
2006900000 1.972094e-001 8.409849e-001 7.071068e-011 7.071068e-011 7.071068e-011 7.071068e-011 7.071068e-011 7.071068e-011
2007000000 2.065550e-001 8.384138e-001 7.071068e-011 7.071068e-011 7.071068e-011 7.071068e-011 7.071068e-011 7.071068e-011
2007100000 2.166883e-001 8.361853e-001 7.071068e-011 7.071068e-011 7.071068e-011 7.071068e-011 7.071068e-011 7.071068e-011
2007200000 2.282004e-001 8.341697e-001 7.071068e-011 7.071068e-011 7.071068e-011 7.071068e-011 7.071068e-011 7.071068e-011
2007300000 2.373274e-001 8.304138e-001 7.071068e-011 7.071068e-011 7.071068e-011 7.071068e-011 7.071068e-011 7.071068e-011
2007400000 2.477659e-001 8.289873e-001 7.071068e-011 7.071068e-011 7.071068e-011 7.071068e-011 7.071068e-011 7.071068e-011
2007500000 2.582828e-001 8.263215e-001 7.071068e-011 7.071068e-011 7.071068e-011 7.071068e-011 7.071068e-011 7.071068e-011
2007600000 2.677370e-001 8.240638e-001 7.071068e-011 7.071068e-011 7.071068e-011 7.071068e-011 7.071068e-011 7.071068e-011
2007700000 2.774286e-001 8.206678e-001 7.071068e-011 7.071068e-011 7.071068e-011 7.071068e-011 7.071068e-011 7.071068e-011
2007800000 2.873093e-001 8.169767e-001 7.071068e-011 7.071068e-011 7.071068e-011 7.071068e-011 7.071068e-011 7.071068e-011
2007900000 2.978478e-001 8.154293e-001 7.071068e-011 7.071068e-011 7.071068e-011 7.071068e-011 7.071068e-011 7.071068e-011
2008000000 3.077557e-001 8.105452e-001 7.071068e-011 7.071068e-011 7.071068e-011 7.071068e-011 7.071068e-011 7.071068e-011
2008100000 3.160392e-001 8.069921e-001 7.071068e-011 7.071068e-011 7.071068e-011 7.071068e-011 7.071068e-011 7.071068e-011
2008200000 3.259135e-001 8.043557e-001 7.071068e-011 7.071068e-011 7.071068e-011 7.071068e-011 7.071068e-011 7.071068e-011
2008300000 3.350638e-001 7.998505e-001 7.071068e-011 7.071068e-011 7.071068e-011 7.071068e-011 7.071068e-011 7.071068e-011
2008400000 3.466225e-001 7.959746e-001 7.071068e-011 7.071068e-011 7.071068e-011 7.071068e-011 7.071068e-011 7.071068e-011
2008500000 3.549073e-001 7.933719e-001 7.071068e-011 7.071068e-011 7.071068e-011 7.071068e-011 7.071068e-011 7.071068e-011
2008600000 3.638618e-001 7.881168e-001 7.071068e-011 7.071068e-011 7.071068e-011 7.071068e-011 7.071068e-011 7.071068e-011
2008700000 3.748878e-001 7.851325e-001 7.071068e-011 7.071068e-011 7.071068e-011 7.071068e-011 7.071068e-011 7.071068e-011
2008800000 3.831597e-001 7.801011e-001 7.071068e-011 7.071068e-011 7.071068e-011 7.071068e-011 7.071068e-011 7.071068e-011
2008900000 3.925089e-001 7.755933e-001 7.071068e-011 7.071068e-011 7.071068e-011 7.071068e-011 7.071068e-011 7.071068e-011
2009000000 4.017553e-001 7.706893e-001 7.071068e-011 7.071068e-011 7.071068e-011 7.071068e-011 7.071068e-011 7.071068e-011
2009100000 4.116652e-001 7.665697e-001 7.071068e-011 7.071068e-011 7.071068e-011 7.071068e-011 7.071068e-011 7.071068e-011
2009200000 4.201906e-001 7.620358e-001 7.071068e-011 7.071068e-011 7.071068e-011 7.071068e-011 7.071068e-011 7.071068e-011
2009300000 4.289548e-001 7.587106e-001 7.071068e-011 7.071068e-011 7.071068e-011 7.071068e-011 7.071068e-011 7.071068e-011
2009400000 4.381166e-001 7.530212e-001 7.071068e-011 7.071068e-011 7.071068e-011 7.071068e-011 7.071068e-011 7.071068e-011
2009500000 4.475724e-001 7.478691e-001 7.071068e-011 7.071068e-011 7.071068e-011 7.071068e-011 7.071068e-011 7.071068e-011
2009600000 4.580294e-001 7.424293e-001 7.071068e-011 7.071068e-011 7.071068e-011 7.071068e-011 7.071068e-011 7.071068e-011
2009700000 4.654097e-001 7.387682e-001 7.071068e-011 7.071068e-011 7.071068e-011 7.071068e-011 7.071068e-011 7.071068e-011
2009800000 4.749872e-001 7.316934e-001 7.071068e-011 7.071068e-011 7.071068e-011 7.071068e-011 7.071068e-011 7.071068e-011
2009900000 4.835862e-001 7.275626e-001 7.071068e-011 7.071068e-011 7.071068e-011 7.071068e-011 7.071068e-011 7.071068e-011
2010000000 4.935845e-001 7.210966e-001 7.071068e-011 7.071068e-011 7.071068e-011 7.071068e-011 7.071068e-011 7.071068e-011
2010100000 5.017037e-001 7.157153e-001 7.071068e-011 7.071068e-011 7.071068e-011 7.071068e-011 7.071068e-011 7.071068e-011
2010200000 5.107806e-001 7.104158e-001 7.071068e-011 7.071068e-011 7.071068e-011 7.071068e-011 7.071068e-011 7.071068e-011
2010300000 5.183647e-001 7.041778e-001 7.071068e-011 7.071068e-011 7.071068e-011 7.071068e-011 7.071068e-011 7.071068e-011
2010400000 5.262343e-001 6.980328e-001 7.071068e-011 7.071068e-011 7.071068e-011 7.071068e-011 7.071068e-011 7.071068e-011
2010500000 5.349991e-001 6.929109e-001 7.071068e-011 7.071068e-011 7.071068e-011 7.071068e-011 7.071068e-011 7.071068e-011
2010600000 5.438880e-001 6.862936e-001 7.071068e-011 7.071068e-011 7.071068e-011 7.071068e-011 7.071068e-011 7.071068e-011
2010700000 5.516067e-001 6.804616e-001 7.071068e-011 7.071068e-011 7.071068e-011 7.071068e-011 7.071068e-011 7.071068e-011
2010800000 5.604213e-001 6.738366e-001 7.071068e-011 7.071068e-011 7.071068e-011 7.071068e-011 7.071068e-011 7.071068e-011
2010900000 5.678491e-001 6.684744e-001 7.071068e-011 7.071068e-011 7.071068e-011 7.071068e-011 7.071068e-011 7.071068e-011
2011000000 5.754967e-001 6.617354e-001 7.071068e-011 7.071068e-011 7.071068e-011 7.071068e-011 7.071068e-011 7.071068e-011
2011100000 5.838568e-001 6.542604e-001 7.071068e-011 7.071068e-011 7.071068e-011 7.071068e-011 7.071068e-011 7.071068e-011
2011200000 5.925590e-001 6.482871e-001 7.071068e-011 7.071068e-011 7.071068e-011 7.071068e-011 7.071068e-011 7.071068e-011
2011300000 6.006049e-001 6.412652e-001 7.071068e-011 7.071068e-011 7.071068e-011 7.071068e-011 7.071068e-011 7.071068e-011
2011400000 6.083164e-001 6.341059e-001 7.071068e-011 7.071068e-011 7.071068e-011 7.071068e-011 7.071068e-011 7.071068e-011
2011500000 6.169215e-001 6.283745e-001 7.071068e-011 7.071068e-011 7.071068e-011 7.071068e-011 7.071068e-011 7.071068e-011
2011600000 6.240758e-001 6.212288e-001 7.071068e-011 7.071068e-011 7.071068e-011 7.071068e-011 7.071068e-011 7.071068e-011
2011700000 6.309262e-001 6.136100e-001 7.071068e-011 7.071068e-011 7.071068e-011 7.071068e-011 7.071068e-011 7.071068e-011
2011800000 6.377841e-001 6.069065e-001 7.071068e-011 7.071068e-011 7.071068e-011 7.071068e-011 7.071068e-011 7.071068e-011
2011900000 6.463425e-001 5.994553e-001 7.071068e-011 7.071068e-011 7.071068e-011 7.071068e-011 7.071068e-011 7.071068e-011
2012000000 6.534004e-001 5.923024e-001 7.071068e-011 7.071068e-011 7.071068e-011 7.071068e-011 7.071068e-011 7.071068e-011
2012100000 6.600908e-001 5.849577e-001 7.071068e-011 7.071068e-011 7.071068e-011 7.071068e-011 7.071068e-011 7.071068e-011
2012200000 6.679267e-001 5.781752e-001 7.071068e-011 7.071068e-011 7.071068e-011 7.071068e-011 7.071068e-011 7.071068e-011
2012300000 6.740871e-001 5.703912e-001 7.071068e-011 7.071068e-011 7.071068e-011 7.071068e-011 7.071068e-011 7.071068e-011
2012400000 6.812617e-001 5.632682e-001 7.071068e-011 7.071068e-011 7.071068e-011 7.071068e-011 7.071068e-011 7.071068e-011
2012500000 6.870186e-001 5.543128e-001 7.071068e-011 7.071068e-011 7.071068e-011 7.071068e-011 7.071068e-011 7.071068e-011
2012600000 6.951671e-001 5.474679e-001 7.071068e-011 7.071068e-011 7.071068e-011 7.071068e-011 7.071068e-011 7.071068e-011
2012700000 7.028335e-001 5.388845e-001 7.071068e-011 7.071068e-011 7.071068e-011 7.071068e-011 7.071068e-011 7.071068e-011
2012800000 7.087911e-001 5.313418e-001 7.071068e-011 7.071068e-011 7.071068e-011 7.071068e-011 7.071068e-011 7.071068e-011
2012900000 7.148114e-001 5.229462e-001 7.071068e-011 7.071068e-011 7.071068e-011 7.071068e-011 7.071068e-011 7.071068e-011
2013000000 7.212860e-001 5.141643e-001 7.071068e-011 7.071068e-011 7.071068e-011 7.071068e-011 7.071068e-011 7.071068e-011
2013100000 7.280881e-001 5.062898e-001 7.071068e-011 7.071068e-011 7.071068e-011 7.071068e-011 7.071068e-011 7.071068e-011
2013200000 7.353445e-001 4.987763e-001 7.071068e-011 7.071068e-011 7.071068e-011 7.071068e-011 7.071068e-011 7.071068e-011
2013300000 7.403451e-001 4.906980e-001 7.071068e-011 7.071068e-011 7.071068e-011 7.071068e-011 7.071068e-011 7.071068e-011
2013400000 7.471886e-001 4.827837e-001 7.071068e-011 7.071068e-011 7.071068e-011 7.071068e-011 7.071068e-011 7.071068e-011
2013500000 7.530394e-001 4.727989e-001 7.071068e-011 7.071068e-011 7.071068e-011 7.071068e-011 7.071068e-011 7.071068e-011
2013600000 7.588426e-001 4.640440e-001 7.071068e-011 7.071068e-011 7.071068e-011 7.071068e-011 7.071068e-011 7.071068e-011
2013700000 7.652655e-001 4.560212e-001 7.071068e-011 7.071068e-011 7.071068e-011 7.071068e-011 7.071068e-011 7.071068e-011
2013800000 7.696987e-001 4.478520e-001 7.071068e-011 7.071068e-011 7.071068e-011 7.071068e-011 7.071068e-011 7.071068e-011
2013900000 7.764918e-001 4.400920e-001 7.071068e-011 7.071068e-011 7.071068e-011 7.071068e-011 7.071068e-011 7.071068e-011
2014000000 7.805810e-001 4.295024e-001 7.071068e-011 7.071068e-011 7.071068e-011 7.071068e-011 7.071068e-011 7.071068e-011
2014100000 7.856897e-001 4.215413e-001 7.071068e-011 7.071068e-011 7.071068e-011 7.071068e-011 7.071068e-011 7.071068e-011
2014200000 7.908685e-001 4.133000e-001 7.071068e-011 7.071068e-011 7.071068e-011 7.071068e-011 7.071068e-011 7.071068e-011
2014300000 7.974293e-001 4.035963e-001 7.071068e-011 7.071068e-011 7.071068e-011 7.071068e-011 7.071068e-011 7.071068e-011
2014400000 8.026695e-001 3.944594e-001 7.071068e-011 7.071068e-011 7.071068e-011 7.071068e-011 7.071068e-011 7.071068e-011
2014500000 8.065254e-001 3.859631e-001 7.071068e-011 7.071068e-011 7.071068e-011 7.071068e-011 7.071068e-011 7.071068e-011
2014600000 8.128783e-001 3.764668e-001 7.071068e-011 7.071068e-011 7.071068e-011 7.071068e-011 7.071068e-011 7.071068e-011
2014700000 8.160686e-001 3.673144e-001 7.071068e-011 7.071068e-011 7.071068e-011 7.071068e-011 7.071068e-011 7.071068e-011
2014800000 8.212131e-001 3.580938e-001 7.071068e-011 7.071068e-011 7.071068e-011 7.071068e-011 7.071068e-011 7.071068e-011
2014900000 8.262129e-001 3.484786e-001 7.071068e-011 7.071068e-011 7.071068e-011 7.071068e-011 7.071068e-011 7.071068e-011
2015000000 8.301982e-001 3.384464e-001 7.071068e-011 7.071068e-011 7.071068e-011 7.071068e-011 7.071068e-011 7.071068e-011
2015100000 8.344663e-001 3.303759e-001 7.071068e-011 7.071068e-011 7.071068e-011 7.071068e-011 7.071068e-011 7.071068e-011
2015200000 8.388680e-001 3.195822e-001 7.071068e-011 7.071068e-011 7.071068e-011 7.071068e-011 7.071068e-011 7.071068e-011
2015300000 8.433940e-001 3.105072e-001 7.071068e-011 7.071068e-011 7.071068e-011 7.071068e-011 7.071068e-011 7.071068e-011
2015400000 8.470539e-001 3.020547e-001 7.071068e-011 7.071068e-011 7.071068e-011 7.071068e-011 7.071068e-011 7.071068e-011
2015500000 8.509352e-001 2.923907e-001 7.071068e-011 7.071068e-011 7.071068e-011 7.071068e-011 7.071068e-011 7.071068e-011
2015600000 8.550988e-001 2.822147e-001 7.071068e-011 7.071068e-011 7.071068e-011 7.071068e-011 7.071068e-011 7.071068e-011
2015700000 8.595653e-001 2.728510e-001 7.071068e-011 7.071068e-011 7.071068e-011 7.071068e-011 7.071068e-011 7.071068e-011
