!Agilent Technologies,E8362B,MY43021131,A.07.50.67
!Agilent E8362B: A.07.50.67
!Date: Thursday, March 14, 2024 13:55:11
!Correction: S11(Off) 
!S21(Off) 
!S12(Off) 
!S22(Off) 
!S2P File: Measurements: S11, S21, S12, S22:
# Hz S  RI   R 50
2000000000 -3.687711e-001 7.404649e-001 7.071068e-011 7.071068e-011 7.071068e-011 7.071068e-011 7.071068e-011 7.071068e-011
2000100000 -3.612820e-001 7.431115e-001 7.071068e-011 7.071068e-011 7.071068e-011 7.071068e-011 7.071068e-011 7.071068e-011
2000200000 -3.521394e-001 7.474211e-001 7.071068e-011 7.071068e-011 7.071068e-011 7.071068e-011 7.071068e-011 7.071068e-011
2000300000 -3.422609e-001 7.511097e-001 7.071068e-011 7.071068e-011 7.071068e-011 7.071068e-011 7.071068e-011 7.071068e-011
2000400000 -3.335361e-001 7.539700e-001 7.071068e-011 7.071068e-011 7.071068e-011 7.071068e-011 7.071068e-011 7.071068e-011
2000500000 -3.253893e-001 7.601043e-001 7.071068e-011 7.071068e-011 7.071068e-011 7.071068e-011 7.071068e-011 7.071068e-011
2000600000 -3.165006e-001 7.622597e-001 7.071068e-011 7.071068e-011 7.071068e-011 7.071068e-011 7.071068e-011 7.071068e-011
2000700000 -3.066257e-001 7.662618e-001 7.071068e-011 7.071068e-011 7.071068e-011 7.071068e-011 7.071068e-011 7.071068e-011
2000800000 -2.977768e-001 7.698663e-001 7.071068e-011 7.071068e-011 7.071068e-011 7.071068e-011 7.071068e-011 7.071068e-011
2000900000 -2.887792e-001 7.740345e-001 7.071068e-011 7.071068e-011 7.071068e-011 7.071068e-011 7.071068e-011 7.071068e-011
2001000000 -2.795592e-001 7.764993e-001 7.071068e-011 7.071068e-011 7.071068e-011 7.071068e-011 7.071068e-011 7.071068e-011
2001100000 -2.705565e-001 7.781885e-001 7.071068e-011 7.071068e-011 7.071068e-011 7.071068e-011 7.071068e-011 7.071068e-011
2001200000 -2.609867e-001 7.821752e-001 7.071068e-011 7.071068e-011 7.071068e-011 7.071068e-011 7.071068e-011 7.071068e-011
2001300000 -2.517530e-001 7.846728e-001 7.071068e-011 7.071068e-011 7.071068e-011 7.071068e-011 7.071068e-011 7.071068e-011
2001400000 -2.412552e-001 7.872479e-001 7.071068e-011 7.071068e-011 7.071068e-011 7.071068e-011 7.071068e-011 7.071068e-011
2001500000 -2.324437e-001 7.893665e-001 7.071068e-011 7.071068e-011 7.071068e-011 7.071068e-011 7.071068e-011 7.071068e-011
2001600000 -2.236023e-001 7.929847e-001 7.071068e-011 7.071068e-011 7.071068e-011 7.071068e-011 7.071068e-011 7.071068e-011
2001700000 -2.135347e-001 7.959440e-001 7.071068e-011 7.071068e-011 7.071068e-011 7.071068e-011 7.071068e-011 7.071068e-011
2001800000 -2.049378e-001 7.986813e-001 7.071068e-011 7.071068e-011 7.071068e-011 7.071068e-011 7.071068e-011 7.071068e-011
2001900000 -1.934602e-001 8.011467e-001 7.071068e-011 7.071068e-011 7.071068e-011 7.071068e-011 7.071068e-011 7.071068e-011
2002000000 -1.854538e-001 8.031809e-001 7.071068e-011 7.071068e-011 7.071068e-011 7.071068e-011 7.071068e-011 7.071068e-011
2002100000 -1.760053e-001 8.036355e-001 7.071068e-011 7.071068e-011 7.071068e-011 7.071068e-011 7.071068e-011 7.071068e-011
2002200000 -1.654388e-001 8.071810e-001 7.071068e-011 7.071068e-011 7.071068e-011 7.071068e-011 7.071068e-011 7.071068e-011
2002300000 -1.573451e-001 8.084684e-001 7.071068e-011 7.071068e-011 7.071068e-011 7.071068e-011 7.071068e-011 7.071068e-011
2002400000 -1.476423e-001 8.104320e-001 7.071068e-011 7.071068e-011 7.071068e-011 7.071068e-011 7.071068e-011 7.071068e-011
2002500000 -1.371231e-001 8.117447e-001 7.071068e-011 7.071068e-011 7.071068e-011 7.071068e-011 7.071068e-011 7.071068e-011
2002600000 -1.271057e-001 8.127643e-001 7.071068e-011 7.071068e-011 7.071068e-011 7.071068e-011 7.071068e-011 7.071068e-011
2002700000 -1.179705e-001 8.145005e-001 7.071068e-011 7.071068e-011 7.071068e-011 7.071068e-011 7.071068e-011 7.071068e-011
2002800000 -1.077907e-001 8.161252e-001 7.071068e-011 7.071068e-011 7.071068e-011 7.071068e-011 7.071068e-011 7.071068e-011
2002900000 -9.753181e-002 8.170018e-001 7.071068e-011 7.071068e-011 7.071068e-011 7.071068e-011 7.071068e-011 7.071068e-011
2003000000 -8.706085e-002 8.186007e-001 7.071068e-011 7.071068e-011 7.071068e-011 7.071068e-011 7.071068e-011 7.071068e-011
2003100000 -7.819981e-002 8.195243e-001 7.071068e-011 7.071068e-011 7.071068e-011 7.071068e-011 7.071068e-011 7.071068e-011
2003200000 -6.862881e-002 8.212569e-001 7.071068e-011 7.071068e-011 7.071068e-011 7.071068e-011 7.071068e-011 7.071068e-011
2003300000 -5.968013e-002 8.216857e-001 7.071068e-011 7.071068e-011 7.071068e-011 7.071068e-011 7.071068e-011 7.071068e-011
2003400000 -4.808416e-002 8.225235e-001 7.071068e-011 7.071068e-011 7.071068e-011 7.071068e-011 7.071068e-011 7.071068e-011
2003500000 -3.925108e-002 8.232208e-001 7.071068e-011 7.071068e-011 7.071068e-011 7.071068e-011 7.071068e-011 7.071068e-011
2003600000 -2.953060e-002 8.236624e-001 7.071068e-011 7.071068e-011 7.071068e-011 7.071068e-011 7.071068e-011 7.071068e-011
2003700000 -1.908243e-002 8.232880e-001 7.071068e-011 7.071068e-011 7.071068e-011 7.071068e-011 7.071068e-011 7.071068e-011
2003800000 -8.471763e-003 8.232665e-001 7.071068e-011 7.071068e-011 7.071068e-011 7.071068e-011 7.071068e-011 7.071068e-011
2003900000 8.217110e-004 8.237002e-001 7.071068e-011 7.071068e-011 7.071068e-011 7.071068e-011 7.071068e-011 7.071068e-011
2004000000 1.094808e-002 8.250130e-001 7.071068e-011 7.071068e-011 7.071068e-011 7.071068e-011 7.071068e-011 7.071068e-011
2004100000 1.986919e-002 8.239109e-001 7.071068e-011 7.071068e-011 7.071068e-011 7.071068e-011 7.071068e-011 7.071068e-011
2004200000 2.984235e-002 8.237312e-001 7.071068e-011 7.071068e-011 7.071068e-011 7.071068e-011 7.071068e-011 7.071068e-011
2004300000 4.006816e-002 8.231118e-001 7.071068e-011 7.071068e-011 7.071068e-011 7.071068e-011 7.071068e-011 7.071068e-011
2004400000 4.950513e-002 8.225811e-001 7.071068e-011 7.071068e-011 7.071068e-011 7.071068e-011 7.071068e-011 7.071068e-011
2004500000 5.959125e-002 8.229529e-001 7.071068e-011 7.071068e-011 7.071068e-011 7.071068e-011 7.071068e-011 7.071068e-011
2004600000 6.795265e-002 8.213082e-001 7.071068e-011 7.071068e-011 7.071068e-011 7.071068e-011 7.071068e-011 7.071068e-011
2004700000 7.856450e-002 8.212086e-001 7.071068e-011 7.071068e-011 7.071068e-011 7.071068e-011 7.071068e-011 7.071068e-011
2004800000 8.774313e-002 8.211325e-001 7.071068e-011 7.071068e-011 7.071068e-011 7.071068e-011 7.071068e-011 7.071068e-011
2004900000 9.752429e-002 8.182212e-001 7.071068e-011 7.071068e-011 7.071068e-011 7.071068e-011 7.071068e-011 7.071068e-011
2005000000 1.083794e-001 8.187205e-001 7.071068e-011 7.071068e-011 7.071068e-011 7.071068e-011 7.071068e-011 7.071068e-011
2005100000 1.177953e-001 8.162444e-001 7.071068e-011 7.071068e-011 7.071068e-011 7.071068e-011 7.071068e-011 7.071068e-011
2005200000 1.265649e-001 8.158397e-001 7.071068e-011 7.071068e-011 7.071068e-011 7.071068e-011 7.071068e-011 7.071068e-011
2005300000 1.363503e-001 8.147985e-001 7.071068e-011 7.071068e-011 7.071068e-011 7.071068e-011 7.071068e-011 7.071068e-011
2005400000 1.473206e-001 8.132323e-001 7.071068e-011 7.071068e-011 7.071068e-011 7.071068e-011 7.071068e-011 7.071068e-011
2005500000 1.562024e-001 8.119923e-001 7.071068e-011 7.071068e-011 7.071068e-011 7.071068e-011 7.071068e-011 7.071068e-011
2005600000 1.654759e-001 8.097337e-001 7.071068e-011 7.071068e-011 7.071068e-011 7.071068e-011 7.071068e-011 7.071068e-011
2005700000 1.765691e-001 8.078172e-001 7.071068e-011 7.071068e-011 7.071068e-011 7.071068e-011 7.071068e-011 7.071068e-011
2005800000 1.861141e-001 8.050483e-001 7.071068e-011 7.071068e-011 7.071068e-011 7.071068e-011 7.071068e-011 7.071068e-011
2005900000 1.954124e-001 8.034584e-001 7.071068e-011 7.071068e-011 7.071068e-011 7.071068e-011 7.071068e-011 7.071068e-011
2006000000 2.046129e-001 8.016972e-001 7.071068e-011 7.071068e-011 7.071068e-011 7.071068e-011 7.071068e-011 7.071068e-011
2006100000 2.141708e-001 7.981907e-001 7.071068e-011 7.071068e-011 7.071068e-011 7.071068e-011 7.071068e-011 7.071068e-011
2006200000 2.247785e-001 7.954245e-001 7.071068e-011 7.071068e-011 7.071068e-011 7.071068e-011 7.071068e-011 7.071068e-011
2006300000 2.336797e-001 7.935683e-001 7.071068e-011 7.071068e-011 7.071068e-011 7.071068e-011 7.071068e-011 7.071068e-011
2006400000 2.423388e-001 7.906294e-001 7.071068e-011 7.071068e-011 7.071068e-011 7.071068e-011 7.071068e-011 7.071068e-011
2006500000 2.534290e-001 7.882750e-001 7.071068e-011 7.071068e-011 7.071068e-011 7.071068e-011 7.071068e-011 7.071068e-011
2006600000 2.615275e-001 7.859941e-001 7.071068e-011 7.071068e-011 7.071068e-011 7.071068e-011 7.071068e-011 7.071068e-011
2006700000 2.713650e-001 7.825399e-001 7.071068e-011 7.071068e-011 7.071068e-011 7.071068e-011 7.071068e-011 7.071068e-011
2006800000 2.807702e-001 7.793545e-001 7.071068e-011 7.071068e-011 7.071068e-011 7.071068e-011 7.071068e-011 7.071068e-011
2006900000 2.893428e-001 7.768772e-001 7.071068e-011 7.071068e-011 7.071068e-011 7.071068e-011 7.071068e-011 7.071068e-011
2007000000 2.995504e-001 7.721924e-001 7.071068e-011 7.071068e-011 7.071068e-011 7.071068e-011 7.071068e-011 7.071068e-011
2007100000 3.086412e-001 7.698123e-001 7.071068e-011 7.071068e-011 7.071068e-011 7.071068e-011 7.071068e-011 7.071068e-011
2007200000 3.174361e-001 7.665736e-001 7.071068e-011 7.071068e-011 7.071068e-011 7.071068e-011 7.071068e-011 7.071068e-011
2007300000 3.269446e-001 7.622573e-001 7.071068e-011 7.071068e-011 7.071068e-011 7.071068e-011 7.071068e-011 7.071068e-011
2007400000 3.355939e-001 7.590418e-001 7.071068e-011 7.071068e-011 7.071068e-011 7.071068e-011 7.071068e-011 7.071068e-011
2007500000 3.456077e-001 7.557418e-001 7.071068e-011 7.071068e-011 7.071068e-011 7.071068e-011 7.071068e-011 7.071068e-011
2007600000 3.534104e-001 7.514650e-001 7.071068e-011 7.071068e-011 7.071068e-011 7.071068e-011 7.071068e-011 7.071068e-011
2007700000 3.631865e-001 7.462981e-001 7.071068e-011 7.071068e-011 7.071068e-011 7.071068e-011 7.071068e-011 7.071068e-011
2007800000 3.722657e-001 7.428768e-001 7.071068e-011 7.071068e-011 7.071068e-011 7.071068e-011 7.071068e-011 7.071068e-011
2007900000 3.816569e-001 7.395322e-001 7.071068e-011 7.071068e-011 7.071068e-011 7.071068e-011 7.071068e-011 7.071068e-011
2008000000 3.905571e-001 7.347558e-001 7.071068e-011 7.071068e-011 7.071068e-011 7.071068e-011 7.071068e-011 7.071068e-011
2008100000 3.985729e-001 7.304987e-001 7.071068e-011 7.071068e-011 7.071068e-011 7.071068e-011 7.071068e-011 7.071068e-011
2008200000 4.080243e-001 7.257873e-001 7.071068e-011 7.071068e-011 7.071068e-011 7.071068e-011 7.071068e-011 7.071068e-011
2008300000 4.166320e-001 7.207901e-001 7.071068e-011 7.071068e-011 7.071068e-011 7.071068e-011 7.071068e-011 7.071068e-011
2008400000 4.249341e-001 7.169412e-001 7.071068e-011 7.071068e-011 7.071068e-011 7.071068e-011 7.071068e-011 7.071068e-011
2008500000 4.342827e-001 7.118369e-001 7.071068e-011 7.071068e-011 7.071068e-011 7.071068e-011 7.071068e-011 7.071068e-011
2008600000 4.417579e-001 7.075107e-001 7.071068e-011 7.071068e-011 7.071068e-011 7.071068e-011 7.071068e-011 7.071068e-011
2008700000 4.505610e-001 7.011936e-001 7.071068e-011 7.071068e-011 7.071068e-011 7.071068e-011 7.071068e-011 7.071068e-011
2008800000 4.598798e-001 6.966571e-001 7.071068e-011 7.071068e-011 7.071068e-011 7.071068e-011 7.071068e-011 7.071068e-011
2008900000 4.672020e-001 6.911798e-001 7.071068e-011 7.071068e-011 7.071068e-011 7.071068e-011 7.071068e-011 7.071068e-011
2009000000 4.760701e-001 6.866548e-001 7.071068e-011 7.071068e-011 7.071068e-011 7.071068e-011 7.071068e-011 7.071068e-011
2009100000 4.845513e-001 6.811064e-001 7.071068e-011 7.071068e-011 7.071068e-011 7.071068e-011 7.071068e-011 7.071068e-011
2009200000 4.924615e-001 6.752803e-001 7.071068e-011 7.071068e-011 7.071068e-011 7.071068e-011 7.071068e-011 7.071068e-011
2009300000 5.002450e-001 6.705214e-001 7.071068e-011 7.071068e-011 7.071068e-011 7.071068e-011 7.071068e-011 7.071068e-011
2009400000 5.085878e-001 6.646597e-001 7.071068e-011 7.071068e-011 7.071068e-011 7.071068e-011 7.071068e-011 7.071068e-011
2009500000 5.161604e-001 6.604187e-001 7.071068e-011 7.071068e-011 7.071068e-011 7.071068e-011 7.071068e-011 7.071068e-011
2009600000 5.239234e-001 6.518203e-001 7.071068e-011 7.071068e-011 7.071068e-011 7.071068e-011 7.071068e-011 7.071068e-011
2009700000 5.321345e-001 6.464945e-001 7.071068e-011 7.071068e-011 7.071068e-011 7.071068e-011 7.071068e-011 7.071068e-011
2009800000 5.401556e-001 6.396114e-001 7.071068e-011 7.071068e-011 7.071068e-011 7.071068e-011 7.071068e-011 7.071068e-011
2009900000 5.484403e-001 6.352146e-001 7.071068e-011 7.071068e-011 7.071068e-011 7.071068e-011 7.071068e-011 7.071068e-011
2010000000 5.565053e-001 6.280085e-001 7.071068e-011 7.071068e-011 7.071068e-011 7.071068e-011 7.071068e-011 7.071068e-011
2010100000 5.638582e-001 6.218111e-001 7.071068e-011 7.071068e-011 7.071068e-011 7.071068e-011 7.071068e-011 7.071068e-011
2010200000 5.717468e-001 6.147602e-001 7.071068e-011 7.071068e-011 7.071068e-011 7.071068e-011 7.071068e-011 7.071068e-011
2010300000 5.777185e-001 6.095364e-001 7.071068e-011 7.071068e-011 7.071068e-011 7.071068e-011 7.071068e-011 7.071068e-011
2010400000 5.861086e-001 6.022589e-001 7.071068e-011 7.071068e-011 7.071068e-011 7.071068e-011 7.071068e-011 7.071068e-011
2010500000 5.941615e-001 5.950258e-001 7.071068e-011 7.071068e-011 7.071068e-011 7.071068e-011 7.071068e-011 7.071068e-011
2010600000 6.013031e-001 5.895148e-001 7.071068e-011 7.071068e-011 7.071068e-011 7.071068e-011 7.071068e-011 7.071068e-011
2010700000 6.087368e-001 5.833179e-001 7.071068e-011 7.071068e-011 7.071068e-011 7.071068e-011 7.071068e-011 7.071068e-011
2010800000 6.152205e-001 5.751187e-001 7.071068e-011 7.071068e-011 7.071068e-011 7.071068e-011 7.071068e-011 7.071068e-011
2010900000 6.225486e-001 5.691347e-001 7.071068e-011 7.071068e-011 7.071068e-011 7.071068e-011 7.071068e-011 7.071068e-011
2011000000 6.289796e-001 5.613623e-001 7.071068e-011 7.071068e-011 7.071068e-011 7.071068e-011 7.071068e-011 7.071068e-011
2011100000 6.370063e-001 5.545055e-001 7.071068e-011 7.071068e-011 7.071068e-011 7.071068e-011 7.071068e-011 7.071068e-011
2011200000 6.428865e-001 5.489520e-001 7.071068e-011 7.071068e-011 7.071068e-011 7.071068e-011 7.071068e-011 7.071068e-011
2011300000 6.507485e-001 5.409798e-001 7.071068e-011 7.071068e-011 7.071068e-011 7.071068e-011 7.071068e-011 7.071068e-011
2011400000 6.568124e-001 5.329621e-001 7.071068e-011 7.071068e-011 7.071068e-011 7.071068e-011 7.071068e-011 7.071068e-011
2011500000 6.624319e-001 5.253223e-001 7.071068e-011 7.071068e-011 7.071068e-011 7.071068e-011 7.071068e-011 7.071068e-011
2011600000 6.693527e-001 5.183989e-001 7.071068e-011 7.071068e-011 7.071068e-011 7.071068e-011 7.071068e-011 7.071068e-011
2011700000 6.756245e-001 5.103461e-001 7.071068e-011 7.071068e-011 7.071068e-011 7.071068e-011 7.071068e-011 7.071068e-011
2011800000 6.822624e-001 5.030935e-001 7.071068e-011 7.071068e-011 7.071068e-011 7.071068e-011 7.071068e-011 7.071068e-011
2011900000 6.883497e-001 4.946168e-001 7.071068e-011 7.071068e-011 7.071068e-011 7.071068e-011 7.071068e-011 7.071068e-011
2012000000 6.942682e-001 4.864492e-001 7.071068e-011 7.071068e-011 7.071068e-011 7.071068e-011 7.071068e-011 7.071068e-011
2012100000 7.006183e-001 4.802534e-001 7.071068e-011 7.071068e-011 7.071068e-011 7.071068e-011 7.071068e-011 7.071068e-011
2012200000 7.062616e-001 4.710644e-001 7.071068e-011 7.071068e-011 7.071068e-011 7.071068e-011 7.071068e-011 7.071068e-011
2012300000 7.117272e-001 4.642946e-001 7.071068e-011 7.071068e-011 7.071068e-011 7.071068e-011 7.071068e-011 7.071068e-011
2012400000 7.186962e-001 4.554556e-001 7.071068e-011 7.071068e-011 7.071068e-011 7.071068e-011 7.071068e-011 7.071068e-011
2012500000 7.231351e-001 4.470335e-001 7.071068e-011 7.071068e-011 7.071068e-011 7.071068e-011 7.071068e-011 7.071068e-011
2012600000 7.290450e-001 4.390290e-001 7.071068e-011 7.071068e-011 7.071068e-011 7.071068e-011 7.071068e-011 7.071068e-011
2012700000 7.347608e-001 4.313845e-001 7.071068e-011 7.071068e-011 7.071068e-011 7.071068e-011 7.071068e-011 7.071068e-011
2012800000 7.406273e-001 4.230604e-001 7.071068e-011 7.071068e-011 7.071068e-011 7.071068e-011 7.071068e-011 7.071068e-011
2012900000 7.455457e-001 4.142113e-001 7.071068e-011 7.071068e-011 7.071068e-011 7.071068e-011 7.071068e-011 7.071068e-011
2013000000 7.518071e-001 4.055704e-001 7.071068e-011 7.071068e-011 7.071068e-011 7.071068e-011 7.071068e-011 7.071068e-011
2013100000 7.559515e-001 3.970895e-001 7.071068e-011 7.071068e-011 7.071068e-011 7.071068e-011 7.071068e-011 7.071068e-011
2013200000 7.615420e-001 3.892796e-001 7.071068e-011 7.071068e-011 7.071068e-011 7.071068e-011 7.071068e-011 7.071068e-011
2013300000 7.674710e-001 3.796695e-001 7.071068e-011 7.071068e-011 7.071068e-011 7.071068e-011 7.071068e-011 7.071068e-011
2013400000 7.705845e-001 3.704368e-001 7.071068e-011 7.071068e-011 7.071068e-011 7.071068e-011 7.071068e-011 7.071068e-011
2013500000 7.750701e-001 3.636537e-001 7.071068e-011 7.071068e-011 7.071068e-011 7.071068e-011 7.071068e-011 7.071068e-011
2013600000 7.802919e-001 3.526632e-001 7.071068e-011 7.071068e-011 7.071068e-011 7.071068e-011 7.071068e-011 7.071068e-011
2013700000 7.852097e-001 3.455508e-001 7.071068e-011 7.071068e-011 7.071068e-011 7.071068e-011 7.071068e-011 7.071068e-011
2013800000 7.892854e-001 3.352945e-001 7.071068e-011 7.071068e-011 7.071068e-011 7.071068e-011 7.071068e-011 7.071068e-011
2013900000 7.933035e-001 3.269242e-001 7.071068e-011 7.071068e-011 7.071068e-011 7.071068e-011 7.071068e-011 7.071068e-011
2014000000 7.982973e-001 3.175962e-001 7.071068e-011 7.071068e-011 7.071068e-011 7.071068e-011 7.071068e-011 7.071068e-011
2014100000 8.013867e-001 3.087109e-001 7.071068e-011 7.071068e-011 7.071068e-011 7.071068e-011 7.071068e-011 7.071068e-011
2014200000 8.058009e-001 3.003966e-001 7.071068e-011 7.071068e-011 7.071068e-011 7.071068e-011 7.071068e-011 7.071068e-011
2014300000 8.113388e-001 2.901477e-001 7.071068e-011 7.071068e-011 7.071068e-011 7.071068e-011 7.071068e-011 7.071068e-011
2014400000 8.142570e-001 2.819573e-001 7.071068e-011 7.071068e-011 7.071068e-011 7.071068e-011 7.071068e-011 7.071068e-011
2014500000 8.171031e-001 2.725545e-001 7.071068e-011 7.071068e-011 7.071068e-011 7.071068e-011 7.071068e-011 7.071068e-011
2014600000 8.206465e-001 2.629065e-001 7.071068e-011 7.071068e-011 7.071068e-011 7.071068e-011 7.071068e-011 7.071068e-011
2014700000 8.236594e-001 2.529700e-001 7.071068e-011 7.071068e-011 7.071068e-011 7.071068e-011 7.071068e-011 7.071068e-011
2014800000 8.268257e-001 2.450216e-001 7.071068e-011 7.071068e-011 7.071068e-011 7.071068e-011 7.071068e-011 7.071068e-011
2014900000 8.310203e-001 2.353915e-001 7.071068e-011 7.071068e-011 7.071068e-011 7.071068e-011 7.071068e-011 7.071068e-011
2015000000 8.337827e-001 2.265337e-001 7.071068e-011 7.071068e-011 7.071068e-011 7.071068e-011 7.071068e-011 7.071068e-011
2015100000 8.362192e-001 2.162490e-001 7.071068e-011 7.071068e-011 7.071068e-011 7.071068e-011 7.071068e-011 7.071068e-011
2015200000 8.404459e-001 2.085272e-001 7.071068e-011 7.071068e-011 7.071068e-011 7.071068e-011 7.071068e-011 7.071068e-011
2015300000 8.437155e-001 1.984884e-001 7.071068e-011 7.071068e-011 7.071068e-011 7.071068e-011 7.071068e-011 7.071068e-011
2015400000 8.451130e-001 1.874823e-001 7.071068e-011 7.071068e-011 7.071068e-011 7.071068e-011 7.071068e-011 7.071068e-011
2015500000 8.475759e-001 1.790654e-001 7.071068e-011 7.071068e-011 7.071068e-011 7.071068e-011 7.071068e-011 7.071068e-011
2015600000 8.504739e-001 1.687439e-001 7.071068e-011 7.071068e-011 7.071068e-011 7.071068e-011 7.071068e-011 7.071068e-011
2015700000 8.539688e-001 1.595190e-001 7.071068e-011 7.071068e-011 7.071068e-011 7.071068e-011 7.071068e-011 7.071068e-011
