!Agilent Technologies,N5230C,SG49000117,A.08.50.07
!Agilent N5230C: A.08.50.07
!Date: Sunday, March 17, 2024 09:16:38
!Correction: S11(Off) 
!S21(Off) 
!S12(Off) 
!S22(Full 1 Port(2)) 
!S2P File: Measurements: S11, S21, S12, S22:
# Hz S  RI   R 50
300000000 -2.246398e-005 1.753124e-005 -6.388837e-001 -6.274297e-001 2.853138e-005 4.454378e-005 9.955853e-001 -2.306910e-001
300285000 8.469188e-005 4.906453e-005 -6.530899e-001 -6.039825e-001 -8.335592e-005 -9.712180e-005 9.976417e-001 -2.308099e-001
300570000 6.268019e-005 8.825446e-006 -6.666764e-001 -5.802704e-001 1.208227e-004 -1.245670e-004 9.978217e-001 -2.296897e-001
300855000 -2.160618e-005 5.855534e-005 -6.794072e-001 -5.566699e-001 2.379169e-005 -2.206571e-005 9.982846e-001 -2.318498e-001
301140000 6.482208e-005 -2.373821e-006 -6.917600e-001 -5.327393e-001 4.239562e-005 -1.355401e-004 9.973312e-001 -2.318901e-001
301425000 5.323569e-006 4.523951e-005 -7.026118e-001 -5.090348e-001 6.995236e-005 -4.637218e-005 9.980164e-001 -2.319420e-001
301710000 3.791229e-006 3.306736e-005 -7.128167e-001 -4.856162e-001 -2.682523e-006 8.618863e-005 9.975963e-001 -2.324524e-001
301995000 -8.965623e-005 8.912645e-005 -7.230530e-001 -4.624597e-001 1.913606e-005 7.693683e-005 9.971415e-001 -2.304056e-001
302280000 -5.442223e-005 5.384092e-005 -7.314229e-001 -4.385852e-001 1.556956e-005 -3.063001e-005 9.982689e-001 -2.312998e-001
302565000 3.434738e-005 -2.425452e-005 -7.398191e-001 -4.156217e-001 5.226985e-005 -7.266887e-005 9.971763e-001 -2.309537e-001
302850000 -6.713302e-005 -6.878941e-005 -7.466493e-001 -3.913031e-001 6.050866e-005 2.019719e-005 9.963980e-001 -2.312066e-001
303135000 -4.749377e-005 3.285610e-005 -7.541466e-001 -3.686652e-001 4.600116e-005 1.088214e-004 9.973505e-001 -2.330908e-001
303420000 -1.295509e-004 -1.508363e-005 -7.600283e-001 -3.454763e-001 -1.614151e-005 1.105822e-004 9.964481e-001 -2.348433e-001
303705000 -3.316710e-005 -8.374206e-005 -7.656920e-001 -3.226151e-001 -5.158694e-005 -1.943207e-005 9.982275e-001 -2.333617e-001
303990000 4.484850e-006 -1.957599e-005 -7.706323e-001 -2.994780e-001 -4.850866e-005 -2.880709e-005 9.958252e-001 -2.326397e-001
304275000 3.246601e-005 -5.970538e-005 -7.750121e-001 -2.768438e-001 9.719931e-006 -4.615033e-005 9.965048e-001 -2.339094e-001
304560000 -6.550337e-005 -3.442894e-005 -7.781343e-001 -2.539291e-001 -1.402742e-004 -2.901209e-005 9.975320e-001 -2.346976e-001
304845000 -3.549202e-005 -7.849706e-005 -7.816174e-001 -2.318828e-001 -6.702604e-005 -6.769312e-005 9.964546e-001 -2.341856e-001
305130000 2.891815e-005 -8.161579e-005 -7.843768e-001 -2.095706e-001 1.007450e-004 -4.113168e-005 9.963135e-001 -2.349483e-001
305415000 -5.933353e-005 -4.004512e-005 -7.867205e-001 -1.874730e-001 7.384767e-005 -1.709542e-005 9.963644e-001 -2.349158e-001
305700000 -1.497890e-005 -1.496694e-004 -7.885286e-001 -1.653090e-001 7.388629e-006 -6.069638e-005 9.966447e-001 -2.335731e-001
305985000 5.049787e-005 -1.233446e-004 -7.893074e-001 -1.440096e-001 -6.924973e-005 9.945547e-005 9.976208e-001 -2.358913e-001
306270000 1.294116e-005 -8.227949e-005 -7.900669e-001 -1.220119e-001 6.700163e-005 -6.992168e-005 9.996927e-001 -2.350745e-001
306555000 5.306643e-005 -1.404246e-006 -7.905446e-001 -1.005184e-001 1.598512e-004 7.570106e-005 9.969174e-001 -2.365344e-001
306840000 1.044979e-004 8.703460e-005 -7.902297e-001 -7.936427e-002 9.250374e-005 3.068664e-005 9.971480e-001 -2.338520e-001
307125000 4.624391e-005 -2.990095e-007 -7.896914e-001 -5.791410e-002 8.526572e-005 -1.724208e-006 9.960658e-001 -2.349613e-001
307410000 -6.120971e-006 5.727894e-005 -7.886142e-001 -3.742731e-002 -5.030364e-005 2.766215e-005 9.969028e-001 -2.366018e-001
307695000 -2.771685e-005 6.938296e-005 -7.867442e-001 -1.630794e-002 3.161541e-005 1.851447e-005 9.977868e-001 -2.369057e-001
307980000 -8.225522e-005 5.511687e-005 -7.850284e-001 4.501765e-003 8.700202e-005 -3.732178e-005 9.963816e-001 -2.355829e-001
308265000 -6.475571e-005 5.037717e-006 -7.831507e-001 2.483422e-002 7.711936e-005 6.956136e-005 9.951673e-001 -2.368509e-001
308550000 -6.150175e-005 -9.570878e-005 -7.803146e-001 4.536746e-002 1.251888e-005 4.098622e-005 9.943850e-001 -2.360185e-001
308835000 -9.473696e-005 4.167514e-005 -7.778153e-001 6.563275e-002 -4.925624e-005 2.332417e-005 9.967985e-001 -2.381685e-001
309120000 -2.905618e-005 -3.267607e-005 -7.746427e-001 8.571193e-002 -6.766895e-005 5.087554e-005 9.975696e-001 -2.391031e-001
309405000 4.189274e-005 3.248003e-005 -7.705074e-001 1.059917e-001 -8.576318e-005 1.450449e-005 9.985805e-001 -2.368374e-001
309690000 2.805454e-005 -1.645830e-004 -7.667240e-001 1.257634e-001 -2.686712e-005 1.980187e-005 9.974564e-001 -2.373106e-001
309975000 6.051758e-005 5.842543e-005 -7.623813e-001 1.452569e-001 -2.568496e-005 -8.809144e-006 9.961554e-001 -2.376469e-001
310260000 -1.287896e-005 -2.503594e-005 -7.575230e-001 1.652792e-001 -2.507987e-005 -1.005774e-004 9.983748e-001 -2.369363e-001
310545000 -6.728039e-007 -8.295145e-005 -7.520834e-001 1.846997e-001 -2.934800e-005 4.975851e-006 9.964571e-001 -2.389638e-001
310830000 4.339886e-005 -7.032180e-006 -7.472342e-001 2.045079e-001 -1.348589e-004 5.410423e-006 9.978483e-001 -2.390316e-001
311115000 -1.654842e-005 -2.334466e-005 -7.415091e-001 2.233595e-001 -1.254945e-004 -1.173746e-005 9.962204e-001 -2.377292e-001
311400000 1.086469e-004 -4.477299e-005 -7.353913e-001 2.425560e-001 1.270209e-004 -6.145937e-005 9.959826e-001 -2.382340e-001
311685000 1.842365e-005 3.635427e-005 -7.286603e-001 2.618771e-001 8.837382e-005 -3.929013e-005 9.973665e-001 -2.400573e-001
311970000 7.434465e-005 -1.565065e-006 -7.216507e-001 2.808827e-001 1.920809e-005 -9.883698e-005 9.953121e-001 -2.386569e-001
312255000 9.271925e-005 8.376419e-005 -7.144803e-001 3.004266e-001 6.838253e-005 2.660990e-005 9.960099e-001 -2.387670e-001
312540000 5.145192e-005 -2.621564e-005 -7.072238e-001 3.183621e-001 8.213447e-005 -3.512573e-005 9.966012e-001 -2.403056e-001
312825000 1.577633e-004 1.650541e-005 -6.992713e-001 3.378824e-001 9.956609e-005 3.951138e-005 9.958976e-001 -2.406526e-001
313110000 -1.117000e-004 -4.623575e-006 -6.902032e-001 3.563022e-001 2.595581e-005 -4.320671e-006 9.958208e-001 -2.411537e-001
313395000 -4.147432e-006 4.063311e-005 -6.818575e-001 3.744104e-001 1.164688e-004 -1.885397e-005 9.958569e-001 -2.396881e-001
313680000 1.146878e-004 2.264699e-005 -6.729363e-001 3.931880e-001 2.454477e-005 3.196517e-005 9.974367e-001 -2.401796e-001
313965000 1.319639e-005 -2.372968e-005 -6.629619e-001 4.112824e-001 -4.867065e-005 2.482697e-005 9.957761e-001 -2.416378e-001
314250000 -1.900118e-004 7.155546e-005 -6.529829e-001 4.297430e-001 8.310523e-006 2.138456e-006 9.950956e-001 -2.395314e-001
314535000 2.255155e-006 -5.373302e-005 -6.432347e-001 4.481258e-001 1.904576e-005 -2.235650e-006 9.952446e-001 -2.413879e-001
314820000 1.622841e-005 -7.544566e-005 -6.324395e-001 4.664297e-001 5.853486e-005 -2.335571e-006 9.947653e-001 -2.421857e-001
315105000 -4.930350e-005 -1.552890e-005 -6.208832e-001 4.842459e-001 -2.921298e-005 5.586859e-005 9.928568e-001 -2.423567e-001
315390000 1.434000e-005 -1.097228e-005 -6.092257e-001 5.020010e-001 4.169747e-005 4.242116e-005 9.960873e-001 -2.419808e-001
315675000 -6.964188e-005 1.334195e-005 -5.977325e-001 5.205482e-001 -5.811992e-005 6.715853e-005 9.944868e-001 -2.416776e-001
315960000 -5.777472e-005 -7.639392e-005 -5.842096e-001 5.380473e-001 -3.172804e-005 4.989824e-005 9.955957e-001 -2.425791e-001
316245000 8.298972e-005 -3.767095e-005 -5.718418e-001 5.552195e-001 -4.505660e-005 -1.054075e-006 9.949325e-001 -2.411359e-001
316530000 7.814122e-007 -1.952284e-006 -5.580661e-001 5.733977e-001 -4.982363e-005 -3.721367e-005 9.953312e-001 -2.425933e-001
316815000 2.099332e-005 -2.539427e-005 -5.436487e-001 5.905625e-001 -4.064742e-005 3.550163e-005 9.964681e-001 -2.418395e-001
317100000 -3.681183e-006 1.255693e-005 -5.296623e-001 6.071665e-001 -1.010043e-005 4.051699e-005 9.952537e-001 -2.412614e-001
317385000 9.817553e-005 1.332761e-004 -5.140870e-001 6.251525e-001 -5.035441e-005 -1.023118e-004 9.965150e-001 -2.422147e-001
317670000 6.341589e-005 1.743922e-005 -4.983776e-001 6.414208e-001 -3.372541e-005 -1.103078e-005 9.964111e-001 -2.438468e-001
317955000 5.835984e-005 -3.702664e-005 -4.819186e-001 6.578564e-001 -4.529768e-005 -9.449255e-005 9.973872e-001 -2.443994e-001
318240000 -1.748764e-005 -1.707857e-005 -4.655205e-001 6.749039e-001 -5.192190e-005 2.266990e-005 9.945071e-001 -2.435723e-001
318525000 -4.727868e-006 1.140831e-004 -4.476960e-001 6.911313e-001 5.762362e-005 -5.219523e-005 9.957089e-001 -2.429324e-001
318810000 4.087842e-005 2.059700e-004 -4.300564e-001 7.069076e-001 5.842707e-005 -1.770757e-005 9.949053e-001 -2.449562e-001
319095000 -9.609684e-005 -8.031776e-006 -4.114060e-001 7.228280e-001 4.330303e-005 -1.596919e-004 9.961799e-001 -2.433098e-001
319380000 2.702204e-005 1.116764e-004 -3.915415e-001 7.384567e-001 6.157689e-005 -9.365720e-005 9.956535e-001 -2.453683e-001
319665000 -9.466257e-005 6.044141e-006 -3.722885e-001 7.539958e-001 -3.486927e-005 -5.677839e-006 9.969900e-001 -2.432834e-001
319950000 4.777887e-005 5.127545e-007 -3.513383e-001 7.684005e-001 -1.669123e-005 -8.270313e-006 9.952960e-001 -2.467163e-001
320235000 3.873606e-005 -7.700501e-005 -3.297373e-001 7.833034e-001 5.812611e-006 1.124135e-005 9.948238e-001 -2.455605e-001
320520000 1.701464e-005 -2.713969e-006 -3.079155e-001 7.976552e-001 -6.892309e-005 6.099929e-005 9.944953e-001 -2.453396e-001
320805000 3.029197e-005 -1.540844e-004 -2.850938e-001 8.110572e-001 -1.517397e-005 1.983012e-006 9.944075e-001 -2.462947e-001
321090000 8.233995e-006 9.603440e-006 -2.611653e-001 8.246191e-001 -1.106903e-004 -8.952860e-005 9.950523e-001 -2.454984e-001
321375000 1.151673e-004 -7.510646e-005 -2.375810e-001 8.366868e-001 3.748399e-005 -1.085144e-004 9.954002e-001 -2.459734e-001
321660000 5.298683e-005 1.115502e-005 -2.126396e-001 8.493249e-001 -6.359678e-005 -7.870781e-005 9.956837e-001 -2.464575e-001
321945000 1.960157e-005 -5.257548e-005 -1.869978e-001 8.599448e-001 9.877147e-005 -1.177651e-004 9.957703e-001 -2.475093e-001
322230000 9.380002e-005 -3.509725e-005 -1.602842e-001 8.715575e-001 2.149207e-005 -4.603478e-005 9.940271e-001 -2.466954e-001
322515000 4.330335e-005 7.464855e-005 -1.330162e-001 8.820035e-001 1.062446e-004 -9.548059e-005 9.934251e-001 -2.473203e-001
322800000 5.501711e-005 5.342574e-005 -1.050286e-001 8.917090e-001 7.033659e-006 -2.537185e-005 9.960595e-001 -2.467557e-001
323085000 7.820929e-006 4.625708e-005 -7.675888e-002 9.001064e-001 5.310393e-005 6.653264e-005 9.936898e-001 -2.469016e-001
323370000 -9.753264e-005 -5.955080e-005 -4.707341e-002 9.081614e-001 3.709629e-005 7.579419e-005 9.948685e-001 -2.489995e-001
323655000 2.833855e-006 -3.245614e-005 -1.705449e-002 9.147664e-001 4.618714e-005 6.845739e-005 9.947063e-001 -2.493990e-001
323940000 1.075239e-004 -1.764345e-005 1.333257e-002 9.207264e-001 -1.248723e-004 3.790327e-006 9.942896e-001 -2.490750e-001
324225000 5.729152e-005 3.994745e-005 4.507568e-002 9.253399e-001 8.164337e-005 -2.802358e-006 9.927580e-001 -2.495965e-001
324510000 -2.079508e-005 3.259170e-005 7.700135e-002 9.294991e-001 -2.773078e-005 8.981033e-005 9.947750e-001 -2.504580e-001
324795000 -7.229928e-005 4.041702e-005 1.097015e-001 9.328195e-001 -2.963584e-005 1.181136e-004 9.942622e-001 -2.486954e-001
325080000 -8.160353e-005 7.293389e-005 1.429955e-001 9.337285e-001 -5.165528e-006 2.972773e-005 9.954456e-001 -2.495941e-001
325365000 -4.733460e-005 3.876229e-005 1.771179e-001 9.345114e-001 -7.403558e-005 5.443021e-005 9.944349e-001 -2.490299e-001
325650000 2.145893e-005 -4.421784e-006 2.111246e-001 9.323225e-001 -3.071031e-005 -2.040819e-006 9.946243e-001 -2.491354e-001
325935000 -1.087023e-004 6.390940e-005 2.456858e-001 9.305650e-001 -6.947969e-005 3.923395e-005 9.935134e-001 -2.502573e-001
326220000 -2.821280e-005 -1.834071e-006 2.813634e-001 9.260498e-001 5.042379e-006 1.786635e-005 9.943612e-001 -2.513655e-001
326505000 -8.958236e-005 -8.631765e-005 3.160133e-001 9.203308e-001 2.686192e-005 -3.487972e-006 9.936331e-001 -2.523047e-001
326790000 4.234552e-005 -7.216847e-005 3.515818e-001 9.133421e-001 1.409186e-005 -3.306238e-005 9.927498e-001 -2.492821e-001
327075000 -5.370548e-005 -1.156418e-005 3.873253e-001 9.040605e-001 -5.704126e-005 -8.483864e-006 9.939263e-001 -2.524400e-001
327360000 -8.631369e-005 -3.700738e-005 4.230677e-001 8.947946e-001 -1.038901e-005 -1.456072e-006 9.951029e-001 -2.513937e-001
327645000 -7.365231e-007 -6.612996e-006 4.578754e-001 8.818600e-001 5.842637e-006 3.175553e-005 9.938935e-001 -2.515160e-001
327930000 1.344698e-004 6.203134e-005 4.938202e-001 8.679500e-001 1.264547e-004 -4.395775e-005 9.944460e-001 -2.508880e-001
328215000 2.302851e-005 1.191824e-004 5.286812e-001 8.524319e-001 3.679313e-005 3.322758e-005 9.941670e-001 -2.523052e-001
328500000 -5.384572e-005 7.712210e-005 5.636011e-001 8.353425e-001 -2.244353e-005 6.796674e-005 9.934442e-001 -2.521966e-001
328785000 -3.332602e-006 4.598693e-005 5.972006e-001 8.161981e-001 -5.646763e-005 1.749093e-005 9.936495e-001 -2.519642e-001
329070000 2.224271e-005 2.463673e-005 6.302331e-001 7.945974e-001 6.313682e-007 1.771247e-006 9.940706e-001 -2.522520e-001
329355000 -1.317892e-004 -5.842049e-006 6.633565e-001 7.728257e-001 -3.293634e-005 -5.726889e-005 9.931873e-001 -2.533943e-001
329640000 -4.443911e-006 -9.769875e-006 6.953376e-001 7.484931e-001 2.291597e-005 -3.668105e-007 9.941103e-001 -2.525282e-001
329925000 -7.704520e-005 2.666034e-005 7.256869e-001 7.218559e-001 -7.077463e-006 -5.491140e-005 9.941623e-001 -2.529572e-001
330210000 -1.266570e-004 -1.103602e-004 7.543386e-001 6.945118e-001 1.276554e-004 -5.120031e-005 9.932411e-001 -2.533929e-001
330495000 -2.456177e-006 3.567932e-005 7.834575e-001 6.656194e-001 -4.932885e-005 -4.335522e-005 9.921136e-001 -2.540326e-001
330780000 6.582341e-006 -7.867502e-005 8.108253e-001 6.353928e-001 -1.288465e-005 -1.372336e-004 9.952325e-001 -2.541901e-001
331065000 -2.853631e-006 2.718039e-005 8.355623e-001 6.038297e-001 -6.110229e-005 2.282256e-005 9.915248e-001 -2.533135e-001
331350000 -7.897963e-006 -1.097872e-004 8.600724e-001 5.700468e-001 1.503197e-004 5.589881e-006 9.930915e-001 -2.547654e-001
331635000 1.592541e-005 1.137532e-004 8.818482e-001 5.358307e-001 3.565051e-005 7.333369e-005 9.937945e-001 -2.542834e-001
331920000 6.246514e-005 3.341340e-005 9.023322e-001 5.010136e-001 6.467981e-005 8.772930e-005 9.927891e-001 -2.546228e-001
332205000 9.547414e-005 5.701851e-005 9.217728e-001 4.640849e-001 7.145254e-006 6.798902e-006 9.925261e-001 -2.558116e-001
332490000 -1.817647e-006 5.258256e-005 9.381168e-001 4.266760e-001 -3.079817e-005 5.981456e-005 9.930943e-001 -2.556759e-001
332775000 -8.858957e-005 1.887265e-004 9.532568e-001 3.891784e-001 -6.224802e-005 2.455895e-005 9.930663e-001 -2.560751e-001
333060000 5.723402e-005 9.709614e-006 9.666522e-001 3.506425e-001 -1.434170e-005 8.615973e-005 9.931322e-001 -2.567304e-001
333345000 1.280854e-007 6.522216e-005 9.783794e-001 3.112760e-001 -9.395563e-005 3.010535e-005 9.944152e-001 -2.556667e-001
333630000 8.928441e-006 -3.772214e-005 9.870873e-001 2.721306e-001 -3.856684e-005 1.219607e-005 9.919035e-001 -2.573066e-001
333915000 -1.844567e-006 -1.104699e-005 9.949226e-001 2.331466e-001 -9.344216e-005 1.343386e-004 9.921798e-001 -2.564005e-001
334200000 -9.388458e-005 5.473640e-005 1.000173e+000 1.941334e-001 2.346495e-005 6.466184e-005 9.935948e-001 -2.575750e-001
334485000 -3.011422e-005 1.036862e-004 1.003677e+000 1.541458e-001 4.149297e-005 9.200306e-005 9.925051e-001 -2.565311e-001
334770000 -1.003530e-004 2.572004e-005 1.005798e+000 1.154851e-001 -2.628703e-005 3.431546e-005 9.927589e-001 -2.575340e-001
335055000 5.497816e-005 -1.567797e-005 1.005417e+000 7.622039e-002 -1.071789e-005 1.078320e-004 9.938474e-001 -2.576110e-001
335340000 -8.253216e-006 1.204926e-004 1.003309e+000 3.783641e-002 -7.750009e-005 -2.976667e-005 9.920634e-001 -2.583018e-001
335625000 -1.874056e-006 1.248718e-004 9.995345e-001 5.846070e-004 -6.817521e-005 2.066192e-005 9.935836e-001 -2.592999e-001
335910000 -5.215725e-005 2.226031e-005 9.946225e-001 -3.699988e-002 -3.199111e-005 -4.221487e-005 9.933810e-001 -2.577977e-001
336195000 -8.979237e-005 1.145001e-005 9.872941e-001 -7.286413e-002 -3.163425e-005 -6.425358e-005 9.916305e-001 -2.585290e-001
336480000 -4.948532e-005 5.395267e-005 9.790096e-001 -1.092302e-001 -1.064366e-004 -3.870596e-005 9.924980e-001 -2.593437e-001
336765000 -1.213613e-004 5.246570e-005 9.692097e-001 -1.442953e-001 -9.119090e-005 1.894318e-005 9.930623e-001 -2.592653e-001
337050000 -1.127040e-004 3.577996e-005 9.576882e-001 -1.784437e-001 -7.754719e-005 1.588024e-005 9.925760e-001 -2.595659e-001
337335000 -2.924134e-005 9.152098e-005 9.459510e-001 -2.116289e-001 2.377026e-005 5.668746e-005 9.923647e-001 -2.603334e-001
337620000 -9.704897e-005 -1.974863e-005 9.322726e-001 -2.434735e-001 -2.475689e-005 -3.981575e-005 9.918032e-001 -2.603597e-001
337905000 5.531030e-005 5.603197e-005 9.176438e-001 -2.744251e-001 -2.204612e-005 -6.544808e-005 9.917635e-001 -2.592808e-001
338190000 5.333130e-005 1.627600e-006 9.025082e-001 -3.046335e-001 5.974925e-005 -1.194006e-005 9.915785e-001 -2.607025e-001
338475000 1.009487e-004 -6.896000e-006 8.858609e-001 -3.337810e-001 2.620623e-005 5.827782e-005 9.928974e-001 -2.606126e-001
338760000 3.822238e-005 -4.577352e-005 8.684582e-001 -3.620174e-001 -3.256054e-005 3.380156e-005 9.920520e-001 -2.610688e-001
339045000 4.114605e-006 1.779438e-005 8.503806e-001 -3.887528e-001 6.912940e-005 2.942569e-006 9.928703e-001 -2.610678e-001
339330000 4.913138e-005 4.084818e-005 8.314782e-001 -4.144528e-001 1.094037e-004 -6.154514e-005 9.943026e-001 -2.599803e-001
339615000 2.401307e-005 4.083454e-005 8.121790e-001 -4.397832e-001 2.716869e-005 1.023906e-004 9.927853e-001 -2.624483e-001
339900000 -2.453666e-005 1.596594e-005 7.925774e-001 -4.629117e-001 8.882357e-005 6.184133e-006 9.928734e-001 -2.615266e-001
340185000 -7.001853e-005 3.976650e-005 7.715232e-001 -4.854143e-001 4.465051e-005 6.067379e-005 9.933773e-001 -2.605962e-001
340470000 -4.636647e-005 -5.918591e-005 7.502393e-001 -5.068867e-001 2.303988e-005 -4.746799e-005 9.927204e-001 -2.623931e-001
340755000 -3.382942e-005 1.934483e-006 7.293478e-001 -5.280154e-001 -3.281412e-006 -7.871219e-006 9.923990e-001 -2.625619e-001
341040000 -6.825174e-005 9.106514e-005 7.075923e-001 -5.473949e-001 -7.924666e-005 2.926265e-005 9.916090e-001 -2.627898e-001
341325000 -7.771749e-005 8.512060e-006 6.859128e-001 -5.655218e-001 -6.589115e-005 -1.106059e-005 9.922624e-001 -2.610568e-001
341610000 3.581403e-005 5.844989e-005 6.633768e-001 -5.833907e-001 1.937315e-005 2.697739e-005 9.927118e-001 -2.621890e-001
341895000 -7.909648e-005 -4.114295e-005 6.412160e-001 -6.001660e-001 -5.814840e-005 3.332716e-005 9.907437e-001 -2.629971e-001
342180000 -4.563749e-005 -4.957283e-005 6.187788e-001 -6.155750e-001 -5.760421e-005 5.444007e-005 9.921946e-001 -2.630953e-001
342465000 2.893825e-005 -5.148251e-005 5.964882e-001 -6.307856e-001 6.231037e-006 3.223632e-006 9.907534e-001 -2.647990e-001
342750000 1.661820e-005 -6.929588e-005 5.737520e-001 -6.439593e-001 -3.822675e-005 -6.134675e-005 9.927344e-001 -2.628745e-001
343035000 -4.932557e-005 -2.752841e-005 5.512807e-001 -6.576519e-001 7.604770e-005 7.273966e-005 9.907316e-001 -2.644397e-001
343320000 3.901965e-005 -3.464503e-005 5.283638e-001 -6.694269e-001 -6.409697e-005 1.663003e-005 9.907084e-001 -2.644223e-001
343605000 2.311805e-005 1.489502e-005 5.054644e-001 -6.816310e-001 1.055690e-005 1.663686e-004 9.918205e-001 -2.645273e-001
343890000 3.614746e-005 5.380174e-005 4.826428e-001 -6.922776e-001 2.747481e-005 -5.676562e-005 9.920678e-001 -2.653486e-001
