!Agilent Technologies,N5230C,SG49000117,A.08.50.07
!Agilent N5230C: A.08.50.07
!Date: Friday, May 17, 2024 03:35:55
!Correction: S11(Full 2 Port(1,2)) 
!S21(Full 2 Port(1,2)) 
!S12(Full 2 Port(1,2)) 
!S22(Full 2 Port(1,2)) 
!S2P File: Measurements: S11, S21, S12, S22:
# Hz S  MA   R 50
300000 1.005026e+000 -4.007181e-001 1.167915e-004 -5.309636e+001 3.347835e-004 -1.368620e+002 1.018750e+000 -8.220963e-001
599985 9.826218e-001 3.170174e-001 1.244419e-004 -1.628292e+002 1.537648e-004 -8.871785e+001 9.653583e-001 3.140287e-001
899970 9.973010e-001 -4.330955e-002 5.482293e-005 -5.072730e+001 6.390212e-005 1.683753e+002 9.852237e-001 -4.418340e-001
1199955 9.980102e-001 -7.935042e-002 3.222392e-005 1.568613e+002 9.803533e-005 -1.034541e+002 9.950765e-001 -2.218895e-001
1499940 9.938439e-001 1.429270e-001 2.153209e-005 1.030921e+002 1.945315e-004 1.548675e+002 9.915061e-001 1.211086e-002
1799925 9.919452e-001 2.043268e-001 7.491792e-005 -9.836405e+001 1.805529e-004 1.031986e+002 9.904301e-001 -3.102177e-002
2099910 9.984969e-001 2.837477e-003 1.540694e-004 -1.425404e+002 2.685413e-005 -1.196971e+002 9.977171e-001 -2.457809e-002
2399895 9.994162e-001 -1.102907e-001 1.060267e-004 5.528957e+001 1.709828e-004 1.450346e+002 1.002658e+000 -1.102461e-001
2699880 9.994404e-001 -2.294417e-001 1.464264e-004 -4.632777e+001 2.173660e-004 1.791663e+002 9.946198e-001 -2.555363e-001
2999865 9.996935e-001 -1.166242e-001 1.264010e-004 3.606820e+001 1.513201e-004 5.050338e+001 9.986803e-001 -2.610700e-001
3299850 1.000253e+000 -1.315962e-001 5.786565e-005 1.488954e+002 4.001081e-005 7.482420e+001 9.965422e-001 -2.693357e-001
3599835 1.000231e+000 -1.345595e-001 4.432768e-005 4.141996e+001 1.257371e-004 -3.038968e+001 9.974966e-001 -3.331711e-001
3899820 9.996031e-001 -1.175816e-001 9.312606e-005 -1.515366e+002 1.647618e-004 6.428141e+001 9.989702e-001 -2.511336e-001
4199805 1.000551e+000 -1.865380e-001 4.136533e-005 -1.469566e+002 2.187570e-004 1.759815e+002 9.992514e-001 -3.822589e-001
4499790 1.000195e+000 -1.555956e-001 2.502955e-005 -8.199107e+000 8.118947e-005 -8.315678e+001 9.989018e-001 -3.300669e-001
4799775 1.000605e+000 -1.557591e-001 9.937272e-005 -1.069694e+002 5.666629e-005 -1.362518e+002 1.000158e+000 -3.883755e-001
5099760 1.000702e+000 -1.274455e-001 3.886911e-005 -2.155796e+001 2.717613e-004 -1.126239e+002 9.998161e-001 -3.191782e-001
5399745 1.000295e+000 -1.296983e-001 3.054157e-005 -8.300545e+000 1.319761e-004 9.987599e+001 9.995779e-001 -2.884499e-001
5699730 1.000356e+000 -1.025058e-001 7.270824e-005 6.653570e+001 1.466430e-004 1.170343e+002 1.001947e+000 -2.967845e-001
5999715 9.993700e-001 -9.633906e-002 3.088958e-005 -7.391768e+001 2.414053e-004 1.076568e+002 1.000885e+000 -3.290543e-001
6299700 9.996780e-001 -8.321486e-002 1.033677e-004 -3.646725e+001 3.279495e-005 -1.724406e+002 9.992883e-001 -3.740011e-001
6599685 9.996009e-001 -1.211509e-001 3.734752e-005 -9.098267e+001 6.337884e-005 1.784057e+002 1.000325e+000 -4.264832e-001
6899670 9.994597e-001 -1.415628e-001 4.341296e-005 -6.723342e+001 1.301760e-004 -8.629850e+001 9.986503e-001 -4.102516e-001
7199655 1.000035e+000 -1.459583e-001 2.509381e-005 1.756936e+002 1.835195e-004 -5.349371e+001 1.000147e+000 -4.103492e-001
7499640 9.999760e-001 -1.796721e-001 1.007211e-004 5.118237e+001 1.536768e-004 -2.687536e+001 9.997559e-001 -4.914802e-001
7799625 1.000456e+000 -1.368030e-001 2.560576e-005 7.543835e+000 3.600432e-004 -1.670649e+002 9.979792e-001 -4.529535e-001
8099610 1.000075e+000 -1.576320e-001 8.190495e-005 -8.876469e+001 4.213571e-005 -8.662218e+001 9.994374e-001 -4.584541e-001
8399595 9.999712e-001 -1.286497e-001 9.834711e-005 1.206101e+002 1.171127e-004 1.471460e+002 9.985339e-001 -5.020903e-001
8699580 9.997525e-001 -1.511857e-001 1.269576e-005 5.135033e+001 9.572131e-005 1.000850e+002 9.989062e-001 -5.222329e-001
8999565 1.000093e+000 -1.487314e-001 3.979787e-005 1.439997e+002 8.818576e-005 1.157170e+002 9.988588e-001 -5.107344e-001
9299550 1.000215e+000 -1.733263e-001 1.018854e-004 1.178250e+002 7.478844e-005 -4.977114e+001 9.985169e-001 -4.370803e-001
9599535 9.998677e-001 -1.926030e-001 2.101813e-005 9.315452e+001 5.906750e-005 -1.531618e+002 9.975752e-001 -6.364641e-001
9899520 9.996017e-001 -2.675919e-001 2.009038e-005 1.649608e+002 1.454605e-004 1.353447e+002 9.960676e-001 -7.680824e-001
10199505 9.994759e-001 -1.223974e-001 7.572499e-006 1.110860e+002 1.326946e-004 -8.540549e+001 9.987699e-001 -5.098361e-001
10499490 9.997576e-001 -1.464316e-001 6.377749e-005 4.967352e+001 1.643615e-004 -1.502962e+002 9.979642e-001 -5.208184e-001
10799475 1.000062e+000 -1.428354e-001 4.413108e-005 -1.272492e+002 9.864757e-005 -1.799046e+002 9.993920e-001 -4.934452e-001
11099460 1.000271e+000 -1.270311e-001 6.332449e-005 -1.568583e+002 7.223748e-005 -8.007278e+001 9.985911e-001 -5.230479e-001
11399445 1.000224e+000 -1.392199e-001 2.979123e-005 3.119915e+001 3.935450e-005 -1.601514e+002 9.985338e-001 -5.639364e-001
11699430 9.997655e-001 -1.410132e-001 1.119694e-004 6.796504e+001 1.405821e-004 1.071165e+002 9.988766e-001 -5.145897e-001
11999415 1.000034e+000 -1.609714e-001 1.053470e-004 1.579572e+002 5.674302e-006 1.177531e+002 9.997263e-001 -5.213236e-001
12299400 9.999251e-001 -1.320864e-001 7.650269e-005 6.077339e+001 1.339640e-004 1.266775e+002 1.000738e+000 -5.193001e-001
12599385 1.000313e+000 -1.547008e-001 2.286264e-005 1.193713e+002 7.060685e-005 -1.363421e+001 1.000333e+000 -6.057279e-001
12899370 1.000268e+000 -1.979767e-001 2.455341e-005 -1.650934e+002 1.900882e-004 -1.460026e+002 9.990337e-001 -7.274168e-001
13199355 1.000395e+000 -2.227338e-001 9.192392e-006 -8.822874e+001 1.047829e-004 -1.267853e+002 9.983355e-001 -6.520189e-001
13499340 1.000030e+000 -1.809745e-001 2.833690e-005 1.794012e+001 3.278128e-004 1.353208e+002 9.980344e-001 -6.168868e-001
13799325 1.000346e+000 -2.133085e-001 1.438256e-004 -3.684395e+001 4.323282e-004 -3.270600e+001 9.976094e-001 -5.838163e-001
14099310 9.998112e-001 -2.139271e-001 1.142977e-004 1.542421e+002 3.652831e-004 1.432396e+002 9.985538e-001 -6.734170e-001
14399295 1.000184e+000 -2.049592e-001 1.139698e-004 -1.437689e+002 2.209235e-004 -6.416023e+001 9.999787e-001 -6.048353e-001
14699280 1.000110e+000 -1.807947e-001 1.965592e-005 6.048861e+001 1.502078e-004 6.783646e+001 9.990058e-001 -6.616750e-001
14999265 9.996021e-001 -1.995621e-001 5.782980e-005 4.595156e+001 4.734019e-005 9.817158e+000 9.990732e-001 -7.167274e-001
15299250 9.996629e-001 -2.207820e-001 1.405757e-005 2.170958e+001 2.358858e-004 1.224568e+002 9.990539e-001 -6.795629e-001
15599235 9.998918e-001 -1.647931e-001 2.289030e-005 1.047130e+002 2.380017e-004 -6.034846e+001 9.989985e-001 -6.581263e-001
15899220 1.000083e+000 -1.899018e-001 2.156815e-005 5.334178e+001 2.251996e-004 9.800577e+001 1.000210e+000 -7.053304e-001
16199205 1.000389e+000 -1.762623e-001 5.308438e-005 6.099237e+001 2.011798e-004 -6.327472e+001 9.998816e-001 -6.861065e-001
16499190 1.000025e+000 -1.993437e-001 2.687188e-005 -1.532789e+002 3.659496e-004 1.615394e+002 1.001470e+000 -6.880432e-001
16799175 9.996257e-001 -1.516376e-001 1.226644e-004 -5.317838e+001 7.048434e-005 -2.641925e+001 1.001214e+000 -6.825322e-001
17099160 9.996090e-001 -2.160292e-001 1.409059e-004 9.560838e+001 3.130200e-005 -1.126662e+002 1.001060e+000 -8.072040e-001
17399145 1.000553e+000 -2.531369e-001 6.024660e-005 -9.452530e+001 1.372354e-004 -1.073097e+002 1.000605e+000 -7.245463e-001
17699130 1.000081e+000 -2.286316e-001 3.295532e-005 1.404409e+002 2.586609e-004 1.209720e+002 9.991118e-001 -7.435448e-001
17999115 1.000075e+000 -1.858474e-001 9.088350e-006 8.407045e+000 3.827936e-004 -6.861736e+001 9.989280e-001 -8.004034e-001
18299100 1.000221e+000 -2.035145e-001 4.647595e-005 1.786292e+002 1.888332e-004 -4.237093e+001 9.991653e-001 -7.984418e-001
18599085 1.000467e+000 -2.250602e-001 3.875499e-005 1.642747e+002 1.399122e-004 -7.846500e+001 1.000536e+000 -8.145347e-001
18899070 1.000553e+000 -2.156294e-001 8.249695e-005 9.325187e+001 8.177762e-005 8.734274e+001 9.990711e-001 -7.613567e-001
19199055 1.000746e+000 -2.192434e-001 7.715310e-005 1.095074e+002 1.859474e-004 -1.357012e+002 9.981311e-001 -7.637617e-001
19499040 1.000604e+000 -2.253133e-001 1.013276e-004 1.639032e+002 1.090396e-004 5.568442e+001 9.977446e-001 -8.021373e-001
19799025 1.000532e+000 -2.311840e-001 8.414106e-005 3.799987e+001 2.188979e-004 -1.086607e+002 9.973313e-001 -8.035234e-001
20099010 9.998598e-001 -2.137180e-001 9.756767e-005 1.520188e+002 2.881003e-005 -7.510387e+001 9.983199e-001 -8.249018e-001
20398995 1.000127e+000 -2.356486e-001 8.804579e-005 2.649275e+001 6.767148e-006 -1.581994e+002 9.980483e-001 -8.243123e-001
20698980 9.999639e-001 -2.064340e-001 4.726505e-005 -3.322638e+001 3.921798e-004 7.751298e+001 9.983010e-001 -9.126223e-001
20998965 9.998980e-001 -2.279392e-001 5.833284e-005 -8.793079e+001 3.360852e-004 -6.369236e+001 9.983404e-001 -8.746303e-001
21298950 9.995704e-001 -2.244359e-001 1.009948e-004 -8.852061e+001 1.666344e-004 1.415798e+002 9.982816e-001 -7.960121e-001
21598935 9.996275e-001 -2.516094e-001 2.380215e-005 1.533118e+002 7.676092e-005 2.260622e+001 9.974924e-001 -8.779029e-001
21898920 9.999018e-001 -2.936501e-001 1.233851e-004 3.150749e+001 5.414710e-005 -7.613422e+001 9.990013e-001 -8.871492e-001
22198905 9.998561e-001 -2.526243e-001 4.271066e-005 8.134110e+001 2.731205e-004 -4.715154e+001 9.986106e-001 -9.255458e-001
22498890 9.998814e-001 -2.388257e-001 9.287598e-005 9.374065e+001 1.772855e-004 9.616452e+001 9.981148e-001 -9.061555e-001
22798875 1.000900e+000 -2.099320e-001 9.723299e-005 -4.247658e+001 1.090715e-004 -1.163192e+002 9.994162e-001 -9.080876e-001
23098860 9.999420e-001 -2.614818e-001 1.740398e-004 -9.924728e+001 9.958012e-005 7.432825e+001 9.995938e-001 -9.249318e-001
23398845 1.000327e+000 -2.317480e-001 6.810080e-005 -1.681883e+002 9.426779e-005 -1.727869e+002 9.995244e-001 -1.008132e+000
23698830 1.000342e+000 -2.577410e-001 1.139298e-004 -7.892157e+001 4.554063e-004 4.846238e+001 9.989234e-001 -1.049987e+000
23998815 1.000577e+000 -2.804226e-001 6.791826e-005 -1.439738e+002 4.535872e-005 -3.836816e+001 9.984391e-001 -8.999109e-001
24298800 1.000451e+000 -3.001283e-001 7.147863e-005 -7.716935e+001 3.118067e-004 1.639199e+002 9.975345e-001 -9.969709e-001
24598785 1.000129e+000 -2.581151e-001 5.005871e-005 -1.262907e+002 1.437607e-004 -1.097911e+002 9.973684e-001 -9.665871e-001
24898770 1.000117e+000 -2.976569e-001 9.202312e-005 -5.368242e+001 8.644450e-005 -1.188916e+001 9.992911e-001 -1.040754e+000
25198755 1.000606e+000 -2.888476e-001 5.135850e-005 7.125699e+001 1.897114e-004 -7.687747e+001 9.982169e-001 -1.001286e+000
25498740 1.000483e+000 -2.908225e-001 3.778405e-005 3.646046e+000 1.283910e-004 5.980984e+001 9.970304e-001 -1.020650e+000
25798725 1.000945e+000 -2.867487e-001 3.666948e-005 7.867226e+000 3.130327e-004 -2.258787e+001 9.988920e-001 -1.142759e+000
26098710 1.000253e+000 -2.923207e-001 6.895285e-005 1.571757e+002 2.170354e-004 3.565176e+001 9.992715e-001 -1.100970e+000
26398695 1.001367e+000 -3.048796e-001 1.313214e-004 1.850785e+001 1.400745e-004 -1.411411e+002 9.996489e-001 -1.047612e+000
26698680 1.000067e+000 -2.971450e-001 8.429462e-005 -5.279955e+001 5.116258e-005 1.555218e+002 9.994583e-001 -1.156800e+000
26998665 1.000546e+000 -2.653455e-001 7.407115e-005 8.292356e+001 3.152826e-004 2.102504e+001 9.989583e-001 -1.034252e+000
27298650 1.000233e+000 -2.683750e-001 6.645874e-005 7.270684e+000 2.662741e-004 1.199320e+002 9.988391e-001 -1.198536e+000
27598635 9.998707e-001 -3.015710e-001 1.045725e-004 1.283654e+002 1.536037e-004 -5.649472e+001 9.999752e-001 -1.105173e+000
27898620 9.998192e-001 -2.996855e-001 5.903524e-005 -1.413581e+000 3.048291e-004 1.437469e+002 9.992003e-001 -1.155766e+000
28198605 1.000380e+000 -3.189315e-001 7.330343e-005 -8.864100e+001 2.576745e-004 8.544164e+001 9.990230e-001 -1.216671e+000
28498590 1.000187e+000 -3.335609e-001 4.633535e-005 -5.531468e+001 1.531188e-004 1.646075e+002 9.993249e-001 -1.183205e+000
28798575 1.000458e+000 -3.583917e-001 1.040306e-004 -1.149750e+002 1.964556e-004 3.303480e+001 9.983118e-001 -1.236674e+000
29098560 9.999966e-001 -3.234703e-001 9.226579e-005 -5.952095e+001 8.839621e-005 -1.194474e+002 9.987915e-001 -1.195293e+000
29398545 1.000256e+000 -3.161022e-001 4.250200e-005 9.461022e+001 2.431376e-004 1.173343e+001 9.999033e-001 -1.091858e+000
29698530 1.000091e+000 -2.986912e-001 1.765230e-004 1.576096e+002 2.121456e-004 -1.782585e+002 1.000483e+000 -1.204132e+000
29998515 1.000750e+000 -3.254135e-001 2.517136e-005 -1.262439e+002 1.622537e-004 3.459420e+001 9.996860e-001 -1.221410e+000
30298500 1.000197e+000 -3.376878e-001 1.482817e-004 1.101509e+002 2.550792e-004 -7.020322e+001 1.000216e+000 -1.232201e+000
30598485 1.000507e+000 -3.259923e-001 9.452311e-005 2.414482e+001 1.588557e-004 5.489146e+001 9.982252e-001 -1.191050e+000
30898470 1.000478e+000 -2.893618e-001 4.188081e-005 -6.881852e+001 1.298602e-004 1.700680e+002 9.984450e-001 -1.333956e+000
31198455 1.000742e+000 -3.023953e-001 5.899896e-005 -1.295239e+002 2.897723e-004 4.647968e+001 9.977659e-001 -1.181930e+000
31498440 9.999104e-001 -3.706529e-001 1.242542e-004 -2.494651e+001 2.681115e-004 1.445391e+002 9.997690e-001 -1.255761e+000
31798425 1.000957e+000 -3.850236e-001 1.097764e-005 -1.715740e+002 1.514411e-004 -4.780119e+001 1.000253e+000 -1.247817e+000
32098410 1.000315e+000 -3.898264e-001 1.848606e-004 -1.166017e+002 3.558117e-005 -7.550510e+001 9.996382e-001 -1.252064e+000
32398395 1.000574e+000 -3.232633e-001 3.983012e-005 1.732507e+002 1.502458e-004 -5.711680e+001 1.000735e+000 -1.232271e+000
32698380 1.000748e+000 -3.593726e-001 9.117651e-005 -1.217318e+002 1.711286e-004 1.365968e+002 9.994243e-001 -1.235307e+000
32998365 1.000666e+000 -3.699464e-001 7.840871e-005 1.351349e+002 1.167748e-004 -6.278569e+001 9.981286e-001 -1.288149e+000
33298350 9.996597e-001 -3.876962e-001 7.126242e-005 -9.167278e+001 2.075543e-004 -1.070689e+002 9.988691e-001 -1.325395e+000
33598335 1.000001e+000 -3.534567e-001 1.306914e-004 1.579782e+002 8.170196e-005 1.651180e+002 9.990811e-001 -1.300137e+000
33898320 9.995235e-001 -3.329440e-001 7.555598e-005 -2.413858e+001 1.008941e-004 1.448891e+002 9.990836e-001 -1.302956e+000
34198305 1.000506e+000 -4.076080e-001 2.182432e-005 6.584917e+001 1.196366e-004 -7.239975e+000 9.984289e-001 -1.359156e+000
34498290 1.000262e+000 -3.607908e-001 1.021750e-004 1.175968e+001 1.287871e-004 -1.443487e+002 9.977867e-001 -1.345615e+000
34798275 9.999168e-001 -4.085920e-001 1.044104e-004 -1.243095e+002 1.188444e-004 -2.305654e+001 9.982846e-001 -1.379306e+000
35098260 9.999841e-001 -3.950840e-001 5.190372e-005 -7.889006e+000 9.744056e-005 1.511297e+002 9.986449e-001 -1.373455e+000
35398245 1.000763e+000 -4.360307e-001 3.102097e-005 -1.534397e+002 7.940583e-005 -8.568471e+001 9.995317e-001 -1.371400e+000
35698230 9.996943e-001 -4.095415e-001 6.778887e-005 8.738124e+001 2.913768e-004 1.752237e+002 9.996055e-001 -1.390088e+000
35998215 9.999403e-001 -3.571851e-001 1.233122e-004 1.592337e+002 1.542210e-004 4.447055e+001 9.993083e-001 -1.410758e+000
36298200 1.000255e+000 -3.968903e-001 2.313970e-005 -1.640504e+002 1.209940e-004 -7.120597e+001 9.990097e-001 -1.456188e+000
36598185 1.000912e+000 -4.047163e-001 2.946097e-005 8.231593e+001 9.638263e-005 5.676805e+001 9.983096e-001 -1.467180e+000
36898170 1.000413e+000 -3.810392e-001 1.379838e-004 -1.419625e+001 2.706438e-004 -1.588036e+002 9.990779e-001 -1.504125e+000
37198155 1.000498e+000 -3.846291e-001 1.416039e-004 -1.404917e+002 7.857502e-005 6.202146e+000 9.990987e-001 -1.477765e+000
37498140 1.000879e+000 -3.783762e-001 7.735251e-005 -1.341219e+002 1.135396e-004 -1.609503e+002 9.992875e-001 -1.473564e+000
37798125 9.999450e-001 -3.950014e-001 9.670912e-005 3.426883e+001 2.378612e-004 4.448480e+001 9.986777e-001 -1.518014e+000
38098110 9.997319e-001 -3.949199e-001 1.128230e-004 1.454055e+002 8.660032e-005 1.543122e+002 9.988700e-001 -1.478255e+000
38398095 9.992781e-001 -3.591760e-001 6.936237e-005 1.534401e+002 8.240617e-005 -4.670560e+001 9.985984e-001 -1.561047e+000
38698080 1.000744e+000 -3.880135e-001 5.520377e-005 7.224292e+001 4.670413e-005 4.075908e+001 9.982588e-001 -1.541677e+000
38998065 1.000450e+000 -4.078812e-001 2.252947e-005 1.776044e+002 9.914292e-005 1.099592e+002 9.983165e-001 -1.538520e+000
39298050 1.000912e+000 -4.158256e-001 1.505888e-004 3.064739e+001 1.568355e-004 -1.185857e+002 9.973187e-001 -1.510127e+000
39598035 1.001182e+000 -3.851052e-001 7.299874e-005 7.762423e+001 2.401876e-004 -3.493732e+001 9.990873e-001 -1.464837e+000
39898020 1.000816e+000 -3.826255e-001 2.313047e-005 -7.377848e+001 7.396699e-005 -1.352139e+002 1.000678e+000 -1.420497e+000
40198005 1.001005e+000 -4.323531e-001 1.285588e-004 -3.444297e+001 1.159541e-004 -2.250002e+001 9.997258e-001 -1.617825e+000
40497990 9.995477e-001 -4.260468e-001 1.782929e-004 -1.544330e+002 3.085666e-004 1.102649e+002 9.983345e-001 -1.540469e+000
40797975 1.000488e+000 -4.152056e-001 1.422543e-004 -1.003272e+002 2.759038e-004 1.524310e+002 1.000682e+000 -1.608960e+000
41097960 1.000046e+000 -4.194102e-001 1.108608e-004 -1.241525e+002 1.923480e-004 1.263384e+002 1.000230e+000 -1.610253e+000
41397945 1.000133e+000 -3.315367e-001 1.926030e-004 -3.310480e+001 8.392248e-005 1.706056e+002 1.002028e+000 -1.603938e+000
41697930 9.996892e-001 -3.630447e-001 1.464342e-004 1.132763e+002 1.025180e-004 -2.112473e+001 1.001383e+000 -1.578071e+000
41997915 1.000268e+000 -3.301136e-001 1.563525e-004 1.805050e+001 1.069081e-004 1.033252e+002 9.992713e-001 -1.530254e+000
42297900 1.001220e+000 -3.776045e-001 3.635716e-005 7.849691e+000 1.501280e-004 1.100446e+002 9.990422e-001 -1.610210e+000
42597885 1.000349e+000 -4.238893e-001 4.155511e-005 1.383283e+002 1.826794e-004 -1.677242e+001 9.987302e-001 -1.638898e+000
42897870 1.001053e+000 -3.881157e-001 2.781264e-004 1.488714e+002 1.195013e-004 6.476771e+001 1.000095e+000 -1.608091e+000
43197855 1.001645e+000 -4.795682e-001 2.778179e-005 -1.214555e+002 3.354556e-004 -1.265423e+002 9.982396e-001 -1.703323e+000
43497840 9.999786e-001 -4.992616e-001 1.789281e-004 -1.385119e+002 3.270123e-004 2.149507e+001 9.992169e-001 -1.725287e+000
43797825 1.000514e+000 -4.544130e-001 3.338796e-005 7.851083e+001 3.530773e-004 -1.534439e+002 9.991851e-001 -1.751184e+000
44097810 1.000660e+000 -4.155443e-001 1.071198e-004 1.142884e+002 2.431493e-004 -5.008637e+001 9.983946e-001 -1.846086e+000
44397795 1.000025e+000 -4.446812e-001 6.212830e-005 -1.568529e+002 9.941593e-005 9.865871e+001 1.000367e+000 -1.842063e+000
44697780 1.001065e+000 -4.590413e-001 3.470984e-005 -9.252347e+001 1.134645e-004 -5.534658e+001 1.000414e+000 -1.770390e+000
44997765 1.001489e+000 -4.903482e-001 2.242055e-004 5.951673e+001 2.996478e-004 -1.021178e+002 1.000735e+000 -1.802310e+000
45297750 1.001145e+000 -4.633629e-001 1.165397e-004 -1.179959e+002 3.526717e-004 -1.082054e+002 1.001873e+000 -1.743482e+000
45597735 1.000848e+000 -4.648674e-001 6.573538e-005 1.234617e+002 3.204331e-004 -6.471074e+001 1.001497e+000 -1.776161e+000
45897720 1.001069e+000 -4.523103e-001 7.364101e-005 1.315323e+002 3.383689e-004 1.564467e+002 1.000977e+000 -1.864489e+000
46197705 1.001608e+000 -4.831620e-001 8.674244e-005 -9.005340e+001 1.154077e-004 1.399301e+002 1.000604e+000 -1.827496e+000
46497690 1.001143e+000 -4.883008e-001 1.383585e-004 1.531108e+002 6.176857e-005 -3.529182e+001 1.000024e+000 -1.788885e+000
46797675 9.999208e-001 -4.479905e-001 1.602760e-004 1.678944e+002 2.000967e-004 9.145219e+001 1.000261e+000 -1.791066e+000
47097660 1.001401e+000 -5.139402e-001 2.588583e-004 -1.206486e+002 1.495930e-004 7.426296e-001 9.988445e-001 -1.878189e+000
47397645 1.001550e+000 -5.089490e-001 1.150583e-004 -1.103624e+002 1.685593e-005 1.075875e+002 9.989920e-001 -2.009612e+000
