!Agilent Technologies,N5230C,SG49000117,A.08.50.07
!Agilent N5230C: A.08.50.07
!Date: Friday, May 17, 2024 03:34:48
!Correction: S11(Full 2 Port(1,2)) 
!S21(Full 2 Port(1,2)) 
!S12(Full 2 Port(1,2)) 
!S22(Full 2 Port(1,2)) 
!S2P File: Measurements: S11, S21, S12, S22:
# Hz S  MA   R 50
300000 1.005660e+000 -5.209432e-001 1.301035e-004 -1.238549e+002 2.044006e-004 -1.085573e+002 1.016312e+000 -1.063961e+000
599985 9.829890e-001 3.394288e-001 1.279522e-005 9.866650e+001 1.562852e-004 -1.196907e+002 9.660800e-001 3.101121e-001
899970 9.976255e-001 -6.396590e-002 4.999791e-005 1.595966e+002 2.381634e-004 -1.001725e+001 9.854678e-001 -5.101524e-001
1199955 9.979827e-001 -6.861074e-002 8.336129e-005 2.319586e+001 1.464665e-004 -5.342132e+001 9.954692e-001 -2.879720e-001
1499940 9.945382e-001 1.457112e-001 5.357906e-005 8.830476e+001 1.059255e-004 3.008062e+001 9.931504e-001 4.151244e-002
1799925 9.920675e-001 2.352063e-001 1.103241e-004 -4.847775e+000 8.555709e-005 -1.336891e+002 9.905335e-001 -4.105779e-002
2099910 9.986038e-001 -4.582266e-003 8.892541e-005 7.719703e+001 1.320993e-004 -1.033353e+001 9.984840e-001 -7.643662e-002
2399895 9.992840e-001 -1.122631e-001 5.455982e-005 9.109687e+001 1.602309e-004 1.228702e+002 1.002631e+000 -9.271186e-002
2699880 9.998052e-001 -2.555454e-001 9.079833e-005 -1.657368e+002 1.127128e-004 -8.798281e+001 9.959541e-001 -3.141873e-001
2999865 9.997503e-001 -1.384964e-001 6.791308e-005 -1.137825e+002 3.189419e-005 -3.316164e+001 9.982653e-001 -2.691357e-001
3299850 1.000399e+000 -1.325020e-001 7.837366e-005 1.240746e+002 1.002535e-004 -7.279496e+000 9.982578e-001 -3.297143e-001
3599835 1.000222e+000 -1.168763e-001 8.890033e-005 2.406668e+001 3.198468e-004 1.680606e+002 9.983971e-001 -3.255217e-001
3899820 9.996969e-001 -1.066325e-001 5.989691e-005 1.934525e+001 1.884651e-004 -1.677448e+002 9.974733e-001 -2.972905e-001
4199805 1.000626e+000 -1.847339e-001 9.051530e-005 -7.913535e+001 1.193818e-004 -4.417382e+001 9.993851e-001 -3.906964e-001
4499790 1.000341e+000 -1.663086e-001 2.591627e-005 9.986246e+001 9.652866e-005 -1.563157e+002 9.989468e-001 -3.558196e-001
4799775 1.000195e+000 -1.454742e-001 6.103468e-005 1.063022e+002 2.241962e-004 -5.247111e+001 9.995271e-001 -3.411697e-001
5099760 1.000256e+000 -1.347144e-001 1.471311e-004 7.666566e+001 2.631690e-004 1.209699e+002 1.001280e+000 -3.941818e-001
5399745 1.000709e+000 -1.323166e-001 9.442718e-005 -5.076170e+001 1.647901e-004 1.191601e+002 1.000026e+000 -2.115687e-001
5699730 1.000388e+000 -1.095994e-001 5.929022e-005 -3.415182e+001 4.995713e-005 1.366558e+002 1.000733e+000 -3.684502e-001
5999715 9.994621e-001 -9.313242e-002 4.009163e-005 -1.687379e+002 1.003641e-004 -8.604317e+001 1.000693e+000 -3.171321e-001
6299700 1.000287e+000 -1.140888e-001 9.159042e-005 6.938229e+001 5.001606e-006 6.371596e+001 9.999124e-001 -3.538716e-001
6599685 9.997849e-001 -1.280783e-001 3.434780e-005 2.299236e+001 2.360791e-004 -3.569946e+001 1.000558e+000 -4.148559e-001
6899670 9.993376e-001 -1.369783e-001 1.698854e-005 -4.229022e+001 6.472989e-005 7.948727e+001 1.000711e+000 -4.094989e-001
7199655 9.996461e-001 -1.326616e-001 8.772022e-005 -3.915433e+001 1.635598e-004 -6.145046e+001 9.998527e-001 -4.232582e-001
7499640 9.997258e-001 -1.658987e-001 1.638591e-004 -1.362692e+000 1.567077e-004 -1.707586e+002 9.997257e-001 -5.451348e-001
7799625 1.000210e+000 -1.657801e-001 4.581590e-005 1.760416e+002 1.849256e-004 1.398575e+002 9.979112e-001 -4.537904e-001
8099610 1.000077e+000 -1.411475e-001 6.794422e-005 -1.458356e+002 1.799488e-004 -1.113158e+002 9.992326e-001 -5.143165e-001
8399595 9.999560e-001 -1.387151e-001 7.192831e-005 1.492657e+002 1.922534e-004 1.264165e+002 9.986156e-001 -4.683058e-001
8699580 9.999557e-001 -1.641182e-001 9.898224e-005 1.348279e+002 1.913278e-004 -4.829817e+001 9.995680e-001 -5.080985e-001
8999565 1.000217e+000 -1.492020e-001 7.424426e-005 -4.057997e+000 4.480828e-005 -1.756608e+002 9.997869e-001 -4.889488e-001
9299550 1.000105e+000 -1.604571e-001 6.634087e-005 -9.851850e+001 8.232683e-005 7.162472e+001 9.985346e-001 -4.818534e-001
9599535 1.000037e+000 -2.075265e-001 8.089250e-005 -1.193152e+002 3.630384e-005 -9.763651e+001 9.973918e-001 -6.221129e-001
9899520 1.000061e+000 -2.411773e-001 6.568671e-005 -1.236778e+002 1.794757e-004 -2.206994e+001 9.958714e-001 -7.268541e-001
10199505 1.001104e+000 -1.585181e-001 8.573726e-005 5.044516e+000 1.428265e-004 1.442955e+002 9.996544e-001 -4.994270e-001
10499490 9.999366e-001 -1.538906e-001 2.482813e-005 -1.571457e+002 1.585953e-004 -5.080449e+001 9.986835e-001 -4.993078e-001
10799475 9.993690e-001 -1.190852e-001 5.550497e-005 -1.420995e+002 1.880822e-004 1.651672e+002 9.994251e-001 -4.794370e-001
11099460 9.999200e-001 -1.405033e-001 4.977162e-005 7.907018e+001 2.171526e-004 1.119269e+002 9.992977e-001 -5.543703e-001
11399445 1.000648e+000 -1.344262e-001 2.710480e-005 -1.401268e+002 1.024933e-004 1.239930e+002 9.989856e-001 -5.314045e-001
11699430 1.000082e+000 -1.679825e-001 5.375721e-005 -5.153008e+001 1.869991e-004 1.640365e+002 9.987566e-001 -5.803520e-001
11999415 1.000091e+000 -1.612526e-001 7.521013e-005 -7.373203e+001 2.433456e-004 7.350509e+001 9.999728e-001 -5.866923e-001
12299400 1.000458e+000 -1.606691e-001 1.318338e-004 4.380445e+001 2.089432e-004 -2.715546e+001 1.000111e+000 -5.646642e-001
12599385 9.999362e-001 -1.811552e-001 1.076872e-004 1.512663e+002 1.514898e-004 -1.331255e+002 9.991955e-001 -6.491828e-001
12899370 1.000856e+000 -1.986758e-001 1.211291e-005 -1.398024e+002 1.424362e-004 -2.432928e+001 9.989415e-001 -7.675179e-001
13199355 1.000244e+000 -2.037395e-001 8.754748e-005 1.305563e+001 6.341517e-005 1.613878e+002 9.984088e-001 -7.124353e-001
13499340 1.000211e+000 -2.142898e-001 1.915377e-005 1.657050e+002 1.675992e-004 1.777034e+002 9.976870e-001 -6.165738e-001
13799325 1.000037e+000 -2.143520e-001 1.133679e-004 -1.684208e+002 1.132980e-004 -3.025422e+001 9.968949e-001 -6.654584e-001
14099310 1.000256e+000 -1.999958e-001 8.790281e-005 6.707672e+001 1.374236e-004 -1.634448e+002 9.988664e-001 -7.052791e-001
14399295 1.000391e+000 -1.975688e-001 9.176073e-005 -5.768043e+000 2.448552e-004 -7.137621e+001 1.000486e+000 -6.868626e-001
14699280 9.997197e-001 -2.172703e-001 6.446635e-005 6.693665e+001 2.589818e-004 -1.783508e+002 1.000301e+000 -6.972023e-001
14999265 9.999157e-001 -1.806134e-001 9.167951e-005 9.884052e+001 3.403302e-005 -7.407089e+001 9.986091e-001 -7.727817e-001
15299250 1.000330e+000 -2.020876e-001 8.280320e-006 -1.780277e+002 2.458345e-004 6.587807e+001 9.988811e-001 -6.738868e-001
15599235 1.000468e+000 -1.805978e-001 1.283517e-004 1.304597e+002 2.880832e-004 -1.327530e+002 9.986106e-001 -7.403169e-001
15899220 1.000466e+000 -2.104087e-001 4.225632e-005 -3.382647e+001 1.877325e-004 1.422333e+001 9.988732e-001 -7.480103e-001
16199205 9.999285e-001 -1.434266e-001 1.142426e-004 1.018548e+002 1.221712e-004 1.459073e+002 1.000158e+000 -7.722011e-001
16499190 1.000349e+000 -1.731134e-001 3.716798e-005 -1.379193e+002 2.632910e-004 3.822121e+001 1.000588e+000 -6.743407e-001
16799175 9.992816e-001 -1.882501e-001 5.800890e-005 9.193580e+000 2.650956e-004 1.449171e+002 1.001091e+000 -7.786888e-001
17099160 9.999754e-001 -2.191136e-001 1.358952e-004 5.865607e+000 3.852474e-004 6.501926e+000 1.001145e+000 -7.986982e-001
17399145 9.997091e-001 -1.944485e-001 7.474493e-005 -3.990744e+001 1.916243e-004 1.741108e+002 1.000916e+000 -7.781541e-001
17699130 1.000347e+000 -2.458196e-001 4.166888e-005 -7.144122e+001 9.783777e-005 5.836432e+000 9.988997e-001 -8.141163e-001
17999115 1.000316e+000 -2.305428e-001 1.038744e-004 -1.178420e+002 1.002176e-004 -1.272981e+002 9.998165e-001 -7.927907e-001
18299100 1.000072e+000 -2.110521e-001 1.466288e-005 -1.331528e+002 4.337626e-005 1.993356e+001 9.992774e-001 -8.921655e-001
18599085 9.999802e-001 -2.336956e-001 2.481024e-005 -1.654547e+000 1.348080e-004 1.591349e+002 9.988617e-001 -9.259327e-001
18899070 1.000288e+000 -2.570819e-001 7.668645e-005 1.683148e+002 1.800224e-004 -1.571953e+002 9.991832e-001 -8.201144e-001
19199055 1.000748e+000 -2.299049e-001 3.908716e-005 -4.744567e+001 6.288958e-005 -1.244506e+002 9.979157e-001 -8.429927e-001
19499040 1.000497e+000 -2.350374e-001 1.079834e-004 -1.036754e+002 1.796270e-004 1.454221e+002 9.993762e-001 -8.836645e-001
19799025 1.000624e+000 -2.609906e-001 7.337644e-005 -8.672150e+001 2.181959e-004 2.361208e+001 9.979627e-001 -8.378506e-001
20099010 9.997990e-001 -1.853472e-001 8.602280e-005 6.638225e+001 4.449777e-004 1.241251e+002 9.992469e-001 -8.328701e-001
20398995 9.997962e-001 -2.355053e-001 4.624127e-005 1.171707e+001 8.613831e-005 -3.698024e+001 9.984954e-001 -9.260411e-001
20698980 9.994097e-001 -2.287570e-001 1.051567e-004 1.402500e+001 1.213493e-004 -1.627014e+002 9.991212e-001 -9.383344e-001
20998965 9.994177e-001 -2.465119e-001 3.329107e-005 3.848053e+001 1.937363e-004 -9.853744e+001 9.985011e-001 -9.195049e-001
21298950 9.997972e-001 -1.975799e-001 4.834980e-005 1.629555e+002 2.719933e-004 -1.719055e+002 9.978122e-001 -8.828714e-001
21598935 9.992056e-001 -2.388336e-001 1.680595e-005 -6.214350e+001 1.980590e-004 -4.594548e+001 9.969695e-001 -9.339035e-001
21898920 9.997745e-001 -2.548780e-001 1.126580e-005 1.332393e+002 4.734809e-004 9.720110e+001 9.985942e-001 -9.021858e-001
22198905 9.997675e-001 -2.931282e-001 8.713696e-005 4.041540e+001 5.160783e-005 -1.359005e+002 9.988480e-001 -9.227037e-001
22498890 1.000851e+000 -2.438001e-001 1.038559e-004 -1.145596e+002 1.254172e-004 -1.224786e+002 9.999400e-001 -1.015808e+000
22798875 1.000143e+000 -2.231133e-001 8.467409e-005 1.050246e+002 2.601686e-005 -5.239927e+000 1.000749e+000 -9.805130e-001
23098860 1.000717e+000 -2.633732e-001 7.817192e-006 -1.616950e+001 1.070347e-004 9.763023e+001 9.991804e-001 -9.599025e-001
23398845 9.998946e-001 -2.783120e-001 8.196625e-005 1.636268e+002 9.518482e-005 1.676332e+002 9.995676e-001 -9.963552e-001
23698830 1.000202e+000 -3.068571e-001 4.739930e-005 -1.439837e+002 2.988646e-004 7.130937e+001 9.987823e-001 -9.948456e-001
23998815 1.000427e+000 -2.493126e-001 8.534885e-005 1.475369e+002 2.519385e-004 -1.500025e+002 9.984335e-001 -1.063497e+000
24298800 1.000338e+000 -2.728076e-001 2.621543e-005 -1.434084e+001 2.931570e-004 1.021522e+002 9.971148e-001 -1.068460e+000
24598785 1.000067e+000 -2.868679e-001 2.186468e-004 -5.474461e+001 1.372305e-004 1.624579e+002 9.993833e-001 -1.026950e+000
24898770 1.000731e+000 -3.105864e-001 1.782341e-005 -1.776123e+001 3.152901e-004 -1.226891e+002 9.994125e-001 -1.095388e+000
25198755 9.999807e-001 -2.912017e-001 5.839754e-005 5.890392e+001 3.426636e-004 1.634612e+002 9.994368e-001 -1.133000e+000
25498740 9.998053e-001 -3.153717e-001 3.704387e-005 -1.728120e+002 2.866532e-005 1.576100e+002 9.988442e-001 -1.147706e+000
25798725 1.000339e+000 -3.033426e-001 1.443266e-004 1.161430e+002 3.131405e-004 1.609857e+002 9.985048e-001 -1.194659e+000
26098710 1.000178e+000 -3.085280e-001 3.618585e-005 -9.131544e+001 5.231989e-004 -1.576398e+002 9.985008e-001 -1.155686e+000
26398695 1.000777e+000 -3.263173e-001 1.681014e-005 -1.835658e+001 1.026301e-004 7.254837e+001 1.000266e+000 -1.100396e+000
26698680 9.998920e-001 -2.745218e-001 1.885905e-005 1.642338e+002 1.569019e-004 1.720255e+002 1.000695e+000 -1.215711e+000
26998665 1.000826e+000 -2.873327e-001 1.497799e-005 -9.186949e+001 3.721804e-004 2.850589e+001 9.984884e-001 -1.101817e+000
27298650 1.000182e+000 -2.651341e-001 8.818725e-005 1.430783e+002 1.943710e-004 -1.548515e+002 9.990179e-001 -1.225850e+000
27598635 1.000473e+000 -3.098691e-001 1.934231e-005 -1.523694e+002 6.101729e-005 6.072186e+001 9.997260e-001 -1.154665e+000
27898620 1.000176e+000 -2.816179e-001 6.819139e-005 -1.635008e+002 4.046158e-005 1.787858e+002 1.001475e+000 -1.183760e+000
28198605 1.000086e+000 -2.849766e-001 9.611039e-005 1.699706e+002 8.346196e-005 -7.342473e+001 9.997796e-001 -1.221505e+000
28498590 1.000496e+000 -3.641562e-001 1.447569e-004 1.556828e+002 5.166564e-004 4.402444e+001 9.996325e-001 -1.245079e+000
28798575 9.997957e-001 -3.320881e-001 1.044479e-005 -1.156756e+002 2.177269e-004 1.441279e+002 9.984937e-001 -1.311542e+000
29098560 9.996896e-001 -2.575091e-001 8.710303e-005 2.348640e+001 1.983910e-004 -4.888554e+001 9.994268e-001 -1.269616e+000
29398545 1.000161e+000 -3.060397e-001 9.228423e-005 1.211709e+002 3.503960e-004 1.713031e+002 9.993450e-001 -1.221941e+000
29698530 1.000529e+000 -2.838748e-001 5.418522e-005 1.739416e+002 1.258930e-004 1.086477e+002 1.000639e+000 -1.273097e+000
29998515 9.998879e-001 -3.156589e-001 1.369663e-005 3.504767e+001 2.476361e-004 3.849086e+001 1.001714e+000 -1.216777e+000
30298500 1.000460e+000 -3.107222e-001 5.937101e-005 9.547688e+001 1.974061e-004 -3.589598e+001 9.999161e-001 -1.326627e+000
30598485 9.999920e-001 -3.027592e-001 7.669524e-005 1.014707e+002 2.615544e-004 5.617045e+001 9.990481e-001 -1.351605e+000
30898470 1.000080e+000 -2.819049e-001 4.942384e-005 -9.906183e+001 1.499401e-004 -1.278786e+002 9.979356e-001 -1.335663e+000
31198455 1.000552e+000 -2.997696e-001 7.726686e-005 -8.796579e+001 1.038417e-004 1.060029e+002 9.989771e-001 -1.351210e+000
31498440 1.000557e+000 -3.080010e-001 6.886730e-005 7.622054e+001 1.526628e-004 1.637768e+002 9.995587e-001 -1.347807e+000
31798425 1.000831e+000 -4.087882e-001 5.947968e-005 -2.179845e+000 1.571634e-004 -7.755451e+000 9.985672e-001 -1.271650e+000
32098410 1.000148e+000 -3.736188e-001 4.500955e-005 4.731581e+001 2.597385e-004 1.495919e+002 1.000853e+000 -1.284563e+000
32398395 1.000835e+000 -3.596273e-001 1.094097e-004 8.383849e+001 6.176122e-005 4.588176e+001 9.998938e-001 -1.323472e+000
32698380 1.000426e+000 -3.193232e-001 8.210065e-005 -8.621949e+001 1.428163e-004 1.426643e+002 9.998103e-001 -1.356136e+000
32998365 1.001093e+000 -3.744101e-001 5.755587e-005 6.745927e+001 1.249638e-004 -7.570245e+001 9.988038e-001 -1.347825e+000
33298350 1.001142e+000 -3.342972e-001 8.725251e-005 -9.111282e+001 2.055888e-004 4.650447e+001 1.000105e+000 -1.399980e+000
33598335 1.000483e+000 -3.532895e-001 1.004921e-004 -1.523030e+002 1.670982e-004 -4.670329e+001 9.983113e-001 -1.373880e+000
33898320 9.994390e-001 -3.672525e-001 4.990366e-005 5.648631e+001 3.670128e-005 -1.469552e+002 9.992892e-001 -1.399246e+000
34198305 9.999330e-001 -4.021003e-001 2.925385e-005 1.781571e+002 1.005059e-004 -1.566729e+002 9.985017e-001 -1.412719e+000
34498290 9.999641e-001 -3.945731e-001 8.189589e-005 1.392299e+002 1.898852e-004 2.005152e+001 9.979554e-001 -1.495533e+000
34798275 1.000336e+000 -3.769074e-001 6.869026e-005 5.962930e+001 1.480180e-004 1.329893e+002 9.978244e-001 -1.481120e+000
35098260 1.000259e+000 -4.165564e-001 6.808242e-005 -1.279178e+002 8.014772e-005 6.839173e-001 9.992021e-001 -1.465604e+000
35398245 9.995402e-001 -4.324261e-001 5.592854e-005 -1.477295e+002 1.375394e-004 1.627773e+002 9.999490e-001 -1.435554e+000
35698230 9.999990e-001 -4.396367e-001 1.011803e-004 5.023557e+001 3.775879e-005 1.724380e+002 9.996238e-001 -1.470270e+000
35998215 1.000263e+000 -4.207670e-001 4.057107e-005 6.666562e+001 1.449941e-004 8.824570e+001 9.994208e-001 -1.527671e+000
36298200 1.000258e+000 -3.815604e-001 5.893438e-005 1.676621e+002 1.285090e-004 3.443731e+001 1.000430e+000 -1.546819e+000
36598185 1.001173e+000 -3.808163e-001 5.955612e-005 -1.637593e+002 2.442720e-004 7.519498e+001 9.986495e-001 -1.537116e+000
36898170 1.000362e+000 -4.274377e-001 2.816839e-005 -7.088605e+001 1.314642e-004 -5.422586e+001 9.991626e-001 -1.536810e+000
37198155 1.000307e+000 -4.043494e-001 7.720284e-005 1.304707e+002 8.491132e-005 3.114631e+001 9.993119e-001 -1.557000e+000
37498140 1.000182e+000 -3.795296e-001 5.039300e-005 -5.107828e+001 4.830380e-005 -6.227135e+001 9.988127e-001 -1.548017e+000
37798125 1.000689e+000 -4.233021e-001 7.337510e-005 4.232943e+001 1.863500e-004 2.524012e+001 9.997385e-001 -1.580436e+000
38098110 1.000353e+000 -3.869123e-001 6.082920e-005 -1.766265e+002 4.132509e-005 -1.226971e+002 9.990672e-001 -1.557087e+000
38398095 1.000073e+000 -4.318885e-001 1.056123e-004 -3.417788e+001 3.879342e-005 3.920840e+001 9.986683e-001 -1.673906e+000
38698080 1.000100e+000 -4.028628e-001 7.148781e-005 1.507146e+002 1.823735e-004 -1.668691e+002 9.976848e-001 -1.627505e+000
38998065 1.000384e+000 -3.792786e-001 1.134678e-004 -5.529666e+000 1.474038e-004 8.485810e+001 9.989377e-001 -1.628089e+000
39298050 1.000434e+000 -4.018482e-001 1.316166e-004 1.509365e+001 1.537406e-004 -1.750485e+002 9.989658e-001 -1.677526e+000
39598035 1.000858e+000 -3.986079e-001 8.526734e-005 4.969272e+001 1.113725e-004 -1.024413e+002 1.000070e+000 -1.633685e+000
39898020 1.001307e+000 -3.976082e-001 3.800984e-005 1.643484e+002 7.118583e-005 -6.655553e+001 1.000007e+000 -1.542372e+000
40198005 1.000913e+000 -3.782673e-001 2.268993e-004 -3.929193e+000 3.786400e-004 1.103459e+001 1.000522e+000 -1.730250e+000
40497990 1.000545e+000 -3.961936e-001 2.052781e-004 4.591659e+001 1.456902e-004 -1.626922e+002 1.000631e+000 -1.669594e+000
40797975 1.000858e+000 -4.397701e-001 2.122685e-004 7.081770e+001 2.785918e-004 6.110490e+001 9.998204e-001 -1.716563e+000
41097960 1.000890e+000 -4.198081e-001 4.702822e-005 1.547298e+002 1.509345e-004 -7.838994e+001 1.000437e+000 -1.664757e+000
41397945 1.000354e+000 -3.573356e-001 2.019025e-004 1.168228e+002 1.844168e-004 7.348690e+001 9.997045e-001 -1.643744e+000
41697930 9.997652e-001 -3.706719e-001 1.931109e-004 7.187619e+001 2.228744e-004 1.557503e+002 9.993377e-001 -1.574217e+000
41997915 1.000010e+000 -3.919905e-001 1.318760e-004 8.008591e+001 3.218942e-004 7.592467e+001 1.000592e+000 -1.612984e+000
42297900 1.000295e+000 -3.957992e-001 2.162064e-004 -2.296598e+001 7.615074e-005 -6.821603e+001 9.980660e-001 -1.796228e+000
42597885 1.000380e+000 -3.439086e-001 8.562775e-005 -5.167361e+000 1.063453e-004 -9.407598e+001 9.996529e-001 -1.774343e+000
42897870 9.999743e-001 -4.237146e-001 2.222204e-004 -9.838834e+001 2.041921e-004 8.318392e+001 9.996761e-001 -1.822993e+000
43197855 1.001223e+000 -4.044435e-001 1.353588e-004 3.335884e+001 3.148787e-004 1.163828e+002 9.998569e-001 -1.844810e+000
43497840 1.000790e+000 -4.938478e-001 6.452794e-005 1.645896e+002 1.877828e-004 8.524919e+000 9.992668e-001 -1.840507e+000
43797825 1.000717e+000 -4.471465e-001 1.296010e-004 -2.394159e+000 3.836720e-004 -1.290517e+000 9.988127e-001 -1.783996e+000
44097810 1.000889e+000 -4.458258e-001 6.858809e-005 7.070901e+001 8.687146e-005 9.570179e+001 9.993714e-001 -1.933217e+000
44397795 9.999391e-001 -4.579345e-001 1.035697e-004 9.961737e+001 2.283220e-004 -9.084331e+001 9.994640e-001 -1.936358e+000
44697780 1.001074e+000 -4.886786e-001 1.118143e-004 -1.265455e+002 2.597552e-004 6.550035e+000 1.002698e+000 -1.918245e+000
44997765 1.001890e+000 -4.790809e-001 1.286438e-004 -3.652484e+001 2.855913e-004 1.852905e+001 9.995575e-001 -1.976127e+000
45297750 1.003136e+000 -5.209286e-001 1.499495e-004 1.663791e+001 2.477924e-004 1.389894e+002 1.001152e+000 -1.947772e+000
45597735 1.001674e+000 -4.511158e-001 6.417508e-005 2.137086e+001 1.590908e-004 6.083304e+001 9.995956e-001 -1.974637e+000
45897720 1.001684e+000 -4.957627e-001 2.958093e-004 -2.155317e+001 3.705225e-004 8.657053e+001 1.001025e+000 -1.889064e+000
46197705 1.001620e+000 -5.191057e-001 2.453408e-004 1.045556e+002 2.397212e-004 1.064432e+002 9.994507e-001 -1.925623e+000
46497690 1.002284e+000 -4.721801e-001 2.047230e-005 -8.626112e+001 1.023544e-004 9.122932e+001 1.000365e+000 -2.024795e+000
46797675 1.000868e+000 -4.768347e-001 1.311852e-004 -3.786483e+001 1.664268e-004 -3.186408e+001 9.989372e-001 -1.990311e+000
47097660 1.001107e+000 -4.853186e-001 1.598539e-004 1.318258e+001 3.888668e-005 6.920829e+001 9.990664e-001 -2.068908e+000
47397645 1.001450e+000 -5.273095e-001 1.063929e-004 1.303275e+002 2.559380e-004 -1.033519e+002 9.984946e-001 -2.022412e+000
