!Agilent Technologies,N5230C,SG49000117,A.08.50.07
!Agilent N5230C: A.08.50.07
!Date: Friday, May 17, 2024 03:33:40
!Correction: S11(Full 2 Port(1,2)) 
!S21(Full 2 Port(1,2)) 
!S12(Full 2 Port(1,2)) 
!S22(Full 2 Port(1,2)) 
!S2P File: Measurements: S11, S21, S12, S22:
# Hz S  MA   R 50
300000 1.005922e+000 -5.036469e-001 5.894488e-005 9.388416e+001 1.557493e-004 -5.297306e+001 1.013717e+000 -6.746540e-001
599985 9.823718e-001 3.566127e-001 6.377242e-005 -1.626092e+002 3.192925e-004 8.850068e+001 9.681352e-001 2.611239e-001
899970 9.971299e-001 -7.942757e-002 1.002665e-004 -1.654055e+002 5.761817e-005 -1.516593e+001 9.849486e-001 -3.695366e-001
1199955 9.975145e-001 -1.051793e-001 6.706121e-005 3.765811e+001 2.072377e-004 8.204415e+001 9.953420e-001 -2.689420e-001
1499940 9.938486e-001 1.375760e-001 1.490425e-004 1.407731e+002 2.878279e-004 3.441541e+001 9.929786e-001 1.336901e-002
1799925 9.919659e-001 2.079686e-001 1.321405e-004 4.472049e+001 1.939054e-004 1.696475e+002 9.906866e-001 -3.780733e-002
2099910 9.986793e-001 -5.828884e-003 5.612892e-005 -9.885848e+001 1.333048e-004 1.728173e+002 9.987433e-001 -1.125628e-001
2399895 9.995250e-001 -1.337825e-001 9.386254e-005 5.335948e+001 1.601411e-004 -1.789283e+002 1.002950e+000 -1.186152e-001
2699880 9.997142e-001 -2.303994e-001 6.503930e-005 -1.111742e+002 3.259087e-004 -1.129614e+002 9.957714e-001 -3.299899e-001
2999865 9.995250e-001 -1.463426e-001 5.022540e-005 -3.581141e+001 8.548802e-005 3.464410e+001 9.974054e-001 -2.440857e-001
3299850 1.000511e+000 -1.421083e-001 3.558321e-005 -7.541822e+001 7.443933e-005 -3.798828e+001 9.972803e-001 -2.737809e-001
3599835 9.998373e-001 -1.088129e-001 1.837479e-005 -8.594972e+001 2.031041e-004 1.509394e+002 9.979821e-001 -3.168832e-001
3899820 9.997585e-001 -1.429793e-001 3.820302e-005 -2.412552e+001 2.073095e-004 -9.998916e+001 9.984360e-001 -3.264853e-001
4199805 1.000370e+000 -1.775042e-001 3.108781e-005 1.759480e+002 5.319900e-005 8.160155e+001 9.989596e-001 -3.889633e-001
4499790 1.000641e+000 -1.676795e-001 8.728845e-005 -1.311055e+002 1.489645e-004 1.169914e+002 9.995052e-001 -3.599846e-001
4799775 1.000659e+000 -1.427365e-001 3.080266e-005 -3.815668e+001 6.899473e-005 1.358487e+002 9.992560e-001 -3.350898e-001
5099760 1.000393e+000 -1.530689e-001 8.750801e-005 -2.662349e+001 1.377976e-004 -1.198654e+002 9.992689e-001 -3.651721e-001
5399745 1.000618e+000 -1.154477e-001 9.444059e-005 1.780389e+001 1.239394e-004 1.169220e+002 9.995457e-001 -2.510554e-001
5699730 1.000434e+000 -9.916614e-002 6.540796e-005 6.963748e+000 1.947303e-004 -1.568003e+002 1.001444e+000 -3.636785e-001
5999715 9.997938e-001 -8.543014e-002 1.236985e-005 -1.457301e+002 1.239938e-004 -1.325963e+002 1.000361e+000 -3.148852e-001
6299700 9.998406e-001 -1.159819e-001 7.961483e-006 1.242063e+002 2.728368e-005 1.769992e+002 1.000354e+000 -3.544940e-001
6599685 9.996406e-001 -1.134851e-001 9.203512e-005 -1.234490e+002 1.215622e-004 6.807769e+001 9.997041e-001 -3.907598e-001
6899670 1.000236e+000 -1.501852e-001 1.060258e-004 1.229211e+002 1.004463e-004 6.900552e+001 1.000014e+000 -4.684251e-001
7199655 1.000128e+000 -1.458091e-001 1.126848e-004 1.771269e+002 1.366487e-004 -1.081833e+002 9.994650e-001 -4.788824e-001
7499640 9.997281e-001 -1.707454e-001 8.858736e-005 -2.771016e+001 1.536516e-004 1.345869e+002 9.999475e-001 -5.006494e-001
7799625 1.000217e+000 -1.750177e-001 2.872317e-005 8.170680e+001 1.239390e-004 9.718870e+001 9.987823e-001 -4.100236e-001
8099610 9.999411e-001 -1.682369e-001 7.309379e-005 7.908852e+001 8.891321e-005 1.191755e+002 9.991944e-001 -5.174512e-001
8399595 1.000403e+000 -1.438492e-001 4.751549e-005 3.257018e+001 7.364492e-005 7.474068e+000 9.991783e-001 -5.171536e-001
8699580 1.000550e+000 -1.238912e-001 7.737528e-005 -4.528407e+001 1.725404e-004 -1.195878e+001 9.998571e-001 -5.412986e-001
8999565 9.999338e-001 -1.654162e-001 4.951165e-006 -4.341827e+001 8.076271e-005 -1.498776e+002 1.000239e+000 -5.555619e-001
9299550 9.999040e-001 -1.507793e-001 1.925123e-005 7.509077e+001 4.677914e-005 1.361538e+002 9.993793e-001 -5.859979e-001
9599535 1.000100e+000 -1.950217e-001 5.993530e-005 -3.971466e+001 1.811781e-004 -3.839496e+001 9.969489e-001 -7.015848e-001
9899520 1.000138e+000 -2.575295e-001 6.040828e-005 -1.060647e+002 1.361162e-004 7.294087e+001 9.962395e-001 -7.779472e-001
10199505 1.000572e+000 -1.694827e-001 7.445587e-005 5.333420e+001 3.066917e-004 1.210509e+002 9.995044e-001 -5.530285e-001
10499490 9.998069e-001 -1.486458e-001 3.960084e-005 1.620092e+002 5.412868e-005 8.856428e+000 9.974510e-001 -5.666836e-001
10799475 9.996335e-001 -1.096411e-001 6.554587e-005 1.015181e+002 9.350154e-005 -1.402126e+002 9.992725e-001 -5.391919e-001
11099460 9.997835e-001 -1.388122e-001 7.151511e-005 1.168630e+002 4.207124e-004 -1.930211e+001 9.988217e-001 -5.858794e-001
11399445 1.000030e+000 -1.477997e-001 1.456734e-004 1.467252e+001 1.135759e-004 1.041511e+002 9.979967e-001 -6.551515e-001
11699430 1.000115e+000 -1.976822e-001 9.547573e-005 -8.924725e+001 5.445310e-005 -1.290011e+002 9.971285e-001 -5.730361e-001
11999415 9.995543e-001 -1.568700e-001 5.646906e-005 1.640262e+002 1.408348e-004 -4.242354e+001 9.985927e-001 -5.924177e-001
12299400 9.998384e-001 -1.554322e-001 3.622334e-005 8.255691e+001 3.128103e-004 -9.800336e+001 9.999586e-001 -5.841603e-001
12599385 1.000366e+000 -1.794270e-001 7.836015e-005 -1.397604e+002 9.054711e-005 1.645020e+002 9.989485e-001 -6.389540e-001
12899370 1.000448e+000 -1.797523e-001 6.775720e-005 -3.562907e+001 1.865089e-004 1.672047e+002 9.985389e-001 -7.871720e-001
13199355 1.000105e+000 -1.976752e-001 4.403672e-005 -1.199403e+001 2.103442e-004 1.183715e+001 9.980657e-001 -6.586286e-001
13499340 1.000294e+000 -2.161200e-001 1.917934e-005 -1.175741e+002 2.436422e-004 -6.561976e+001 9.980218e-001 -7.122872e-001
13799325 9.999743e-001 -1.734136e-001 1.824152e-005 -4.142458e+001 2.596417e-004 -7.759909e+001 9.982191e-001 -6.742532e-001
14099310 1.000022e+000 -2.229142e-001 3.099387e-005 1.128397e+002 1.237905e-004 1.564498e+002 9.989731e-001 -7.249976e-001
14399295 1.000253e+000 -2.187786e-001 2.858738e-005 5.180380e+000 6.462102e-005 -1.861450e+001 9.999158e-001 -7.532182e-001
14699280 9.995908e-001 -2.223698e-001 1.096318e-004 -3.301896e+001 2.375781e-004 4.212425e+001 1.001053e+000 -7.597235e-001
14999265 1.000394e+000 -1.732156e-001 3.091519e-005 -5.823359e+001 8.029702e-005 -6.148164e+001 9.998559e-001 -7.419977e-001
15299250 9.993453e-001 -2.113927e-001 4.426392e-005 -1.288843e+002 1.523117e-004 1.170221e+002 9.979137e-001 -7.292765e-001
15599235 9.997896e-001 -1.951128e-001 1.185716e-004 -1.115086e+001 3.419414e-005 -3.146257e+000 9.992378e-001 -7.668783e-001
15899220 1.000367e+000 -1.763550e-001 6.716372e-005 1.308181e+002 4.899001e-005 -8.541265e+001 9.999328e-001 -7.841838e-001
16199205 1.000721e+000 -1.939141e-001 3.687631e-005 -1.501048e+000 2.298140e-004 -1.358638e+002 9.995227e-001 -7.539800e-001
16499190 9.995106e-001 -1.731458e-001 5.270089e-005 1.723261e+002 2.019103e-004 1.145180e+002 1.000375e+000 -8.297589e-001
16799175 1.000036e+000 -1.655156e-001 1.140933e-005 -1.235068e+002 4.005197e-004 1.608433e+002 1.000857e+000 -7.955677e-001
17099160 1.000101e+000 -2.010050e-001 4.704362e-005 -3.899034e+001 1.224784e-004 -4.469301e+001 1.000894e+000 -8.264877e-001
17399145 1.000078e+000 -2.824290e-001 7.611735e-005 -1.480918e+002 2.922730e-004 -1.591837e+002 1.000364e+000 -8.644717e-001
17699130 9.999166e-001 -2.235489e-001 6.521183e-005 1.678427e+002 7.956429e-005 -1.017859e+002 1.000202e+000 -8.852400e-001
17999115 1.000097e+000 -2.413208e-001 8.288299e-005 -5.335903e+001 1.376200e-004 -1.656049e+002 9.986373e-001 -9.069630e-001
18299100 1.000090e+000 -1.768188e-001 1.012768e-004 3.733279e+001 2.213105e-004 -1.256659e+002 9.993585e-001 -8.850727e-001
18599085 1.000078e+000 -2.132806e-001 9.460040e-005 -1.030592e+002 2.706320e-004 5.034011e+001 9.990944e-001 -8.908001e-001
18899070 1.000220e+000 -2.552778e-001 4.932371e-005 1.340015e+002 2.573427e-004 -9.535381e+001 9.986757e-001 -8.752330e-001
19199055 1.000867e+000 -2.551225e-001 6.015645e-005 6.828694e+001 1.047462e-004 -1.154556e+001 9.986323e-001 -8.863899e-001
19499040 1.000085e+000 -1.991126e-001 9.505977e-005 6.242898e+001 3.130410e-004 1.313177e+002 9.993661e-001 -8.855301e-001
19799025 1.000793e+000 -2.150403e-001 1.382396e-004 1.509274e+002 3.045524e-004 6.597157e+000 9.991558e-001 -9.212834e-001
20099010 1.000118e+000 -2.502151e-001 1.119776e-004 -8.252179e+001 9.683958e-005 -1.826598e+001 9.984182e-001 -9.560207e-001
20398995 1.000062e+000 -1.819683e-001 1.134631e-004 9.056251e+001 1.062003e-004 -1.032486e+002 9.978585e-001 -9.931001e-001
20698980 9.996374e-001 -2.305618e-001 1.864285e-005 -1.578935e+002 2.382822e-005 3.748288e+001 9.982532e-001 -9.403914e-001
20998965 9.987877e-001 -2.284203e-001 9.216911e-005 1.541085e+002 5.305374e-005 -1.066500e+002 9.988708e-001 -9.579698e-001
21298950 1.000033e+000 -2.190384e-001 3.723216e-005 -1.663754e+002 6.859027e-005 1.229801e+002 9.988675e-001 -8.877165e-001
21598935 9.997243e-001 -2.476285e-001 8.749407e-005 1.197010e+002 1.546751e-004 -9.547938e+001 9.990127e-001 -9.469303e-001
21898920 9.999559e-001 -2.594891e-001 1.776590e-005 1.545342e+002 1.683550e-004 8.798156e+001 9.991660e-001 -1.047235e+000
22198905 9.999806e-001 -2.847025e-001 5.020924e-005 9.931650e+001 2.362383e-004 -1.351005e+002 9.989972e-001 -1.001058e+000
22498890 1.000230e+000 -2.662358e-001 4.811956e-005 -2.836797e+001 6.724739e-005 1.143361e+002 9.993334e-001 -1.030870e+000
22798875 1.000608e+000 -2.160655e-001 6.982159e-005 -5.461372e+001 2.769854e-004 1.746275e+002 9.990332e-001 -1.052422e+000
23098860 1.000621e+000 -2.761978e-001 9.318566e-006 -1.014072e+002 2.778133e-004 -5.435471e+001 9.997319e-001 -1.112054e+000
23398845 1.000801e+000 -2.400101e-001 1.215807e-004 4.682815e+001 1.453596e-004 1.100119e+002 9.991472e-001 -1.012478e+000
23698830 1.000794e+000 -2.817510e-001 9.832742e-005 -1.709462e+002 8.063675e-005 -3.619267e+001 9.979719e-001 -1.099494e+000
23998815 1.000140e+000 -3.051885e-001 1.107102e-004 -1.398675e+002 1.168117e-004 1.119310e+002 9.988678e-001 -1.053740e+000
24298800 9.997445e-001 -2.585974e-001 1.206929e-004 4.862263e+001 2.429884e-004 1.467285e+002 9.970866e-001 -1.147123e+000
24598785 1.000296e+000 -2.789375e-001 1.010240e-004 2.923685e+001 2.488862e-004 1.312512e+002 9.987233e-001 -1.157125e+000
24898770 1.000546e+000 -2.947496e-001 3.154057e-005 -1.551609e+002 2.670613e-004 -1.105678e+002 9.983292e-001 -1.135551e+000
25198755 1.000443e+000 -3.005950e-001 7.795436e-005 1.208053e+002 3.797000e-004 7.365099e+001 9.992893e-001 -1.100963e+000
25498740 1.000050e+000 -2.712230e-001 6.621799e-005 1.273807e+002 1.734721e-004 -1.103294e+002 9.987198e-001 -1.200004e+000
25798725 1.000385e+000 -3.329675e-001 4.948676e-005 1.432607e+002 3.785862e-004 3.783165e+001 9.986011e-001 -1.271032e+000
26098710 1.000776e+000 -2.961676e-001 6.257067e-005 2.296196e+001 3.211788e-004 1.711202e+002 9.991298e-001 -1.230058e+000
26398695 1.000507e+000 -2.932509e-001 7.434268e-005 1.400055e+002 2.422780e-004 -5.455033e+001 1.000263e+000 -1.178185e+000
26698680 1.001009e+000 -2.794981e-001 9.762878e-005 1.000772e+002 1.547744e-004 9.297869e+001 1.000373e+000 -1.300087e+000
26998665 1.000517e+000 -2.682706e-001 1.889460e-005 1.788662e+002 6.836810e-005 8.633437e+001 1.000218e+000 -1.302041e+000
27298650 1.000632e+000 -2.891415e-001 2.983624e-005 5.853911e+001 3.647247e-004 1.410005e+002 9.995586e-001 -1.260928e+000
27598635 1.000398e+000 -3.001993e-001 1.080140e-004 8.993090e+001 3.843066e-004 -7.230199e+000 1.000011e+000 -1.263396e+000
27898620 1.000612e+000 -2.835802e-001 1.299691e-004 1.155722e+002 2.615433e-004 7.003842e+001 1.000418e+000 -1.350816e+000
28198605 9.999077e-001 -2.892790e-001 5.976699e-005 9.322702e+001 1.168527e-004 -1.172304e+002 9.995078e-001 -1.318925e+000
28498590 1.000185e+000 -3.174256e-001 8.025756e-005 -1.674498e+002 2.093350e-004 3.691893e+001 9.990591e-001 -1.318937e+000
28798575 9.999284e-001 -3.123073e-001 1.336837e-004 1.390501e+002 2.077300e-004 1.640959e+002 9.983932e-001 -1.422398e+000
29098560 9.997722e-001 -3.457887e-001 5.210899e-005 -9.290854e+001 1.966661e-004 7.310090e+001 9.987212e-001 -1.322861e+000
29398545 9.999369e-001 -3.137566e-001 1.281226e-004 -1.336052e+002 5.407170e-005 5.658059e+001 1.000182e+000 -1.322660e+000
29698530 1.000414e+000 -2.940124e-001 8.944589e-005 -1.364599e+002 2.550390e-004 -3.271956e+001 9.998443e-001 -1.335744e+000
29998515 9.998152e-001 -3.222113e-001 3.447367e-005 -1.296565e+002 1.952769e-004 -6.879382e+001 1.000546e+000 -1.368601e+000
30298500 1.000257e+000 -2.838025e-001 6.098291e-005 -1.498189e+002 1.832956e-004 4.135650e+001 9.998375e-001 -1.457504e+000
30598485 9.994279e-001 -3.147993e-001 1.351416e-004 -1.564700e+002 2.600899e-004 -1.694308e+002 1.000744e+000 -1.411424e+000
30898470 9.999565e-001 -2.760952e-001 1.022956e-004 1.242237e+002 1.542510e-004 4.532418e+001 9.992552e-001 -1.460033e+000
31198455 1.000391e+000 -2.925820e-001 6.303432e-006 -1.495147e+002 2.792976e-004 1.468470e+002 9.986395e-001 -1.415087e+000
31498440 1.000618e+000 -3.658495e-001 1.524710e-004 6.025036e+000 5.009395e-005 1.449387e+002 9.998519e-001 -1.361916e+000
31798425 1.000573e+000 -3.445778e-001 1.174389e-004 -4.267649e+001 2.774808e-004 1.058336e+002 1.000531e+000 -1.521558e+000
32098410 1.000823e+000 -3.494867e-001 8.653554e-005 -3.318744e+001 1.230974e-004 1.633085e+002 1.000388e+000 -1.445737e+000
32398395 1.000416e+000 -3.935145e-001 3.674285e-005 -7.311900e+001 1.220023e-004 9.619563e+001 9.992378e-001 -1.454183e+000
32698380 1.001279e+000 -3.564569e-001 7.871056e-005 -3.216231e+001 1.065739e-004 1.471133e+002 9.999197e-001 -1.502255e+000
32998365 1.000646e+000 -3.246707e-001 9.549252e-005 1.241147e+002 3.224490e-005 -1.782648e+002 9.996274e-001 -1.514710e+000
33298350 1.000255e+000 -3.370306e-001 1.321126e-004 6.134391e+001 2.173945e-004 -7.536929e+001 1.000450e+000 -1.512909e+000
33598335 1.000606e+000 -3.817473e-001 4.821339e-005 3.340140e+001 1.350562e-004 -1.237688e+001 9.998028e-001 -1.594516e+000
33898320 9.995943e-001 -3.663045e-001 7.312474e-005 3.248280e+000 7.311177e-005 1.526130e+002 9.989830e-001 -1.516260e+000
34198305 9.997265e-001 -3.772202e-001 7.337822e-005 -1.740454e+002 1.283472e-004 3.747431e+001 9.982216e-001 -1.514628e+000
34498290 1.000269e+000 -3.509785e-001 1.584145e-005 -2.127136e+001 2.267468e-004 1.671565e+002 9.976307e-001 -1.503582e+000
34798275 9.993970e-001 -3.803229e-001 3.815603e-005 -8.020985e+001 2.549292e-004 -6.960748e+001 9.991961e-001 -1.670796e+000
35098260 1.000683e+000 -3.928960e-001 1.165419e-004 1.495344e+002 1.872692e-004 1.056800e+002 9.989820e-001 -1.490840e+000
35398245 9.999308e-001 -4.300077e-001 9.931046e-005 -6.353587e+001 2.311736e-004 -4.761794e+001 9.995139e-001 -1.541934e+000
35698230 1.000308e+000 -3.983945e-001 5.572692e-005 -1.511617e+002 2.265013e-004 8.221840e+001 9.999242e-001 -1.542488e+000
35998215 1.000137e+000 -4.395291e-001 6.643723e-005 -1.516397e+002 1.520371e-004 -8.366338e+001 9.995313e-001 -1.596100e+000
36298200 9.999787e-001 -4.115036e-001 6.119249e-005 1.396393e+002 1.765910e-004 7.393810e+001 9.989699e-001 -1.666105e+000
36598185 1.000654e+000 -4.166735e-001 1.307723e-004 -9.159309e+001 1.741559e-004 -9.860504e+001 9.986756e-001 -1.682448e+000
36898170 1.000659e+000 -4.332801e-001 7.544568e-005 -8.486922e+001 1.650900e-004 -9.206916e+001 9.999033e-001 -1.673716e+000
37198155 1.000436e+000 -4.010344e-001 3.907391e-005 -2.620619e+000 6.365743e-005 4.234339e+001 9.989191e-001 -1.682489e+000
37498140 1.000567e+000 -4.174654e-001 1.259337e-004 -1.081683e+002 1.653616e-004 8.721220e+001 9.993283e-001 -1.651632e+000
37798125 9.998737e-001 -3.874891e-001 1.114946e-004 1.325636e+001 7.870026e-005 -1.722729e+002 9.986283e-001 -1.655214e+000
38098110 9.995335e-001 -3.807346e-001 1.840591e-005 -1.239746e+002 9.488985e-005 -1.699972e+002 9.992461e-001 -1.724866e+000
38398095 9.997118e-001 -3.822597e-001 7.514126e-005 -4.090262e+001 1.309871e-004 1.713672e+002 9.984133e-001 -1.733694e+000
38698080 1.000403e+000 -3.945046e-001 1.131367e-004 5.507148e+001 1.555359e-004 1.178057e+002 9.983795e-001 -1.717088e+000
38998065 1.000900e+000 -4.523548e-001 4.695138e-005 3.246170e+001 1.123795e-004 -4.854350e+001 9.988291e-001 -1.735072e+000
39298050 1.000006e+000 -3.579367e-001 7.797249e-005 -1.911054e+001 7.115817e-005 1.372774e+002 9.982545e-001 -1.781080e+000
39598035 1.001050e+000 -3.886483e-001 7.313969e-005 1.078561e+002 1.315332e-004 -3.967921e+001 9.993652e-001 -1.695167e+000
39898020 1.000641e+000 -3.578340e-001 7.033676e-005 -9.608099e+001 2.472649e-004 1.397705e+001 1.000210e+000 -1.602590e+000
40198005 1.000544e+000 -3.590763e-001 1.105037e-004 1.174578e+002 4.920064e-004 1.441327e+002 9.999450e-001 -1.876642e+000
40497990 1.000783e+000 -4.206734e-001 1.047941e-004 -2.342283e+001 2.962238e-004 9.966736e+001 9.992186e-001 -1.802149e+000
40797975 1.000743e+000 -4.582162e-001 1.009864e-004 -8.547621e+001 5.237601e-004 1.585117e+002 9.991524e-001 -1.957236e+000
41097960 9.999566e-001 -3.669618e-001 7.537996e-005 1.259358e+001 7.531654e-005 1.885410e+001 1.000588e+000 -1.806977e+000
41397945 9.997622e-001 -3.630677e-001 1.389416e-004 -8.204888e+001 3.268783e-004 1.091448e+002 9.996561e-001 -1.877031e+000
41697930 9.996895e-001 -3.445889e-001 1.343872e-004 1.676727e+002 1.174853e-004 -4.254869e+001 9.984694e-001 -1.780978e+000
41997915 1.000402e+000 -3.810268e-001 9.880836e-005 -2.634364e+001 1.248728e-004 1.061986e+002 1.000434e+000 -1.739526e+000
42297900 1.000258e+000 -4.759627e-001 7.758892e-005 1.120863e+002 6.558171e-005 -1.527644e+001 9.991339e-001 -1.748002e+000
42597885 1.000861e+000 -3.933137e-001 6.263614e-005 8.078214e+001 8.356856e-005 -1.653886e+000 1.000642e+000 -1.924020e+000
42897870 1.001012e+000 -4.750469e-001 2.073758e-004 9.846645e+001 2.263941e-004 2.551298e+001 9.987279e-001 -1.868931e+000
43197855 1.001052e+000 -4.437486e-001 5.657997e-005 -1.926817e+001 1.717444e-004 -1.240025e+002 1.000396e+000 -1.931804e+000
43497840 1.001603e+000 -4.916643e-001 5.789566e-005 -1.842702e+001 2.058144e-004 5.558220e+001 9.989909e-001 -1.870505e+000
43797825 1.001094e+000 -4.779927e-001 4.991984e-005 -3.943690e+000 1.768804e-004 6.946114e+001 9.986733e-001 -2.020103e+000
44097810 1.000831e+000 -3.898169e-001 2.224865e-004 -8.085934e+001 3.251351e-004 -1.329238e+002 9.989536e-001 -2.058473e+000
44397795 1.000275e+000 -4.358447e-001 8.466282e-005 -1.105071e+002 3.090489e-004 1.754744e+002 9.987831e-001 -2.011982e+000
44697780 1.000905e+000 -4.464689e-001 1.497052e-004 -4.450633e-001 1.964267e-004 8.979453e+001 9.992942e-001 -2.023564e+000
44997765 1.001447e+000 -4.753841e-001 1.060360e-004 6.869316e+001 3.402776e-004 4.925492e+001 1.000028e+000 -2.107311e+000
45297750 1.000940e+000 -5.486278e-001 1.717935e-004 -6.231408e+001 2.031832e-004 1.329020e+002 1.000795e+000 -1.931210e+000
45597735 1.002008e+000 -5.145077e-001 1.815432e-004 4.670494e+001 4.176973e-004 1.722828e+002 1.002320e+000 -1.997546e+000
45897720 1.001724e+000 -4.900700e-001 1.128888e-004 9.853090e+001 1.963512e-004 1.325550e+002 1.000951e+000 -2.074164e+000
46197705 1.002163e+000 -5.126255e-001 2.110541e-004 3.913776e+001 2.233062e-004 -7.512708e+001 1.000760e+000 -2.116273e+000
46497690 1.001014e+000 -5.011161e-001 7.706457e-005 9.941956e+001 2.146389e-004 -2.919770e+001 9.992867e-001 -2.134396e+000
46797675 1.001077e+000 -5.245365e-001 1.028615e-004 -4.855103e+001 2.395106e-004 9.435564e+001 1.000273e+000 -2.045987e+000
47097660 1.000921e+000 -4.887384e-001 1.982969e-004 1.732912e+002 2.584696e-004 -1.408047e+002 9.999014e-001 -2.113315e+000
47397645 1.000956e+000 -4.891721e-001 2.124186e-004 4.332573e+001 3.797202e-004 -1.339225e+002 1.000462e+000 -2.118149e+000
