!Agilent Technologies,N5230C,SG49000117,A.08.50.07
!Agilent N5230C: A.08.50.07
!Date: Friday, May 17, 2024 03:32:50
!Correction: S11(Full 2 Port(1,2)) 
!S21(Full 2 Port(1,2)) 
!S12(Full 2 Port(1,2)) 
!S22(Full 2 Port(1,2)) 
!S2P File: Measurements: S11, S21, S12, S22:
# Hz S  MA   R 50
300000 1.006289e+000 -3.701070e-001 1.852924e-004 1.702086e+002 4.487275e-004 6.728748e+001 1.008755e+000 -9.466729e-001
599985 9.826248e-001 3.323248e-001 4.379646e-005 7.189584e+001 3.266535e-004 -1.735799e+002 9.662622e-001 3.095984e-001
899970 9.975194e-001 -3.922850e-002 6.348841e-005 -6.491081e+001 1.988991e-004 -6.290951e+001 9.851069e-001 -3.997520e-001
1199955 9.988562e-001 -8.579224e-002 5.994772e-005 -6.672057e+001 1.826154e-004 1.045208e+002 9.953274e-001 -3.018287e-001
1499940 9.934584e-001 1.484530e-001 1.672450e-004 1.393270e+002 3.234377e-004 4.713424e+001 9.929379e-001 3.772939e-002
1799925 9.919632e-001 2.127206e-001 4.397627e-005 -1.244381e+002 2.053012e-004 -1.641698e+002 9.907798e-001 -8.933285e-002
2099910 9.986616e-001 2.941599e-002 9.569210e-005 -7.662086e+001 1.937314e-004 -3.963310e+001 9.978559e-001 -2.613312e-002
2399895 9.991793e-001 -1.382081e-001 8.530616e-005 1.555981e+002 1.060068e-004 7.330865e+001 1.002787e+000 -7.890258e-002
2699880 9.989305e-001 -2.485693e-001 3.000486e-005 7.382893e+001 1.085052e-004 -4.996996e+001 9.944519e-001 -3.172576e-001
2999865 9.999755e-001 -1.202812e-001 5.357509e-005 8.431006e+001 2.274496e-005 -7.193105e+000 9.978662e-001 -2.567320e-001
3299850 1.000703e+000 -1.136547e-001 3.498219e-005 -1.685659e+002 2.544271e-004 1.125785e+002 9.968663e-001 -2.808485e-001
3599835 1.000448e+000 -1.154515e-001 1.775341e-005 3.459702e+001 1.970185e-004 -1.570372e+002 9.974871e-001 -3.542551e-001
3899820 9.991820e-001 -1.539752e-001 6.425986e-005 -4.394319e+000 1.164849e-004 -9.752028e+001 9.975002e-001 -3.065411e-001
4199805 1.000365e+000 -1.953808e-001 8.887810e-005 -5.975696e+001 3.261656e-004 6.837341e+001 9.992008e-001 -4.139263e-001
4499790 1.000470e+000 -1.277715e-001 5.304840e-005 1.229398e+002 1.725932e-004 1.244984e+002 9.988243e-001 -4.143324e-001
4799775 1.000293e+000 -1.610429e-001 4.570913e-005 -1.715749e+002 2.404262e-004 -1.721391e+002 9.997524e-001 -3.547520e-001
5099760 1.001082e+000 -1.325057e-001 4.030107e-005 4.666927e+001 1.739502e-004 1.721196e+002 1.000565e+000 -3.556913e-001
5399745 1.000330e+000 -1.083461e-001 1.031137e-004 -8.575621e+001 1.649180e-004 1.478082e+002 9.996676e-001 -3.579121e-001
5699730 1.000257e+000 -1.309576e-001 1.240124e-004 -1.558455e+001 1.437479e-004 -2.565087e+000 1.000690e+000 -3.700257e-001
5999715 9.996767e-001 -9.923519e-002 4.253165e-005 1.657818e+002 1.330078e-004 -1.183994e+002 9.995632e-001 -3.672566e-001
6299700 9.998461e-001 -1.065024e-001 1.380515e-004 -2.706178e+001 2.294455e-004 1.375166e+002 9.998254e-001 -4.050625e-001
6599685 9.999660e-001 -1.342202e-001 4.801000e-005 -1.077722e+002 2.967420e-004 -1.387734e+002 9.987696e-001 -4.446778e-001
6899670 9.994884e-001 -1.167832e-001 6.519290e-005 1.667336e+002 7.010365e-006 5.192081e+001 9.984367e-001 -4.898418e-001
7199655 9.995270e-001 -1.683507e-001 3.441727e-005 3.232137e+001 1.464467e-004 -1.265418e+002 9.982409e-001 -4.695774e-001
7499640 1.000163e+000 -2.103151e-001 2.621270e-006 1.726729e+002 1.856102e-004 -1.181597e+002 9.980763e-001 -5.088355e-001
7799625 1.000251e+000 -1.503721e-001 3.605616e-005 -1.535578e+002 1.631635e-004 -8.134248e+001 9.986523e-001 -5.016120e-001
8099610 9.996166e-001 -1.545250e-001 2.653656e-005 -2.585273e+000 6.540537e-005 5.825406e+001 9.979421e-001 -5.665134e-001
8399595 1.000188e+000 -1.598920e-001 7.028771e-005 1.575343e+002 1.146044e-004 1.916032e+001 9.981308e-001 -5.839473e-001
8699580 1.000044e+000 -1.526349e-001 8.043137e-005 -9.021597e+001 1.129816e-004 1.427025e+001 9.992017e-001 -5.609443e-001
8999565 9.998291e-001 -1.474781e-001 2.482765e-005 -7.133603e+001 5.320420e-005 -5.788411e+001 9.984912e-001 -5.931550e-001
9299550 9.998907e-001 -1.703398e-001 7.398833e-005 -1.728339e+002 8.846314e-005 8.166334e+001 9.980136e-001 -5.721495e-001
9599535 9.994224e-001 -1.968351e-001 3.188555e-005 1.366631e+002 1.267486e-004 -1.420079e+002 9.971991e-001 -7.038537e-001
9899520 9.994671e-001 -2.456524e-001 2.532447e-005 -8.915875e+001 4.083984e-005 -2.136769e+001 9.957138e-001 -8.326486e-001
10199505 1.000643e+000 -1.648203e-001 2.458674e-005 6.775931e+001 1.973876e-004 1.317615e+002 9.989005e-001 -5.934921e-001
10499490 9.992679e-001 -1.466701e-001 1.175786e-004 -1.352200e+002 4.323111e-005 1.303640e+002 9.982159e-001 -5.838650e-001
10799475 1.000024e+000 -1.250811e-001 2.607993e-005 -1.659970e+002 2.201516e-004 -3.042549e+001 9.988447e-001 -5.521521e-001
11099460 1.000444e+000 -1.535998e-001 1.048056e-004 1.021092e+002 1.764542e-005 1.600877e+002 9.984202e-001 -6.510636e-001
11399445 9.999210e-001 -1.209601e-001 5.793232e-005 -5.415798e+001 4.504787e-005 1.542790e+002 9.978175e-001 -5.983737e-001
11699430 9.998875e-001 -1.664569e-001 3.412855e-005 4.955471e+001 1.107255e-004 -1.649430e+002 9.986880e-001 -6.987614e-001
11999415 1.000051e+000 -1.383270e-001 3.222081e-006 -6.143319e+000 4.378465e-005 1.684196e+001 9.990956e-001 -6.530499e-001
12299400 1.000208e+000 -1.493846e-001 2.663897e-005 5.527766e+000 1.539435e-004 -7.249517e+001 9.995605e-001 -6.704331e-001
12599385 9.996929e-001 -1.744927e-001 1.104869e-004 -6.389126e+001 5.821533e-005 -4.919587e+001 9.981772e-001 -7.673611e-001
12899370 1.000170e+000 -2.108218e-001 7.666063e-005 -1.255460e+002 2.219242e-004 -1.132799e+002 9.984888e-001 -8.595283e-001
13199355 1.000018e+000 -2.033902e-001 7.599502e-005 -1.074748e+002 1.337786e-004 -1.018902e+002 9.988822e-001 -7.213632e-001
13499340 1.000383e+000 -2.030783e-001 6.714735e-005 1.643659e+002 2.159598e-004 -1.629147e+002 9.972316e-001 -7.685522e-001
13799325 1.000394e+000 -1.818900e-001 2.965226e-005 1.002748e+002 4.516738e-005 1.060869e+002 9.974626e-001 -7.378268e-001
14099310 9.997734e-001 -2.462353e-001 6.730131e-005 8.509340e+001 1.321347e-004 6.780855e+001 9.991035e-001 -6.906056e-001
14399295 1.000056e+000 -2.208127e-001 7.191370e-005 -1.130751e+002 1.344775e-004 -1.047746e+000 9.987789e-001 -8.171226e-001
14699280 1.000389e+000 -2.030686e-001 4.529755e-005 1.150700e+002 3.067291e-004 1.381244e+002 9.980227e-001 -7.797170e-001
14999265 1.000450e+000 -2.074165e-001 9.108914e-005 -1.697404e+002 2.738565e-004 -1.022824e+001 9.971813e-001 -8.593901e-001
15299250 9.996360e-001 -1.804025e-001 2.271374e-005 1.692697e+002 2.066404e-004 1.168437e+002 9.986499e-001 -8.711013e-001
15599235 1.000651e+000 -2.061314e-001 7.767917e-005 -1.311552e+002 1.100428e-004 -4.207404e+001 9.987431e-001 -8.678817e-001
15899220 1.000247e+000 -1.865549e-001 6.438295e-005 1.432356e+002 3.509325e-004 1.746088e+002 9.988983e-001 -7.770221e-001
16199205 1.000139e+000 -1.796939e-001 8.485628e-005 1.477618e+002 2.147258e-004 -4.347063e+001 9.997543e-001 -8.476052e-001
16499190 9.999215e-001 -1.871691e-001 5.401076e-005 1.060947e+002 2.377765e-004 1.037334e+002 1.000256e+000 -8.843652e-001
16799175 1.000170e+000 -1.703303e-001 4.374755e-005 1.354397e+002 1.022298e-004 -1.001693e+002 9.998650e-001 -8.784479e-001
17099160 1.000153e+000 -2.020856e-001 7.020282e-005 4.152265e+001 1.635475e-004 1.125993e+002 9.986279e-001 -8.902652e-001
17399145 1.000402e+000 -2.497403e-001 4.890277e-005 -4.607027e+001 1.566802e-004 -1.012023e+002 9.989801e-001 -8.817641e-001
17699130 1.000055e+000 -2.127464e-001 1.232717e-004 -6.726163e+001 7.202999e-005 -9.933701e+001 9.990905e-001 -9.168940e-001
17999115 1.000286e+000 -2.194793e-001 3.313923e-005 -1.134805e+002 1.130642e-004 1.305461e+002 9.995300e-001 -9.289596e-001
18299100 1.000675e+000 -2.235258e-001 9.685401e-005 -1.736946e+002 2.737957e-004 1.453833e+002 9.982087e-001 -9.361464e-001
18599085 1.000102e+000 -2.145501e-001 7.882621e-005 5.678585e+001 1.051796e-004 -1.694968e+002 9.991819e-001 -9.627432e-001
18899070 1.000071e+000 -2.060528e-001 6.953162e-005 -5.707741e+000 1.339411e-004 -1.331369e+001 9.997042e-001 -9.844544e-001
19199055 1.000046e+000 -2.265771e-001 9.560418e-005 1.471577e+002 3.253736e-004 2.018199e+001 9.986141e-001 -9.333168e-001
19499040 1.001013e+000 -2.095174e-001 3.835843e-005 -1.086333e+002 1.199563e-004 1.342030e+002 9.979706e-001 -9.419305e-001
19799025 1.000222e+000 -2.190479e-001 1.409794e-005 1.064787e+002 1.553920e-004 -6.264359e+001 9.980395e-001 -9.613428e-001
20099010 1.000293e+000 -2.070201e-001 2.488123e-005 2.290765e+001 2.521536e-004 1.109716e+002 9.979848e-001 -1.033550e+000
20398995 9.999163e-001 -2.097130e-001 5.102197e-005 -1.481590e+002 3.450258e-004 -1.099215e+002 1.000205e+000 -1.039841e+000
20698980 9.995253e-001 -2.661056e-001 8.779889e-005 -1.768743e+002 3.330530e-004 1.009027e+002 9.986435e-001 -1.003802e+000
20998965 1.000157e+000 -2.433661e-001 9.266386e-005 -9.672237e+001 1.468201e-004 -1.664300e+002 9.977573e-001 -1.024077e+000
21298950 9.999016e-001 -2.407626e-001 6.011499e-005 -1.511563e+002 4.650321e-005 1.477413e+002 9.963687e-001 -1.009595e+000
21598935 9.997363e-001 -2.364491e-001 2.992298e-005 6.911047e+001 3.747558e-004 -1.148772e+002 9.984550e-001 -1.005446e+000
21898920 9.994438e-001 -2.956601e-001 2.659183e-005 -1.231480e+002 8.826682e-005 -1.260248e+001 9.991881e-001 -1.038431e+000
22198905 9.999458e-001 -2.783002e-001 8.982425e-005 -7.341140e+001 9.901445e-005 -1.211803e+002 9.984059e-001 -1.123970e+000
22498890 1.000512e+000 -2.228596e-001 3.570682e-005 -1.238625e+002 9.888420e-005 7.926798e+001 9.983295e-001 -1.084708e+000
22798875 1.000457e+000 -2.510193e-001 4.511343e-005 1.246766e+002 2.096301e-004 -1.600380e+002 9.994818e-001 -1.228001e+000
23098860 1.000583e+000 -2.347392e-001 7.537867e-005 1.535333e+002 2.214987e-004 9.621387e+001 9.994488e-001 -1.111487e+000
23398845 1.000100e+000 -2.536362e-001 6.173007e-005 7.413445e+001 2.876271e-004 -9.527318e+001 9.972793e-001 -1.095917e+000
23698830 1.000546e+000 -2.726109e-001 4.761010e-005 1.594602e+002 3.961437e-004 7.273459e+001 9.975411e-001 -1.157398e+000
23998815 1.000180e+000 -3.054433e-001 5.245754e-005 -1.463167e+002 1.001151e-004 1.799547e+002 9.969567e-001 -1.224696e+000
24298800 1.000324e+000 -2.595065e-001 2.347747e-005 9.308675e+001 1.726041e-005 1.195824e+002 9.971069e-001 -1.146262e+000
24598785 1.000503e+000 -2.754067e-001 4.951111e-005 -1.361155e+001 2.302838e-004 -1.431841e+001 9.974507e-001 -1.211118e+000
24898770 1.001061e+000 -2.964007e-001 1.362506e-005 1.003393e+002 3.982674e-004 2.998648e+001 9.993812e-001 -1.202914e+000
25198755 1.000800e+000 -2.744958e-001 6.228279e-005 -6.381560e+001 1.710268e-004 1.054796e+002 9.993165e-001 -1.270233e+000
25498740 1.000005e+000 -2.925667e-001 3.057796e-005 -9.990175e+001 2.254828e-004 1.149171e+001 9.979076e-001 -1.337031e+000
25798725 9.999581e-001 -2.707424e-001 1.037611e-004 -1.743728e+002 2.323509e-004 7.347496e+001 9.981281e-001 -1.359454e+000
26098710 1.000956e+000 -3.236001e-001 8.567234e-005 -2.149586e+000 1.089348e-004 -3.145659e+000 9.986799e-001 -1.281276e+000
26398695 1.001258e+000 -2.761499e-001 7.212316e-005 2.680320e+001 8.230241e-005 1.574773e+002 9.994859e-001 -1.378909e+000
26698680 1.000507e+000 -2.953542e-001 1.548496e-005 -1.147983e+002 2.605320e-004 1.478704e+002 9.978195e-001 -1.294846e+000
26998665 1.000612e+000 -2.735829e-001 9.875939e-005 1.588998e+002 2.748330e-004 7.010500e+001 9.989032e-001 -1.380907e+000
27298650 1.000188e+000 -2.668101e-001 5.985047e-005 1.638578e+002 2.445627e-004 -6.467767e+001 9.986240e-001 -1.404076e+000
27598635 1.000154e+000 -2.762875e-001 2.506390e-005 -2.949986e+001 5.814031e-005 -1.724368e+002 9.990982e-001 -1.337093e+000
27898620 1.000363e+000 -2.644177e-001 1.340390e-004 -2.452912e+000 1.913194e-005 1.129057e+002 9.997982e-001 -1.413050e+000
28198605 1.000499e+000 -2.862070e-001 5.884150e-005 -1.163553e+002 1.636754e-004 8.168050e+001 9.993476e-001 -1.394414e+000
28498590 9.992703e-001 -3.592194e-001 1.015926e-004 4.605098e+001 1.078712e-004 -1.088723e+002 9.983891e-001 -1.484916e+000
28798575 9.999802e-001 -3.321969e-001 7.816428e-005 6.992829e+001 1.342535e-004 5.342672e+001 9.984958e-001 -1.499209e+000
29098560 1.000089e+000 -3.319306e-001 2.499575e-005 8.615321e+001 3.018766e-004 -1.472089e+002 9.988442e-001 -1.467308e+000
29398545 1.000313e+000 -3.070164e-001 1.087500e-004 -4.009494e+001 1.815495e-004 -3.809315e+001 9.985051e-001 -1.492561e+000
29698530 1.000566e+000 -2.981511e-001 1.395574e-004 1.145972e+002 8.338788e-005 -1.375783e+002 9.991190e-001 -1.470814e+000
29998515 1.000896e+000 -3.135645e-001 2.363310e-005 -1.326377e+002 2.998845e-004 3.267989e+001 9.998782e-001 -1.423742e+000
30298500 9.996964e-001 -3.604268e-001 6.005995e-005 -1.585199e+002 1.848089e-004 3.438289e+001 9.996621e-001 -1.499889e+000
30598485 1.000691e+000 -2.855970e-001 1.296832e-004 7.926450e+001 1.855176e-004 -5.611768e+001 9.987251e-001 -1.500294e+000
30898470 1.001181e+000 -3.398181e-001 1.299023e-004 8.201254e+001 3.218274e-004 1.350659e+002 9.984708e-001 -1.555522e+000
31198455 9.996922e-001 -2.888227e-001 7.386733e-005 -1.176300e+002 8.297677e-005 -6.784936e+001 9.984782e-001 -1.516580e+000
31498440 1.000279e+000 -3.423090e-001 9.062549e-005 9.102740e+001 1.208872e-004 -1.325365e+002 9.994626e-001 -1.527891e+000
31798425 1.000403e+000 -3.799532e-001 3.696767e-005 7.797998e+001 1.314989e-004 -7.182456e+001 9.998211e-001 -1.522958e+000
32098410 1.000481e+000 -3.764901e-001 3.138898e-005 -9.265041e+001 5.022197e-005 -4.469310e+001 9.989749e-001 -1.530480e+000
32398395 1.001498e+000 -3.501083e-001 4.727832e-005 6.498994e+001 2.019313e-004 -6.680661e+001 9.992817e-001 -1.505930e+000
32698380 1.000378e+000 -3.407356e-001 5.165601e-005 9.904372e+001 1.535138e-004 7.174455e+001 9.991649e-001 -1.550780e+000
32998365 1.001183e+000 -3.617187e-001 1.140620e-004 1.784003e+002 8.599008e-005 -8.612645e+001 9.977699e-001 -1.596918e+000
33298350 1.000266e+000 -3.407488e-001 1.498288e-004 -1.086771e+002 1.983468e-004 9.894444e+001 9.986062e-001 -1.623747e+000
33598335 1.000286e+000 -3.573568e-001 3.569421e-005 1.217323e+002 1.891661e-004 -9.710892e+001 9.978218e-001 -1.622222e+000
33898320 9.991651e-001 -3.527651e-001 9.112073e-005 1.127104e+002 1.434235e-004 2.798701e+001 9.984747e-001 -1.636167e+000
34198305 9.999982e-001 -3.910931e-001 1.161145e-004 1.591223e+002 3.174610e-004 -7.085123e+001 9.970133e-001 -1.657841e+000
34498290 9.997940e-001 -4.163813e-001 1.356546e-005 1.139463e+002 2.814517e-005 1.263039e+001 9.977808e-001 -1.609182e+000
34798275 9.998493e-001 -3.851711e-001 1.791119e-005 1.767889e+002 1.021347e-004 -2.906596e+001 9.964524e-001 -1.635149e+000
35098260 1.000147e+000 -3.730740e-001 1.481208e-004 -4.101960e+001 1.748371e-004 1.566297e+002 9.982514e-001 -1.685041e+000
35398245 1.000114e+000 -4.361528e-001 6.873593e-005 1.351657e+001 1.390785e-004 -6.979093e+001 9.988164e-001 -1.694779e+000
35698230 1.000467e+000 -4.400052e-001 4.224333e-005 -5.127013e+001 1.097688e-004 4.244491e+001 9.983262e-001 -1.726088e+000
35998215 1.000063e+000 -4.099879e-001 9.731278e-005 -9.529121e+001 1.622257e-004 -9.587339e+001 9.990197e-001 -1.732850e+000
36298200 1.000556e+000 -3.470888e-001 2.751294e-005 1.853884e-001 1.503802e-004 2.787949e+001 9.985275e-001 -1.785217e+000
36598185 1.000506e+000 -4.211695e-001 7.914341e-005 -1.754737e+002 8.967370e-005 -1.439506e+002 9.985143e-001 -1.709986e+000
36898170 1.000665e+000 -4.114059e-001 7.375477e-005 -7.573374e+000 1.743864e-004 6.953707e+001 9.978445e-001 -1.823088e+000
37198155 1.000116e+000 -4.200644e-001 8.679616e-005 3.444664e+001 2.511563e-005 1.740983e+002 9.979475e-001 -1.768676e+000
37498140 1.000154e+000 -4.056249e-001 4.730897e-005 -4.201530e+001 7.631016e-005 -1.306541e+002 9.989159e-001 -1.780240e+000
37798125 9.998062e-001 -3.746271e-001 6.596925e-005 6.325093e+001 6.749733e-005 1.282235e+002 9.980888e-001 -1.847166e+000
38098110 1.000568e+000 -3.999846e-001 1.419231e-004 8.667648e+001 1.584518e-004 3.991498e+001 9.976246e-001 -1.826928e+000
38398095 9.998926e-001 -4.213423e-001 5.163177e-005 -5.440463e+000 2.220097e-004 1.128841e+002 9.976363e-001 -1.888644e+000
38698080 1.000132e+000 -4.120330e-001 3.944950e-005 3.406463e+001 7.608984e-005 7.934284e+001 9.966514e-001 -1.911654e+000
38998065 1.000272e+000 -4.113255e-001 6.486157e-005 1.396858e+002 1.404704e-004 1.368385e+002 9.975229e-001 -1.889815e+000
39298050 1.000622e+000 -3.822806e-001 6.595899e-005 -1.661979e+002 1.351175e-004 -1.135862e+002 9.979147e-001 -1.870943e+000
39598035 1.000496e+000 -3.873471e-001 4.910531e-005 -8.015042e+001 2.766199e-004 -1.515974e+002 9.990708e-001 -1.869185e+000
39898020 1.000861e+000 -3.752967e-001 1.163649e-004 5.330121e+001 1.890913e-004 -6.200888e+001 1.000091e+000 -1.779186e+000
40198005 1.001099e+000 -4.294475e-001 9.800225e-005 -3.755989e+001 1.322626e-004 -1.142798e+002 9.996686e-001 -1.918715e+000
40497990 1.000782e+000 -4.688664e-001 1.221250e-004 -1.350327e+002 2.031813e-004 -1.505249e+002 9.993798e-001 -1.890354e+000
40797975 1.000935e+000 -3.966427e-001 9.356575e-005 3.543859e+001 1.474888e-004 1.284643e+002 9.999141e-001 -1.988971e+000
41097960 1.000760e+000 -3.950933e-001 1.114121e-004 -1.458513e+002 1.533210e-004 1.215128e+002 9.977407e-001 -1.986633e+000
41397945 9.995123e-001 -3.553899e-001 1.295077e-004 -5.280396e+001 2.740401e-004 -1.340267e+002 9.978388e-001 -1.997785e+000
41697930 1.000725e+000 -3.593384e-001 2.271157e-004 -1.144103e+002 1.447952e-004 1.226945e+002 9.985601e-001 -1.845016e+000
41997915 1.000369e+000 -4.190847e-001 1.559210e-004 1.291944e+002 1.228579e-004 2.108817e+001 9.985807e-001 -1.969187e+000
42297900 1.000476e+000 -4.871865e-001 9.289396e-005 7.340562e+001 2.143334e-004 1.200134e+002 9.984297e-001 -2.035784e+000
42597885 1.000943e+000 -4.043462e-001 9.709707e-005 -5.852103e+001 2.447095e-004 1.210709e+002 1.000054e+000 -2.012515e+000
42897870 1.000942e+000 -3.984140e-001 5.682726e-005 9.224850e+001 2.820903e-004 7.998902e+001 1.000434e+000 -2.083727e+000
43197855 1.000762e+000 -3.736723e-001 9.664255e-005 7.091238e+001 1.234020e-004 -1.269938e+002 9.993144e-001 -2.108097e+000
43497840 1.000891e+000 -4.094701e-001 1.553099e-004 9.295332e+001 3.892336e-004 1.402659e+002 9.983450e-001 -2.044022e+000
43797825 1.000738e+000 -4.874716e-001 1.321443e-004 1.755900e+002 3.214878e-004 1.732262e+002 9.974413e-001 -2.125131e+000
44097810 1.000129e+000 -4.558519e-001 5.779128e-005 5.408154e+001 2.168346e-004 -1.053234e+002 9.994978e-001 -2.185230e+000
44397795 1.000043e+000 -4.122897e-001 1.388174e-004 -1.101102e+002 2.318747e-004 -9.205124e+001 1.000662e+000 -2.216532e+000
44697780 1.001130e+000 -4.549288e-001 7.828659e-005 -9.503396e+001 1.268993e-004 -3.669498e+001 9.990683e-001 -2.132171e+000
44997765 1.002352e+000 -4.164219e-001 1.194389e-004 -9.354586e+001 2.617621e-004 -1.514067e+002 1.000287e+000 -2.109590e+000
45297750 1.001082e+000 -5.574089e-001 1.973844e-004 -1.211366e+002 1.233064e-004 1.254683e+002 1.001100e+000 -2.291064e+000
45597735 1.001176e+000 -4.626857e-001 7.536210e-005 8.204630e+001 3.675534e-004 1.078947e+002 1.000985e+000 -2.234842e+000
45897720 1.002403e+000 -4.892408e-001 7.236748e-005 6.410494e+001 8.594556e-005 4.265366e+001 9.987926e-001 -2.150266e+000
46197705 1.001184e+000 -4.580615e-001 2.389754e-004 1.020482e+002 1.886801e-004 -5.769004e+001 1.001571e+000 -2.212943e+000
46497690 1.001150e+000 -5.174537e-001 1.025768e-004 1.690757e+002 1.904472e-004 -5.033846e+001 9.998465e-001 -2.310904e+000
46797675 1.001008e+000 -4.681504e-001 1.910610e-004 9.229037e+001 2.145903e-004 -6.191922e+001 9.998360e-001 -2.243268e+000
47097660 1.000226e+000 -4.722472e-001 5.229277e-005 1.644423e+002 6.491526e-005 -1.074857e+002 9.986929e-001 -2.308318e+000
