!Agilent Technologies,N5230C,SG49000117,A.08.50.07
!Agilent N5230C: A.08.50.07
!Date: Friday, May 17, 2024 03:39:48
!Correction: S11(Full 2 Port(1,2)) 
!S21(Full 2 Port(1,2)) 
!S12(Full 2 Port(1,2)) 
!S22(Full 2 Port(1,2)) 
!S2P File: Measurements: S11, S21, S12, S22:
# Hz S  MA   R 50
300000 1.006692e+000 -3.561679e-001 3.392582e-005 -1.441609e+002 2.857050e-004 5.587669e+001 1.011947e+000 -8.738497e-001
599985 9.832775e-001 3.618238e-001 5.795911e-005 -8.842570e+001 1.503963e-004 -1.113422e+002 9.649982e-001 2.338554e-001
899970 9.972945e-001 -7.986061e-002 6.713463e-005 -1.522327e+001 2.972659e-004 5.574494e+000 9.851231e-001 -4.292412e-001
1199955 9.981953e-001 -7.818632e-002 4.157885e-005 1.601587e+002 1.717908e-004 -6.263670e+001 9.955184e-001 -2.071598e-001
1499940 9.935550e-001 1.504470e-001 9.747915e-005 -1.648936e+002 1.406116e-004 -1.772352e+002 9.930103e-001 8.379818e-002
1799925 9.916983e-001 2.080821e-001 1.551735e-004 1.720449e+002 1.249721e-004 4.830597e+001 9.910058e-001 -7.445273e-002
2099910 9.987638e-001 -2.592810e-002 1.011574e-004 -6.468932e+001 1.608383e-004 -1.535312e+002 9.985542e-001 -5.581038e-002
2399895 9.995534e-001 -1.560026e-001 1.020583e-004 7.090166e+001 1.635327e-004 1.491411e+002 1.003932e+000 -8.984216e-002
2699880 9.993814e-001 -2.329361e-001 5.108146e-005 -9.730129e+001 1.840056e-004 6.122535e+000 9.942389e-001 -2.758022e-001
2999865 9.997071e-001 -1.340657e-001 7.733540e-005 -3.884479e+001 1.007764e-004 9.935558e+001 9.988567e-001 -1.679924e-001
3299850 1.000772e+000 -1.242499e-001 9.041298e-005 -1.006262e+002 1.654649e-004 1.307421e+002 9.975079e-001 -3.144841e-001
3599835 1.000775e+000 -9.172868e-002 4.323336e-005 -4.876259e+001 2.747910e-004 5.414023e+001 9.975029e-001 -2.889484e-001
3899820 9.992403e-001 -1.510325e-001 2.415026e-005 1.544248e+002 1.083137e-004 -1.415114e+002 9.978476e-001 -2.138008e-001
4199805 1.000647e+000 -1.783115e-001 7.911776e-005 2.189409e+001 1.680154e-004 4.368964e+001 9.993028e-001 -3.137826e-001
4499790 1.000360e+000 -1.714095e-001 4.319002e-005 1.092286e+001 1.682703e-004 1.440553e+002 9.989729e-001 -3.052288e-001
4799775 1.000166e+000 -1.609609e-001 5.074366e-005 -4.754108e+001 1.895832e-004 -1.145717e+002 1.000294e+000 -2.627710e-001
5099760 1.000637e+000 -1.555981e-001 1.199259e-004 1.159827e+002 1.830429e-004 5.964403e+001 9.997410e-001 -2.371455e-001
5399745 1.000033e+000 -1.428065e-001 3.723198e-005 -1.328716e+002 1.692801e-004 1.768657e+002 9.989852e-001 -2.526705e-001
5699730 1.000455e+000 -1.476692e-001 7.287423e-005 1.225761e+002 1.077659e-004 1.232902e+002 1.001003e+000 -3.127544e-001
5999715 9.994793e-001 -9.921014e-002 2.634737e-005 1.077387e+001 8.947936e-005 4.287368e+001 9.997790e-001 -2.192114e-001
6299700 9.998695e-001 -1.264243e-001 9.840305e-005 1.207388e+002 2.545509e-004 -1.245824e+002 9.994407e-001 -3.372591e-001
6599685 9.995725e-001 -1.471861e-001 7.105908e-005 -1.719515e+002 8.677832e-005 -9.197623e+001 9.991025e-001 -2.996296e-001
6899670 9.996693e-001 -1.675382e-001 6.303480e-005 8.648376e+001 1.379585e-004 -1.482788e+001 9.984248e-001 -3.045875e-001
7199655 1.000538e+000 -1.654827e-001 1.623065e-005 5.349261e+001 1.416365e-004 -9.949390e+001 9.992529e-001 -3.101958e-001
7499640 1.000119e+000 -1.849304e-001 4.355243e-005 -6.407661e+001 1.238652e-004 -1.230806e+002 9.993242e-001 -4.442399e-001
7799625 1.000337e+000 -1.506889e-001 9.384228e-005 -1.143985e+000 1.438107e-004 -1.448342e+002 9.977805e-001 -3.659860e-001
8099610 1.000330e+000 -1.444836e-001 1.326546e-005 -1.313890e+002 7.830439e-005 8.905702e+001 9.986059e-001 -3.696563e-001
8399595 9.997824e-001 -1.276105e-001 5.863719e-005 1.247795e+002 1.376996e-004 1.180577e+002 9.985908e-001 -4.320815e-001
8699580 9.998423e-001 -1.564246e-001 8.912865e-005 -1.505049e+002 1.026995e-004 -8.841438e+001 9.991108e-001 -4.125450e-001
8999565 9.996660e-001 -1.751499e-001 3.730338e-005 -1.173669e+002 2.307602e-004 -1.780502e+002 9.991546e-001 -4.218446e-001
9299550 9.998815e-001 -1.447244e-001 9.560082e-005 -6.510332e+001 7.318170e-005 -1.298032e+002 9.991444e-001 -4.055207e-001
9599535 1.000023e+000 -2.087264e-001 2.064469e-005 -1.193775e+002 1.664116e-004 -1.078516e+002 9.981632e-001 -5.687765e-001
9899520 1.000150e+000 -2.484844e-001 2.481994e-005 -6.503532e+001 5.989695e-005 9.228197e+000 9.976024e-001 -6.353117e-001
10199505 1.000582e+000 -1.600934e-001 1.035702e-004 1.258592e+002 2.721974e-004 1.460142e+002 9.978117e-001 -4.021758e-001
10499490 9.997288e-001 -1.642236e-001 4.994490e-005 5.368207e+001 1.039749e-004 -3.450296e+001 1.000087e+000 -4.226933e-001
10799475 9.996386e-001 -1.355317e-001 5.186278e-005 -1.224616e+002 1.164074e-004 4.982516e+001 9.979677e-001 -4.468026e-001
11099460 9.999839e-001 -1.399825e-001 7.705807e-005 -6.441556e-001 1.364879e-004 1.059956e+001 9.997148e-001 -4.100809e-001
11399445 1.000544e+000 -1.403073e-001 3.522392e-005 3.250450e+001 3.625969e-005 -8.277628e+001 9.988834e-001 -4.147373e-001
11699430 1.000074e+000 -1.632375e-001 6.523831e-005 1.668578e+001 2.364641e-004 -1.319395e+002 9.987854e-001 -4.362214e-001
11999415 9.999651e-001 -1.384252e-001 1.500682e-005 1.719430e+002 2.243709e-004 5.767943e+001 1.000533e+000 -3.807169e-001
12299400 1.000324e+000 -1.628993e-001 9.219550e-005 -4.157693e+001 2.114411e-004 8.189099e+001 9.997873e-001 -4.240604e-001
12599385 9.999970e-001 -1.624877e-001 3.985056e-005 2.364400e+001 2.091546e-004 4.284458e+001 9.996862e-001 -5.251040e-001
12899370 1.000078e+000 -2.121718e-001 1.599242e-005 2.033304e+001 4.857660e-005 -4.975927e+001 9.994738e-001 -5.457821e-001
13199355 1.000380e+000 -1.921826e-001 5.583841e-005 -1.037773e+002 6.800194e-005 3.978992e+000 9.988294e-001 -5.742652e-001
13499340 9.998249e-001 -1.906767e-001 3.173052e-005 -1.967998e+001 2.172260e-004 8.388731e+001 9.978302e-001 -5.219888e-001
13799325 9.999098e-001 -2.063817e-001 8.881419e-005 1.269684e+002 3.764115e-004 -1.397189e+002 9.984425e-001 -4.951115e-001
14099310 1.000666e+000 -2.038879e-001 3.029940e-005 -7.221952e+001 1.141010e-004 3.629891e+001 9.994313e-001 -5.467281e-001
14399295 9.998703e-001 -2.136619e-001 7.178417e-005 -1.203187e+001 1.997854e-004 1.123671e+002 1.000101e+000 -4.897085e-001
14699280 1.000508e+000 -1.901461e-001 7.736886e-005 1.307473e+002 7.885967e-005 -6.886623e+001 1.000257e+000 -4.871782e-001
14999265 9.999380e-001 -2.191686e-001 6.999457e-005 1.073635e+002 2.102548e-004 1.692722e+002 9.991217e-001 -6.190786e-001
15299250 9.991273e-001 -1.867259e-001 5.955544e-005 -1.046842e+002 2.176262e-004 -1.565297e+002 9.976227e-001 -5.512749e-001
15599235 1.000015e+000 -1.866425e-001 1.376569e-004 -3.356563e+001 1.047208e-004 7.707813e+001 9.988315e-001 -6.653629e-001
15899220 1.000096e+000 -1.639045e-001 4.464369e-005 -5.834630e+001 8.419122e-005 -5.336139e+001 9.992405e-001 -6.077154e-001
16199205 1.000360e+000 -1.966487e-001 6.235992e-005 4.988631e+001 2.057354e-004 3.808789e+000 1.000928e+000 -5.460951e-001
16499190 1.000210e+000 -1.878093e-001 1.418120e-005 1.035406e+001 3.113596e-004 -1.482375e+002 9.997689e-001 -6.158232e-001
16799175 9.998960e-001 -1.607728e-001 1.099138e-004 -1.009149e+002 2.089081e-004 -4.184180e+001 1.000729e+000 -5.777608e-001
17099160 9.998910e-001 -2.216255e-001 4.862060e-005 9.697831e+001 2.072960e-004 9.629469e+001 1.001018e+000 -5.538788e-001
17399145 1.000075e+000 -2.221107e-001 1.034714e-004 1.373207e+002 9.109204e-005 -1.773853e+002 9.989799e-001 -6.027849e-001
17699130 1.000156e+000 -1.949700e-001 1.397504e-005 6.005675e+001 1.775053e-004 9.689779e+001 9.993113e-001 -6.234250e-001
17999115 1.000416e+000 -2.455427e-001 7.881054e-005 -1.477025e+001 5.130474e-005 1.019862e+002 9.995830e-001 -5.666565e-001
18299100 9.998953e-001 -1.771131e-001 5.032873e-005 -7.176968e+001 4.064584e-004 8.502837e+001 9.993095e-001 -6.590449e-001
18599085 1.000064e+000 -2.510366e-001 6.445235e-005 -2.686118e+001 6.956226e-005 -4.590623e+001 9.992238e-001 -6.462957e-001
18899070 1.000706e+000 -2.081602e-001 9.347508e-005 -2.457866e+001 2.484425e-004 6.508845e+001 9.990340e-001 -6.022189e-001
19199055 1.000583e+000 -2.230830e-001 1.293726e-004 4.838401e+001 2.180770e-004 -3.116269e+001 9.988723e-001 -5.789932e-001
19499040 1.000526e+000 -2.225619e-001 8.550349e-005 1.316528e+002 1.534094e-004 1.268758e+002 9.986761e-001 -6.443184e-001
19799025 1.000837e+000 -2.199689e-001 7.570579e-005 -5.522252e+001 3.162955e-004 -1.133788e+002 9.994119e-001 -6.739792e-001
20099010 1.000961e+000 -2.290306e-001 1.148769e-005 1.425665e+002 2.700867e-004 6.412584e+001 9.991159e-001 -6.770219e-001
20398995 9.996122e-001 -2.019393e-001 3.633354e-005 1.328273e+002 8.429151e-005 -5.260313e+001 9.981566e-001 -6.636472e-001
20698980 9.995016e-001 -2.288727e-001 2.302761e-005 1.233370e+002 1.003942e-004 -1.912775e+000 9.985654e-001 -6.929979e-001
20998965 9.996544e-001 -2.071717e-001 7.879981e-005 -2.109971e+001 2.506527e-004 1.533080e+002 9.984551e-001 -6.301359e-001
21298950 9.996364e-001 -2.038470e-001 7.375571e-005 9.673727e+001 1.819796e-004 2.572821e+001 9.981579e-001 -6.188146e-001
21598935 9.990152e-001 -2.409309e-001 3.149969e-005 1.579838e+002 1.408822e-004 -1.085331e+002 9.980642e-001 -6.722590e-001
21898920 9.996375e-001 -2.567170e-001 1.135815e-004 -6.000457e+001 1.025087e-004 -2.000347e+001 9.979082e-001 -6.390579e-001
22198905 1.000213e+000 -2.414580e-001 6.317281e-005 -6.409203e+001 1.015752e-004 -8.599238e+001 9.988473e-001 -6.509361e-001
22498890 1.000265e+000 -2.439082e-001 3.797608e-005 1.479207e+002 2.429975e-004 2.269561e+001 1.000224e+000 -7.486560e-001
22798875 1.000522e+000 -2.066557e-001 4.639298e-005 -2.292905e+001 2.535337e-004 -1.287286e+002 1.000216e+000 -7.704148e-001
23098860 1.000669e+000 -2.576088e-001 2.111813e-005 5.663445e+001 3.366962e-004 -3.884599e+001 9.999633e-001 -7.672455e-001
23398845 1.001111e+000 -2.219066e-001 3.202610e-005 5.921966e+001 2.796082e-004 5.985379e+001 9.998769e-001 -7.549532e-001
23698830 9.998710e-001 -3.149226e-001 7.593720e-005 1.448531e+002 6.378323e-005 -4.680434e+001 9.993359e-001 -7.613753e-001
23998815 9.999247e-001 -2.987630e-001 1.433524e-005 9.419453e+001 9.814443e-005 7.854229e+001 9.975177e-001 -7.229348e-001
24298800 1.000343e+000 -2.973905e-001 7.027010e-005 1.310515e+002 1.788221e-004 -1.031083e+002 9.979164e-001 -7.390304e-001
24598785 1.000694e+000 -2.931085e-001 4.939450e-005 3.574786e+001 9.224417e-005 8.200887e+001 9.981368e-001 -8.035227e-001
24898770 1.000399e+000 -3.044825e-001 1.477945e-004 6.791064e+000 1.468021e-004 1.784795e+002 9.990347e-001 -8.585964e-001
25198755 1.000253e+000 -3.137552e-001 1.038034e-004 -6.440252e+001 1.225348e-004 6.406585e+001 9.987346e-001 -8.172984e-001
25498740 1.000109e+000 -2.829849e-001 7.527315e-005 4.388100e+001 3.429460e-004 8.732380e+001 9.982939e-001 -8.790392e-001
25798725 9.997023e-001 -2.969488e-001 9.970235e-005 -1.214174e+002 2.895589e-004 8.718508e+001 9.990457e-001 -8.789905e-001
26098710 1.000677e+000 -3.326893e-001 1.815963e-004 -1.152698e+002 1.788774e-004 1.414104e+002 9.986425e-001 -8.805951e-001
26398695 1.001046e+000 -2.948808e-001 4.142791e-005 1.088378e+002 2.256031e-004 -1.175714e+002 9.995492e-001 -8.521604e-001
26698680 1.001456e+000 -2.604363e-001 1.443818e-004 -1.514724e+002 4.148641e-005 -4.765706e+001 9.997855e-001 -9.024150e-001
26998665 1.000263e+000 -2.774853e-001 8.369175e-005 -1.677131e+002 3.787648e-004 -8.988172e+001 9.984381e-001 -8.370969e-001
27298650 1.000312e+000 -2.725814e-001 3.589839e-005 -6.791410e+001 1.884904e-004 1.317287e+002 9.992948e-001 -8.661599e-001
27598635 1.000678e+000 -3.082413e-001 5.909956e-005 1.583421e+002 1.608790e-004 -6.857580e+001 9.987677e-001 -8.849565e-001
27898620 9.998787e-001 -3.246888e-001 1.051170e-004 -1.116874e+002 1.213218e-004 3.966771e+001 9.997525e-001 -9.187124e-001
28198605 9.998112e-001 -2.919821e-001 7.949086e-005 -7.922168e+000 9.291905e-005 -9.924768e+001 1.000125e+000 -9.360972e-001
28498590 1.000431e+000 -3.115837e-001 2.923873e-005 -2.240949e+001 2.494637e-004 4.278947e+001 9.991909e-001 -9.862925e-001
28798575 9.993666e-001 -3.126157e-001 4.532198e-005 -1.506743e+002 8.072982e-005 1.154610e+001 9.990606e-001 -1.024037e+000
29098560 9.998130e-001 -3.354660e-001 9.760885e-005 -4.339240e+001 2.361882e-004 8.529193e+001 9.995362e-001 -9.762095e-001
29398545 9.997540e-001 -2.993486e-001 5.186280e-005 7.720073e+001 3.311340e-005 3.738551e+001 1.000318e+000 -9.471317e-001
29698530 9.997401e-001 -3.200313e-001 2.053002e-004 1.282283e+001 1.592859e-004 4.194765e+001 1.000408e+000 -9.587628e-001
29998515 1.000727e+000 -3.208825e-001 8.622908e-005 -5.160349e+001 5.615343e-005 -1.142953e+001 1.001151e+000 -9.558595e-001
30298500 1.000114e+000 -3.190032e-001 1.929477e-004 1.574770e+002 1.645114e-004 1.075894e+002 1.000153e+000 -1.009124e+000
30598485 9.997216e-001 -3.163282e-001 1.145845e-004 -1.262842e+002 2.072363e-004 -1.193272e+002 9.994971e-001 -1.000676e+000
30898470 1.000063e+000 -2.944678e-001 4.457332e-005 1.449895e+002 6.377562e-005 -5.228312e+001 9.998670e-001 -1.046704e+000
31198455 1.000907e+000 -3.253767e-001 9.979114e-005 -1.021768e+002 1.061792e-004 1.267493e+002 9.995527e-001 -1.040364e+000
31498440 1.000315e+000 -3.414259e-001 9.059094e-005 -7.289272e+001 1.681094e-004 -4.733242e+001 9.999782e-001 -9.713190e-001
31798425 1.000498e+000 -3.709096e-001 1.084574e-004 3.724085e+001 1.933974e-004 9.276964e+001 9.997818e-001 -1.025199e+000
32098410 1.001272e+000 -3.486731e-001 1.123338e-004 -1.780066e+001 6.089987e-005 1.023791e+002 9.996598e-001 -9.035941e-001
32398395 1.001214e+000 -3.257415e-001 1.081358e-004 8.720966e+001 1.843978e-004 -6.756345e+001 9.993926e-001 -1.042519e+000
32698380 1.000926e+000 -3.367654e-001 5.650605e-005 1.018417e+002 1.163970e-004 -5.705480e+001 1.000143e+000 -1.023337e+000
32998365 1.000875e+000 -3.693539e-001 1.652828e-005 1.729266e+002 1.501322e-004 1.419219e+002 9.997488e-001 -1.027341e+000
33298350 1.000268e+000 -3.231615e-001 6.559421e-005 -6.047068e+001 1.152519e-004 -8.376867e+001 9.992544e-001 -1.066642e+000
33598335 9.999858e-001 -4.031842e-001 8.606423e-005 -1.755139e+002 1.391884e-004 -1.689147e+002 9.991130e-001 -1.016160e+000
33898320 9.997104e-001 -3.812324e-001 6.881262e-005 -1.000326e+002 3.109389e-004 -1.228533e+002 1.000122e+000 -1.040699e+000
34198305 1.000383e+000 -3.685174e-001 1.116317e-004 -1.131686e+001 1.322917e-004 2.338212e+001 9.981766e-001 -1.059713e+000
34498290 1.000213e+000 -3.671446e-001 2.750210e-005 -2.757867e+001 6.109258e-005 -1.171893e+002 9.980389e-001 -1.059862e+000
34798275 1.000063e+000 -3.740130e-001 2.634714e-005 6.955924e+001 2.286404e-004 1.062226e+002 9.976024e-001 -1.047275e+000
35098260 1.000295e+000 -4.189225e-001 1.089783e-004 -9.260695e+000 1.865392e-004 -1.374469e+002 9.998146e-001 -1.024371e+000
35398245 9.997051e-001 -4.359862e-001 9.807976e-005 2.369921e+001 1.170318e-004 3.441687e+001 1.001179e+000 -1.107585e+000
35698230 1.000190e+000 -4.301589e-001 5.847617e-005 8.680637e+001 1.596070e-004 -1.599967e+002 9.998248e-001 -1.105294e+000
35998215 1.000820e+000 -4.242187e-001 1.674176e-004 -1.742950e+001 1.381665e-004 -8.972431e+000 1.000272e+000 -1.105693e+000
36298200 1.000283e+000 -4.159953e-001 1.007416e-004 7.026407e+001 1.226334e-004 -1.002490e+002 9.995223e-001 -1.154633e+000
36598185 1.000506e+000 -3.902721e-001 3.558968e-005 -1.553779e+002 2.992374e-004 -2.914446e+000 9.982389e-001 -1.107315e+000
36898170 1.001441e+000 -4.156212e-001 4.388351e-005 -1.383678e+002 1.880564e-004 1.448578e+002 9.988307e-001 -1.117497e+000
37198155 1.000793e+000 -3.917374e-001 1.164204e-004 -4.627080e+001 2.228457e-004 -5.748529e-002 9.997398e-001 -1.176223e+000
37498140 1.000206e+000 -3.640910e-001 3.070867e-005 3.225278e+001 2.203475e-004 1.321001e+002 9.991689e-001 -1.143020e+000
37798125 1.000183e+000 -3.779727e-001 1.896488e-004 -1.142361e+002 1.865332e-004 1.655780e+001 9.994394e-001 -1.208742e+000
38098110 1.000361e+000 -3.988255e-001 5.261585e-005 6.134818e+001 1.889567e-004 1.709149e+002 9.988751e-001 -1.180891e+000
38398095 9.997886e-001 -3.905509e-001 4.115330e-005 5.908789e+001 1.685025e-004 -2.073768e+001 9.986455e-001 -1.242739e+000
38698080 1.000214e+000 -4.282663e-001 1.773290e-005 6.016561e+001 1.834582e-004 -7.792892e+001 9.986250e-001 -1.258931e+000
38998065 1.000440e+000 -4.058225e-001 4.058029e-005 1.103878e+002 4.554337e-005 6.243350e+001 9.981111e-001 -1.139678e+000
39298050 1.000719e+000 -3.959331e-001 7.028325e-005 9.444025e+001 3.369377e-004 -1.495175e+002 9.986700e-001 -1.234491e+000
39598035 1.000686e+000 -3.834836e-001 1.121960e-004 7.461513e+001 1.654447e-004 4.496680e+001 9.992939e-001 -1.151370e+000
39898020 1.001002e+000 -3.553288e-001 5.226211e-005 -7.234110e+001 5.530974e-005 1.163786e+001 1.000789e+000 -1.095017e+000
40198005 9.995888e-001 -4.480322e-001 9.771623e-005 1.779963e+002 1.687410e-004 1.138778e+002 9.989184e-001 -1.272812e+000
40497990 1.000444e+000 -4.663832e-001 7.975582e-005 2.107914e+000 1.568205e-004 -7.154010e+001 9.981253e-001 -1.262468e+000
40797975 1.001444e+000 -3.825746e-001 7.980545e-005 -4.094354e-001 2.917513e-004 -5.057327e+001 9.990333e-001 -1.334812e+000
41097960 9.994441e-001 -3.568247e-001 1.487811e-004 5.673865e+001 7.241834e-005 4.871416e+000 9.995820e-001 -1.353304e+000
41397945 9.997600e-001 -4.098442e-001 1.534338e-004 1.103108e+002 3.115493e-004 -1.607047e+002 9.999337e-001 -1.195378e+000
41697930 9.996995e-001 -3.664945e-001 1.560568e-005 1.035893e+002 1.885279e-004 9.734820e+001 9.994974e-001 -1.290948e+000
41997915 1.000627e+000 -4.038013e-001 1.362398e-004 1.743704e+002 4.773074e-004 -1.503936e+002 9.994244e-001 -1.222991e+000
42297900 1.000790e+000 -3.818468e-001 2.857004e-004 1.454322e+001 4.219559e-004 -1.340834e+002 9.981391e-001 -1.202568e+000
42597885 1.000155e+000 -4.325962e-001 1.882409e-004 -3.241129e+001 9.715257e-005 -4.002168e+001 9.997236e-001 -1.371567e+000
42897870 1.000440e+000 -4.450109e-001 1.320053e-004 -8.489645e+001 3.265108e-004 1.581539e+002 1.000213e+000 -1.349106e+000
43197855 1.001022e+000 -4.274715e-001 1.201011e-004 -3.022282e+001 2.968712e-004 -1.755600e+002 9.984406e-001 -1.364181e+000
43497840 1.000414e+000 -4.785108e-001 1.055410e-004 -1.151299e+002 3.163518e-004 -1.692971e+002 9.999430e-001 -1.354512e+000
43797825 9.999709e-001 -4.911229e-001 1.251985e-004 -2.461110e+001 2.086739e-004 1.314663e+002 9.986767e-001 -1.380242e+000
44097810 9.999557e-001 -4.170009e-001 2.019219e-004 -7.231496e+001 1.596541e-004 8.630867e+001 9.997283e-001 -1.344512e+000
44397795 1.000428e+000 -4.302436e-001 2.076983e-004 -1.637429e+002 2.550319e-004 8.524445e+001 1.000320e+000 -1.465895e+000
44697780 1.001448e+000 -4.305185e-001 1.078994e-004 3.194617e+001 1.132583e-004 1.166464e+002 9.993659e-001 -1.436116e+000
44997765 1.000980e+000 -4.342427e-001 1.548230e-005 -1.270463e+002 2.777553e-004 -8.547443e+001 1.001089e+000 -1.458078e+000
45297750 1.001133e+000 -5.316324e-001 1.017652e-004 -1.803219e+001 4.123118e-004 -1.010808e+001 1.000873e+000 -1.472535e+000
45597735 1.002156e+000 -5.173067e-001 5.671597e-005 4.424825e+001 2.554069e-004 -1.610120e+002 1.002416e+000 -1.449635e+000
45897720 1.000784e+000 -4.848043e-001 8.543077e-005 1.117069e+002 3.089690e-004 -4.727433e+001 1.002528e+000 -1.421754e+000
46197705 1.001662e+000 -4.837913e-001 1.229014e-004 1.361695e+002 8.363443e-005 1.651344e+002 1.002128e+000 -1.366906e+000
46497690 1.001607e+000 -5.116274e-001 3.824189e-005 1.363300e+002 1.368825e-004 9.597636e+001 1.001015e+000 -1.502974e+000
46797675 1.001585e+000 -4.908422e-001 5.565744e-005 -1.364122e+002 1.876870e-004 -1.610099e+002 9.998987e-001 -1.445622e+000
47097660 1.001596e+000 -4.572780e-001 1.517333e-004 -7.733143e+001 2.812035e-004 -1.491506e+002 9.992493e-001 -1.497624e+000
