!Agilent Technologies,N5230C,SG49000117,A.08.50.07
!Agilent N5230C: A.08.50.07
!Date: Friday, May 17, 2024 03:39:01
!Correction: S11(Full 2 Port(1,2)) 
!S21(Full 2 Port(1,2)) 
!S12(Full 2 Port(1,2)) 
!S22(Full 2 Port(1,2)) 
!S2P File: Measurements: S11, S21, S12, S22:
# Hz S  MA   R 50
300000 1.006679e+000 -4.056135e-001 1.310243e-004 5.161359e+001 9.301905e-005 -5.429473e+001 1.008255e+000 -8.944710e-001
599985 9.822693e-001 3.149904e-001 3.872047e-005 -1.475273e+002 2.510916e-004 1.257359e+002 9.653183e-001 2.481965e-001
899970 9.965395e-001 -8.331591e-002 1.176052e-004 4.973895e+001 1.307171e-004 -1.290342e+002 9.845305e-001 -4.280669e-001
1199955 9.976604e-001 -8.278491e-002 1.369848e-004 6.949328e+001 6.103150e-005 -1.417870e+002 9.951349e-001 -2.686493e-001
1499940 9.939905e-001 1.423156e-001 3.713217e-006 1.259358e+002 5.360406e-005 1.631228e+002 9.917548e-001 4.097911e-002
1799925 9.923392e-001 2.076362e-001 1.485591e-005 -3.190885e+001 7.357195e-005 -9.810726e+001 9.902917e-001 -2.326893e-002
2099910 9.984671e-001 -2.353724e-002 9.978363e-005 -6.975149e+001 1.918279e-004 -5.951667e+001 9.990528e-001 -6.049067e-002
2399895 9.990763e-001 -1.498704e-001 7.513454e-005 1.091004e+002 1.341690e-004 1.792706e+002 1.003978e+000 -5.270993e-002
2699880 9.989835e-001 -2.292490e-001 5.521591e-005 -1.680126e+001 5.649595e-005 -9.829499e+001 9.943759e-001 -3.165464e-001
2999865 9.998215e-001 -1.238333e-001 4.644957e-005 -8.536757e+000 1.154876e-004 -1.040837e+001 9.981721e-001 -2.131763e-001
3299850 9.998856e-001 -1.275858e-001 2.463797e-005 1.738391e+002 1.950687e-004 3.214547e+001 9.969341e-001 -3.436794e-001
3599835 1.000129e+000 -1.037491e-001 9.413034e-005 1.650841e+002 3.509581e-005 -1.228327e+002 9.970141e-001 -2.962687e-001
3899820 9.997268e-001 -1.254896e-001 4.622433e-005 -3.593348e+001 2.315550e-004 1.175921e+002 9.985121e-001 -2.799328e-001
4199805 1.000343e+000 -1.686117e-001 2.692715e-005 -7.719359e+001 9.281321e-005 -8.307226e+001 1.000057e+000 -3.621408e-001
4499790 9.998747e-001 -1.275043e-001 1.049995e-005 1.376490e+002 5.340145e-005 6.464909e+001 9.992418e-001 -2.903897e-001
4799775 1.000005e+000 -1.117644e-001 7.731194e-005 -6.479448e+001 1.652034e-004 1.556627e+002 9.997479e-001 -2.924680e-001
5099760 1.000488e+000 -1.465165e-001 8.822304e-005 -1.694217e+002 2.784656e-004 6.074408e+001 9.999172e-001 -2.379255e-001
5399745 1.000707e+000 -1.118786e-001 7.885197e-005 1.004029e+002 1.581376e-004 1.215853e+002 9.992576e-001 -1.948240e-001
5699730 9.998233e-001 -1.284135e-001 3.870725e-005 9.808654e+001 1.481564e-004 -1.068106e+002 1.000966e+000 -2.982310e-001
5999715 9.991480e-001 -8.120190e-002 4.627354e-005 1.613160e+002 7.354734e-005 -8.479046e+001 1.000475e+000 -2.632137e-001
6299700 1.000065e+000 -1.104253e-001 3.844203e-005 -8.749393e+000 2.494029e-004 9.095133e+001 9.994949e-001 -2.875913e-001
6599685 1.000022e+000 -1.244486e-001 6.583134e-005 -2.877808e+001 1.988720e-004 -8.999530e+001 9.994392e-001 -3.290425e-001
6899670 1.000288e+000 -1.003336e-001 6.294137e-005 -2.228240e+001 1.413588e-004 1.623920e+002 9.995549e-001 -2.950752e-001
7199655 1.000042e+000 -1.443494e-001 7.443893e-005 2.541126e+001 2.643221e-004 -1.742127e+002 9.994782e-001 -4.662050e-001
7499640 9.995561e-001 -1.646967e-001 1.049145e-004 -1.541724e+002 1.819166e-004 -1.682014e+002 9.998456e-001 -3.793885e-001
7799625 1.000355e+000 -1.748048e-001 4.941880e-005 5.700587e+001 6.020647e-005 1.128941e+001 9.982451e-001 -3.705321e-001
8099610 1.000048e+000 -1.485740e-001 6.613642e-005 -1.883081e+001 2.200345e-004 -1.553176e+002 9.988146e-001 -4.019393e-001
8399595 9.999223e-001 -1.601342e-001 2.611051e-005 -1.635750e+002 8.947438e-005 1.380322e+002 9.987971e-001 -4.082189e-001
8699580 9.994539e-001 -1.596439e-001 1.008478e-004 1.114295e+002 1.798150e-004 -1.166879e+002 9.988655e-001 -3.949679e-001
8999565 1.000115e+000 -1.567763e-001 2.798159e-005 2.157912e+001 1.550454e-004 1.006167e+002 9.992208e-001 -4.569945e-001
9299550 9.995580e-001 -1.790657e-001 7.668074e-005 3.163736e+000 1.629485e-004 -1.193404e+001 9.990918e-001 -4.206786e-001
9599535 9.999910e-001 -2.071638e-001 2.310841e-005 8.841039e+001 8.871821e-005 1.456415e+002 9.972580e-001 -5.382889e-001
9899520 1.000090e+000 -2.743853e-001 6.715623e-005 -1.777914e+001 1.353521e-004 -1.535488e+002 9.959036e-001 -6.581920e-001
10199505 1.000432e+000 -1.492473e-001 8.762139e-006 8.960149e+001 8.388112e-005 1.035977e+002 9.980197e-001 -4.025198e-001
10499490 9.993498e-001 -1.384693e-001 1.543479e-005 8.434526e+001 1.311307e-004 -6.437136e+001 9.980378e-001 -4.216305e-001
10799475 9.994419e-001 -1.284270e-001 3.470042e-005 7.653532e+001 1.024388e-004 -7.291982e+001 9.973925e-001 -4.021507e-001
11099460 1.000008e+000 -1.327378e-001 6.916490e-005 -1.644660e+002 1.758005e-004 -2.140296e+001 9.999238e-001 -4.377584e-001
11399445 1.000226e+000 -1.283872e-001 8.682507e-005 1.739748e+002 2.361279e-004 -1.170601e+002 9.971103e-001 -4.375084e-001
11699430 9.998791e-001 -1.512569e-001 4.035551e-005 -8.198598e+001 1.031576e-004 -1.188581e+002 9.998463e-001 -3.945162e-001
11999415 9.994361e-001 -1.387407e-001 1.627662e-004 -1.613195e+002 7.219496e-005 3.407735e+001 9.997774e-001 -4.188776e-001
12299400 9.997796e-001 -1.760430e-001 2.786074e-005 1.838070e+001 7.486032e-005 -6.778418e+001 9.995853e-001 -4.722716e-001
12599385 1.000171e+000 -1.855156e-001 1.647829e-004 1.428063e+001 8.629584e-005 3.633808e+001 9.995435e-001 -5.545229e-001
12899370 1.000442e+000 -1.777754e-001 5.841684e-005 1.577740e+002 9.626606e-005 1.516366e+002 1.000168e+000 -6.598407e-001
13199355 1.000134e+000 -1.851194e-001 4.933191e-005 -8.156755e+001 1.851163e-004 -7.479702e+000 9.973704e-001 -4.691258e-001
13499340 9.999403e-001 -2.203369e-001 2.234316e-005 1.664119e+001 2.691533e-004 8.680252e+001 9.980450e-001 -5.213443e-001
13799325 9.996048e-001 -2.059538e-001 7.326464e-005 -1.237810e+002 1.819079e-004 7.551722e+001 9.980009e-001 -5.394692e-001
14099310 1.000080e+000 -2.131164e-001 2.434020e-005 -3.207297e+001 2.188718e-004 -1.299686e+002 9.988086e-001 -5.299938e-001
14399295 9.997483e-001 -1.856631e-001 5.294197e-005 2.185807e+001 3.455653e-004 -1.590108e+001 9.987909e-001 -4.961227e-001
14699280 9.998155e-001 -1.859102e-001 2.510628e-005 1.336094e+002 6.299325e-005 -1.587600e+002 9.985785e-001 -5.987864e-001
14999265 9.997280e-001 -2.152314e-001 4.902729e-005 6.809595e+001 3.502275e-004 5.431969e+001 9.987100e-001 -5.898542e-001
15299250 9.996096e-001 -1.975497e-001 3.436546e-005 8.473637e+001 2.155797e-004 -1.528396e+002 9.981594e-001 -5.622081e-001
15599235 9.999084e-001 -2.089835e-001 7.060497e-005 -8.900776e+001 7.179213e-005 3.558378e+001 9.986604e-001 -6.169545e-001
15899220 1.000342e+000 -1.894279e-001 7.346779e-005 4.737776e+001 1.542177e-004 1.145650e+002 9.992726e-001 -5.844589e-001
16199205 1.000582e+000 -2.054323e-001 4.735392e-005 1.185596e+002 1.308562e-004 -1.031096e+002 9.992836e-001 -5.280878e-001
16499190 1.000488e+000 -1.637434e-001 4.626293e-005 1.349097e+002 3.412541e-004 1.553338e+002 1.001124e+000 -6.128430e-001
16799175 9.996414e-001 -2.063533e-001 4.834190e-005 -1.544999e+002 6.584176e-005 -1.042669e+001 1.000574e+000 -5.868036e-001
17099160 1.000484e+000 -2.381638e-001 3.411049e-005 1.286344e+002 3.928847e-004 1.003918e+002 9.993396e-001 -6.448314e-001
17399145 1.000251e+000 -2.737599e-001 9.333878e-005 2.698234e+001 2.756997e-004 -8.969511e+001 1.000383e+000 -5.679489e-001
17699130 1.000020e+000 -2.260591e-001 8.452328e-005 -4.332218e+001 1.193619e-004 5.197354e+001 9.995527e-001 -5.509318e-001
17999115 9.999191e-001 -1.930571e-001 1.554066e-004 -1.179775e+002 1.311443e-004 1.684294e+002 9.990871e-001 -6.950592e-001
18299100 1.000256e+000 -1.947921e-001 4.108267e-005 1.234510e+002 2.541657e-004 2.736647e+000 9.987116e-001 -7.665049e-001
18599085 1.000400e+000 -2.346107e-001 1.729872e-005 -9.685973e+001 2.621771e-004 1.545419e+002 9.984195e-001 -6.927732e-001
18899070 1.000197e+000 -2.552936e-001 5.886166e-005 1.250951e+002 1.970846e-004 3.591644e+001 9.991249e-001 -6.716483e-001
19199055 1.000305e+000 -2.071646e-001 6.593941e-005 -2.361865e+001 2.435905e-004 -1.550854e+002 9.972097e-001 -6.350082e-001
19499040 1.000607e+000 -2.490601e-001 8.198331e-005 -1.740231e+002 9.647120e-005 6.724694e+001 9.993812e-001 -6.573121e-001
19799025 1.000934e+000 -1.979622e-001 8.142561e-005 -3.005911e+001 4.942776e-004 1.179835e+002 9.983079e-001 -6.580771e-001
20099010 9.999337e-001 -2.310737e-001 3.867755e-005 -1.485869e+001 6.050363e-005 5.530519e+001 9.982836e-001 -7.109397e-001
20398995 9.999417e-001 -2.460195e-001 1.935790e-005 -4.990088e+001 3.519151e-004 7.181956e+001 9.984010e-001 -7.957656e-001
20698980 9.994581e-001 -2.111308e-001 3.271255e-005 9.139943e+001 2.076378e-004 -5.167315e+001 9.995204e-001 -7.406934e-001
20998965 9.989762e-001 -2.344274e-001 8.678435e-005 6.792924e+001 1.871386e-004 -1.326587e+002 9.989607e-001 -7.382188e-001
21298950 9.992557e-001 -2.056330e-001 6.501855e-005 2.113258e+001 2.680706e-004 -1.473410e+001 9.974091e-001 -6.880070e-001
21598935 9.994937e-001 -2.516453e-001 3.248432e-005 -1.297322e+002 8.610255e-005 -1.271059e+002 9.975931e-001 -6.710215e-001
21898920 9.998186e-001 -2.732766e-001 9.822937e-005 1.027782e+002 1.560408e-004 -1.311117e+002 9.972240e-001 -7.322346e-001
22198905 1.000266e+000 -2.472702e-001 5.091006e-005 -1.278589e+002 1.461336e-004 9.621133e+001 9.974641e-001 -7.516999e-001
22498890 1.000015e+000 -2.525734e-001 6.466065e-005 -6.155769e+001 1.854537e-004 -8.544473e+001 9.997544e-001 -7.339340e-001
22798875 9.997509e-001 -2.444355e-001 7.911139e-005 -4.281170e+001 2.126741e-004 9.555587e+001 9.995969e-001 -7.633697e-001
23098860 1.000500e+000 -2.608598e-001 3.772120e-005 1.522202e+002 3.369435e-004 -1.205501e+002 9.992403e-001 -7.879403e-001
23398845 1.000895e+000 -2.868292e-001 5.524022e-005 -3.212252e+001 9.937358e-005 -6.485194e+001 9.978697e-001 -8.819997e-001
23698830 1.001133e+000 -2.678271e-001 5.984029e-005 -1.366466e+002 1.914133e-004 -7.733841e+001 9.982070e-001 -8.197770e-001
23998815 1.000650e+000 -2.948040e-001 8.768175e-005 -1.543578e+002 1.307334e-004 8.395620e+001 9.980092e-001 -8.298095e-001
24298800 9.997804e-001 -2.878463e-001 7.204677e-005 1.179442e+001 2.644405e-004 1.160608e+000 9.979242e-001 -8.559902e-001
24598785 9.998654e-001 -2.908313e-001 1.003158e-004 1.424963e+002 7.394515e-005 -6.088942e+000 9.979209e-001 -8.783981e-001
24898770 1.000105e+000 -3.435635e-001 1.182452e-004 -3.332462e+001 1.213703e-004 -1.747799e+001 9.980832e-001 -8.681885e-001
25198755 1.000181e+000 -2.881675e-001 3.453936e-005 8.968897e+001 1.188041e-005 7.042181e+001 9.995779e-001 -8.809962e-001
25498740 9.997566e-001 -3.083797e-001 4.171006e-005 -1.343147e+002 2.387119e-004 1.267018e+002 9.981537e-001 -8.942155e-001
25798725 9.994770e-001 -2.985720e-001 1.345138e-005 1.428554e+002 3.836815e-004 -9.141441e+001 9.997573e-001 -8.850738e-001
26098710 1.000118e+000 -2.871562e-001 7.784863e-005 1.525726e+002 4.318580e-004 5.793980e+001 9.994705e-001 -9.663654e-001
26398695 1.001051e+000 -2.724129e-001 6.620388e-005 -5.631004e+001 2.395171e-004 -9.615431e+001 9.995111e-001 -9.485111e-001
26698680 1.000811e+000 -3.100407e-001 1.019645e-004 1.511706e+002 8.774710e-005 -4.141629e+000 9.990123e-001 -9.037855e-001
26998665 1.000701e+000 -2.815285e-001 4.160673e-005 -1.663712e+002 2.072768e-004 1.520737e+002 9.980233e-001 -8.979291e-001
27298650 1.000627e+000 -2.738063e-001 2.009242e-005 5.782250e+001 1.045022e-004 -2.917877e+001 9.973134e-001 -9.722324e-001
27598635 9.996956e-001 -3.013870e-001 3.458037e-005 -1.010799e+002 2.275838e-004 -1.437043e+002 1.000185e+000 -9.211797e-001
27898620 1.000716e+000 -2.757828e-001 2.215479e-004 -7.692147e+001 1.945071e-004 5.700545e+001 9.997709e-001 -9.631334e-001
28198605 1.000034e+000 -3.216330e-001 1.176771e-004 -1.182502e+002 2.431329e-004 -8.436572e+001 9.998428e-001 -9.443194e-001
28498590 9.998357e-001 -3.350378e-001 5.675687e-005 -1.615541e+002 1.313408e-004 -4.043688e+000 9.987001e-001 -1.013762e+000
28798575 9.997867e-001 -3.477594e-001 1.244452e-004 1.115316e+002 1.203703e-004 8.716650e+001 9.985613e-001 -1.043669e+000
29098560 1.000399e+000 -3.330801e-001 1.537742e-004 1.198865e+002 2.682975e-004 4.886331e+001 9.984444e-001 -9.957330e-001
29398545 1.000071e+000 -3.122283e-001 3.100837e-005 7.891854e+001 9.523040e-005 -5.813589e+001 9.990292e-001 -9.445750e-001
29698530 1.000437e+000 -3.062472e-001 3.693375e-006 1.370657e+002 5.682109e-005 4.043856e+001 9.999468e-001 -9.297870e-001
29998515 1.000398e+000 -3.344224e-001 4.089181e-005 1.472189e+002 1.419841e-004 1.790770e+002 9.994318e-001 -1.028251e+000
30298500 9.996077e-001 -3.134890e-001 1.489773e-004 -6.671297e+001 2.781751e-004 5.753457e+001 1.001215e+000 -1.038191e+000
30598485 1.000705e+000 -3.006040e-001 1.176928e-004 -4.832353e+000 1.727612e-004 1.261492e+002 9.990077e-001 -1.057634e+000
30898470 1.000207e+000 -3.237823e-001 4.412642e-005 1.109691e+002 2.869746e-004 6.099104e+001 9.986692e-001 -1.047565e+000
31198455 1.000743e+000 -3.300530e-001 8.435707e-005 1.214828e+002 1.355501e-004 -1.799212e+002 9.981259e-001 -1.047379e+000
31498440 1.000429e+000 -3.731583e-001 6.825430e-005 -1.747408e+002 4.761601e-005 4.582421e+001 9.991603e-001 -1.003167e+000
31798425 1.000453e+000 -3.726206e-001 5.891536e-005 4.432435e+000 1.584482e-004 -1.561022e+002 9.999720e-001 -1.042939e+000
32098410 1.000614e+000 -3.901695e-001 1.309123e-004 1.691146e+002 2.115277e-004 -7.974030e+001 1.000572e+000 -1.006568e+000
32398395 1.000886e+000 -3.564271e-001 9.544110e-005 -1.135205e+002 3.425803e-004 -1.794816e+002 1.000427e+000 -9.510527e-001
32698380 1.000914e+000 -3.571146e-001 9.725762e-005 5.266858e+001 1.867820e-004 -1.055413e+001 9.999985e-001 -1.064707e+000
32998365 1.000134e+000 -3.509507e-001 1.111386e-004 1.416875e+001 1.772914e-004 1.121168e+002 9.991483e-001 -1.140494e+000
33298350 9.999208e-001 -3.685838e-001 1.619139e-004 1.150665e+002 7.101152e-005 1.318607e+002 9.987954e-001 -1.109167e+000
33598335 9.998510e-001 -3.624223e-001 1.174442e-005 -1.666053e+001 8.290540e-005 2.494004e+001 9.983059e-001 -1.053846e+000
33898320 9.999519e-001 -3.548210e-001 1.052261e-004 7.243626e+001 1.289465e-004 -1.038999e+002 9.992666e-001 -1.055868e+000
34198305 1.000404e+000 -4.177985e-001 1.363345e-004 -1.148111e+002 3.182274e-004 1.195870e+002 9.981900e-001 -1.112504e+000
34498290 9.996614e-001 -3.579694e-001 5.762432e-005 -9.264547e+001 2.567164e-004 -5.600414e+001 9.981472e-001 -1.188446e+000
34798275 9.994967e-001 -4.023558e-001 5.118563e-005 -5.747865e+001 3.132315e-004 4.601075e+001 9.986089e-001 -1.127463e+000
35098260 1.000324e+000 -3.766344e-001 6.939292e-005 -1.524080e+001 1.571134e-004 -9.003147e+001 9.992630e-001 -1.127983e+000
35398245 1.000183e+000 -4.077511e-001 3.467640e-005 8.365409e+001 1.334042e-004 7.457575e+001 9.997187e-001 -1.084037e+000
35698230 9.999063e-001 -4.422932e-001 7.288005e-005 -7.945779e+001 1.176347e-004 -1.133266e+002 1.000504e+000 -1.186004e+000
35998215 9.996747e-001 -4.219628e-001 4.736328e-005 -1.034263e+002 1.425445e-004 1.064070e+002 9.993305e-001 -1.192734e+000
36298200 9.999667e-001 -4.109538e-001 5.800273e-005 8.558022e+000 5.038187e-005 1.603417e+002 9.985585e-001 -1.236490e+000
36598185 9.999639e-001 -3.989521e-001 1.083517e-004 -1.541449e+002 4.618716e-005 -4.387175e+001 9.981699e-001 -1.180598e+000
36898170 1.001166e+000 -3.986121e-001 3.718121e-005 -9.499398e+001 2.850284e-004 1.705336e+002 9.989846e-001 -1.216988e+000
37198155 1.000253e+000 -3.810945e-001 7.146569e-005 1.355801e+001 7.353383e-005 9.109394e+001 9.987806e-001 -1.185995e+000
37498140 1.000122e+000 -3.778564e-001 1.484897e-004 3.469205e+001 1.371091e-004 9.512462e+001 9.985763e-001 -1.206619e+000
37798125 1.000255e+000 -4.000776e-001 1.371745e-004 -7.844436e+001 8.319567e-005 -4.716937e+001 1.000085e+000 -1.229972e+000
38098110 9.993122e-001 -4.042603e-001 8.670297e-005 -8.294510e+001 2.010782e-004 7.207565e+001 9.986709e-001 -1.258653e+000
38398095 9.995869e-001 -3.764580e-001 6.241346e-005 -9.741805e+001 2.665891e-004 -1.172743e+002 9.984570e-001 -1.299657e+000
38698080 9.994565e-001 -4.077877e-001 1.225190e-004 -1.001233e+002 1.293370e-004 9.792026e+001 9.982331e-001 -1.285701e+000
38998065 1.000020e+000 -4.394715e-001 6.424436e-005 -1.461222e+001 1.787349e-004 -1.358477e+002 9.984150e-001 -1.282706e+000
39298050 1.000647e+000 -4.035063e-001 1.215044e-004 -9.381824e+001 8.357815e-005 3.070501e+001 9.985766e-001 -1.273801e+000
39598035 1.001445e+000 -4.053379e-001 9.471711e-005 1.902553e+001 1.525554e-004 -8.748576e+001 9.992937e-001 -1.182202e+000
39898020 1.001284e+000 -3.740365e-001 1.233036e-004 -1.021243e+002 1.111427e-004 1.487884e+002 1.000219e+000 -1.210517e+000
40198005 9.997578e-001 -4.552520e-001 2.165770e-005 1.719378e+002 2.420524e-004 2.710135e+001 9.996844e-001 -1.344752e+000
40497990 1.000986e+000 -4.997169e-001 2.912071e-004 2.750447e+001 1.196717e-004 1.160509e+002 9.986221e-001 -1.388770e+000
40797975 1.001163e+000 -3.140084e-001 5.613453e-005 -1.713753e+002 2.483796e-004 1.563999e-001 9.983917e-001 -1.391575e+000
41097960 1.001242e+000 -4.207196e-001 1.533989e-004 4.294071e+001 1.967188e-004 1.776845e+002 9.999539e-001 -1.311181e+000
41397945 9.990263e-001 -3.675911e-001 1.875672e-004 -1.933286e+001 8.301559e-005 1.005915e+001 9.981269e-001 -1.255121e+000
41697930 9.991111e-001 -4.092556e-001 2.521507e-005 1.254447e+002 2.529366e-004 -1.180923e+002 1.000364e+000 -1.239286e+000
41997915 1.000625e+000 -3.950674e-001 1.932673e-004 -1.072649e+002 1.729867e-004 1.098957e+002 9.994215e-001 -1.332173e+000
42297900 1.000602e+000 -4.146339e-001 1.445152e-004 1.402915e+001 2.675420e-004 2.882588e+001 9.986960e-001 -1.270558e+000
42597885 9.999981e-001 -4.152094e-001 1.462867e-004 9.612141e+001 2.082486e-004 -1.783527e+002 1.001020e+000 -1.311459e+000
42897870 1.000269e+000 -4.114001e-001 2.502893e-004 1.827376e+000 2.319817e-004 -1.159140e+002 9.990404e-001 -1.440473e+000
43197855 1.000690e+000 -4.401196e-001 9.376968e-005 -1.579397e+001 2.998652e-004 7.694701e+001 9.990877e-001 -1.427599e+000
43497840 1.000694e+000 -4.925143e-001 9.706927e-005 4.860747e+001 2.295061e-004 1.647866e+002 9.990247e-001 -1.398871e+000
43797825 1.000888e+000 -3.956971e-001 1.062562e-004 1.214497e+002 3.872589e-004 -1.442351e+001 9.997257e-001 -1.438524e+000
44097810 1.001175e+000 -4.206175e-001 1.507708e-004 -4.613754e+001 6.712140e-005 -1.052841e+002 9.986757e-001 -1.526254e+000
44397795 1.000772e+000 -4.649830e-001 5.178652e-005 -9.910271e+001 1.467364e-004 1.656694e+002 9.987804e-001 -1.426853e+000
44697780 1.001066e+000 -4.152898e-001 7.780411e-005 -9.623675e+001 1.611371e-004 -8.848643e+001 1.000266e+000 -1.417972e+000
44997765 1.001295e+000 -5.404180e-001 2.521157e-004 -1.118790e+001 1.006513e-004 1.411934e+002 9.991248e-001 -1.548185e+000
45297750 1.001388e+000 -5.242912e-001 8.530147e-005 1.696458e+002 3.574892e-004 -1.520053e+002 1.002410e+000 -1.449610e+000
45597735 1.001016e+000 -4.960871e-001 1.001051e-004 3.339096e+001 4.976523e-005 8.309209e+001 1.000515e+000 -1.457397e+000
45897720 1.000583e+000 -4.636275e-001 1.006825e-004 -1.709484e+002 1.901396e-004 1.056175e+002 1.000308e+000 -1.382334e+000
46197705 1.000625e+000 -4.413480e-001 1.180591e-004 -9.096239e+001 1.529789e-004 8.183852e+001 1.000209e+000 -1.388116e+000
46497690 1.002030e+000 -4.707881e-001 1.171719e-004 3.480792e+001 2.214146e-004 -4.152780e+001 9.997146e-001 -1.598621e+000
46797675 1.001714e+000 -4.844063e-001 5.191646e-005 1.122398e+002 3.267188e-004 1.243551e+002 1.000397e+000 -1.516014e+000
47097660 1.000842e+000 -4.757721e-001 8.979569e-005 9.147725e+001 1.880588e-004 -1.378810e+002 1.000298e+000 -1.595488e+000
47397645 1.001000e+000 -4.958159e-001 2.995800e-005 1.686178e+002 2.323198e-004 1.726552e+002 9.991928e-001 -1.529807e+000
