!Agilent Technologies,N5230C,SG49000117,A.08.50.07
!Agilent N5230C: A.08.50.07
!Date: Friday, May 17, 2024 03:38:08
!Correction: S11(Full 2 Port(1,2)) 
!S21(Full 2 Port(1,2)) 
!S12(Full 2 Port(1,2)) 
!S22(Full 2 Port(1,2)) 
!S2P File: Measurements: S11, S21, S12, S22:
# Hz S  MA   R 50
300000 1.006559e+000 -5.224521e-001 1.345420e-004 2.568110e+000 3.290389e-004 6.076894e+001 1.009828e+000 -9.919062e-001
599985 9.829473e-001 3.955434e-001 6.864415e-005 -1.548068e+002 2.037429e-004 -1.290984e+002 9.641476e-001 3.522056e-001
899970 9.973336e-001 -6.549726e-002 8.313364e-005 -5.806330e+001 6.135917e-005 1.638813e+002 9.832260e-001 -4.431443e-001
1199955 9.981182e-001 -6.754053e-002 7.662577e-005 6.977173e+001 1.778739e-004 1.599845e+002 9.955122e-001 -2.411265e-001
1499940 9.941537e-001 1.051259e-001 8.885742e-005 -1.325200e+002 9.137336e-005 2.600179e+001 9.913037e-001 -1.348491e-002
1799925 9.915108e-001 2.007275e-001 7.252369e-005 -2.360690e+001 5.750676e-005 7.070182e+001 9.896803e-001 -7.570311e-002
2099910 9.984145e-001 -5.415136e-003 7.140180e-005 -9.404524e+001 2.220059e-004 -1.035206e+002 9.976466e-001 2.135919e-002
2399895 9.993243e-001 -1.735079e-001 8.945284e-005 4.713707e+001 9.706446e-005 -1.472908e+002 1.002157e+000 -8.644798e-002
2699880 1.000119e+000 -2.685346e-001 1.323274e-004 -1.375879e+002 1.263340e-004 -1.609164e+000 9.935159e-001 -2.802527e-001
2999865 9.997144e-001 -1.317378e-001 1.595635e-004 1.121029e+002 1.253362e-004 -8.032729e+001 9.970867e-001 -2.347759e-001
3299850 1.000401e+000 -1.225609e-001 5.562488e-005 7.630287e+001 1.750900e-004 7.328179e+001 9.960522e-001 -2.403687e-001
3599835 1.000075e+000 -1.030257e-001 5.778138e-005 -1.657572e+001 2.742411e-004 1.056149e+002 9.964988e-001 -2.974283e-001
3899820 9.998173e-001 -1.389493e-001 6.616401e-005 -1.522585e+002 8.536228e-005 -3.619494e+001 9.967969e-001 -2.192202e-001
4199805 1.000492e+000 -1.884839e-001 5.932786e-005 -8.674003e+000 1.366843e-004 8.346825e+001 9.977555e-001 -3.270316e-001
4499790 1.000364e+000 -1.445430e-001 1.058232e-004 -1.740417e+002 5.948319e-005 4.318200e+001 9.992836e-001 -3.317093e-001
4799775 1.000333e+000 -1.301383e-001 4.462435e-005 -1.346586e+002 1.807848e-004 2.075597e+001 9.985049e-001 -3.263895e-001
5099760 1.000222e+000 -1.285077e-001 3.916048e-005 -1.096611e+001 1.914777e-004 -5.782735e+001 9.989130e-001 -2.871088e-001
5399745 1.000580e+000 -1.022837e-001 6.038635e-005 7.588540e+001 7.136435e-005 5.288505e+001 9.983979e-001 -2.214884e-001
5699730 1.000103e+000 -1.290778e-001 1.145370e-004 9.936996e+001 1.009208e-004 -1.432096e+000 9.993509e-001 -3.040865e-001
5999715 9.995997e-001 -7.989151e-002 8.058300e-005 7.129308e+001 1.324226e-004 1.000466e+002 9.985012e-001 -2.245951e-001
6299700 1.000057e+000 -1.115784e-001 4.769398e-005 8.153823e+001 2.119779e-004 -2.556274e+000 9.991882e-001 -2.997528e-001
6599685 9.999399e-001 -1.351644e-001 5.321193e-005 -1.563191e+002 9.266107e-005 -1.477999e+002 9.984306e-001 -3.285842e-001
6899670 1.000032e+000 -1.250599e-001 6.459102e-005 1.070316e+002 8.869836e-005 -1.632975e+002 9.980821e-001 -3.572626e-001
7199655 9.997984e-001 -1.406536e-001 7.350247e-005 1.891429e+001 8.320674e-005 3.537614e+001 9.992861e-001 -3.581847e-001
7499640 9.996551e-001 -1.832951e-001 2.775346e-005 -5.149366e+001 6.882918e-005 6.126523e+001 9.989510e-001 -4.480022e-001
7799625 1.000354e+000 -1.269147e-001 1.236865e-004 2.947220e+001 1.432214e-004 1.689673e+002 9.966651e-001 -3.454518e-001
8099610 9.999492e-001 -1.632363e-001 1.685245e-005 1.128097e+001 8.053389e-005 -1.214330e+002 9.977130e-001 -4.365689e-001
8399595 1.000094e+000 -1.279424e-001 2.424090e-005 -1.443725e+002 2.544396e-004 -1.475380e+002 9.975312e-001 -4.958218e-001
8699580 1.000136e+000 -1.326041e-001 5.200735e-005 -8.429817e+001 2.356798e-004 -7.141017e+001 9.987198e-001 -4.206178e-001
8999565 9.996547e-001 -1.843774e-001 3.468462e-005 -1.214060e+002 1.682876e-004 1.052138e+002 9.977376e-001 -4.458372e-001
9299550 9.995247e-001 -1.367268e-001 4.341447e-005 -7.044766e+001 2.714066e-004 1.679380e+002 9.980874e-001 -4.162437e-001
9599535 9.999576e-001 -1.835086e-001 3.876210e-006 -7.762788e+001 1.599317e-004 1.532904e+002 9.968650e-001 -5.989051e-001
9899520 1.000098e+000 -2.622788e-001 9.876069e-005 -1.180244e+002 7.114442e-005 6.473289e+001 9.955012e-001 -6.707001e-001
10199505 9.991080e-001 -1.141394e-001 7.111001e-005 1.760011e+002 1.097723e-004 -1.653084e+002 9.975054e-001 -4.954380e-001
10499490 9.998175e-001 -1.452544e-001 5.346528e-005 1.160027e+002 1.598796e-004 1.391787e+002 9.974859e-001 -4.576165e-001
10799475 9.994925e-001 -1.350024e-001 3.075381e-005 -1.407709e+002 6.483967e-005 9.662528e+000 9.968132e-001 -4.432314e-001
11099460 9.995740e-001 -1.521564e-001 5.200185e-005 -9.611720e+000 1.093992e-004 1.432440e+001 9.978327e-001 -3.994576e-001
11399445 1.000334e+000 -1.405093e-001 2.706256e-005 1.663038e+002 2.359426e-004 1.130084e+002 9.976990e-001 -4.843844e-001
11699430 9.996777e-001 -1.324974e-001 5.499069e-005 -1.042277e+002 1.295136e-004 -9.316865e+001 9.983216e-001 -4.436887e-001
11999415 1.000073e+000 -1.790884e-001 6.078386e-005 -3.651752e-002 1.613149e-004 1.648532e+002 9.991470e-001 -4.365894e-001
12299400 1.000096e+000 -1.551208e-001 4.156692e-005 -3.969576e+001 2.715949e-004 4.708774e+001 9.992600e-001 -4.596403e-001
12599385 1.000081e+000 -1.586521e-001 9.256959e-005 3.583223e+001 1.600931e-004 8.353106e+001 9.978875e-001 -5.573655e-001
12899370 1.000341e+000 -2.080351e-001 5.080811e-005 -6.621229e+001 4.004311e-005 -1.781877e+001 9.976969e-001 -6.366162e-001
13199355 1.000100e+000 -1.959147e-001 1.263442e-004 -5.524365e+001 1.155226e-004 -9.811120e+001 9.981282e-001 -5.638804e-001
13499340 1.000192e+000 -1.863529e-001 5.466787e-005 2.654753e+001 1.213459e-004 -1.069517e+002 9.962571e-001 -5.085617e-001
13799325 1.000107e+000 -2.003704e-001 2.060088e-005 4.170147e+001 2.509285e-004 3.616100e+001 9.972813e-001 -5.428092e-001
14099310 1.000026e+000 -1.898384e-001 9.124570e-005 6.716505e+001 2.327075e-004 -1.672237e+002 9.988543e-001 -5.028152e-001
14399295 1.000366e+000 -2.422672e-001 6.420318e-005 3.413873e+001 1.710422e-004 6.015561e+001 9.978462e-001 -5.978411e-001
14699280 1.000383e+000 -1.977239e-001 1.068146e-004 3.039322e+001 1.548322e-004 5.107439e+001 9.987120e-001 -5.815946e-001
14999265 9.998527e-001 -1.841624e-001 9.859741e-005 -5.322866e+001 1.134893e-004 -5.278632e+001 9.982034e-001 -6.129797e-001
15299250 9.996708e-001 -2.146877e-001 9.943968e-005 9.245554e+001 2.734582e-004 1.392110e+002 9.977190e-001 -6.090250e-001
15599235 9.996321e-001 -1.788543e-001 5.327937e-005 9.334135e+001 2.804825e-004 -1.496230e+002 9.976497e-001 -6.322421e-001
15899220 1.000158e+000 -1.774169e-001 2.414175e-005 -1.569061e+002 1.663835e-004 9.848000e+001 9.972720e-001 -6.072237e-001
16199205 1.000057e+000 -2.080881e-001 4.425273e-005 1.627712e+002 1.723237e-004 -1.397373e+002 9.992937e-001 -5.915670e-001
16499190 1.000287e+000 -1.835802e-001 7.026892e-005 6.419287e+000 1.818272e-004 1.189038e+002 9.994178e-001 -6.896658e-001
16799175 1.000557e+000 -1.635718e-001 4.137140e-005 1.187486e+002 3.121189e-004 -1.109872e+002 9.993490e-001 -6.045011e-001
17099160 9.995818e-001 -2.531815e-001 4.447439e-005 -1.508942e+002 1.035877e-004 1.139947e+002 9.994930e-001 -7.288871e-001
17399145 9.998583e-001 -2.421102e-001 5.479720e-005 4.777112e+001 1.316176e-004 -1.663528e+002 9.978458e-001 -6.410242e-001
17699130 1.000289e+000 -2.064550e-001 3.744692e-005 1.344844e+002 1.509742e-004 1.415771e+001 9.997690e-001 -7.058976e-001
17999115 1.000277e+000 -2.298176e-001 5.391011e-005 8.447122e+001 2.505805e-004 -1.363780e+002 9.982693e-001 -6.660001e-001
18299100 9.996791e-001 -2.301885e-001 1.574409e-004 -1.649896e+002 1.655650e-004 4.017572e+001 9.982390e-001 -7.337499e-001
18599085 9.999241e-001 -2.188500e-001 9.682147e-005 1.040762e+002 1.623419e-004 -1.663428e+002 9.990125e-001 -7.240915e-001
18899070 1.000076e+000 -2.145360e-001 1.378831e-004 -4.064901e+001 1.578496e-004 -6.240184e+001 9.980135e-001 -6.976208e-001
19199055 1.000527e+000 -2.042386e-001 4.003385e-005 3.789165e+001 1.204506e-004 -1.541300e+002 9.971254e-001 -6.730855e-001
19499040 1.000593e+000 -2.372363e-001 8.816064e-005 -1.512759e+002 2.387189e-004 3.553937e+001 9.973996e-001 -6.804770e-001
19799025 1.000965e+000 -2.373944e-001 4.961167e-005 1.355356e+002 1.524008e-004 -1.973220e+001 9.977753e-001 -7.285609e-001
20099010 9.999912e-001 -2.529245e-001 6.083767e-005 6.576860e+001 2.614981e-004 -1.694745e+002 9.968251e-001 -6.705460e-001
20398995 9.991328e-001 -2.393122e-001 4.724489e-005 -4.975529e+001 1.407370e-004 1.288463e+002 9.970474e-001 -7.614260e-001
20698980 9.999774e-001 -2.287957e-001 8.213344e-005 1.354771e+002 2.750816e-004 -1.210512e+002 9.969088e-001 -7.915452e-001
20998965 9.996824e-001 -2.240726e-001 8.162134e-005 1.243225e+002 3.617973e-004 9.083421e+001 9.975613e-001 -7.389886e-001
21298950 1.000058e+000 -2.134736e-001 9.193359e-005 -6.786289e+001 1.524113e-004 -1.386482e+002 9.963897e-001 -7.606148e-001
21598935 9.993911e-001 -2.439295e-001 1.075253e-004 3.893403e+001 2.560980e-004 6.992619e+001 9.971479e-001 -7.237948e-001
21898920 9.993659e-001 -2.886390e-001 5.493843e-005 6.438724e+001 2.317984e-004 -6.797878e+001 9.973967e-001 -7.295387e-001
22198905 1.000412e+000 -2.316422e-001 2.440202e-005 1.796181e+002 6.806992e-005 -7.881590e+001 9.978462e-001 -8.627113e-001
22498890 1.000546e+000 -2.592257e-001 4.431071e-005 1.573038e+002 2.729560e-004 -9.456385e+001 9.983581e-001 -8.484147e-001
22798875 1.001233e+000 -2.285693e-001 8.099701e-005 1.492490e+002 9.440763e-005 4.724965e+001 9.994166e-001 -8.819270e-001
23098860 1.000551e+000 -2.597428e-001 1.076204e-004 1.352160e+002 2.217537e-004 1.700203e+002 9.985151e-001 -8.523473e-001
23398845 1.000276e+000 -2.669515e-001 8.824321e-005 -1.282986e-001 1.718341e-004 -4.263201e-001 9.982105e-001 -8.953823e-001
23698830 9.996715e-001 -2.866898e-001 8.442777e-005 1.115266e+002 1.118360e-004 1.240371e+002 9.976909e-001 -8.340368e-001
23998815 9.999655e-001 -2.517407e-001 8.291868e-005 8.489529e+001 5.224650e-005 -5.276614e+001 9.976331e-001 -7.926100e-001
24298800 9.997656e-001 -2.658483e-001 1.301982e-004 -1.666363e+002 1.802644e-004 1.226788e+002 9.975361e-001 -9.010924e-001
24598785 1.000698e+000 -3.216170e-001 7.055288e-005 2.210679e+001 1.459439e-004 -1.367281e+001 9.984236e-001 -8.969112e-001
24898770 1.000442e+000 -3.192904e-001 7.258143e-005 6.085115e+001 3.084755e-004 9.652620e+001 9.984722e-001 -8.575073e-001
25198755 1.000335e+000 -3.341923e-001 4.630435e-005 1.382166e+002 2.784264e-004 -1.052518e+002 9.980311e-001 -9.403155e-001
25498740 1.000140e+000 -2.921634e-001 7.375800e-005 -1.775983e+002 2.171384e-004 1.093765e+002 9.982222e-001 -9.084540e-001
25798725 9.999051e-001 -3.237992e-001 4.342317e-005 1.149154e+001 3.210731e-004 -1.309229e+002 9.986566e-001 -9.965441e-001
26098710 1.000918e+000 -2.664733e-001 2.523580e-005 1.692530e+002 1.542773e-004 8.593757e+001 9.989925e-001 -9.149227e-001
26398695 1.000272e+000 -2.982929e-001 2.817285e-005 4.846475e+001 1.513840e-004 -1.209989e+002 9.982732e-001 -9.167237e-001
26698680 1.001312e+000 -2.984888e-001 2.765008e-005 6.423150e+001 5.832655e-005 -7.258840e+000 9.981153e-001 -9.592438e-001
26998665 1.000380e+000 -2.972226e-001 6.672578e-005 1.580479e+002 1.310616e-004 1.658494e+002 9.976527e-001 -9.615503e-001
27298650 1.000543e+000 -3.128620e-001 9.208276e-005 -1.394041e+002 2.427383e-004 3.464898e+001 9.981200e-001 -1.008896e+000
27598635 1.000272e+000 -2.541679e-001 1.174460e-004 -6.181246e+001 9.115323e-005 -1.346770e+002 9.983422e-001 -9.407134e-001
27898620 1.000676e+000 -3.111197e-001 5.635919e-005 -7.069790e+000 1.179245e-004 5.690666e+001 9.999625e-001 -9.730543e-001
28198605 1.000320e+000 -3.084692e-001 1.161499e-004 1.049294e+001 1.864103e-004 -1.718154e+002 9.992130e-001 -1.064894e+000
28498590 9.998797e-001 -3.276541e-001 7.814715e-005 -7.692489e+001 2.515593e-004 2.100457e+001 9.978511e-001 -1.044680e+000
28798575 9.998242e-001 -3.529066e-001 1.182805e-004 5.850962e+001 2.753884e-004 -1.306414e+002 9.974486e-001 -1.054031e+000
29098560 1.000320e+000 -3.006133e-001 9.934193e-005 1.705199e+002 3.001321e-004 -8.252924e+001 9.970434e-001 -9.719080e-001
29398545 1.001139e+000 -3.260820e-001 1.141447e-004 1.353437e+002 1.734997e-004 -7.535035e+000 9.984438e-001 -1.057542e+000
29698530 1.000111e+000 -3.144832e-001 8.197536e-005 -6.787750e+001 8.486481e-005 -4.870720e+001 9.990819e-001 -1.016270e+000
29998515 1.000075e+000 -3.116134e-001 1.431127e-004 -5.434370e+001 1.600212e-004 1.676452e+002 9.994086e-001 -1.052068e+000
30298500 9.997108e-001 -3.215929e-001 9.459459e-005 8.615027e+001 2.728640e-004 8.643742e+001 9.984199e-001 -1.139765e+000
30598485 1.000343e+000 -3.153791e-001 1.589163e-005 -1.302825e+002 9.700545e-005 -1.774817e+002 9.983949e-001 -1.094543e+000
30898470 1.000391e+000 -2.662280e-001 5.865184e-005 5.780466e+001 2.724340e-004 3.416413e+000 9.977005e-001 -1.116116e+000
31198455 1.000081e+000 -2.926569e-001 7.229402e-005 -1.734158e+002 1.005607e-004 1.222420e+002 9.973066e-001 -1.164739e+000
31498440 1.000317e+000 -3.588445e-001 1.881463e-004 1.223064e+002 2.126032e-004 -1.106857e+002 9.980438e-001 -1.081337e+000
31798425 1.000264e+000 -3.641224e-001 2.269035e-004 1.349801e+002 1.660787e-004 7.189486e+001 9.987729e-001 -1.156154e+000
32098410 1.001639e+000 -3.798019e-001 5.604910e-005 1.423162e+002 1.164258e-004 -1.000952e+001 9.981091e-001 -1.060419e+000
32398395 1.000802e+000 -3.349625e-001 1.413460e-004 1.506541e+002 1.371249e-004 4.605955e+001 9.986380e-001 -1.110917e+000
32698380 1.000555e+000 -3.573802e-001 1.989331e-004 8.344936e+001 1.793581e-004 -8.722523e+001 9.976369e-001 -1.151178e+000
32998365 1.000352e+000 -3.382621e-001 8.074968e-005 3.778536e+001 1.709748e-004 6.620929e+001 9.973486e-001 -1.121040e+000
33298350 9.997871e-001 -3.382776e-001 1.022455e-004 1.720557e+002 1.001251e-004 -7.751352e+001 9.977406e-001 -1.195512e+000
33598335 1.000669e+000 -3.511519e-001 4.303077e-005 -1.314118e+002 2.801137e-004 8.747694e+001 9.979063e-001 -1.138295e+000
33898320 9.996384e-001 -3.814045e-001 8.761734e-005 -5.092493e+001 1.336242e-004 2.420311e+001 9.989115e-001 -1.131306e+000
34198305 9.994278e-001 -3.815187e-001 1.632326e-004 -4.803443e+001 1.445489e-004 6.276016e+001 9.975867e-001 -1.197331e+000
34498290 9.999246e-001 -3.993437e-001 6.095229e-005 3.590229e+001 8.565900e-005 -6.298328e+001 9.972401e-001 -1.122946e+000
34798275 1.000462e+000 -3.646029e-001 3.529070e-005 1.518592e+002 1.627351e-004 1.119880e+002 9.965674e-001 -1.170828e+000
35098260 1.000690e+000 -4.094060e-001 2.698709e-005 6.650675e+001 1.812063e-004 1.025995e+002 9.977104e-001 -1.202173e+000
35398245 9.999379e-001 -4.028934e-001 1.118690e-004 -1.682425e+002 6.782416e-005 -2.001367e+001 9.991586e-001 -1.177483e+000
35698230 1.000790e+000 -4.129449e-001 7.768143e-005 -9.290217e+001 2.071616e-004 -1.171123e+002 9.996401e-001 -1.219784e+000
35998215 9.998416e-001 -4.047207e-001 5.260520e-005 -1.125621e+002 1.744072e-004 4.693278e+001 9.983374e-001 -1.216960e+000
36298200 9.998472e-001 -4.660377e-001 1.203251e-004 -1.208977e+002 1.124039e-004 1.415694e+002 9.983708e-001 -1.294609e+000
36598185 1.000975e+000 -4.034437e-001 2.447532e-005 2.525859e+001 5.257277e-005 -1.605388e+002 9.987155e-001 -1.239119e+000
36898170 1.001041e+000 -3.962811e-001 9.504997e-005 9.287997e+001 1.182969e-004 1.623421e+002 9.976981e-001 -1.256979e+000
37198155 1.001101e+000 -4.133205e-001 9.401495e-005 -4.045073e+001 1.115649e-004 -8.964049e+001 9.974459e-001 -1.268204e+000
37498140 1.000485e+000 -4.167444e-001 4.973433e-005 -5.510382e+001 7.442542e-005 1.108644e+002 9.985850e-001 -1.282921e+000
37798125 9.993674e-001 -3.668488e-001 1.085200e-004 9.831003e+001 1.858718e-004 -3.252522e+001 9.973543e-001 -1.303444e+000
38098110 9.997986e-001 -3.771364e-001 1.905862e-004 3.150713e+001 1.701713e-004 -1.509733e+002 9.975527e-001 -1.278187e+000
38398095 9.998695e-001 -4.026167e-001 1.252966e-004 9.192048e+001 1.051909e-004 -1.365541e+002 9.971520e-001 -1.344183e+000
38698080 1.000104e+000 -3.811626e-001 1.786241e-004 -4.026082e+001 1.246653e-004 1.292974e+002 9.973645e-001 -1.407616e+000
38998065 1.000343e+000 -4.034389e-001 1.062218e-004 9.170492e+001 1.595217e-004 3.055295e+001 9.970853e-001 -1.341474e+000
39298050 1.000777e+000 -4.063545e-001 2.270325e-005 2.275706e+001 1.823095e-004 6.571102e+001 9.961057e-001 -1.355621e+000
39598035 1.000594e+000 -3.846850e-001 3.770739e-005 -2.824027e+001 1.254609e-004 -7.802094e+001 9.992256e-001 -1.302772e+000
39898020 1.001264e+000 -3.730305e-001 5.482945e-005 -1.353183e+002 1.403131e-004 1.218815e+002 9.989128e-001 -1.259723e+000
40198005 1.000387e+000 -3.481951e-001 1.012612e-004 3.919549e+001 1.156291e-004 -7.576211e+001 9.988707e-001 -1.537549e+000
40497990 1.000601e+000 -3.893895e-001 2.212118e-004 -1.221813e+002 4.287505e-004 1.208712e+002 9.980298e-001 -1.429095e+000
40797975 1.000319e+000 -4.701611e-001 8.021032e-005 4.900618e+001 2.130211e-004 -3.950316e+001 9.989777e-001 -1.387155e+000
41097960 9.991736e-001 -3.718842e-001 1.477139e-004 2.767116e+001 3.586399e-004 4.685450e+001 9.989405e-001 -1.459757e+000
41397945 9.994348e-001 -3.554808e-001 5.966111e-005 1.512079e+002 2.138331e-004 1.681992e+002 9.993127e-001 -1.351771e+000
41697930 9.995880e-001 -4.134260e-001 1.344928e-005 -1.195595e+002 3.924264e-004 1.203319e+002 9.986523e-001 -1.319334e+000
41997915 9.999968e-001 -3.732159e-001 1.224672e-004 -6.797686e+001 8.968098e-005 -1.279125e+002 9.987447e-001 -1.410854e+000
42297900 1.000267e+000 -4.261082e-001 1.958039e-004 -7.716587e+001 2.928993e-004 -3.244988e+000 9.993434e-001 -1.403971e+000
42597885 1.001202e+000 -4.298318e-001 2.106048e-004 4.015791e+001 4.188307e-004 7.884990e+001 9.993535e-001 -1.409667e+000
42897870 1.000633e+000 -4.385199e-001 4.696265e-005 -9.244867e+001 3.605117e-004 2.875246e+001 9.973810e-001 -1.403474e+000
43197855 1.000823e+000 -4.320403e-001 5.415200e-005 -7.644067e+001 8.618672e-005 -2.182761e+001 9.986204e-001 -1.503339e+000
43497840 1.001009e+000 -4.175749e-001 7.204624e-005 -1.091913e+002 1.525058e-004 6.427362e+001 9.985818e-001 -1.531484e+000
43797825 1.000331e+000 -5.117700e-001 9.116536e-005 -3.048389e+001 2.605527e-004 3.687268e+001 9.989616e-001 -1.501522e+000
44097810 1.000062e+000 -4.224237e-001 1.729408e-004 3.446974e+001 8.795306e-005 -2.951130e+001 9.979615e-001 -1.616433e+000
44397795 1.000788e+000 -4.605900e-001 2.083510e-004 -1.661333e+001 1.285311e-004 -8.373097e+001 9.989572e-001 -1.652853e+000
44697780 1.000888e+000 -4.722879e-001 1.561000e-004 1.097985e+001 2.832391e-004 -1.698406e+002 9.980311e-001 -1.704820e+000
44997765 9.993809e-001 -4.788989e-001 7.995581e-005 1.322566e+002 3.789567e-004 1.695118e+002 1.000181e+000 -1.627226e+000
45297750 1.000678e+000 -4.468777e-001 1.854922e-004 7.999464e+001 4.225196e-004 1.705518e+002 9.988865e-001 -1.555469e+000
45597735 1.000744e+000 -4.623458e-001 1.150772e-004 1.587950e+002 2.391783e-004 3.773190e+001 9.994400e-001 -1.687919e+000
45897720 1.000834e+000 -4.776568e-001 2.024066e-004 -9.506128e+001 3.184667e-004 1.456718e+002 9.992839e-001 -1.523427e+000
46197705 1.002462e+000 -4.818253e-001 2.011497e-004 8.464792e+000 3.388035e-004 -2.152944e+001 9.993622e-001 -1.642187e+000
46497690 1.002127e+000 -4.375514e-001 1.165939e-004 -1.032406e+002 1.780824e-004 6.608373e+001 9.998357e-001 -1.494509e+000
46797675 1.001233e+000 -4.673294e-001 1.652237e-004 -1.366798e+002 2.210563e-004 6.609147e+000 9.989337e-001 -1.600751e+000
47097660 1.001263e+000 -4.837693e-001 1.082092e-004 -1.297987e+002 1.447144e-004 1.784389e+002 9.980054e-001 -1.682203e+000
47397645 1.001168e+000 -5.530177e-001 1.969571e-004 9.761189e+001 2.428803e-004 -8.504327e+001 9.986840e-001 -1.840096e+000
