!Agilent Technologies,N5230C,SG49000117,A.08.50.07
!Agilent N5230C: A.08.50.07
!Date: Friday, May 17, 2024 03:36:59
!Correction: S11(Full 2 Port(1,2)) 
!S21(Full 2 Port(1,2)) 
!S12(Full 2 Port(1,2)) 
!S22(Full 2 Port(1,2)) 
!S2P File: Measurements: S11, S21, S12, S22:
# Hz S  MA   R 50
300000 1.006908e+000 -3.759973e-001 5.170453e-005 9.122674e+001 2.748129e-004 -1.250888e+002 1.016268e+000 -9.295994e-001
599985 9.821667e-001 2.897837e-001 2.576266e-005 -1.317810e+002 2.186601e-004 -1.476080e+002 9.666281e-001 3.031999e-001
899970 9.972962e-001 -6.075113e-002 1.065078e-004 -2.768835e+001 1.560627e-004 5.244291e+000 9.843146e-001 -3.992029e-001
1199955 9.974626e-001 -9.777413e-002 1.852617e-005 9.146054e+001 2.034917e-004 1.004350e+002 9.956739e-001 -1.516043e-001
1499940 9.935586e-001 1.418906e-001 4.565526e-005 1.353112e+002 2.812766e-004 3.339319e+001 9.921318e-001 3.876969e-003
1799925 9.920024e-001 2.274212e-001 1.047851e-004 7.456483e+001 3.210979e-004 -4.029456e+001 9.899510e-001 -7.610670e-002
2099910 9.989921e-001 2.435486e-002 5.162409e-005 -1.777401e+002 3.629899e-004 2.330155e+001 9.974560e-001 -9.282564e-002
2399895 9.992627e-001 -1.341117e-001 8.077492e-005 1.041551e+002 1.289188e-004 1.416787e+002 1.002338e+000 -1.350680e-001
2699880 9.992315e-001 -2.319264e-001 8.760086e-005 -1.442744e+002 2.179352e-004 -1.386640e+002 9.946398e-001 -3.432216e-001
2999865 1.000172e+000 -1.470712e-001 1.145635e-004 -9.572745e+001 1.068501e-004 -9.252393e+001 9.979619e-001 -2.549592e-001
3299850 1.000425e+000 -1.302746e-001 6.805662e-005 4.267590e+001 1.797218e-004 1.753601e+002 9.980466e-001 -2.915519e-001
3599835 9.999725e-001 -1.186633e-001 8.430174e-005 -3.454884e+001 1.369537e-004 -6.539787e+001 9.975779e-001 -3.166970e-001
3899820 9.996608e-001 -1.575766e-001 2.316261e-005 1.545918e+002 1.174033e-004 -7.588348e+001 9.983667e-001 -2.838200e-001
4199805 1.000446e+000 -1.842755e-001 3.134076e-005 2.182864e+001 1.258710e-004 6.714937e+001 1.000483e+000 -3.497040e-001
4499790 1.000176e+000 -1.602914e-001 5.332736e-005 -9.229484e+000 4.297464e-005 1.127757e+001 9.996105e-001 -3.859133e-001
4799775 1.001033e+000 -1.360674e-001 2.071789e-005 9.150151e+001 5.685121e-005 -6.424559e+001 9.991679e-001 -3.045431e-001
5099760 1.000966e+000 -1.302338e-001 5.624611e-005 -2.320414e+001 1.906790e-004 4.443613e+001 1.000193e+000 -3.039142e-001
5399745 1.000530e+000 -1.138057e-001 4.072276e-005 4.768155e+001 1.755092e-004 -7.612715e+001 9.994611e-001 -3.340293e-001
5699730 1.000478e+000 -1.105810e-001 1.153510e-004 8.605853e+001 7.456807e-005 -1.229495e+002 1.000914e+000 -2.874866e-001
5999715 9.993814e-001 -1.177261e-001 6.242399e-005 7.635435e+001 3.795603e-005 1.416586e+002 1.000488e+000 -2.342522e-001
6299700 9.998871e-001 -1.314632e-001 3.962023e-005 -9.921069e+001 2.302668e-004 1.535288e+002 9.992340e-001 -3.329124e-001
6599685 1.000062e+000 -1.488666e-001 4.510281e-005 -1.455049e+001 1.120680e-004 9.283932e+001 1.000136e+000 -3.857321e-001
6899670 9.995152e-001 -1.376351e-001 5.932747e-005 -5.618315e+001 1.499574e-004 1.295063e+002 9.993814e-001 -3.171374e-001
7199655 1.000128e+000 -1.454308e-001 8.575514e-005 1.261031e+002 6.921814e-005 -1.150733e+002 1.000505e+000 -3.864694e-001
7499640 1.000115e+000 -1.959631e-001 9.222567e-005 1.049181e+002 5.971496e-005 1.343728e-001 1.000481e+000 -4.601195e-001
7799625 9.999884e-001 -1.335910e-001 5.555407e-005 1.117195e+002 2.384303e-004 1.205811e+002 9.979777e-001 -3.818907e-001
8099610 9.998215e-001 -1.502169e-001 7.718855e-005 -8.212615e+001 1.884380e-004 1.311419e+002 9.983836e-001 -4.633857e-001
8399595 1.000424e+000 -1.733232e-001 4.887329e-005 -5.958564e+001 2.135892e-004 -5.712711e+001 9.989274e-001 -4.633735e-001
8699580 9.998098e-001 -1.297316e-001 4.889728e-005 -6.418482e+001 1.964004e-004 1.190055e+002 9.992075e-001 -4.910188e-001
8999565 1.000258e+000 -1.817059e-001 9.474853e-005 -7.934335e+001 1.266644e-004 -7.215835e+001 9.986268e-001 -4.899285e-001
9299550 9.999741e-001 -1.570383e-001 7.389052e-005 2.551882e+001 1.997891e-004 -8.188932e+001 9.994208e-001 -5.118437e-001
9599535 9.995279e-001 -2.040742e-001 9.570846e-005 3.244624e+001 1.260885e-004 -1.245570e+002 9.974607e-001 -5.728327e-001
9899520 9.995310e-001 -2.212299e-001 7.909409e-005 -5.446882e+000 1.966034e-004 6.488826e+001 9.973359e-001 -7.579924e-001
10199505 9.991476e-001 -1.299872e-001 1.095628e-004 8.902161e+001 2.071325e-004 1.019397e+002 9.978677e-001 -4.491083e-001
10499490 1.000064e+000 -1.364078e-001 3.413387e-005 1.325989e+002 1.688396e-004 -1.061414e+001 9.982309e-001 -5.450654e-001
10799475 1.000072e+000 -1.712381e-001 5.401838e-005 -2.275785e+001 8.977622e-005 1.347648e+002 9.985281e-001 -4.794932e-001
11099460 1.000347e+000 -1.477491e-001 2.520755e-005 6.394096e+001 2.891643e-004 -1.585909e+002 9.983494e-001 -4.557114e-001
11399445 1.000301e+000 -1.376080e-001 6.041541e-005 1.036566e+002 1.159459e-004 9.784367e+001 9.983831e-001 -5.372739e-001
11699430 1.000384e+000 -1.586696e-001 6.258991e-005 1.688521e+002 1.640729e-004 -2.941072e+001 9.986441e-001 -4.819311e-001
11999415 1.000184e+000 -1.303246e-001 8.046518e-005 -3.271770e+001 7.662136e-005 -1.359099e+002 1.001643e+000 -5.003512e-001
12299400 9.997455e-001 -1.266686e-001 2.014578e-005 -1.519342e+002 7.007138e-005 1.042736e+002 1.000857e+000 -4.876532e-001
12599385 1.000312e+000 -1.734630e-001 4.906728e-005 1.709709e+002 1.987114e-005 -1.441238e+002 9.996239e-001 -5.904599e-001
12899370 1.000535e+000 -2.063759e-001 6.528862e-005 1.632754e+001 2.305693e-004 1.143941e+002 9.998443e-001 -6.941295e-001
13199355 1.000115e+000 -1.963228e-001 3.204076e-005 1.445447e+002 2.113106e-004 -2.663389e+001 9.984419e-001 -6.304350e-001
13499340 9.999570e-001 -2.172775e-001 8.530901e-005 -5.643667e+001 1.803594e-004 3.985692e+001 9.990444e-001 -6.285738e-001
13799325 1.000190e+000 -1.890022e-001 7.602458e-005 1.197412e+002 6.624132e-005 9.877623e+001 9.986168e-001 -5.388358e-001
14099310 1.000358e+000 -2.111273e-001 1.372718e-004 -1.336267e+002 2.437412e-004 -3.192052e+001 9.988118e-001 -5.575096e-001
14399295 1.000145e+000 -2.245904e-001 7.886467e-005 -1.715284e+002 2.992991e-004 1.339275e+002 9.992625e-001 -6.207381e-001
14699280 9.997830e-001 -1.982319e-001 5.908173e-005 -1.436563e+002 2.731991e-004 -7.491520e+001 9.997794e-001 -6.323798e-001
14999265 9.997525e-001 -2.175892e-001 8.888675e-005 6.381282e+001 2.520874e-004 1.149293e+002 9.986375e-001 -6.600248e-001
15299250 9.997411e-001 -2.144345e-001 3.984836e-005 -3.664781e+001 3.339011e-004 -1.562767e+002 9.989619e-001 -6.511697e-001
15599235 9.999583e-001 -2.422836e-001 8.138722e-005 1.106534e+002 1.012536e-004 -3.159805e+001 9.991603e-001 -6.410975e-001
15899220 9.994791e-001 -1.751469e-001 7.165229e-005 -1.121501e+002 3.783123e-004 -4.409948e+001 9.993649e-001 -6.206570e-001
16199205 1.000392e+000 -1.486385e-001 5.074723e-005 -6.025827e+001 1.453207e-004 -1.766766e+002 9.997358e-001 -6.105292e-001
16499190 1.000112e+000 -1.823900e-001 9.766225e-005 -1.770038e+002 2.107455e-004 1.038438e+002 1.000232e+000 -6.835376e-001
16799175 9.996715e-001 -1.744839e-001 5.012850e-005 1.562784e+002 8.651434e-005 -1.754463e+002 9.998291e-001 -6.329243e-001
17099160 9.997900e-001 -1.955048e-001 1.047558e-004 1.751453e+002 2.713894e-004 -4.047070e+001 1.000018e+000 -6.681300e-001
17399145 1.000494e+000 -2.341325e-001 1.259951e-004 6.140923e+001 3.318718e-004 1.423204e+002 1.000126e+000 -6.406031e-001
17699130 9.997520e-001 -2.277117e-001 6.896209e-005 1.624840e+002 2.058178e-004 -4.233041e+001 1.000141e+000 -7.567549e-001
17999115 9.999810e-001 -1.897779e-001 1.388486e-004 -1.510801e+002 2.054718e-004 1.795454e+002 9.994723e-001 -7.293946e-001
18299100 9.999099e-001 -2.138363e-001 4.909759e-005 -3.845605e+001 1.697450e-004 7.533650e+001 1.000277e+000 -7.944351e-001
18599085 1.000059e+000 -2.296551e-001 8.453628e-005 -8.525793e+001 2.728254e-004 1.594605e+002 9.991630e-001 -7.424200e-001
18899070 9.998291e-001 -2.368477e-001 7.665526e-006 -7.423298e+001 2.730560e-004 -7.652655e+001 9.995428e-001 -7.412050e-001
19199055 1.000429e+000 -2.497790e-001 6.137668e-005 -7.212730e+000 3.188166e-005 -1.418643e+002 9.991336e-001 -7.289487e-001
19499040 1.000934e+000 -2.337703e-001 4.797727e-005 -1.692176e+002 3.207704e-004 -9.578248e+001 9.985451e-001 -7.878276e-001
19799025 1.001645e+000 -2.224995e-001 8.419809e-005 -1.105924e+002 2.387633e-004 3.378357e+001 9.986135e-001 -7.934560e-001
20099010 9.999133e-001 -2.195747e-001 9.171791e-005 9.191002e+000 3.205965e-004 1.701064e+002 9.981085e-001 -8.044031e-001
20398995 1.000805e+000 -2.625512e-001 4.114496e-005 1.666294e+002 1.848775e-004 1.042900e+001 9.988425e-001 -8.173428e-001
20698980 9.992808e-001 -2.217931e-001 3.579882e-005 8.890173e+001 2.405734e-004 -6.506931e+001 9.976228e-001 -7.180015e-001
20998965 9.997357e-001 -2.110069e-001 8.664156e-005 -1.265399e+001 1.039464e-004 -5.212884e+001 9.989232e-001 -7.951245e-001
21298950 9.992033e-001 -2.639715e-001 1.024351e-004 1.383290e+002 1.634371e-004 -8.227201e+001 9.989040e-001 -7.172459e-001
21598935 9.996853e-001 -2.589861e-001 1.805015e-005 9.416142e+001 2.267585e-004 1.137259e+002 9.993275e-001 -8.072015e-001
21898920 9.996266e-001 -2.235292e-001 4.180183e-005 1.224302e+002 1.388865e-004 1.798760e+001 9.984902e-001 -7.896143e-001
22198905 1.000618e+000 -2.282220e-001 6.366248e-005 4.737417e+000 2.518202e-004 -2.548663e+001 9.997623e-001 -7.715795e-001
22498890 1.000198e+000 -2.668645e-001 8.794144e-005 -1.156763e+002 2.848402e-004 1.170805e+002 1.000021e+000 -8.908156e-001
22798875 1.000824e+000 -2.124722e-001 2.995425e-005 3.018359e+001 1.142989e-004 -7.573502e+001 1.000776e+000 -9.026710e-001
23098860 1.000500e+000 -2.478259e-001 1.097241e-004 -5.164362e+001 1.635057e-004 1.287033e+002 9.993794e-001 -9.218719e-001
23398845 1.000347e+000 -2.529543e-001 5.976410e-005 9.464010e+001 2.529395e-004 -2.459140e+001 9.999586e-001 -9.827877e-001
23698830 1.000900e+000 -3.024514e-001 5.170938e-005 -1.179968e+002 2.145045e-005 -1.149752e+002 9.976935e-001 -7.762483e-001
23998815 1.000521e+000 -3.013161e-001 2.214757e-005 3.105861e+001 1.022454e-004 1.023218e+001 9.986543e-001 -8.424669e-001
24298800 1.000452e+000 -2.685266e-001 7.292299e-005 7.032299e+000 2.090118e-004 1.029404e+002 9.977739e-001 -8.789544e-001
24598785 9.999903e-001 -2.980554e-001 8.909211e-005 8.837204e+001 3.241202e-005 1.717694e+002 9.983479e-001 -8.949854e-001
24898770 1.000578e+000 -3.056197e-001 8.026572e-005 -6.911798e+001 2.694058e-004 1.076756e+002 9.993482e-001 -9.300453e-001
25198755 9.998387e-001 -2.866884e-001 2.420152e-005 -5.442547e+001 3.071891e-004 -5.623162e+001 9.996248e-001 -9.760634e-001
25498740 9.999831e-001 -3.037312e-001 5.623219e-005 2.976674e+000 1.231607e-004 8.834034e+001 9.995506e-001 -1.021404e+000
25798725 1.000305e+000 -3.046922e-001 6.008528e-005 -4.464731e+001 1.455758e-005 8.019810e+001 9.981482e-001 -1.013071e+000
26098710 1.001042e+000 -3.098703e-001 1.426351e-004 -3.265741e+001 4.395835e-004 1.343234e+002 9.990150e-001 -1.063967e+000
26398695 9.999321e-001 -2.763468e-001 4.763303e-005 -4.380249e+001 1.347296e-004 6.203579e+001 9.996135e-001 -1.000023e+000
26698680 1.000392e+000 -2.821266e-001 6.503209e-005 -7.154259e+001 4.631940e-004 1.026603e+002 9.992315e-001 -9.891360e-001
26998665 1.000015e+000 -2.690676e-001 5.173434e-005 3.145772e+001 2.025945e-004 5.825375e+001 9.992231e-001 -1.015879e+000
27298650 1.000288e+000 -2.863519e-001 1.324399e-005 -6.640708e+001 3.206278e-004 4.871490e+001 9.980572e-001 -1.097167e+000
27598635 9.996614e-001 -3.045097e-001 4.980290e-005 1.553623e+002 3.929839e-004 -6.721452e+001 9.996276e-001 -9.961224e-001
27898620 9.999515e-001 -2.947123e-001 7.560610e-005 1.586744e+002 2.586720e-004 1.332811e+002 1.000565e+000 -1.107004e+000
28198605 9.993817e-001 -3.119683e-001 1.113267e-004 -6.396666e+001 2.893750e-004 -1.025568e+002 1.000025e+000 -1.048349e+000
28498590 1.000212e+000 -3.306184e-001 1.063001e-004 6.147390e+001 5.975887e-005 -3.300755e+001 9.986196e-001 -1.144348e+000
28798575 9.996879e-001 -3.712047e-001 1.030912e-004 8.662672e+001 1.950747e-004 -9.137382e+001 9.988014e-001 -1.178845e+000
29098560 9.995862e-001 -3.183737e-001 1.273637e-005 9.264240e+001 7.407679e-005 -1.541260e+002 9.997886e-001 -1.085429e+000
29398545 1.000087e+000 -3.047568e-001 6.163497e-005 1.133740e+002 1.678749e-004 1.177128e+002 9.991822e-001 -1.069413e+000
29698530 9.999688e-001 -3.133378e-001 7.492689e-005 -1.312401e+002 1.374647e-004 4.991804e+001 9.993709e-001 -1.109898e+000
29998515 1.000254e+000 -3.180689e-001 6.039630e-005 -1.267701e+002 3.491332e-004 1.173872e+002 1.000436e+000 -1.060212e+000
30298500 1.000274e+000 -3.212881e-001 1.547361e-004 1.126187e+002 2.605568e-004 -1.045158e+001 1.000744e+000 -1.156306e+000
30598485 9.997382e-001 -2.705715e-001 1.291759e-004 9.201131e+001 1.789232e-004 7.791367e+001 9.996224e-001 -1.175141e+000
30898470 1.000442e+000 -2.471229e-001 1.388442e-004 -5.708735e+001 2.904472e-004 -1.063388e+002 9.981168e-001 -1.181505e+000
31198455 9.999660e-001 -2.783497e-001 6.391400e-005 -8.381308e+001 2.794123e-004 1.290508e+002 9.985563e-001 -1.161586e+000
31498440 1.000796e+000 -3.392992e-001 8.280509e-005 1.525389e+002 1.746885e-004 -1.343618e+002 9.992000e-001 -1.212144e+000
31798425 9.999443e-001 -3.696607e-001 1.378335e-004 -6.083202e+000 3.427108e-004 9.277757e+001 9.997557e-001 -1.130428e+000
32098410 1.000545e+000 -3.285407e-001 4.441210e-005 -5.471912e+001 1.446486e-004 -5.822976e+001 9.996261e-001 -1.125803e+000
32398395 1.000725e+000 -3.755349e-001 5.517570e-005 1.152644e+002 2.145502e-004 8.206699e+001 9.997646e-001 -1.175987e+000
32698380 1.000561e+000 -3.382431e-001 7.129317e-005 -1.408099e+002 1.196271e-004 -1.660726e+002 9.995685e-001 -1.177135e+000
32998365 1.000478e+000 -3.341181e-001 3.885719e-005 -1.396739e+002 2.251653e-004 4.608802e+000 9.994733e-001 -1.175144e+000
33298350 9.998896e-001 -3.427577e-001 9.551594e-005 -6.908153e+001 1.312912e-004 1.198965e+002 9.981655e-001 -1.243503e+000
33598335 1.000148e+000 -3.316279e-001 9.312787e-005 3.177938e+001 1.538884e-004 4.858846e+001 9.992936e-001 -1.162508e+000
33898320 1.000067e+000 -3.927524e-001 6.817542e-005 -1.468184e+002 3.305736e-004 1.430564e+002 9.994963e-001 -1.214082e+000
34198305 9.997309e-001 -4.000823e-001 1.101476e-004 1.240036e+002 1.277895e-004 -3.481266e+001 9.989024e-001 -1.217046e+000
34498290 1.000013e+000 -3.914954e-001 5.964050e-005 8.082613e+001 1.465956e-004 -1.096572e+002 9.969396e-001 -1.288875e+000
34798275 1.000224e+000 -4.188422e-001 1.092990e-004 1.509016e+000 1.115744e-004 1.278369e+002 9.984623e-001 -1.308627e+000
35098260 9.999531e-001 -3.906728e-001 7.002749e-005 -3.778247e+001 1.485731e-004 -8.527222e+001 9.992973e-001 -1.211714e+000
35398245 1.000427e+000 -4.407384e-001 5.492380e-005 -1.374540e+002 2.874742e-004 5.198615e+001 9.997056e-001 -1.319594e+000
35698230 1.000416e+000 -4.221354e-001 5.614422e-005 -1.278416e+002 7.971346e-005 -1.392906e+002 1.000783e+000 -1.271870e+000
35998215 1.000428e+000 -3.860043e-001 3.294880e-005 -1.273684e+002 1.418897e-004 1.168766e+002 1.000573e+000 -1.322197e+000
36298200 1.000162e+000 -4.202298e-001 4.937021e-005 1.825217e+001 2.457213e-004 -9.812149e+001 9.995607e-001 -1.367512e+000
36598185 9.998888e-001 -3.962703e-001 1.115098e-005 -2.782630e+001 2.541773e-004 8.707803e+001 9.991919e-001 -1.351360e+000
36898170 1.000909e+000 -4.151807e-001 3.447156e-005 -2.171696e+001 6.992701e-005 -9.790242e+001 9.978048e-001 -1.350624e+000
37198155 1.001145e+000 -3.910775e-001 5.783790e-005 2.342782e+001 1.806894e-004 9.820338e+001 9.990702e-001 -1.370083e+000
37498140 1.000939e+000 -3.788173e-001 5.713641e-005 5.721594e+001 5.782902e-005 -1.397516e+002 9.985753e-001 -1.351085e+000
37798125 9.996381e-001 -4.103818e-001 4.636415e-005 8.422979e+001 1.778530e-004 1.148763e+002 9.992024e-001 -1.412664e+000
38098110 9.997798e-001 -4.052511e-001 3.921626e-005 -1.754906e+002 4.604377e-005 -6.658044e+001 9.987766e-001 -1.413888e+000
38398095 9.994220e-001 -4.201881e-001 6.002986e-005 -5.522129e+001 1.863287e-004 -1.658557e+002 9.980232e-001 -1.416474e+000
38698080 9.997000e-001 -3.896627e-001 9.977369e-005 3.507177e+001 1.227080e-004 7.921258e+001 9.980370e-001 -1.476983e+000
38998065 1.000546e+000 -3.889000e-001 2.908502e-005 1.682548e+002 5.219035e-005 9.064192e+001 9.985849e-001 -1.429979e+000
39298050 1.001037e+000 -4.171327e-001 1.046874e-004 -1.542251e+002 1.955586e-004 -2.346928e+001 9.991931e-001 -1.453871e+000
39598035 1.000889e+000 -3.727876e-001 2.019181e-005 -1.789469e+002 1.463738e-004 7.522797e+001 9.997838e-001 -1.372475e+000
39898020 1.000836e+000 -3.625638e-001 6.336623e-005 4.783691e+001 1.658338e-004 1.556017e+002 1.000654e+000 -1.347166e+000
40198005 1.000446e+000 -3.479986e-001 2.614690e-004 4.119682e+001 2.525446e-004 1.449865e+002 1.000563e+000 -1.521411e+000
40497990 1.000794e+000 -4.454201e-001 2.090013e-004 1.717097e+002 4.278271e-004 9.304874e+001 9.987260e-001 -1.505927e+000
40797975 1.000345e+000 -4.421990e-001 1.769050e-004 -4.420144e+001 1.732592e-004 1.005088e+002 1.001376e+000 -1.520898e+000
41097960 1.000755e+000 -3.861781e-001 7.451141e-005 6.981535e+001 2.919212e-005 -1.736141e+002 9.988164e-001 -1.460030e+000
41397945 1.000384e+000 -4.110505e-001 2.242903e-004 1.747762e+002 2.789491e-004 1.191913e+002 9.993656e-001 -1.382558e+000
41697930 9.998194e-001 -3.367183e-001 2.851278e-005 1.377517e+002 2.711989e-004 9.031435e+001 9.989229e-001 -1.362849e+000
41997915 9.998782e-001 -4.166425e-001 1.145191e-004 1.118625e+001 2.158611e-004 1.283932e+002 9.996614e-001 -1.440502e+000
42297900 9.995166e-001 -4.363492e-001 1.414547e-004 -1.749315e+002 3.074657e-004 3.036794e+001 1.000442e+000 -1.475464e+000
42597885 1.000429e+000 -3.877353e-001 8.750593e-005 -9.596365e+001 2.045156e-004 -4.701839e+001 9.984573e-001 -1.583306e+000
42897870 1.000673e+000 -3.955380e-001 1.558418e-004 -5.868058e+001 1.516443e-004 1.638569e+002 9.994898e-001 -1.637783e+000
43197855 1.000431e+000 -4.056081e-001 1.072773e-004 4.799608e+000 2.638256e-004 -1.374344e+001 1.000383e+000 -1.678636e+000
43497840 1.000120e+000 -4.981454e-001 2.204381e-005 1.264928e+002 2.714447e-004 -1.183152e+002 9.999238e-001 -1.582597e+000
43797825 1.000358e+000 -4.575062e-001 2.581418e-004 -2.329212e+001 5.755406e-005 4.124022e+001 9.987957e-001 -1.685231e+000
44097810 1.000867e+000 -3.899363e-001 6.884778e-005 1.756848e+002 1.696948e-004 1.436721e+002 9.996000e-001 -1.655439e+000
44397795 1.001474e+000 -4.949422e-001 9.545330e-005 1.219284e+002 4.354279e-004 8.127779e+000 9.991064e-001 -1.649871e+000
44697780 1.000635e+000 -3.952155e-001 1.743978e-004 6.891323e+001 1.815086e-004 -8.731187e+001 9.994550e-001 -1.712714e+000
44997765 1.002099e+000 -4.578362e-001 1.277883e-004 -3.245275e+001 6.054750e-005 5.633911e+001 1.001071e+000 -1.541008e+000
45297750 1.001928e+000 -5.047508e-001 3.355381e-005 6.597173e+001 1.770821e-004 1.292433e+002 1.001479e+000 -1.672900e+000
45597735 1.001423e+000 -4.580638e-001 1.121496e-004 1.756202e+002 1.130931e-004 -1.515179e+002 1.001584e+000 -1.710180e+000
45897720 1.000969e+000 -4.882542e-001 6.645470e-005 8.982693e+001 2.572102e-005 -1.699569e+002 1.001341e+000 -1.661795e+000
46197705 1.000882e+000 -4.121597e-001 9.225192e-005 1.343800e+002 2.866876e-004 5.818227e+001 1.001794e+000 -1.723828e+000
46497690 1.001513e+000 -4.855132e-001 2.259450e-004 -5.601889e+001 1.505784e-004 4.021164e+001 9.999899e-001 -1.724879e+000
46797675 1.001374e+000 -4.575444e-001 1.346850e-004 -1.337077e+002 4.464101e-004 6.174558e+000 1.000683e+000 -1.756374e+000
47097660 1.001030e+000 -4.655032e-001 5.310604e-005 -1.819765e+001 2.744877e-004 -8.428008e+001 1.000534e+000 -1.778342e+000
47397645 1.000362e+000 -5.223500e-001 1.701022e-004 1.614605e+002 2.016878e-004 -9.796044e+001 9.990612e-001 -1.782091e+000
