!Agilent Technologies,N5230C,SG49000117,A.08.50.07
!Agilent N5230C: A.08.50.07
!Date: Thursday, May 16, 2024 19:34:27
!Correction: S11(Full 2 Port(1,2)) 
!S21(Full 2 Port(1,2)) 
!S12(Full 2 Port(1,2)) 
!S22(Full 2 Port(1,2)) 
!S2P File: Measurements: S11, S21, S12, S22:
# Hz S  MA   R 50
300000 1.005364e+000 -5.028898e-001 6.205031e-005 -1.502787e+002 4.095939e-004 4.109770e+000 1.016150e+000 -7.057469e-001
599985 9.820552e-001 2.793366e-001 6.882873e-005 -5.310245e+001 9.994058e-005 -1.491546e+002 9.666268e-001 2.151659e-001
899970 9.968356e-001 -1.186732e-001 4.954477e-005 1.774045e+002 9.662786e-005 9.901029e+001 9.862810e-001 -3.416357e-001
1199955 9.979180e-001 -1.074126e-001 4.408765e-005 1.354009e+002 2.485856e-004 2.986911e+001 9.962674e-001 -2.330283e-001
1499940 9.934434e-001 1.037305e-001 1.287507e-005 -4.836837e+001 1.496394e-004 5.541216e+001 9.922223e-001 1.404304e-001
1799925 9.915291e-001 1.941754e-001 3.498088e-005 -9.862588e+001 8.114906e-005 6.278427e+001 9.907658e-001 2.190256e-003
2099910 9.982617e-001 -4.757592e-002 4.715704e-005 8.291591e+001 1.206163e-004 -6.997074e+001 9.984336e-001 6.261735e-002
2399895 9.986603e-001 -1.740960e-001 9.011193e-005 4.913282e+001 1.684859e-004 1.011315e+002 1.002684e+000 -3.381555e-002
2699880 9.992279e-001 -3.146873e-001 5.970283e-005 -1.302614e+002 1.418149e-004 -9.040942e+001 9.945201e-001 -2.029033e-001
2999865 9.993682e-001 -1.929129e-001 2.835727e-005 -1.547282e+002 2.719124e-004 1.891719e+000 9.990425e-001 -2.151719e-001
3299850 1.000257e+000 -1.929807e-001 3.887338e-005 7.401708e+001 1.781427e-004 -4.878399e+000 9.990617e-001 -1.841967e-001
3599835 9.997706e-001 -1.478340e-001 5.051095e-005 -4.118665e+001 2.398224e-004 7.330409e+001 9.984805e-001 -1.784581e-001
3899820 9.987101e-001 -2.107534e-001 1.115816e-004 3.459259e+001 2.188906e-004 1.534686e+001 9.992445e-001 -1.713615e-001
4199805 1.000093e+000 -2.365972e-001 6.233204e-005 1.595118e+002 9.581861e-005 1.248817e+002 9.999319e-001 -2.651702e-001
4499790 9.997529e-001 -2.666419e-001 6.947436e-005 -1.473199e+002 3.139362e-004 8.032482e+001 9.996508e-001 -2.296629e-001
4799775 9.999806e-001 -2.298536e-001 5.052123e-005 -1.495246e+002 1.582067e-004 5.476040e+001 1.000104e+000 -1.904737e-001
5099760 1.000151e+000 -2.103734e-001 2.679660e-005 8.717776e+000 1.430642e-004 -2.693584e+001 1.000354e+000 -1.337069e-001
5399745 9.998792e-001 -2.332656e-001 2.441188e-005 -1.310252e+002 9.153697e-005 1.404940e+002 1.001060e+000 -1.069309e-001
5699730 1.000091e+000 -2.129266e-001 6.667816e-005 1.323919e+002 1.159259e-004 2.402879e+001 1.001702e+000 -1.826483e-001
5999715 9.991184e-001 -1.925481e-001 3.590146e-005 -1.450498e+002 3.549578e-005 1.244546e+002 1.000038e+000 -1.107835e-001
6299700 9.995680e-001 -2.021299e-001 2.592687e-005 -1.044248e+002 1.458367e-004 -1.681714e+002 1.000772e+000 -1.994229e-001
6599685 9.995952e-001 -2.239709e-001 9.623858e-006 -1.678549e+002 1.137987e-004 1.784915e+002 1.000372e+000 -1.705370e-001
6899670 9.990425e-001 -2.494039e-001 5.204877e-005 -7.912615e+001 9.444794e-005 3.815225e+000 1.000373e+000 -2.026829e-001
7199655 9.995137e-001 -2.539720e-001 3.357966e-005 4.563991e+001 9.990592e-005 1.391773e+002 1.000591e+000 -2.588499e-001
7499640 9.993636e-001 -2.750161e-001 2.126707e-005 -1.757006e+002 1.101810e-004 -7.414108e+001 1.000341e+000 -2.589415e-001
7799625 9.999054e-001 -2.579663e-001 9.179735e-005 1.627461e+002 2.720955e-004 1.761220e+002 9.990544e-001 -1.921379e-001
8099610 9.991955e-001 -2.912681e-001 1.013206e-004 3.094030e+001 9.134338e-005 -3.533980e+001 9.990570e-001 -2.449244e-001
8399595 9.999077e-001 -2.726019e-001 6.309008e-005 1.020576e+002 1.489625e-004 -1.618945e+002 9.998893e-001 -3.239330e-001
8699580 9.992381e-001 -2.528881e-001 6.228893e-005 -8.905326e+001 3.430890e-004 -1.255396e+002 1.000524e+000 -2.589075e-001
8999565 9.996241e-001 -2.466593e-001 1.214243e-004 -1.811917e+001 7.378728e-005 -3.836667e+001 1.000204e+000 -2.755457e-001
9299550 9.995382e-001 -2.864542e-001 8.834468e-005 1.772742e+002 1.006186e-004 -3.265259e+000 9.995989e-001 -2.137799e-001
9599535 9.996963e-001 -3.225160e-001 4.662470e-005 -5.073531e+001 3.936606e-005 -1.648644e+002 9.979551e-001 -3.416122e-001
9899520 9.994490e-001 -4.096047e-001 4.298607e-005 1.127039e+002 2.623654e-005 4.881513e+001 9.966604e-001 -4.515592e-001
10199505 1.000016e+000 -2.848787e-001 8.744559e-005 -1.725036e+002 1.724124e-004 2.385670e+001 9.986981e-001 -2.597185e-001
10499490 9.995905e-001 -2.661120e-001 5.670652e-005 -8.050002e+001 1.899644e-004 5.893815e+001 9.995453e-001 -2.380702e-001
10799475 9.988565e-001 -2.773336e-001 1.795152e-005 -7.597495e+000 4.878078e-005 1.299042e+002 9.996819e-001 -2.216606e-001
11099460 9.987907e-001 -3.112400e-001 6.100998e-005 7.752542e+001 8.693818e-005 -1.397834e+002 9.991181e-001 -2.519265e-001
11399445 9.993505e-001 -2.870986e-001 2.747407e-005 -1.212314e+002 5.541199e-005 1.564036e+002 1.000785e+000 -2.219047e-001
11699430 1.000074e+000 -3.275555e-001 4.192315e-005 -1.424878e+002 3.119293e-005 1.108227e+002 9.996188e-001 -1.800403e-001
11999415 9.985531e-001 -2.959009e-001 5.860092e-005 5.153670e+001 1.917684e-004 -1.701595e+002 1.000458e+000 -2.088429e-001
12299400 9.996023e-001 -2.978005e-001 7.745723e-005 1.444142e+002 1.733238e-004 -1.052595e+002 1.000797e+000 -1.591593e-001
12599385 9.995335e-001 -3.454857e-001 1.156697e-004 -1.785307e+002 2.173510e-004 1.121171e+001 1.001052e+000 -3.244141e-001
12899370 9.997194e-001 -4.033641e-001 4.219604e-005 6.129090e-001 1.136709e-004 1.380062e+002 9.997354e-001 -3.987851e-001
13199355 9.993407e-001 -3.969366e-001 8.866824e-005 -1.696040e+002 3.890159e-005 -3.469904e+001 1.000194e+000 -2.973583e-001
13499340 9.991399e-001 -3.784984e-001 5.610825e-006 1.639689e+002 2.254842e-004 -8.192226e+001 9.998791e-001 -2.620781e-001
13799325 9.995832e-001 -3.955668e-001 5.899671e-005 4.639171e+001 1.444658e-004 1.235235e+002 9.991809e-001 -2.127462e-001
14099310 9.992759e-001 -3.942905e-001 2.625805e-005 1.790177e+002 1.514753e-004 1.951219e+001 1.000191e+000 -2.689268e-001
14399295 9.999067e-001 -4.064773e-001 8.743710e-005 -1.627650e+002 1.516204e-004 1.001701e+002 1.001104e+000 -2.772574e-001
14699280 9.993621e-001 -3.825931e-001 4.778575e-005 -9.004341e+001 2.584251e-004 -1.097641e+002 1.000187e+000 -2.341059e-001
14999265 9.989801e-001 -3.976253e-001 2.399713e-005 6.444883e+001 2.953188e-004 1.019269e+002 1.000131e+000 -2.753103e-001
15299250 9.993907e-001 -3.966523e-001 1.124455e-004 7.322417e+001 8.367800e-005 1.686514e+002 9.997557e-001 -2.931019e-001
15599235 9.997579e-001 -4.132174e-001 8.321642e-005 4.145849e+001 6.961062e-005 -8.943693e+001 9.988403e-001 -2.557009e-001
15899220 1.000019e+000 -4.055609e-001 9.795647e-005 -2.853297e+001 1.235381e-004 1.490972e+002 1.000215e+000 -3.265823e-001
16199205 9.995457e-001 -4.239406e-001 9.683103e-005 -1.919311e+001 1.630431e-004 8.299570e+001 1.000803e+000 -2.501437e-001
16499190 9.995158e-001 -4.068185e-001 2.331883e-005 -1.397807e+002 8.403880e-005 1.337825e+002 1.001360e+000 -3.146506e-001
16799175 9.992947e-001 -4.131330e-001 1.896273e-005 6.989790e+001 1.333046e-004 -2.175477e+001 1.001846e+000 -2.217012e-001
17099160 9.997514e-001 -4.762255e-001 7.030641e-005 2.216560e+001 2.809654e-004 1.396699e+002 1.000545e+000 -2.775714e-001
17399145 9.992412e-001 -4.608133e-001 1.126242e-004 -2.743479e+001 2.821359e-004 -6.251245e+000 1.001035e+000 -2.611912e-001
17699130 9.998474e-001 -4.566743e-001 1.193633e-004 1.630501e+002 2.805587e-004 1.144181e+002 1.000544e+000 -3.086531e-001
17999115 9.993796e-001 -4.691884e-001 8.044693e-005 -1.274073e+002 1.284929e-004 -4.193246e+001 1.001507e+000 -3.345369e-001
18299100 9.990893e-001 -4.179588e-001 1.062596e-004 1.145996e+002 2.875656e-004 1.371214e+002 1.000133e+000 -3.672669e-001
18599085 9.990951e-001 -4.312023e-001 3.551168e-005 5.490532e+001 3.936857e-004 -3.251579e+001 9.997850e-001 -3.065886e-001
18899070 9.985986e-001 -4.520406e-001 1.837402e-004 1.238292e+002 2.288596e-004 7.745438e+001 1.000914e+000 -2.718591e-001
19199055 9.998347e-001 -4.726898e-001 1.025886e-004 -1.581390e+002 2.100489e-004 -7.972377e+001 1.001280e+000 -2.263920e-001
19499040 9.997693e-001 -4.900844e-001 5.292464e-005 3.639239e+001 2.704867e-004 -3.705470e-001 9.999191e-001 -2.087853e-001
19799025 9.998396e-001 -4.775636e-001 1.115211e-004 -4.011802e+001 3.870180e-004 1.775451e+002 1.000799e+000 -2.362413e-001
20099010 9.995390e-001 -4.989156e-001 5.370442e-005 -8.273319e+001 7.731111e-005 -9.700780e+001 9.994342e-001 -2.875048e-001
20398995 9.996851e-001 -4.850556e-001 1.071291e-004 -7.509608e+001 3.777152e-004 1.485441e+002 9.994452e-001 -3.811122e-001
20698980 9.984405e-001 -5.023931e-001 1.028536e-004 1.104200e+002 1.044000e-004 -5.675567e+001 9.994903e-001 -3.158577e-001
20998965 9.990304e-001 -5.227926e-001 4.965159e-005 -7.986118e+001 1.805360e-004 9.911805e+001 9.985077e-001 -2.667407e-001
21298950 9.997020e-001 -5.287294e-001 3.098025e-005 1.319945e+002 9.449092e-005 -7.778031e+001 1.000666e+000 -2.295642e-001
21598935 9.986967e-001 -5.391998e-001 6.773413e-005 -9.606628e+001 4.664863e-004 1.557581e+002 9.996480e-001 -3.207222e-001
21898920 9.994506e-001 -5.211786e-001 1.053383e-004 -7.885551e+001 9.167452e-005 2.557270e+001 9.987871e-001 -3.041519e-001
22198905 9.987395e-001 -5.692993e-001 1.699605e-005 1.200030e+002 2.578144e-004 6.325157e+001 1.000582e+000 -3.039669e-001
22498890 9.992254e-001 -4.940701e-001 6.203318e-005 1.664355e+002 8.940792e-005 -1.408033e+002 1.002501e+000 -3.663394e-001
22798875 1.000131e+000 -5.437976e-001 9.399291e-005 7.485850e+000 1.300430e-004 7.667982e+001 1.000172e+000 -3.470023e-001
23098860 1.000449e+000 -5.161083e-001 3.176338e-005 -8.080946e+001 2.229769e-004 -6.586823e+001 9.998516e-001 -3.591522e-001
23398845 9.995121e-001 -5.759775e-001 6.872538e-005 6.614861e+001 1.392717e-004 8.504603e+001 9.996529e-001 -3.361137e-001
23698830 9.997295e-001 -5.315205e-001 4.255821e-005 -1.740914e+002 1.309322e-004 -5.442212e+001 9.997336e-001 -3.478893e-001
23998815 9.996967e-001 -5.768982e-001 2.651560e-005 4.805142e+001 2.412899e-004 8.179006e+001 9.992796e-001 -3.400078e-001
24298800 9.995540e-001 -6.162050e-001 6.593048e-005 -1.070314e+002 1.168909e-004 -3.887765e+001 9.988613e-001 -3.724956e-001
24598785 9.988059e-001 -6.183752e-001 1.202353e-004 -5.983094e+001 7.298524e-005 -5.523965e+000 9.992680e-001 -4.225961e-001
24898770 1.000006e+000 -6.467049e-001 4.630497e-005 -8.092844e+001 1.208712e-004 1.562631e+002 9.998459e-001 -4.238950e-001
25198755 1.000122e+000 -6.457173e-001 1.728823e-004 -8.786886e+001 2.015890e-004 -1.939033e+001 1.000614e+000 -3.955685e-001
25498740 9.994333e-001 -6.204402e-001 8.519264e-005 4.051897e+001 2.886605e-004 1.060749e+002 9.989104e-001 -4.289637e-001
25798725 9.995738e-001 -6.298098e-001 9.492022e-005 3.067583e+001 1.558497e-004 2.271244e+000 9.996657e-001 -4.619635e-001
26098710 9.996347e-001 -6.224495e-001 6.320499e-005 -3.518633e+001 3.650348e-004 1.389132e+002 1.001019e+000 -4.305352e-001
26398695 9.994740e-001 -6.143263e-001 6.229820e-005 1.441486e+002 2.003058e-004 -8.179311e+001 1.000476e+000 -4.002081e-001
26698680 1.000078e+000 -6.275509e-001 1.100061e-004 4.827575e+001 2.903650e-004 7.356199e+001 1.000086e+000 -4.531274e-001
26998665 9.993501e-001 -6.439327e-001 3.335049e-005 1.025416e+002 2.268262e-004 -7.857252e+001 1.000443e+000 -3.877490e-001
27298650 9.995139e-001 -6.186556e-001 1.416791e-004 1.004197e+002 1.472547e-004 6.368330e+001 1.000017e+000 -4.354299e-001
27598635 1.000160e+000 -6.440750e-001 9.674846e-005 6.230792e+001 1.465952e-004 -1.040391e+002 1.001016e+000 -4.577901e-001
27898620 9.993280e-001 -6.432815e-001 4.248648e-005 3.264783e+001 2.338491e-004 3.485619e+001 1.001979e+000 -4.179649e-001
28198605 9.993274e-001 -6.568641e-001 1.712598e-004 1.419435e+002 7.485102e-005 1.005676e+002 1.000688e+000 -4.456595e-001
28498590 9.992294e-001 -7.211667e-001 5.590529e-005 3.789970e+001 3.082977e-004 2.958925e+000 1.001010e+000 -5.130479e-001
28798575 9.990675e-001 -7.383729e-001 5.251341e-005 -1.449766e+002 1.957285e-004 2.016066e+001 9.995794e-001 -5.350960e-001
29098560 9.995881e-001 -6.647229e-001 5.436040e-005 -5.914964e+001 1.531519e-004 -1.476236e+001 1.000540e+000 -4.224405e-001
29398545 9.994602e-001 -7.027944e-001 2.344966e-005 -8.846004e+001 1.928406e-004 1.175731e+002 1.001433e+000 -4.147179e-001
29698530 9.998013e-001 -6.422079e-001 8.931776e-005 -1.720167e+001 1.843128e-004 -1.409166e+002 1.001604e+000 -4.026166e-001
29998515 9.998711e-001 -6.759453e-001 5.509595e-005 -1.244057e+002 1.752203e-004 6.275482e+001 1.002123e+000 -4.257785e-001
30298500 9.995857e-001 -7.152452e-001 4.041989e-005 -1.505720e+002 1.032404e-004 -1.175080e+002 1.001544e+000 -5.202937e-001
30598485 9.995246e-001 -7.118255e-001 7.244906e-005 -1.342992e+002 1.279645e-004 1.038465e+002 1.000566e+000 -4.298337e-001
30898470 9.993207e-001 -7.003161e-001 1.393002e-004 2.813973e+001 4.182118e-005 6.481238e+001 1.000892e+000 -4.197662e-001
31198455 9.991280e-001 -7.121696e-001 5.352489e-005 7.979844e+001 1.084695e-004 2.282956e+001 1.000329e+000 -4.686499e-001
31498440 9.993927e-001 -7.403820e-001 5.627711e-005 7.780334e+001 1.729995e-004 -1.691054e+002 1.001727e+000 -4.709263e-001
31798425 9.993123e-001 -8.120286e-001 8.674285e-005 -1.004345e+002 2.208538e-004 -3.959908e+001 1.001415e+000 -5.006999e-001
32098410 1.000509e+000 -7.821952e-001 3.115216e-005 2.869949e+001 2.929836e-004 1.149719e+002 1.001555e+000 -4.812470e-001
32398395 1.000007e+000 -7.806461e-001 9.506544e-005 -1.620132e+002 2.990741e-004 -1.225785e+002 1.000947e+000 -4.584198e-001
32698380 9.999844e-001 -7.905769e-001 8.971464e-005 -2.811875e+001 3.187295e-004 7.300188e+001 1.000839e+000 -4.871509e-001
32998365 1.000536e+000 -7.644542e-001 2.108232e-005 -1.617078e+002 1.156791e-004 -7.066290e+001 1.000468e+000 -4.720504e-001
33298350 9.994406e-001 -7.589333e-001 5.177410e-005 -1.682830e+002 2.033538e-004 -1.749718e+002 1.001154e+000 -4.558978e-001
33598335 9.993479e-001 -7.788921e-001 4.115930e-005 1.408980e+002 2.713086e-004 -1.481916e+002 9.998873e-001 -4.663054e-001
33898320 9.983729e-001 -7.905357e-001 2.862386e-005 -1.369048e+002 1.335347e-004 8.571002e+001 1.000597e+000 -4.676673e-001
34198305 9.990957e-001 -8.041365e-001 5.034863e-005 5.059620e+001 2.417151e-004 -1.767836e+002 1.000698e+000 -4.692340e-001
34498290 9.992970e-001 -8.508994e-001 4.435077e-005 -3.746231e+001 2.440049e-004 -5.081329e+001 9.995978e-001 -4.942443e-001
34798275 9.995893e-001 -8.273894e-001 3.010952e-005 -1.397390e+002 8.940616e-005 9.305488e+001 9.998529e-001 -5.179106e-001
35098260 9.998139e-001 -8.372898e-001 6.397108e-005 -8.715734e+001 1.937430e-004 -1.006650e+002 1.000167e+000 -4.579795e-001
35398245 9.997052e-001 -8.622044e-001 9.709449e-005 -5.530970e+001 2.542300e-004 3.105732e+001 1.000999e+000 -4.653616e-001
35698230 9.991528e-001 -8.667074e-001 1.401589e-004 1.910766e-001 1.549002e-004 -1.263991e+002 1.001391e+000 -4.580784e-001
35998215 9.990118e-001 -8.886611e-001 4.295176e-005 1.598709e+002 1.822037e-004 4.833569e+001 1.001380e+000 -5.535898e-001
36298200 9.997184e-001 -8.722945e-001 4.837927e-005 -1.207534e+001 1.086414e-004 1.520792e+002 1.000317e+000 -5.508962e-001
36598185 9.998195e-001 -8.709077e-001 1.116178e-004 -1.316869e+002 6.817279e-005 1.793612e+001 1.000980e+000 -5.714266e-001
36898170 9.997401e-001 -8.777781e-001 1.315875e-004 1.278686e+002 1.025427e-004 -1.221173e+002 1.000097e+000 -5.471873e-001
37198155 9.995003e-001 -8.735169e-001 4.192062e-005 2.614533e+001 1.320316e-004 1.869566e+001 1.000325e+000 -4.665031e-001
37498140 9.995252e-001 -8.814014e-001 3.276089e-005 -1.711995e+002 2.426057e-005 1.607867e+002 1.001072e+000 -5.245538e-001
37798125 9.999748e-001 -9.066237e-001 1.136124e-004 6.177308e+000 2.149288e-004 -3.935011e+001 1.000623e+000 -5.223199e-001
38098110 9.994465e-001 -8.759074e-001 3.696532e-005 1.609096e+002 8.501067e-005 1.227526e+002 9.994895e-001 -5.424682e-001
38398095 9.989520e-001 -8.991033e-001 8.053907e-005 -8.323085e+001 1.219747e-004 1.675647e+000 9.995642e-001 -5.851832e-001
38698080 9.990456e-001 -8.965145e-001 8.034383e-005 -7.886057e+001 6.828848e-005 -5.181377e+001 1.000996e+000 -5.883586e-001
38998065 9.996005e-001 -9.245182e-001 1.385334e-004 -1.192287e+002 1.689742e-004 -8.255913e+001 1.000213e+000 -6.096619e-001
39298050 9.999025e-001 -9.240459e-001 6.518504e-005 7.023372e+001 1.998184e-004 9.446732e+001 1.000776e+000 -5.896689e-001
39598035 1.000185e+000 -9.072967e-001 9.223186e-006 -3.487364e+001 3.944864e-004 -9.262395e+001 1.001559e+000 -5.153331e-001
39898020 1.000240e+000 -9.107004e-001 1.009317e-004 1.171231e+002 2.364310e-004 4.028885e+001 1.000608e+000 -4.309330e-001
40198005 9.993501e-001 -8.893794e-001 3.316593e-005 1.449431e+001 1.003492e-004 -1.489466e+002 9.995134e-001 -6.681289e-001
40497990 9.994026e-001 -9.555247e-001 4.923638e-005 1.725034e+002 2.592540e-004 -9.644793e+001 1.001523e+000 -6.569737e-001
40797975 1.000001e+000 -9.524626e-001 1.144525e-004 1.386759e+002 1.848742e-004 1.323135e+002 1.002551e+000 -5.920886e-001
41097960 9.989582e-001 -9.672038e-001 9.713231e-005 -4.585556e+001 9.037941e-005 -1.504781e+002 1.002390e+000 -6.126049e-001
41397945 1.000228e+000 -9.047080e-001 3.601295e-005 -1.913773e+001 6.861832e-005 9.827621e+001 1.001678e+000 -5.137414e-001
41697930 9.995360e-001 -9.499133e-001 1.891991e-004 1.110135e+002 4.429509e-004 9.381253e+001 1.000511e+000 -3.971051e-001
41997915 9.987729e-001 -9.674457e-001 1.307950e-004 1.447188e+001 4.585178e-005 2.103357e+001 1.001244e+000 -5.397325e-001
42297900 9.996040e-001 -9.396386e-001 1.642407e-004 2.646558e+001 3.044645e-004 6.217207e+001 9.998538e-001 -6.116601e-001
42597885 9.996612e-001 -9.588176e-001 8.169963e-005 1.463300e+002 1.336064e-004 9.960024e+001 1.001961e+000 -6.430912e-001
42897870 1.000295e+000 -9.435202e-001 1.923168e-004 -4.068029e+000 1.110373e-004 6.894733e+001 1.002185e+000 -6.093958e-001
43197855 9.993597e-001 -9.712987e-001 1.772206e-004 9.682557e+001 2.546552e-004 3.084605e+001 1.002133e+000 -6.584597e-001
43497840 9.989854e-001 -1.000538e+000 4.965886e-005 4.622678e+001 1.209987e-004 8.656225e+001 1.000898e+000 -7.229915e-001
43797825 9.986843e-001 -1.011520e+000 1.640746e-004 -3.688697e+001 1.493267e-004 -1.578972e+002 1.002149e+000 -6.532679e-001
44097810 9.998870e-001 -9.912945e-001 7.764201e-005 -1.506306e+002 2.418108e-004 1.173695e+002 1.002692e+000 -7.600392e-001
44397795 9.997768e-001 -9.978476e-001 9.305336e-005 1.522709e+002 3.782103e-004 1.590275e+002 1.001905e+000 -7.532320e-001
44697780 9.990849e-001 -1.015255e+000 9.955964e-005 -5.454238e+001 1.793786e-004 1.354657e+002 1.002446e+000 -6.675427e-001
44997765 1.000179e+000 -1.100013e+000 1.426564e-004 1.637332e+002 3.258379e-004 1.042929e+002 1.002646e+000 -7.185206e-001
45297750 1.000936e+000 -1.080317e+000 7.768864e-005 3.586758e+001 4.008596e-004 7.706635e+000 1.001934e+000 -7.168170e-001
45597735 1.000425e+000 -1.085397e+000 6.036255e-005 -2.758763e+001 1.828096e-004 1.221726e+002 1.003269e+000 -7.002943e-001
45897720 9.998687e-001 -1.061868e+000 5.531871e-005 1.208816e+002 2.312276e-004 1.210056e+002 1.003124e+000 -7.006190e-001
46197705 9.997861e-001 -1.026870e+000 1.069035e-004 5.512531e+001 2.068810e-004 2.711952e+000 1.003209e+000 -7.245053e-001
46497690 1.001147e+000 -1.049850e+000 1.257672e-004 1.266047e+002 7.415876e-005 -3.514203e+001 1.002851e+000 -7.298104e-001
46797675 1.000467e+000 -1.029723e+000 8.241480e-006 -1.430797e+001 3.127480e-004 -1.590282e+002 1.001445e+000 -6.269994e-001
47097660 1.000086e+000 -1.053828e+000 1.254944e-004 5.987683e+001 4.088491e-004 1.293607e+002 1.002016e+000 -7.284354e-001
47397645 9.995269e-001 -1.110503e+000 1.629420e-004 5.834832e+001 3.519731e-004 -1.579905e+002 1.001743e+000 -7.754288e-001
