!Agilent Technologies,N5230C,SG49000117,A.08.50.07
!Agilent N5230C: A.08.50.07
!Date: Thursday, May 16, 2024 19:35:05
!Correction: S11(Full 2 Port(1,2)) 
!S21(Full 2 Port(1,2)) 
!S12(Full 2 Port(1,2)) 
!S22(Full 2 Port(1,2)) 
!S2P File: Measurements: S11, S21, S12, S22:
# Hz S  MA   R 50
300000 1.008014e+000 -5.196497e-001 9.668806e-005 3.930616e+001 1.712401e-004 1.095262e+002 1.013463e+000 -7.992969e-001
599985 9.829287e-001 2.782972e-001 5.018108e-005 1.453945e+002 1.722920e-004 1.212155e+002 9.669071e-001 2.823991e-001
899970 9.968835e-001 -1.327954e-001 3.350334e-005 1.297621e+002 7.656503e-005 -8.920531e+001 9.848404e-001 -3.759842e-001
1199955 9.978169e-001 -8.002596e-002 1.460599e-004 3.910065e+001 2.543594e-004 6.490421e+001 9.955415e-001 -2.022240e-001
1499940 9.937968e-001 1.125203e-001 5.976781e-005 8.281957e+001 8.427521e-005 -1.113189e+002 9.937394e-001 1.108176e-001
1799925 9.917227e-001 2.100736e-001 7.328828e-005 -1.474685e+002 1.449072e-004 -1.531590e+002 9.915773e-001 -5.581209e-004
2099910 9.986927e-001 -2.923360e-002 6.254859e-005 5.586177e+001 7.945135e-005 8.301581e+001 9.986221e-001 5.330037e-002
2399895 9.982746e-001 -1.701586e-001 5.945874e-005 1.519273e+002 1.629229e-004 -1.665538e+002 1.004045e+000 -7.986651e-002
2699880 9.990698e-001 -2.729276e-001 7.050228e-005 -9.621155e+001 1.582147e-004 -1.424745e+002 9.951688e-001 -2.652980e-001
2999865 9.991341e-001 -1.847764e-001 7.362598e-005 -1.074118e+002 5.567279e-005 -1.671558e+002 9.993472e-001 -2.232708e-001
3299850 1.000085e+000 -1.733466e-001 2.496669e-005 -1.418722e+002 2.333338e-004 -3.999290e+001 9.984128e-001 -1.864696e-001
3599835 9.998555e-001 -1.972795e-001 2.498718e-005 -1.052520e+002 1.373596e-004 4.510458e+001 9.977676e-001 -1.912079e-001
3899820 9.989543e-001 -2.211684e-001 7.947729e-005 -4.129241e+000 2.351840e-004 -9.037160e+001 9.989930e-001 -9.152494e-002
4199805 9.999391e-001 -2.503591e-001 5.433573e-005 1.266396e+002 4.499285e-005 -8.373009e+001 1.000342e+000 -2.401108e-001
4499790 1.000019e+000 -2.555636e-001 3.167511e-005 1.253244e+002 8.069534e-005 2.382254e+000 1.000380e+000 -1.833123e-001
4799775 9.994380e-001 -2.331457e-001 1.000040e-004 -1.558534e+002 4.087890e-005 7.268781e+001 1.000833e+000 -2.067982e-001
5099760 9.997709e-001 -2.080141e-001 8.234929e-005 5.261356e+001 8.103033e-005 -7.599342e+001 1.001281e+000 -1.385070e-001
5399745 1.000175e+000 -2.124459e-001 1.605786e-005 3.149823e+001 1.333050e-004 5.838357e+001 9.998779e-001 -9.925459e-002
5699730 9.996027e-001 -2.115047e-001 7.232705e-005 -1.966341e+001 5.706411e-005 8.657863e+001 1.001544e+000 -1.377338e-001
5999715 9.990819e-001 -1.977072e-001 2.956835e-005 -8.732141e+001 3.903875e-005 -2.328934e+001 1.000712e+000 -9.171468e-002
6299700 9.993488e-001 -2.115053e-001 9.516916e-006 -1.369377e+002 7.674920e-005 -2.280871e+001 1.000779e+000 -1.538723e-001
6599685 9.993082e-001 -2.185420e-001 1.289260e-004 1.208793e+002 7.874024e-005 -4.621325e+001 1.001188e+000 -1.709065e-001
6899670 9.994277e-001 -2.366436e-001 7.760018e-005 8.870012e+001 2.136073e-004 -1.012821e+002 1.000244e+000 -1.759817e-001
7199655 9.989720e-001 -2.791553e-001 5.583886e-005 -5.374387e+001 1.979809e-004 -1.208606e+002 1.000784e+000 -2.120826e-001
7499640 9.996330e-001 -2.694388e-001 4.890846e-005 1.571704e+002 9.369734e-005 -2.606485e+001 1.000442e+000 -2.290393e-001
7799625 9.994397e-001 -2.684469e-001 4.556983e-005 -2.340811e+001 6.319172e-006 -1.173013e+002 9.990211e-001 -1.223045e-001
8099610 9.995887e-001 -2.825138e-001 2.541849e-005 -9.122232e+001 6.006496e-005 -1.754228e+002 9.992476e-001 -2.730618e-001
8399595 9.996407e-001 -2.703429e-001 2.743664e-005 4.635762e+001 1.536940e-004 1.799510e+002 1.000082e+000 -2.192853e-001
8699580 9.995177e-001 -2.690758e-001 7.244093e-005 1.937256e+001 6.231404e-005 -1.863989e+000 1.000555e+000 -2.635131e-001
8999565 9.994801e-001 -2.835487e-001 5.732417e-005 -1.134891e+002 5.642472e-005 5.627158e+001 9.994281e-001 -2.728135e-001
9299550 9.994060e-001 -2.767195e-001 3.820548e-005 -1.528742e+002 1.156930e-004 -1.101696e+002 9.985439e-001 -2.881772e-001
9599535 9.992660e-001 -3.629276e-001 4.234444e-005 1.146489e+002 1.792813e-004 -9.437661e+001 9.984939e-001 -3.528033e-001
9899520 9.997771e-001 -3.905967e-001 1.294298e-005 7.586037e+001 1.551966e-004 -1.766421e+002 9.978480e-001 -4.267670e-001
10199505 9.993794e-001 -3.342760e-001 7.005889e-005 1.354743e+002 3.160061e-005 -1.140568e+001 1.000975e+000 -2.246104e-001
10499490 9.995242e-001 -3.035429e-001 1.983279e-005 -1.606863e+002 1.856278e-004 -7.244417e+001 9.996170e-001 -1.955626e-001
10799475 9.991742e-001 -2.625697e-001 5.443596e-005 1.383287e+002 3.042697e-005 1.279509e+002 9.995980e-001 -1.830483e-001
11099460 9.991349e-001 -2.896682e-001 4.334021e-005 -1.649402e+001 3.468081e-004 1.227513e+002 9.999046e-001 -2.319688e-001
11399445 9.996969e-001 -3.139688e-001 7.974341e-005 1.160061e+002 5.136350e-005 3.104305e+001 9.999350e-001 -2.297752e-001
11699430 9.993728e-001 -2.999012e-001 2.724540e-005 1.380941e+001 6.328483e-005 1.172076e+002 9.998016e-001 -2.009218e-001
11999415 9.993092e-001 -3.257944e-001 1.706854e-005 -1.190751e+002 1.038106e-004 2.200078e+001 1.001676e+000 -1.881785e-001
12299400 9.992516e-001 -3.438010e-001 5.367769e-005 -1.431370e+002 2.157510e-004 2.937848e+001 1.001355e+000 -2.323316e-001
12599385 9.998413e-001 -3.403423e-001 7.251443e-005 1.694964e+002 1.682839e-004 -3.078364e+001 1.000479e+000 -3.762925e-001
12899370 9.994265e-001 -4.010433e-001 5.687860e-005 -2.283112e+001 9.766580e-005 -9.630849e+001 9.999502e-001 -3.790185e-001
13199355 9.999665e-001 -4.003452e-001 5.193722e-005 5.992801e+001 1.081894e-004 -5.753362e+001 1.000133e+000 -3.382543e-001
13499340 9.991083e-001 -4.354591e-001 8.412164e-005 -1.058541e+002 1.601234e-006 -1.292753e+002 9.994094e-001 -2.819046e-001
13799325 9.992878e-001 -3.734189e-001 4.474807e-005 -1.375045e+002 2.730261e-004 -2.229525e+001 9.977472e-001 -1.905517e-001
14099310 9.995711e-001 -4.338989e-001 3.512909e-005 -1.605144e+002 1.334816e-004 -1.691680e+002 9.997974e-001 -2.651953e-001
14399295 9.996834e-001 -4.340015e-001 5.712780e-005 -8.256008e+001 7.700104e-005 -1.745916e+002 1.000497e+000 -2.218971e-001
14699280 9.993133e-001 -4.126974e-001 1.448901e-005 2.472072e+001 1.235201e-004 8.727670e+001 1.001019e+000 -2.479168e-001
14999265 9.990012e-001 -3.977355e-001 5.841630e-005 1.713654e+002 3.121187e-004 -9.764915e+001 1.000180e+000 -3.022501e-001
15299250 9.991549e-001 -4.355606e-001 8.530704e-005 -8.810222e+001 1.849508e-004 3.517208e+001 1.000642e+000 -2.899800e-001
15599235 9.992793e-001 -4.228125e-001 3.036341e-005 4.005445e+001 1.379866e-004 -8.103220e+001 9.998168e-001 -2.453885e-001
15899220 9.998697e-001 -4.616751e-001 7.751710e-005 -3.647413e+000 2.264736e-004 2.783125e+001 1.000481e+000 -2.336529e-001
16199205 9.998357e-001 -4.324962e-001 3.828394e-005 7.686221e+001 8.315073e-005 -1.093931e+002 1.001022e+000 -2.727803e-001
16499190 9.992312e-001 -4.180790e-001 8.751008e-005 5.599417e+001 2.293730e-004 -3.375175e+001 1.001966e+000 -3.283099e-001
16799175 9.994258e-001 -4.260148e-001 1.110832e-005 -3.723300e+001 3.325853e-004 6.355030e+001 1.002153e+000 -2.950708e-001
17099160 9.992484e-001 -4.838403e-001 6.416236e-005 -9.280082e+000 4.131002e-005 -4.711349e+001 1.001212e+000 -3.093522e-001
17399145 9.998434e-001 -5.210988e-001 8.799499e-005 -2.982034e+001 3.442780e-004 1.529074e+001 1.001884e+000 -1.889278e-001
17699130 9.994484e-001 -4.778540e-001 7.765384e-005 -1.216881e+002 2.107067e-004 -2.026762e+001 1.001365e+000 -2.709242e-001
17999115 9.990849e-001 -4.719467e-001 3.946665e-005 -1.353934e+002 8.174736e-005 6.499993e+001 1.001260e+000 -3.436895e-001
18299100 9.995343e-001 -4.499227e-001 1.461954e-004 3.155059e+001 3.652961e-004 -1.087686e+002 1.000219e+000 -3.351028e-001
18599085 9.999785e-001 -4.919333e-001 1.341157e-005 1.592513e+002 1.715491e-004 1.793759e+001 1.000332e+000 -3.487567e-001
18899070 9.992843e-001 -5.043222e-001 4.138971e-005 -8.317921e+001 1.305842e-004 4.891381e+000 1.000983e+000 -2.950985e-001
19199055 9.995087e-001 -4.985351e-001 4.257467e-005 7.416202e+001 4.520711e-005 -9.405209e+001 9.999403e-001 -2.207968e-001
19499040 1.000333e+000 -4.922135e-001 1.747424e-004 -7.287238e+001 1.854876e-004 -1.212791e+002 9.999964e-001 -2.304346e-001
19799025 9.996839e-001 -5.386566e-001 6.793514e-005 -1.799138e+002 3.046383e-005 -5.116256e+001 9.983055e-001 -2.708552e-001
20099010 9.994446e-001 -5.169117e-001 3.241611e-005 8.139816e+001 1.748799e-004 1.008413e+002 9.993019e-001 -2.833416e-001
20398995 9.996602e-001 -5.037436e-001 1.265877e-005 3.499290e+000 3.052719e-004 -5.852798e+001 1.000812e+000 -3.394366e-001
20698980 9.993871e-001 -5.124530e-001 9.979406e-005 1.114171e+002 2.224419e-004 7.840279e+001 9.980796e-001 -3.627429e-001
20998965 9.989007e-001 -5.124505e-001 3.719658e-005 1.590428e+002 1.329033e-004 -5.198882e+001 9.990541e-001 -2.704352e-001
21298950 9.985718e-001 -5.471600e-001 5.223394e-005 2.110970e+001 1.485398e-004 1.464588e+002 1.000856e+000 -2.318121e-001
21598935 9.990328e-001 -5.405573e-001 9.698536e-005 -1.653186e+002 2.101014e-004 1.596396e+002 9.982859e-001 -3.322850e-001
21898920 9.983583e-001 -5.944851e-001 3.692646e-005 5.856030e+001 1.312072e-004 2.120207e+001 9.994804e-001 -3.023961e-001
22198905 9.990174e-001 -6.136287e-001 1.371453e-005 -8.467896e+001 1.595554e-004 -1.053004e+002 1.000228e+000 -2.921280e-001
22498890 9.999117e-001 -5.199782e-001 5.152461e-005 1.019996e+002 2.184056e-004 1.776926e+002 1.000983e+000 -3.636408e-001
22798875 9.995893e-001 -5.794368e-001 6.540455e-006 -1.300110e+002 5.639549e-005 1.287954e+002 1.001830e+000 -3.367879e-001
23098860 9.995094e-001 -5.883085e-001 1.395762e-004 6.173267e+001 1.287890e-004 -6.234642e+001 1.001042e+000 -4.261786e-001
23398845 1.000417e+000 -5.886750e-001 9.790768e-005 -1.357146e+002 4.206559e-004 -2.278655e+001 1.001083e+000 -3.939705e-001
23698830 9.999310e-001 -6.168879e-001 5.325873e-005 -1.123118e+002 1.394033e-004 -1.056517e+002 9.999210e-001 -3.423555e-001
23998815 9.990396e-001 -6.315509e-001 9.789306e-005 1.218702e+001 2.208241e-004 1.514433e+001 9.994967e-001 -3.291430e-001
24298800 9.991759e-001 -6.294472e-001 1.024209e-004 6.162955e+001 2.660166e-004 1.767363e+002 9.990053e-001 -4.207800e-001
24598785 1.000047e+000 -6.396594e-001 5.731249e-005 -9.743613e+001 2.773773e-004 6.374418e+000 1.000089e+000 -3.631161e-001
24898770 1.000182e+000 -6.769148e-001 8.217982e-005 3.587946e+001 6.603961e-005 -6.628266e+001 9.998919e-001 -4.371138e-001
25198755 9.990639e-001 -6.632751e-001 1.185580e-004 3.497144e+001 1.636453e-004 -1.573877e+001 1.000940e+000 -3.788772e-001
25498740 9.993962e-001 -6.513590e-001 1.227541e-004 1.325534e+002 2.191537e-004 1.579752e+002 1.000391e+000 -4.360285e-001
25798725 9.990729e-001 -6.547818e-001 1.827945e-005 -1.202190e+002 1.808346e-004 5.916285e+000 1.000273e+000 -4.715061e-001
26098710 1.000411e+000 -6.209208e-001 1.144777e-004 4.835772e+001 3.438175e-004 -1.268529e+000 1.000577e+000 -4.203858e-001
26398695 9.995601e-001 -6.652388e-001 1.042913e-004 1.627968e+002 2.649438e-004 -9.361531e+001 1.000719e+000 -4.629093e-001
26698680 1.000783e+000 -6.844402e-001 7.396580e-005 -6.121543e+001 2.212208e-004 2.852763e+001 1.000743e+000 -4.258127e-001
26998665 9.994356e-001 -6.952409e-001 8.321151e-005 1.030617e+002 2.595465e-004 -1.382452e+002 9.995194e-001 -4.322319e-001
27298650 9.998903e-001 -6.676258e-001 6.674783e-005 -7.866342e+001 8.336156e-005 7.090898e-002 1.000259e+000 -4.102322e-001
27598635 9.993330e-001 -6.705174e-001 4.497833e-005 -1.544809e+002 1.907121e-004 1.229069e+002 1.002256e+000 -3.778580e-001
27898620 9.994072e-001 -6.900699e-001 1.018332e-004 3.316499e+000 1.557111e-004 -5.432907e+001 1.001324e+000 -4.261892e-001
28198605 9.987075e-001 -7.144532e-001 3.694275e-005 1.790825e+002 3.102840e-004 4.124830e+001 1.001315e+000 -4.226964e-001
28498590 9.994023e-001 -7.114039e-001 1.681019e-004 -8.897115e+001 2.614259e-004 -7.827870e+001 1.000319e+000 -4.875465e-001
28798575 9.992557e-001 -7.587509e-001 5.548710e-005 1.063918e+002 1.568091e-004 7.717394e+001 9.992850e-001 -4.636128e-001
29098560 9.991966e-001 -7.176741e-001 1.154424e-004 -1.561396e+002 6.056861e-005 5.438321e+001 1.001689e+000 -4.777209e-001
29398545 9.993012e-001 -7.130108e-001 8.535118e-005 9.384557e+001 2.585787e-004 6.441658e+001 1.000777e+000 -4.608139e-001
29698530 9.998279e-001 -6.951484e-001 1.796334e-005 -1.519988e+002 1.047591e-004 3.089830e+001 1.000420e+000 -3.960313e-001
29998515 9.992011e-001 -7.383504e-001 7.729112e-006 1.047570e+002 1.246628e-004 1.424594e+002 1.001184e+000 -4.546844e-001
30298500 9.993624e-001 -7.417691e-001 5.118867e-005 -1.135886e+002 2.023081e-004 3.741497e+001 1.001694e+000 -5.123389e-001
30598485 1.000182e+000 -7.618457e-001 1.190290e-004 -9.248820e+001 1.479624e-004 -1.422572e+002 1.000329e+000 -4.935228e-001
30898470 1.000142e+000 -7.274228e-001 1.162435e-004 1.392967e+002 8.251664e-005 1.014587e+002 1.000533e+000 -4.978686e-001
31198455 9.998189e-001 -7.388884e-001 1.379122e-004 4.667545e+001 7.392988e-005 1.256883e+002 1.000773e+000 -4.565615e-001
31498440 9.992046e-001 -8.133731e-001 5.329516e-005 -5.042851e+000 2.505739e-004 7.505271e+001 1.000764e+000 -4.364076e-001
31798425 9.998104e-001 -8.174249e-001 5.473729e-005 1.053373e+002 4.169682e-004 1.652849e+002 1.001152e+000 -4.578599e-001
32098410 9.993414e-001 -8.469174e-001 2.791072e-005 -2.244979e-001 1.262610e-004 -4.303451e+001 1.000638e+000 -4.472630e-001
32398395 9.998596e-001 -8.001471e-001 2.959317e-005 1.133901e+002 1.535356e-004 1.077469e+002 1.001285e+000 -4.708722e-001
32698380 9.997520e-001 -7.953209e-001 8.130381e-005 -1.478318e+002 8.184557e-005 -1.039882e+001 1.001587e+000 -4.833598e-001
32998365 9.995036e-001 -8.471794e-001 1.233738e-004 -4.141341e+001 2.125025e-004 1.130096e+002 1.000744e+000 -3.964661e-001
33298350 9.995373e-001 -8.177091e-001 2.158946e-005 3.522649e+000 1.819545e-004 1.068560e+002 1.000926e+000 -4.715082e-001
33598335 9.990650e-001 -8.152922e-001 8.640386e-005 4.279720e+001 1.687983e-004 1.289138e+002 1.000628e+000 -4.478841e-001
33898320 9.992360e-001 -8.521588e-001 1.087960e-004 1.636647e+002 1.185202e-004 -1.430605e+002 1.000599e+000 -4.444033e-001
34198305 9.989611e-001 -8.793523e-001 1.095876e-004 -1.683025e+002 2.068638e-004 6.639984e+001 1.000105e+000 -4.712849e-001
34498290 9.996061e-001 -8.858772e-001 7.426276e-005 -6.627832e+001 2.730014e-004 1.513208e+002 9.992195e-001 -4.937243e-001
34798275 9.993294e-001 -9.037382e-001 8.456465e-006 8.092407e+001 1.227404e-004 1.050191e+002 9.999613e-001 -5.446969e-001
35098260 9.988410e-001 -8.949896e-001 9.952554e-005 4.151222e+001 4.151606e-005 -1.088934e+002 1.000594e+000 -4.716322e-001
35398245 9.996867e-001 -9.246144e-001 8.330705e-005 -1.327968e+002 1.917539e-004 -9.143111e+001 1.001530e+000 -4.342866e-001
35698230 9.993258e-001 -9.179273e-001 6.769865e-005 -1.798710e+002 1.782429e-004 2.241804e+001 1.001821e+000 -5.164137e-001
35998215 9.990041e-001 -9.129466e-001 4.668800e-005 -5.871589e+001 2.719729e-004 -1.019406e+002 1.000760e+000 -5.377207e-001
36298200 9.996027e-001 -9.050980e-001 1.297358e-004 -1.413284e+002 1.089799e-004 5.650630e+000 1.001008e+000 -5.560386e-001
36598185 9.995303e-001 -9.096141e-001 1.189733e-005 -1.103727e+002 1.044246e-004 -1.335580e+002 1.000282e+000 -4.745632e-001
36898170 1.000356e+000 -9.102497e-001 6.337162e-005 5.006448e+001 1.327929e-004 -6.158559e+001 1.000121e+000 -5.536792e-001
37198155 1.000018e+000 -9.191582e-001 1.013024e-004 1.540287e+002 8.601795e-005 -1.100623e+002 1.000179e+000 -5.437812e-001
37498140 1.000027e+000 -9.280660e-001 9.541270e-005 1.784301e+002 2.086371e-004 1.727241e+002 1.000577e+000 -5.351475e-001
37798125 9.997738e-001 -9.203775e-001 4.522786e-005 8.441606e+001 5.371131e-005 1.639137e+001 1.002084e+000 -5.711305e-001
38098110 9.994109e-001 -9.734357e-001 4.479749e-005 1.156189e+002 2.254538e-004 -1.673196e+002 9.998633e-001 -5.740780e-001
38398095 9.992231e-001 -9.445747e-001 2.551071e-005 -1.371617e+002 1.824995e-004 -3.909515e+001 1.000628e+000 -6.224407e-001
38698080 9.994630e-001 -9.331393e-001 4.780018e-005 6.224116e+001 1.118480e-004 1.600026e+002 9.994932e-001 -5.931619e-001
38998065 9.992639e-001 -9.527642e-001 1.315214e-004 -5.514740e+001 1.271434e-004 2.209999e+001 1.000098e+000 -5.399703e-001
39298050 9.990401e-001 -9.727105e-001 3.165431e-005 -1.656361e+002 8.748070e-005 7.046236e+000 9.998465e-001 -5.561775e-001
39598035 1.000082e+000 -9.257169e-001 9.195845e-005 -1.224168e+002 6.755359e-005 -1.046031e+002 1.000756e+000 -5.046027e-001
39898020 1.000466e+000 -9.695708e-001 6.348002e-005 3.235279e+000 2.652143e-004 7.796340e+001 1.002723e+000 -4.685278e-001
40198005 9.992082e-001 -9.318992e-001 2.435938e-004 3.270644e+001 3.099952e-004 -1.087156e+002 9.995931e-001 -5.595252e-001
40497990 9.991156e-001 -9.903863e-001 3.474960e-005 6.134142e+001 1.889317e-004 1.580659e+002 1.001655e+000 -7.627909e-001
40797975 1.000150e+000 -1.000725e+000 1.331850e-004 5.246415e+001 3.731333e-004 -1.373377e+002 1.002483e+000 -6.513095e-001
41097960 9.999849e-001 -9.703570e-001 7.711053e-005 -1.296048e+002 2.263200e-004 -1.038324e+002 1.001716e+000 -4.515466e-001
41397945 9.993816e-001 -9.689665e-001 1.448171e-004 -1.341840e+002 2.562739e-004 9.722112e+001 1.002295e+000 -4.787195e-001
41697930 9.996145e-001 -9.847015e-001 2.174205e-004 -1.201800e+002 1.474167e-004 1.029836e+002 1.001901e+000 -5.661100e-001
41997915 9.996682e-001 -1.017851e+000 1.234585e-004 -3.103275e+001 2.618124e-004 1.573828e+002 9.999710e-001 -5.671176e-001
42297900 9.998601e-001 -1.024596e+000 1.668053e-004 9.521711e+001 6.569879e-004 2.024595e+001 1.001850e+000 -4.874918e-001
42597885 1.000757e+000 -1.012120e+000 2.388527e-004 -6.631524e+001 3.458291e-004 3.562029e+001 1.000564e+000 -5.882540e-001
42897870 9.989572e-001 -1.019470e+000 1.971150e-004 7.606922e+000 3.103157e-004 4.251654e+001 1.001040e+000 -7.334788e-001
43197855 9.997765e-001 -1.082101e+000 9.997539e-005 -1.260919e+002 1.373640e-004 9.610394e+001 1.000047e+000 -7.097188e-001
43497840 1.000442e+000 -1.072490e+000 1.322834e-004 -1.498210e+002 1.323842e-004 -6.594967e+001 1.000681e+000 -6.721813e-001
43797825 9.994811e-001 -1.041473e+000 1.330208e-004 -1.109847e+002 1.195730e-004 -9.793135e+001 1.001575e+000 -6.888636e-001
44097810 9.993873e-001 -1.054742e+000 1.538592e-004 1.119407e+002 9.775135e-005 6.559008e+001 1.000494e+000 -6.917857e-001
44397795 9.996918e-001 -1.024235e+000 6.104061e-005 5.963541e+001 2.732411e-004 -1.458130e+002 1.002130e+000 -6.557053e-001
44697780 9.999356e-001 -1.138106e+000 8.586009e-005 -9.940450e+001 2.124056e-004 -1.580083e+002 1.000642e+000 -7.252516e-001
44997765 1.000262e+000 -1.123103e+000 1.338078e-004 -1.714239e+002 2.884502e-004 9.244625e+001 1.004047e+000 -6.537479e-001
45297750 1.001001e+000 -1.088030e+000 9.321634e-005 1.532765e+002 1.429573e-004 -9.612246e-001 1.002871e+000 -6.310704e-001
45597735 1.000400e+000 -1.123998e+000 8.689946e-005 1.210117e+002 2.355443e-004 9.783443e+001 1.003028e+000 -6.173307e-001
45897720 1.000759e+000 -1.105091e+000 9.293481e-005 -9.731091e+001 2.004148e-004 -6.372753e+000 1.002631e+000 -6.809128e-001
46197705 1.001616e+000 -1.120745e+000 1.201147e-004 -6.025691e+001 3.108438e-004 2.872730e+001 1.002367e+000 -6.219957e-001
46497690 1.000073e+000 -1.091964e+000 1.695832e-004 1.499073e+001 1.343381e-004 -1.386742e+002 1.001215e+000 -6.085973e-001
46797675 9.997859e-001 -1.132927e+000 1.738233e-004 1.310071e+002 4.982680e-004 -1.230069e+002 1.001595e+000 -6.876367e-001
47097660 9.992644e-001 -1.143183e+000 7.235724e-005 -1.293410e+002 1.818789e-004 -9.747534e+001 1.003170e+000 -8.179520e-001
