!Agilent Technologies,N5230C,SG49000117,A.08.50.07
!Agilent N5230C: A.08.50.07
!Date: Thursday, May 16, 2024 19:36:10
!Correction: S11(Full 2 Port(1,2)) 
!S21(Full 2 Port(1,2)) 
!S12(Full 2 Port(1,2)) 
!S22(Full 2 Port(1,2)) 
!S2P File: Measurements: S11, S21, S12, S22:
# Hz S  MA   R 50
300000 1.007634e+000 -5.318276e-001 1.568473e-004 6.986565e+001 3.771854e-004 -1.554206e+002 1.014258e+000 -8.206173e-001
599985 9.826646e-001 2.906239e-001 1.088221e-004 -1.302592e+002 1.443738e-004 -1.494916e+002 9.664067e-001 3.931280e-001
899970 9.969897e-001 -1.449465e-001 1.241008e-004 -4.662813e+000 2.351453e-004 -8.728608e+001 9.872273e-001 -4.173733e-001
1199955 9.978078e-001 -1.022371e-001 1.187793e-005 -1.070284e+002 3.080399e-004 1.209109e+002 9.963294e-001 -1.496837e-001
1499940 9.932806e-001 1.016933e-001 2.369251e-005 -1.337471e+001 3.638350e-005 1.692850e+001 9.930001e-001 5.008419e-002
1799925 9.918047e-001 2.063901e-001 6.821426e-005 1.212068e+002 1.549489e-004 3.592318e+001 9.902385e-001 7.691347e-002
2099910 9.985610e-001 -6.572046e-002 8.751694e-005 7.467869e+001 1.781644e-004 -1.442757e+002 1.000406e+000 -7.706700e-003
2399895 9.991099e-001 -1.703007e-001 4.011995e-005 3.337571e+001 2.841818e-004 -1.794355e+002 1.003588e+000 -6.328435e-002
2699880 9.997883e-001 -2.955087e-001 6.484096e-005 -1.199083e+002 2.645861e-004 -8.748547e+001 9.961753e-001 -2.262459e-001
2999865 9.999878e-001 -2.115918e-001 3.670370e-005 1.371708e+002 2.409593e-004 1.650377e+001 9.995143e-001 -1.735812e-001
3299850 9.998983e-001 -1.653289e-001 1.316969e-005 -8.048703e+001 1.077392e-004 1.498401e+002 9.983025e-001 -2.214486e-001
3599835 1.000113e+000 -1.749469e-001 4.309630e-005 1.122669e+002 6.233657e-005 1.162867e+002 9.983355e-001 -1.483916e-001
3899820 9.993957e-001 -1.906776e-001 4.855838e-005 7.295574e+001 1.282696e-004 -1.157967e+002 9.983239e-001 -1.880599e-001
4199805 9.998548e-001 -2.694096e-001 6.686678e-005 1.698943e+002 2.057378e-004 2.136406e+001 1.000338e+000 -2.992031e-001
4499790 9.998994e-001 -2.413319e-001 7.408849e-005 1.532689e+001 1.260136e-004 3.966386e+001 9.998983e-001 -2.353386e-001
4799775 9.998183e-001 -2.481856e-001 9.467481e-005 -1.084802e+002 4.903914e-005 8.547306e+001 9.997121e-001 -1.660079e-001
5099760 1.000287e+000 -2.195775e-001 6.622844e-005 -1.710045e+002 2.492579e-004 -8.583071e+001 1.000948e+000 -1.244573e-001
5399745 1.000279e+000 -1.955303e-001 1.295452e-005 -8.378059e+001 1.951784e-004 -4.942153e+000 1.000946e+000 -1.987324e-001
5699730 9.994473e-001 -2.245910e-001 4.995059e-005 -1.167619e+002 1.339308e-004 -1.519496e+002 1.001675e+000 -1.490308e-001
5999715 9.990045e-001 -2.086646e-001 1.081608e-004 -1.821727e+000 1.488999e-004 7.239413e+001 1.000536e+000 -1.018062e-001
6299700 9.997573e-001 -2.266511e-001 8.112427e-005 -1.425624e+002 3.131369e-004 -2.878077e+001 9.998787e-001 -2.131603e-001
6599685 9.997336e-001 -2.102935e-001 5.400442e-005 -4.685230e+001 8.613052e-005 8.929229e+001 1.000896e+000 -2.227587e-001
6899670 9.996171e-001 -2.210775e-001 1.782101e-005 8.879617e+001 1.528973e-004 3.589359e+001 1.000617e+000 -2.138407e-001
7199655 9.993670e-001 -2.825575e-001 6.957510e-005 -7.966418e+001 1.504738e-004 9.472739e+001 1.000664e+000 -2.057113e-001
7499640 9.997394e-001 -2.976314e-001 5.414646e-005 -6.685966e+001 1.252334e-004 -1.262869e+002 1.001191e+000 -2.905083e-001
7799625 9.998897e-001 -2.745886e-001 4.402051e-005 -5.522043e+001 7.541405e-005 -1.439013e+002 9.992962e-001 -2.367759e-001
8099610 9.992598e-001 -2.962526e-001 2.465848e-005 1.371557e+002 1.287548e-004 1.715783e+002 9.996219e-001 -2.849996e-001
8399595 9.995019e-001 -2.738717e-001 1.913960e-005 -8.179140e+001 1.671668e-004 1.368578e+002 9.993736e-001 -2.254972e-001
8699580 9.991793e-001 -2.932116e-001 6.705357e-005 -7.234315e+001 1.378326e-004 -7.934645e+001 9.995384e-001 -2.774436e-001
8999565 9.993505e-001 -2.805718e-001 1.982107e-005 2.729587e+001 6.320063e-005 1.400789e+002 9.994288e-001 -2.086979e-001
9299550 9.997411e-001 -3.020351e-001 8.518530e-005 -7.157141e+001 1.847436e-004 -4.464793e+000 9.993593e-001 -3.039464e-001
9599535 9.993616e-001 -3.602143e-001 5.040255e-005 1.462641e+001 7.755555e-005 3.573708e+001 9.991199e-001 -3.863245e-001
9899520 9.995934e-001 -3.954655e-001 4.134654e-005 7.462186e+001 2.460541e-005 1.226316e+002 9.977006e-001 -4.875605e-001
10199505 9.996248e-001 -2.775857e-001 7.293835e-005 1.781601e+002 1.311605e-004 -5.935796e+001 1.000017e+000 -1.772954e-001
10499490 1.000303e+000 -2.991790e-001 4.410240e-005 -1.105091e+002 1.004945e-004 4.681130e+001 9.992105e-001 -2.333693e-001
10799475 9.995087e-001 -3.049801e-001 3.646215e-005 -1.202700e+002 1.621248e-004 -7.505601e+001 9.990854e-001 -1.996129e-001
11099460 9.995070e-001 -3.323942e-001 4.999675e-005 3.748895e+001 1.228647e-004 2.575817e+001 9.995608e-001 -1.760626e-001
11399445 9.998069e-001 -3.317752e-001 4.410772e-005 -3.955735e+001 5.545486e-005 -3.233059e+001 9.990877e-001 -2.537596e-001
11699430 9.997359e-001 -3.440756e-001 3.613012e-005 -5.119862e+001 1.825340e-005 1.703153e+002 9.984167e-001 -2.184916e-001
11999415 9.994169e-001 -3.666893e-001 2.894320e-005 -3.335451e+001 1.019733e-004 1.007782e+002 1.001309e+000 -1.946061e-001
12299400 9.999183e-001 -3.410851e-001 6.307629e-005 -7.846851e+001 1.169107e-004 -1.497500e+002 1.000186e+000 -2.153260e-001
12599385 1.000264e+000 -3.328507e-001 5.212028e-005 -7.706636e+001 1.479764e-004 -1.650226e+002 1.000979e+000 -3.622329e-001
12899370 9.998744e-001 -3.897498e-001 8.049094e-005 9.931499e+001 1.858155e-004 -1.692092e+002 9.995607e-001 -4.556895e-001
13199355 9.995283e-001 -4.150861e-001 8.184004e-005 1.632036e+002 1.018180e-004 -1.032196e+002 9.994993e-001 -2.987026e-001
13499340 9.995541e-001 -4.220938e-001 9.624210e-005 -1.716174e+002 2.250193e-004 1.138586e+002 9.994419e-001 -2.145005e-001
13799325 9.993324e-001 -4.212858e-001 3.307845e-005 -7.030520e+001 2.225490e-004 -9.659651e+001 9.983615e-001 -3.432584e-001
14099310 9.996766e-001 -4.583477e-001 2.647708e-005 1.724562e+002 3.170102e-004 8.702592e+001 9.991320e-001 -2.459598e-001
14399295 9.998934e-001 -4.416513e-001 7.451040e-005 1.697383e+002 1.152144e-004 1.717597e+002 1.000553e+000 -2.093680e-001
14699280 9.993734e-001 -4.523704e-001 5.753670e-005 1.233977e+002 1.623447e-004 5.023860e+001 1.000149e+000 -2.628255e-001
14999265 9.992827e-001 -4.437568e-001 1.169224e-004 1.790087e+001 2.948123e-004 -7.501041e+001 1.000166e+000 -2.472929e-001
15299250 9.994732e-001 -4.062330e-001 7.636234e-005 9.075156e+001 2.014694e-004 1.452778e+002 9.996810e-001 -3.156765e-001
15599235 9.996588e-001 -4.322358e-001 7.905373e-005 -1.688721e+002 1.212003e-004 -4.151404e+001 1.000671e+000 -2.238327e-001
15899220 9.997306e-001 -4.395920e-001 1.008163e-004 9.305723e+000 1.633022e-004 1.193060e+002 1.002518e+000 -2.324610e-001
16199205 9.999509e-001 -4.317230e-001 9.466530e-005 1.599688e+002 9.338510e-005 -1.568082e+002 1.000991e+000 -1.881220e-001
16499190 9.996046e-001 -4.645659e-001 1.139506e-004 -1.169010e+002 1.344435e-004 4.138507e+000 1.002132e+000 -3.160111e-001
16799175 9.994310e-001 -4.915875e-001 3.748198e-005 8.597696e+001 3.451214e-004 -1.268554e+002 1.002059e+000 -3.188619e-001
17099160 9.997892e-001 -4.759280e-001 7.829042e-005 -3.252055e+001 5.754511e-005 1.962229e+001 1.002249e+000 -3.341771e-001
17399145 9.994724e-001 -5.194256e-001 8.884847e-005 -1.776145e+002 6.168794e-005 -1.229894e+002 1.001046e+000 -3.431333e-001
17699130 9.998564e-001 -5.181392e-001 7.519910e-005 1.472449e+002 1.147844e-004 -3.484486e+001 1.000793e+000 -3.264934e-001
17999115 1.000156e+000 -4.944847e-001 1.604365e-005 -3.934229e+001 1.140153e-004 -9.288340e+001 1.000228e+000 -3.231109e-001
18299100 9.987972e-001 -4.865169e-001 9.548765e-005 1.412164e+002 3.004792e-004 4.232979e+001 1.000247e+000 -3.132416e-001
18599085 9.996139e-001 -5.091794e-001 3.530042e-005 7.262638e+001 2.320945e-004 -1.479505e+002 1.000665e+000 -3.134750e-001
18899070 9.992028e-001 -5.213141e-001 1.010698e-004 -1.200287e+002 2.156171e-004 -1.547758e+002 9.992833e-001 -2.928135e-001
19199055 9.999521e-001 -5.721752e-001 3.319415e-005 -1.356765e+002 8.258494e-005 -1.613303e+002 1.000282e+000 -2.910067e-001
19499040 9.998644e-001 -5.238577e-001 2.836284e-005 -3.677753e+001 2.876435e-004 1.626850e+002 1.000072e+000 -2.797607e-001
19799025 1.000283e+000 -5.730428e-001 3.669674e-005 1.410657e+002 1.629645e-004 1.849074e+001 1.000460e+000 -2.272134e-001
20099010 9.995764e-001 -5.035661e-001 7.527337e-005 1.003135e+002 1.047146e-004 -1.814600e+001 1.000227e+000 -3.161786e-001
20398995 9.987779e-001 -5.145953e-001 6.688111e-005 7.746025e+001 2.976172e-004 8.365466e+001 9.995773e-001 -3.702256e-001
20698980 9.993877e-001 -5.436845e-001 4.580109e-005 4.484016e+001 2.106453e-004 -1.192394e+002 9.999745e-001 -2.895582e-001
20998965 9.989789e-001 -5.628760e-001 1.059455e-004 1.716995e+002 1.621595e-004 3.087315e+001 9.981724e-001 -3.153914e-001
21298950 9.989416e-001 -5.528601e-001 4.991432e-005 7.908681e+001 2.434412e-004 1.697508e+002 9.989668e-001 -2.929918e-001
21598935 9.989583e-001 -5.638947e-001 4.775962e-005 -1.145662e+002 3.059550e-004 4.679040e+001 9.991946e-001 -2.390960e-001
21898920 9.992455e-001 -6.172186e-001 9.222477e-005 -8.737360e+001 1.941487e-004 -1.391930e+002 9.992361e-001 -2.993235e-001
22198905 9.993753e-001 -6.071504e-001 1.432956e-004 -5.773098e+001 2.197662e-004 5.568997e+001 1.000726e+000 -3.432798e-001
22498890 9.999143e-001 -6.086630e-001 1.195218e-004 -1.168515e+002 6.748981e-005 -1.596716e+002 1.001470e+000 -3.465329e-001
22798875 9.997166e-001 -6.043159e-001 1.561983e-005 -5.611283e+001 9.417484e-005 -3.674123e+001 1.000972e+000 -3.918668e-001
23098860 9.998910e-001 -6.221339e-001 8.007432e-005 -1.221479e+002 1.729427e-004 -1.445459e+002 1.001484e+000 -3.721980e-001
23398845 9.994403e-001 -6.605667e-001 1.443922e-004 1.405467e+002 2.400810e-004 -5.705932e+000 1.001312e+000 -3.903990e-001
23698830 9.993560e-001 -6.466719e-001 3.887439e-005 -1.693490e+002 3.862121e-004 1.262362e+002 1.000807e+000 -3.717583e-001
23998815 9.998011e-001 -7.035313e-001 1.010929e-004 -1.405513e+002 2.513939e-004 -5.063910e+001 9.990896e-001 -2.740354e-001
24298800 9.996091e-001 -6.720169e-001 4.691150e-005 7.562663e+001 1.149225e-004 8.703036e+001 1.000085e+000 -4.040139e-001
24598785 1.000035e+000 -6.776411e-001 6.148568e-005 2.016955e+001 1.687945e-004 -5.725658e+001 9.999529e-001 -3.747496e-001
24898770 1.000063e+000 -6.645539e-001 8.910392e-005 -1.116555e+002 2.891270e-004 1.130750e+002 9.994926e-001 -3.952254e-001
25198755 9.997942e-001 -6.871386e-001 7.027271e-005 -1.343172e+002 1.629115e-004 1.568667e+002 1.000534e+000 -3.869718e-001
25498740 9.988784e-001 -7.072113e-001 1.018926e-004 1.042725e+002 3.985815e-004 2.600862e+001 1.000194e+000 -3.961983e-001
25798725 9.990082e-001 -6.698905e-001 1.829844e-005 -5.362255e+001 8.709588e-005 -7.493709e+001 1.000562e+000 -3.820460e-001
26098710 1.000362e+000 -6.790522e-001 4.664316e-006 -1.916636e+000 2.794274e-004 2.561820e+001 1.000862e+000 -3.962967e-001
26398695 1.000406e+000 -6.899058e-001 4.607177e-005 -2.117152e+000 1.391335e-004 9.907419e+001 1.000167e+000 -4.439872e-001
26698680 1.000058e+000 -7.113089e-001 9.211682e-005 -1.615117e+002 1.395052e-004 7.679462e+001 1.000339e+000 -3.985189e-001
26998665 9.993803e-001 -6.831626e-001 7.571324e-005 -1.065862e+002 2.709939e-004 -9.033015e+001 1.000425e+000 -4.418074e-001
27298650 9.997482e-001 -7.110196e-001 5.568814e-005 1.218811e+002 2.836397e-004 4.560104e+001 1.000630e+000 -4.530742e-001
27598635 9.992588e-001 -7.230638e-001 1.253851e-004 -1.310865e+002 2.298186e-004 1.358239e+002 1.001379e+000 -4.195610e-001
27898620 9.992979e-001 -7.165646e-001 8.026261e-005 -1.434277e+001 1.855759e-004 -9.108546e+001 1.001635e+000 -4.055690e-001
28198605 9.993441e-001 -7.371808e-001 3.513874e-005 -1.749892e+002 2.670763e-004 1.453600e+002 1.001819e+000 -3.681624e-001
28498590 9.988233e-001 -7.814375e-001 7.632533e-005 -1.153908e+002 1.186516e-004 5.987410e+001 1.001179e+000 -4.060441e-001
28798575 9.994080e-001 -7.692123e-001 1.297890e-004 -7.227666e+001 6.158010e-005 5.658839e+001 1.000225e+000 -5.093247e-001
29098560 9.993131e-001 -7.743682e-001 9.012377e-005 -1.095808e+002 2.227063e-004 -1.597800e+002 1.000622e+000 -4.606224e-001
29398545 9.997261e-001 -7.443622e-001 7.245339e-005 4.252968e+000 1.490048e-004 4.480561e+001 1.001626e+000 -4.252962e-001
29698530 9.992055e-001 -7.298644e-001 6.393762e-005 -3.370508e+001 3.904222e-005 -1.183681e+002 1.001160e+000 -4.019043e-001
29998515 9.998405e-001 -7.856185e-001 8.533012e-005 -5.509353e+001 4.736364e-005 5.144667e+001 1.001269e+000 -4.797316e-001
30298500 1.000159e+000 -8.082765e-001 1.137378e-004 -6.385491e+001 1.606485e-004 6.567947e+001 1.001318e+000 -5.031050e-001
30598485 1.000138e+000 -7.534167e-001 3.241119e-005 1.742026e+002 2.436282e-004 6.428907e+001 1.000708e+000 -4.424713e-001
30898470 9.993356e-001 -7.585039e-001 8.087804e-005 1.953424e+001 1.143554e-004 1.290346e+002 9.999874e-001 -4.816753e-001
31198455 9.996845e-001 -7.622665e-001 5.987740e-005 -5.472345e+000 1.992036e-004 1.307362e+001 1.000095e+000 -4.423696e-001
31498440 1.000099e+000 -8.275585e-001 9.937656e-005 -1.458035e+002 8.569179e-005 -2.838845e+001 1.001274e+000 -4.506717e-001
31798425 9.992846e-001 -8.816170e-001 1.691332e-004 -7.287314e+001 2.287064e-004 -4.581592e+001 1.000823e+000 -4.657218e-001
32098410 9.999887e-001 -8.791126e-001 2.153122e-005 1.322190e+001 2.071762e-004 1.495545e+002 1.002092e+000 -4.557492e-001
32398395 9.997689e-001 -8.564033e-001 5.919134e-005 1.256413e+002 1.575281e-004 2.422471e+001 1.000775e+000 -4.559064e-001
32698380 9.997859e-001 -8.345668e-001 7.832026e-005 2.095763e+001 4.766253e-006 -1.202602e+002 1.001867e+000 -4.610229e-001
32998365 1.000874e+000 -8.826830e-001 6.603241e-005 -1.574001e+002 1.329110e-004 -2.858093e+001 1.001270e+000 -4.486781e-001
33298350 9.994310e-001 -8.807237e-001 4.743960e-005 8.292632e+001 1.338262e-004 1.684376e+002 1.000716e+000 -5.014427e-001
33598335 9.997087e-001 -8.720772e-001 5.614757e-005 1.465827e+002 1.901038e-004 -8.090868e+001 1.000497e+000 -4.538444e-001
33898320 9.993727e-001 -8.878076e-001 4.554461e-005 6.971617e+001 2.749322e-004 6.349346e+001 1.001523e+000 -5.160022e-001
34198305 9.990161e-001 -9.143609e-001 9.334746e-005 -8.473425e+001 1.569052e-004 1.601163e+002 9.998146e-001 -4.857063e-001
34498290 9.992586e-001 -9.110032e-001 1.797198e-004 -1.654843e+002 1.221502e-004 2.103343e+001 9.991823e-001 -4.976040e-001
34798275 9.995679e-001 -9.363204e-001 7.209773e-005 -1.787840e+002 3.699268e-004 -1.404510e+002 9.990198e-001 -5.195737e-001
35098260 9.993980e-001 -9.324650e-001 2.730484e-005 6.222381e+001 1.551123e-004 3.201312e+001 1.001009e+000 -4.661731e-001
35398245 9.996079e-001 -9.323341e-001 1.378485e-004 1.813317e+001 4.669405e-005 3.173757e+001 1.000733e+000 -4.565556e-001
35698230 9.993570e-001 -9.827444e-001 8.649367e-005 -4.393587e+001 2.288587e-005 4.835867e+001 1.001498e+000 -4.374334e-001
35998215 9.997498e-001 -9.701717e-001 3.059615e-005 5.770556e+001 1.566427e-004 1.113207e+002 1.001389e+000 -5.372823e-001
36298200 9.995837e-001 -9.839833e-001 3.869594e-005 3.798452e+001 1.669015e-004 4.197494e+001 1.001184e+000 -5.723304e-001
36598185 9.993795e-001 -9.474649e-001 6.320410e-005 3.486338e+001 2.391616e-004 8.929343e+001 1.000677e+000 -5.428743e-001
36898170 9.997569e-001 -9.619226e-001 9.805224e-005 1.625897e+002 9.555351e-005 -9.632602e+001 1.000769e+000 -5.645065e-001
37198155 9.997357e-001 -9.880522e-001 9.122287e-005 1.695098e+002 5.920639e-005 -7.797326e+000 1.000537e+000 -5.785146e-001
37498140 1.000383e+000 -9.959517e-001 9.675192e-005 -5.320633e+001 1.618229e-004 1.511911e+002 1.000890e+000 -4.814020e-001
37798125 9.996190e-001 -9.913165e-001 6.229833e-005 -7.640120e+001 2.032651e-004 7.876169e+001 1.000704e+000 -5.672926e-001
38098110 9.994493e-001 -9.753036e-001 7.669073e-005 -1.780173e+001 9.973056e-005 1.483781e+002 1.000795e+000 -5.278126e-001
38398095 9.991955e-001 -1.006535e+000 7.121564e-005 -5.561096e+001 1.373675e-005 -1.287141e+001 9.998566e-001 -5.973226e-001
38698080 9.995418e-001 -1.003487e+000 6.835073e-005 2.212393e+001 1.654665e-004 1.745241e+002 9.996967e-001 -6.116063e-001
38998065 9.992886e-001 -1.027214e+000 6.145696e-005 -8.547103e+001 1.992808e-004 -4.927410e+001 9.999827e-001 -5.399595e-001
39298050 1.000322e+000 -9.895356e-001 6.654573e-005 1.575387e+002 9.076067e-005 1.447350e+002 9.999728e-001 -5.545017e-001
39598035 1.000641e+000 -1.020025e+000 2.048725e-004 5.251241e+001 5.467261e-005 9.180415e+001 1.000428e+000 -4.776325e-001
39898020 1.000447e+000 -9.744830e-001 7.145366e-005 -6.770274e+001 5.475520e-005 1.502853e+002 1.002445e+000 -3.824351e-001
40198005 9.992998e-001 -1.050645e+000 1.053322e-004 1.515990e+002 2.184197e-004 4.837772e+001 1.002756e+000 -6.991569e-001
40497990 1.000264e+000 -9.660818e-001 1.752783e-004 5.024606e+001 3.244883e-004 5.021115e+001 1.002721e+000 -6.746419e-001
40797975 9.995378e-001 -1.080767e+000 2.147318e-004 1.024787e+002 1.098927e-004 -3.388754e-001 1.001543e+000 -6.741071e-001
41097960 9.998943e-001 -1.033216e+000 1.986593e-004 -1.248648e+002 3.349780e-004 -7.881219e+001 1.001834e+000 -5.777434e-001
41397945 9.991670e-001 -9.875536e-001 4.131383e-005 1.761202e+002 1.308196e-004 -1.288755e+002 1.001866e+000 -6.736479e-001
41697930 9.991598e-001 -9.768758e-001 1.533269e-004 -8.384780e+001 2.186019e-004 -6.145677e+001 1.001452e+000 -5.869545e-001
41997915 9.995016e-001 -1.032351e+000 8.986229e-005 1.060717e+002 3.080917e-004 -4.397168e+001 1.000931e+000 -5.821692e-001
42297900 9.994060e-001 -9.855601e-001 7.592690e-005 -9.510470e+000 5.300341e-004 -8.539625e+001 1.000677e+000 -4.674963e-001
42597885 1.000770e+000 -1.048250e+000 5.446009e-005 -1.342852e+002 1.548598e-004 -6.109496e+001 1.002668e+000 -5.899300e-001
42897870 9.995363e-001 -1.064535e+000 9.767080e-005 5.427907e+001 3.716027e-004 -1.348822e+002 1.001417e+000 -6.013511e-001
43197855 1.001031e+000 -1.046230e+000 1.912900e-004 6.807628e+001 1.346645e-004 1.206655e+002 1.000453e+000 -6.787575e-001
43497840 9.991670e-001 -1.116312e+000 5.889804e-005 5.277293e+001 3.056648e-004 -1.466871e+002 9.997804e-001 -6.793438e-001
43797825 1.000307e+000 -1.110222e+000 5.135432e-005 1.061019e+001 1.334743e-004 9.720604e+001 1.000688e+000 -6.684815e-001
44097810 9.999954e-001 -1.128794e+000 1.656080e-004 6.906759e+001 2.237166e-004 6.527501e+001 1.002586e+000 -7.137672e-001
44397795 9.997709e-001 -1.141342e+000 2.091636e-004 -1.737936e+002 4.443694e-004 5.104575e+001 1.002413e+000 -7.863948e-001
44697780 1.000102e+000 -1.099095e+000 8.356898e-005 -1.324775e+001 1.780173e-004 2.322905e+001 1.004282e+000 -6.955330e-001
44997765 1.000573e+000 -1.166314e+000 1.993147e-004 3.079683e+001 1.404073e-004 1.507410e+002 1.004599e+000 -6.979784e-001
45297750 1.002140e+000 -1.196584e+000 2.041859e-005 -3.031148e+001 2.113320e-004 -9.677285e+001 1.002119e+000 -6.188598e-001
45597735 1.000001e+000 -1.208919e+000 2.027079e-004 1.088062e+002 4.204382e-004 -1.175516e+001 1.003550e+000 -7.027214e-001
45897720 1.000417e+000 -1.152091e+000 1.491950e-004 1.145134e+002 1.607159e-004 -8.988570e+001 1.001835e+000 -6.321808e-001
46197705 1.000338e+000 -1.152529e+000 7.229165e-005 -1.126130e+002 2.030117e-004 -1.211742e+002 1.003122e+000 -6.214855e-001
46497690 1.001136e+000 -1.184458e+000 7.816040e-005 -3.628933e+001 1.339824e-004 -1.385562e+002 1.003495e+000 -6.783758e-001
46797675 9.999271e-001 -1.166805e+000 1.039298e-004 1.458603e+002 1.109746e-004 1.990570e+001 1.003175e+000 -6.175153e-001
47097660 9.991539e-001 -1.188094e+000 2.457700e-005 9.888368e+001 3.063304e-004 -1.089247e+002 1.001376e+000 -7.573828e-001
