!Agilent Technologies,N5230C,SG49000117,A.08.50.07
!Agilent N5230C: A.08.50.07
!Date: Thursday, May 16, 2024 19:36:50
!Correction: S11(Full 2 Port(1,2)) 
!S21(Full 2 Port(1,2)) 
!S12(Full 2 Port(1,2)) 
!S22(Full 2 Port(1,2)) 
!S2P File: Measurements: S11, S21, S12, S22:
# Hz S  MA   R 50
300000 1.005869e+000 -5.330415e-001 2.780407e-004 1.662298e+002 3.586228e-004 5.974190e+001 1.010915e+000 -9.876134e-001
599985 9.826891e-001 2.424484e-001 2.825757e-005 -1.511591e+002 1.235549e-004 9.662141e+001 9.663335e-001 3.118927e-001
899970 9.971188e-001 -1.255837e-001 5.752126e-005 -3.910021e+001 1.488334e-004 3.520507e+001 9.854006e-001 -3.399795e-001
1199955 9.970169e-001 -1.483210e-001 5.076314e-005 1.582105e+002 2.303914e-004 4.134084e+001 9.964598e-001 -2.340590e-001
1499940 9.936052e-001 1.355258e-001 2.212099e-005 -4.562236e-001 8.509959e-005 1.263060e+002 9.934185e-001 1.145322e-001
1799925 9.915448e-001 1.806490e-001 1.031938e-004 -1.556626e+002 2.440718e-004 1.496144e+002 9.902791e-001 -1.640482e-002
2099910 9.987420e-001 -3.550915e-002 6.184257e-005 4.994912e+001 1.279615e-004 1.609274e+002 9.985910e-001 -1.246009e-002
2399895 9.988589e-001 -1.870385e-001 1.159809e-004 5.698791e+001 2.305922e-004 1.493879e+002 1.004336e+000 -5.212278e-002
2699880 9.988734e-001 -2.913844e-001 1.275895e-004 -1.072670e+002 1.359848e-004 -5.456063e+001 9.960895e-001 -2.554127e-001
2999865 9.993691e-001 -1.763414e-001 7.045185e-005 1.730536e+002 9.378214e-005 1.557541e+002 9.981853e-001 -1.191658e-001
3299850 9.996278e-001 -1.759495e-001 1.405235e-005 -9.599227e+001 2.463194e-004 1.458007e+002 9.990716e-001 -1.762928e-001
3599835 9.995918e-001 -1.811477e-001 6.719500e-005 1.638976e+002 1.005754e-004 1.344810e+002 9.989414e-001 -1.617359e-001
3899820 9.992487e-001 -2.277831e-001 7.348353e-005 7.897392e+001 5.264259e-005 -1.025247e+002 9.997725e-001 -1.671681e-001
4199805 9.999446e-001 -2.318032e-001 8.491442e-005 -3.273315e+001 1.705422e-004 -1.324238e+002 9.998713e-001 -2.737712e-001
4499790 1.000159e+000 -2.337364e-001 5.616073e-005 -1.270764e+002 2.239192e-004 -6.950285e+001 9.991491e-001 -2.398394e-001
4799775 9.998751e-001 -2.590066e-001 8.231850e-005 1.608875e+002 5.809145e-005 -1.027915e+002 1.000525e+000 -1.991340e-001
5099760 9.995877e-001 -2.432909e-001 8.249660e-005 8.496743e+001 2.470308e-004 -1.719269e+001 1.001636e+000 -1.385117e-001
5399745 9.999534e-001 -2.423485e-001 4.588449e-005 -3.644701e+001 6.677192e-006 1.108277e+002 1.000625e+000 -1.348374e-001
5699730 9.996623e-001 -1.879999e-001 3.489144e-005 -2.998901e+001 4.136263e-005 -7.036621e+000 1.000398e+000 -1.251319e-001
5999715 9.994848e-001 -2.368463e-001 2.142080e-005 4.040884e+001 9.076970e-005 1.202168e+002 1.001137e+000 -1.239967e-001
6299700 9.996495e-001 -2.551178e-001 5.161349e-005 3.739994e+001 2.351284e-004 1.350010e+002 1.000670e+000 -1.626388e-001
6599685 9.993186e-001 -2.583683e-001 8.524537e-005 -5.652151e+001 2.342434e-004 8.535511e+001 1.001481e+000 -2.232458e-001
6899670 9.993131e-001 -2.428524e-001 7.389858e-005 3.513351e+001 9.884396e-005 -1.514310e+002 9.996759e-001 -2.591882e-001
7199655 9.993855e-001 -2.616838e-001 3.719989e-005 -4.812322e+001 1.752573e-004 -1.399106e+001 1.000717e+000 -2.574266e-001
7499640 9.991053e-001 -2.905137e-001 1.092397e-004 -6.061824e+001 1.583661e-004 -4.465234e+001 1.000337e+000 -3.067610e-001
7799625 1.000064e+000 -2.914727e-001 7.718588e-005 -3.048717e+001 1.471810e-004 -1.248068e+002 9.990799e-001 -2.034865e-001
8099610 9.998595e-001 -2.952979e-001 6.500097e-005 8.546774e+001 5.895150e-005 -6.109263e+000 9.988837e-001 -2.612337e-001
8399595 9.993258e-001 -3.214332e-001 7.390048e-005 -7.246228e+001 1.472731e-004 -1.154304e+002 1.000282e+000 -2.315758e-001
8699580 9.992759e-001 -3.081625e-001 9.278396e-005 -1.565618e+002 1.305239e-004 -8.476769e+001 9.998704e-001 -2.388017e-001
8999565 9.994949e-001 -3.083832e-001 7.553054e-005 -7.548624e+001 9.521328e-005 -3.381638e+001 9.998444e-001 -3.073450e-001
9299550 9.988143e-001 -3.445659e-001 4.745288e-005 -1.726278e+001 1.149943e-004 7.922152e+001 9.994290e-001 -2.535195e-001
9599535 9.995695e-001 -3.780587e-001 4.728616e-005 2.038109e+001 1.740369e-004 -1.447694e+002 9.984024e-001 -3.304820e-001
9899520 9.991143e-001 -4.416915e-001 6.370126e-005 -8.042491e+001 9.900986e-005 -2.365721e+000 9.976171e-001 -4.091321e-001
10199505 9.996778e-001 -3.196122e-001 5.998784e-005 -1.410457e+002 1.083560e-004 -1.292655e+001 9.993413e-001 -2.127882e-001
10499490 9.994006e-001 -3.321027e-001 6.752054e-005 1.335150e+002 5.109641e-005 1.357442e+002 9.981822e-001 -2.173441e-001
10799475 9.988655e-001 -3.315288e-001 1.006764e-004 -1.775506e+002 4.384782e-005 9.827200e+001 9.999709e-001 -1.976964e-001
11099460 9.993970e-001 -3.699265e-001 6.962089e-005 5.924463e+001 1.582746e-004 1.498511e+001 1.000051e+000 -1.952454e-001
11399445 9.998127e-001 -3.284649e-001 6.289501e-005 -1.001029e+002 1.940912e-004 -9.172771e+000 9.991860e-001 -2.127999e-001
11699430 9.995773e-001 -3.465068e-001 7.768861e-005 -6.757335e+001 9.159312e-005 1.342672e+002 9.999642e-001 -2.090710e-001
11999415 9.992564e-001 -3.742670e-001 9.935441e-005 1.797245e+001 1.119100e-004 8.834082e+001 1.001723e+000 -2.111489e-001
12299400 9.991595e-001 -3.650952e-001 4.059259e-005 -5.430193e+001 7.315453e-005 -4.853992e+001 1.001913e+000 -2.007947e-001
12599385 1.000099e+000 -4.128160e-001 3.775964e-005 -1.186734e+002 2.016677e-004 1.327949e+002 1.000689e+000 -3.123949e-001
12899370 1.000071e+000 -4.307497e-001 4.828776e-005 -2.629772e+001 7.308029e-005 8.679356e+001 9.997314e-001 -3.763175e-001
13199355 9.989305e-001 -4.454274e-001 8.930489e-005 -5.608634e+001 2.763972e-004 -9.391601e+001 9.992920e-001 -2.367891e-001
13499340 9.994605e-001 -4.405066e-001 9.905700e-005 -1.775544e+002 4.618781e-005 3.046843e+000 9.993484e-001 -2.989783e-001
13799325 9.997184e-001 -4.451743e-001 5.448338e-005 -2.322799e+001 1.063679e-004 -5.738696e+001 9.993262e-001 -2.136939e-001
14099310 9.997615e-001 -4.491973e-001 5.524353e-005 3.712458e+001 2.680697e-004 -7.096898e+000 1.000260e+000 -2.717892e-001
14399295 1.000280e+000 -4.530599e-001 5.584224e-005 3.318728e+001 3.310577e-004 1.562525e+002 1.000871e+000 -2.686699e-001
14699280 9.996118e-001 -4.570031e-001 1.818549e-005 1.483809e+002 9.186605e-005 -8.903436e+001 1.000893e+000 -2.633714e-001
14999265 9.988086e-001 -4.736546e-001 4.691569e-005 3.783931e+000 1.590030e-004 8.144607e+001 1.000741e+000 -3.142018e-001
15299250 9.989535e-001 -4.773262e-001 1.060914e-004 -6.763515e+001 1.240192e-004 -5.371289e+001 9.997180e-001 -2.880892e-001
15599235 9.991215e-001 -4.644364e-001 7.759551e-005 -5.633848e+001 9.976648e-005 4.700523e+001 9.996762e-001 -3.211051e-001
15899220 1.000192e+000 -4.892496e-001 2.693977e-005 1.128986e+001 8.559589e-005 5.938750e+001 1.000081e+000 -2.740925e-001
16199205 9.990277e-001 -4.581256e-001 4.736104e-005 1.125195e+002 2.677512e-004 5.849461e+001 1.001001e+000 -3.166481e-001
16499190 9.998788e-001 -4.952300e-001 1.498824e-004 -6.561558e+001 2.395980e-004 -1.432260e+002 1.001586e+000 -2.791572e-001
16799175 9.992703e-001 -4.947153e-001 3.899364e-005 1.435892e+002 1.777984e-004 -8.794284e+001 1.000532e+000 -2.840941e-001
17099160 9.994919e-001 -5.457378e-001 3.625267e-005 -1.725748e+002 3.818067e-004 9.553055e+001 1.001494e+000 -2.588568e-001
17399145 9.997221e-001 -5.884524e-001 5.292361e-005 -2.374307e+001 3.811444e-005 -1.235319e+002 1.001633e+000 -2.613511e-001
17699130 9.994177e-001 -5.371279e-001 3.149314e-005 8.043739e+001 8.639821e-005 2.485096e+001 1.001669e+000 -2.959169e-001
17999115 9.994898e-001 -5.249465e-001 8.829997e-005 -5.980721e+000 4.563120e-005 1.188144e+002 1.000801e+000 -3.463831e-001
18299100 9.992761e-001 -5.494102e-001 8.525300e-006 -1.635536e+002 1.904481e-004 2.475663e+001 1.000028e+000 -3.356039e-001
18599085 9.994968e-001 -5.493473e-001 1.135073e-004 -6.486810e+001 1.202647e-004 1.159914e+002 1.000930e+000 -2.889064e-001
18899070 9.987931e-001 -5.264315e-001 7.945440e-005 5.705775e+001 1.153031e-004 -5.141874e+001 1.000396e+000 -3.079339e-001
19199055 9.999239e-001 -5.418257e-001 8.181740e-005 6.301755e+000 1.431882e-004 1.675865e+002 9.992318e-001 -2.266486e-001
19499040 9.996566e-001 -5.715014e-001 1.024739e-004 -3.462326e+001 5.237071e-004 -6.685914e+001 9.999415e-001 -3.216554e-001
19799025 9.995965e-001 -5.772096e-001 4.754421e-005 1.262647e+002 1.619134e-004 2.984529e+001 9.988640e-001 -2.868624e-001
20099010 9.994621e-001 -5.385469e-001 5.859571e-005 6.200725e+000 1.076005e-004 1.201710e+002 9.996730e-001 -2.685249e-001
20398995 9.992769e-001 -5.974301e-001 7.581876e-005 -1.096729e+002 9.586762e-005 1.538148e+002 9.995561e-001 -3.726704e-001
20698980 9.990394e-001 -6.065596e-001 2.712468e-005 -8.367041e+001 1.184841e-004 -1.671865e+002 9.996930e-001 -3.275820e-001
20998965 9.986719e-001 -5.648394e-001 4.264543e-005 -3.529594e+001 5.037267e-005 7.822284e+001 1.000203e+000 -2.985846e-001
21298950 9.984302e-001 -5.581868e-001 3.927321e-005 -3.868561e+000 1.823922e-004 -1.655203e+002 9.994687e-001 -2.539084e-001
21598935 9.985335e-001 -6.018902e-001 4.792259e-006 1.046821e+002 2.834430e-004 -7.807721e+000 9.998441e-001 -2.823656e-001
21898920 9.988431e-001 -6.920152e-001 3.456311e-005 1.337989e+002 2.358070e-004 1.017565e+002 1.000022e+000 -3.623821e-001
22198905 9.996073e-001 -6.369053e-001 6.584148e-005 -1.391393e+002 2.260231e-004 -1.400420e+002 9.995833e-001 -3.686868e-001
22498890 9.995319e-001 -6.525462e-001 1.646442e-005 -1.148429e+002 5.274254e-004 2.424444e+001 9.999929e-001 -3.918436e-001
22798875 9.993404e-001 -6.450729e-001 7.258324e-005 -9.384937e+001 2.631581e-004 1.775172e+002 1.001078e+000 -3.313390e-001
23098860 9.996539e-001 -6.330283e-001 1.194355e-004 -1.245241e+002 1.834152e-004 6.614837e+000 1.001341e+000 -3.194240e-001
23398845 9.995871e-001 -7.198840e-001 4.788196e-005 -9.190370e+001 1.842192e-004 -1.221909e+002 1.000693e+000 -3.620332e-001
23698830 9.994732e-001 -7.011834e-001 8.901541e-005 -4.421741e+001 1.550818e-004 -8.566864e+001 9.991434e-001 -3.744347e-001
23998815 9.994358e-001 -7.278138e-001 6.928611e-005 -1.776085e+002 4.338838e-005 -4.804758e+001 9.986848e-001 -2.944490e-001
24298800 9.992555e-001 -7.425885e-001 2.979072e-005 -8.161183e+001 3.020795e-004 -1.074977e+002 9.991035e-001 -3.723297e-001
24598785 9.986293e-001 -7.235788e-001 4.213796e-006 -1.604209e+002 3.928648e-004 3.238939e+001 1.000552e+000 -4.316254e-001
24898770 9.991444e-001 -7.014644e-001 4.356231e-005 1.142725e+002 1.861185e-004 1.792418e+002 1.001486e+000 -4.131411e-001
25198755 9.991630e-001 -7.454212e-001 9.505529e-005 -8.502541e+001 6.937376e-005 -1.010936e+002 1.000203e+000 -4.132163e-001
25498740 9.991227e-001 -7.389579e-001 8.232955e-005 1.748079e+002 2.661818e-004 1.462291e+002 1.000646e+000 -3.829715e-001
25798725 9.989408e-001 -7.405319e-001 5.775833e-005 7.032040e+001 1.046525e-004 -4.270086e+001 9.992508e-001 -5.334752e-001
26098710 9.995923e-001 -7.048432e-001 9.460177e-005 -7.823257e+001 1.336080e-004 1.061492e+002 1.001363e+000 -4.257670e-001
26398695 9.996112e-001 -7.421656e-001 9.682484e-005 6.634919e+001 1.433199e-005 -1.263188e+002 1.000783e+000 -3.955179e-001
26698680 9.997678e-001 -7.364990e-001 5.822332e-005 8.050774e+001 4.057185e-004 1.030869e+001 1.001488e+000 -4.135299e-001
26998665 9.997635e-001 -7.816732e-001 6.148531e-005 1.232312e+002 1.205266e-004 -1.344807e+002 9.994511e-001 -4.596964e-001
27298650 9.993441e-001 -7.595268e-001 8.201029e-005 -2.382816e+001 5.634044e-005 -1.158463e+002 1.001420e+000 -4.021693e-001
27598635 9.988488e-001 -7.717426e-001 6.700621e-005 1.376291e+002 1.329868e-004 6.982380e+001 1.000952e+000 -3.684884e-001
27898620 1.000101e+000 -7.602998e-001 5.775252e-005 1.047173e+002 2.004667e-004 -9.171734e+001 1.002066e+000 -4.268949e-001
28198605 9.993560e-001 -7.716314e-001 5.901630e-005 -1.512010e+002 9.736761e-005 2.453200e+001 1.000998e+000 -4.573220e-001
28498590 9.991047e-001 -8.116494e-001 1.199780e-004 7.873015e+001 1.040349e-004 1.760924e+002 1.000342e+000 -4.330904e-001
28798575 9.989666e-001 -8.253315e-001 4.784616e-005 -2.141191e+001 2.043338e-004 6.159245e+001 9.992738e-001 -4.825453e-001
29098560 9.986861e-001 -8.216427e-001 1.432330e-005 8.200425e+001 1.920216e-004 1.445901e+002 1.000364e+000 -5.052255e-001
29398545 9.991934e-001 -8.189307e-001 7.354341e-005 -6.233216e+001 1.276057e-004 -5.760617e+001 1.000879e+000 -4.092422e-001
29698530 9.985591e-001 -8.533729e-001 2.387819e-005 -4.326802e+001 1.193357e-004 1.214136e+002 1.002375e+000 -4.655406e-001
29998515 9.994037e-001 -8.333852e-001 8.848163e-005 5.725266e+001 1.433520e-004 -1.257957e+002 1.001929e+000 -4.062257e-001
30298500 9.986596e-001 -8.536352e-001 5.468366e-005 6.970188e+001 2.497905e-005 6.696220e+001 1.001272e+000 -4.852004e-001
30598485 9.995106e-001 -8.315761e-001 1.031897e-004 1.310298e+002 2.671355e-004 -1.086257e+002 1.000852e+000 -5.482575e-001
30898470 9.994023e-001 -8.236837e-001 1.206539e-004 -1.455744e+002 3.597601e-004 1.252974e+001 1.000759e+000 -4.920429e-001
31198455 9.997108e-001 -8.726869e-001 1.710087e-004 6.670119e+001 2.793418e-004 -1.588479e+002 9.998818e-001 -4.885589e-001
31498440 9.999803e-001 -8.713565e-001 1.398673e-004 -1.060722e+002 1.069915e-004 -6.332079e+001 9.998429e-001 -4.818733e-001
31798425 9.999859e-001 -9.552553e-001 3.292420e-005 -1.750663e+002 1.255924e-004 7.448643e+001 1.000725e+000 -4.172091e-001
32098410 9.997648e-001 -9.158101e-001 4.973561e-005 -1.321852e+002 5.574321e-005 -6.656065e+001 1.001327e+000 -4.190596e-001
32398395 1.000098e+000 -9.210309e-001 4.272039e-005 -7.329759e+001 1.641048e-004 -1.767912e+001 1.001481e+000 -4.839321e-001
32698380 9.997393e-001 -9.099413e-001 4.593025e-005 4.123734e+001 2.374617e-004 -1.355371e+002 1.000365e+000 -4.216703e-001
32998365 9.998597e-001 -9.128791e-001 7.311960e-005 5.568278e+001 1.774298e-004 5.415610e+001 1.001166e+000 -4.457370e-001
33298350 9.992321e-001 -8.905160e-001 7.905473e-005 1.342691e+002 3.119916e-005 1.116139e+002 1.001600e+000 -4.874908e-001
33598335 9.991725e-001 -9.240043e-001 9.673947e-005 -9.404716e+001 9.369826e-005 1.190390e+002 1.000250e+000 -5.346300e-001
33898320 9.992026e-001 -9.480314e-001 1.329135e-004 1.100285e+002 2.642150e-004 -3.045240e+001 1.001377e+000 -4.754888e-001
34198305 9.982005e-001 -9.965065e-001 1.198284e-004 -1.349195e+001 1.173469e-004 1.671125e+002 1.000738e+000 -4.911778e-001
34498290 9.990378e-001 -9.678112e-001 4.495504e-005 -1.321684e+002 3.009941e-004 -1.008388e+002 9.994304e-001 -4.660380e-001
34798275 9.991018e-001 -9.980494e-001 1.405882e-005 2.405240e+001 2.413368e-005 9.928229e+001 9.992715e-001 -5.024758e-001
35098260 9.994010e-001 -9.985526e-001 8.134647e-005 1.561006e+002 2.435374e-004 1.689547e+002 1.000803e+000 -4.718906e-001
35398245 9.996858e-001 -1.035558e+000 3.934884e-005 1.024737e+002 1.192007e-005 1.678860e+002 1.001539e+000 -4.875167e-001
35698230 9.993011e-001 -1.010144e+000 1.187744e-004 -1.496805e+002 2.275053e-004 -1.659025e+002 1.001884e+000 -5.475565e-001
35998215 9.988828e-001 -1.034634e+000 5.677373e-005 1.623325e+002 8.303898e-005 -5.291229e+001 1.001083e+000 -5.163091e-001
36298200 9.994096e-001 -9.891875e-001 4.723333e-005 -2.675396e+001 2.458839e-004 5.043721e+001 1.000561e+000 -5.813859e-001
36598185 9.999769e-001 -1.012953e+000 4.322792e-005 -1.339342e+002 1.463566e-004 -9.471471e+001 1.000876e+000 -5.493191e-001
36898170 1.000128e+000 -1.022271e+000 2.218440e-005 -9.616557e+001 1.680550e-004 3.789474e+000 1.000522e+000 -5.289846e-001
37198155 9.995485e-001 -1.010837e+000 5.521520e-005 5.951125e+001 1.477299e-004 9.710446e+001 1.000871e+000 -5.310916e-001
37498140 9.991670e-001 -1.018419e+000 2.317805e-005 -1.379279e+002 2.405950e-004 1.410410e+001 1.000278e+000 -5.236480e-001
37798125 9.996337e-001 -1.032937e+000 1.544469e-004 -1.060356e+002 6.560657e-005 -9.029676e+001 1.001028e+000 -5.354103e-001
38098110 9.994684e-001 -1.087383e+000 1.065707e-004 -1.565138e+002 1.073962e-004 -5.814712e+001 9.999022e-001 -5.562761e-001
38398095 9.993485e-001 -1.009372e+000 5.586057e-005 1.065870e+002 1.516925e-004 1.406327e+001 1.000218e+000 -5.828756e-001
38698080 9.989675e-001 -1.076200e+000 1.388545e-005 5.861608e+001 6.051806e-005 2.322756e+000 9.992411e-001 -5.276522e-001
38998065 9.990708e-001 -1.077090e+000 1.049304e-004 1.631104e+002 1.313181e-004 5.298790e+001 1.000713e+000 -5.372668e-001
39298050 9.999508e-001 -1.093823e+000 4.343172e-005 -1.781200e+002 4.077922e-005 1.793178e+002 1.000461e+000 -5.165843e-001
39598035 9.996743e-001 -1.073510e+000 4.595182e-005 -3.011907e+001 1.295361e-004 7.113925e+001 1.000927e+000 -4.935716e-001
39898020 9.999790e-001 -1.087122e+000 3.589350e-005 1.722050e+002 8.791199e-005 -1.322162e+002 1.002017e+000 -4.774543e-001
40198005 9.988079e-001 -1.109306e+000 1.714470e-004 1.401426e+002 3.425031e-004 8.882475e+001 1.001241e+000 -6.945001e-001
40497990 1.000097e+000 -1.076380e+000 1.315283e-004 9.498680e+001 3.467710e-004 1.167327e+002 1.001750e+000 -6.839802e-001
40797975 9.993362e-001 -1.129847e+000 2.152837e-004 -1.213271e+002 3.470909e-004 -1.232282e+002 1.001173e+000 -5.978369e-001
41097960 1.000287e+000 -1.168387e+000 8.255031e-005 1.444262e+002 3.846099e-004 1.222347e+002 1.001263e+000 -5.564364e-001
41397945 9.989741e-001 -1.076303e+000 1.263452e-004 1.764669e+002 2.927223e-004 1.248344e+002 1.001129e+000 -5.009959e-001
41697930 9.999246e-001 -1.117736e+000 1.577296e-004 9.180354e+001 1.317129e-004 -4.059333e+001 1.000650e+000 -4.867689e-001
41997915 9.993965e-001 -1.115008e+000 1.429854e-004 -7.548079e+001 4.267845e-004 -7.878136e+000 1.000595e+000 -4.893847e-001
42297900 9.991630e-001 -1.188856e+000 7.526997e-005 -2.914404e+001 3.999565e-004 -1.267414e+002 1.000081e+000 -4.816765e-001
42597885 1.000315e+000 -1.191842e+000 1.312811e-004 1.266483e+002 1.313384e-004 -1.309302e+002 1.002132e+000 -5.935333e-001
42897870 9.996722e-001 -1.099757e+000 4.224987e-005 1.318014e+002 4.137313e-004 1.759955e+002 1.002565e+000 -6.000482e-001
43197855 9.998994e-001 -1.170201e+000 1.822162e-004 5.275467e+001 3.881364e-004 7.908427e+001 1.000290e+000 -6.592259e-001
43497840 9.999395e-001 -1.165145e+000 1.390458e-004 8.547289e+001 1.480375e-004 1.129128e+002 1.001067e+000 -6.374587e-001
43797825 1.000679e+000 -1.185131e+000 2.652366e-004 -7.129923e+001 1.365285e-004 1.004948e+002 1.000560e+000 -6.135637e-001
44097810 9.993271e-001 -1.147325e+000 8.073518e-005 9.966771e+001 3.311912e-004 8.356927e+001 1.001451e+000 -6.903439e-001
44397795 9.993106e-001 -1.224867e+000 1.107418e-004 9.272266e+000 2.516172e-004 5.759131e-003 1.002524e+000 -7.539054e-001
44697780 1.000538e+000 -1.200083e+000 1.012097e-004 -1.458032e+002 1.997313e-004 -1.517063e+002 1.002479e+000 -8.009679e-001
44997765 9.997284e-001 -1.224227e+000 1.676187e-004 3.130493e+001 2.372201e-004 -6.691290e+001 1.002331e+000 -6.610384e-001
45297750 1.001160e+000 -1.306177e+000 1.498786e-004 4.763310e+001 1.136032e-004 -8.450004e+001 1.002449e+000 -7.745847e-001
45597735 1.000100e+000 -1.240174e+000 7.872537e-005 1.725005e+002 2.744369e-004 -1.640892e+002 1.003542e+000 -7.004251e-001
45897720 1.000201e+000 -1.258944e+000 1.216940e-004 -1.476686e+001 3.573376e-004 -1.296585e+002 1.001769e+000 -7.235715e-001
46197705 1.000346e+000 -1.246798e+000 2.796553e-005 4.678168e+000 2.302056e-004 -1.394221e+002 1.002965e+000 -5.950348e-001
46497690 1.001064e+000 -1.250820e+000 2.295351e-004 -3.426604e+001 4.151561e-004 -1.684739e+002 1.001539e+000 -6.743810e-001
46797675 1.000087e+000 -1.271393e+000 3.687987e-005 1.134363e+002 1.365825e-004 -1.750340e+002 1.001218e+000 -7.230482e-001
47097660 9.998000e-001 -1.319964e+000 7.687180e-005 2.327555e+001 7.076040e-005 7.313181e+001 1.001563e+000 -7.650909e-001
