!Agilent Technologies,N5230C,SG49000117,A.08.50.07
!Agilent N5230C: A.08.50.07
!Date: Thursday, May 16, 2024 19:31:10
!Correction: S11(Full 2 Port(1,2)) 
!S21(Full 2 Port(1,2)) 
!S12(Full 2 Port(1,2)) 
!S22(Full 2 Port(1,2)) 
!S2P File: Measurements: S11, S21, S12, S22:
# Hz S  MA   R 50
300000 1.006102e+000 -5.166596e-001 2.476103e-005 1.037565e+002 4.971782e-004 -1.687288e+001 1.016762e+000 -6.683302e-001
599985 9.826130e-001 2.762388e-001 1.068185e-004 -1.540448e+002 2.766762e-005 1.768250e+002 9.646516e-001 3.966998e-001
899970 9.962626e-001 -1.200728e-001 1.097983e-004 5.816653e+001 1.679721e-004 3.454663e+001 9.849239e-001 -4.324645e-001
1199955 9.972625e-001 -1.090304e-001 5.237288e-005 7.518019e+001 3.650174e-004 4.805917e+001 9.952173e-001 -2.024597e-001
1499940 9.935553e-001 1.313619e-001 1.678646e-005 1.485735e+002 4.650835e-005 5.023346e+001 9.927927e-001 9.305725e-002
1799925 9.914250e-001 1.918561e-001 8.790490e-005 1.158961e+002 2.792744e-004 -2.218841e+001 9.890708e-001 -5.544215e-002
2099910 9.985332e-001 -2.470528e-002 8.804370e-005 2.026347e+001 1.089708e-004 -1.412005e+002 9.990038e-001 3.466248e-002
2399895 9.978164e-001 -1.899482e-001 5.066834e-005 9.849021e+001 1.812635e-004 1.417834e+002 1.002453e+000 -5.100288e-002
2699880 9.994200e-001 -2.962996e-001 1.364995e-004 -6.941781e+001 2.335620e-004 -1.354772e+002 9.960316e-001 -2.382458e-001
2999865 9.996801e-001 -1.435947e-001 6.797295e-005 -6.792990e+001 6.109164e-005 -1.592235e+002 9.986561e-001 -2.095628e-001
3299850 9.999397e-001 -1.524986e-001 6.415642e-005 1.554948e+002 2.269710e-004 -1.266901e+002 9.990309e-001 -1.937178e-001
3599835 9.997975e-001 -1.345499e-001 5.476363e-005 6.334932e+001 1.081473e-004 4.298979e+001 9.990232e-001 -1.337456e-001
3899820 9.987312e-001 -1.865873e-001 7.046576e-005 1.728686e+002 1.696719e-004 -1.748487e+002 9.985272e-001 -1.925463e-001
4199805 1.000329e+000 -2.102820e-001 7.280167e-005 -1.714384e+002 9.735669e-005 -4.048410e+001 9.994667e-001 -2.671841e-001
4499790 9.999677e-001 -1.878775e-001 5.674544e-005 -4.700843e+001 2.403058e-004 -2.767255e+001 1.000017e+000 -1.565159e-001
4799775 1.000191e+000 -1.991912e-001 3.505563e-005 -1.002509e+002 8.237029e-005 1.099565e+002 1.000746e+000 -1.740316e-001
5099760 9.997828e-001 -1.925171e-001 2.729433e-005 -6.046432e+001 2.012117e-004 -1.421804e+002 1.000785e+000 -1.191347e-001
5399745 1.000536e+000 -1.848489e-001 3.860496e-005 6.665155e+001 2.482396e-005 1.753250e+002 1.000088e+000 -1.229210e-001
5699730 9.998276e-001 -1.845920e-001 9.822706e-005 -9.499125e+001 1.471565e-004 8.289599e+001 1.001605e+000 -1.624051e-001
5999715 9.988113e-001 -1.546841e-001 3.894249e-005 -5.418835e+001 6.123452e-005 -2.416029e+000 1.001156e+000 -9.171704e-002
6299700 9.995852e-001 -1.797089e-001 2.291506e-005 1.167734e+002 1.551036e-004 -5.543109e+001 1.000523e+000 -2.237677e-001
6599685 9.994012e-001 -1.972540e-001 5.018543e-005 -5.934541e+001 1.078359e-004 9.557588e+001 1.000845e+000 -1.760692e-001
6899670 9.996519e-001 -1.724287e-001 6.345837e-005 -1.093716e+002 1.120052e-004 1.516336e+002 9.997216e-001 -1.880189e-001
7199655 9.995887e-001 -2.504742e-001 7.960090e-005 -2.442701e+001 1.420211e-004 1.011438e+002 1.000392e+000 -1.935143e-001
7499640 9.994446e-001 -2.610425e-001 8.668844e-005 -1.320623e+002 6.243980e-005 -6.352944e+001 9.999613e-001 -2.919993e-001
7799625 9.996067e-001 -2.469244e-001 3.296150e-005 1.789220e+002 1.372658e-004 3.685338e+000 9.991866e-001 -2.469908e-001
8099610 9.995731e-001 -2.255822e-001 1.407020e-005 6.158918e+001 1.167748e-004 -1.308002e+002 9.999048e-001 -3.044987e-001
8399595 9.993117e-001 -2.103242e-001 2.104499e-005 1.380596e+002 2.311617e-005 2.162146e+001 1.000356e+000 -2.489200e-001
8699580 9.987772e-001 -2.107269e-001 6.923216e-005 1.578596e+000 1.548936e-004 -1.007697e+002 1.000565e+000 -2.664165e-001
8999565 9.995610e-001 -2.353845e-001 6.928271e-005 5.334592e+001 1.760074e-004 -1.732742e+002 9.998782e-001 -2.893251e-001
9299550 9.997090e-001 -2.434349e-001 5.983161e-005 2.635987e+001 1.281877e-004 -1.525058e+002 9.994945e-001 -2.215796e-001
9599535 9.992745e-001 -2.992064e-001 7.270400e-005 -5.076181e+001 5.242974e-005 4.129547e+001 9.989694e-001 -3.788474e-001
9899520 9.996706e-001 -3.300371e-001 2.556819e-005 1.451637e+002 1.484464e-004 -1.563581e+002 9.986154e-001 -5.119273e-001
10199505 9.990532e-001 -2.658660e-001 1.497596e-004 -1.338123e+002 1.628302e-004 3.864741e+001 9.984754e-001 -2.621813e-001
10499490 9.995948e-001 -2.118797e-001 7.457176e-005 -1.452171e+002 6.153993e-005 1.330377e+002 9.999743e-001 -2.402326e-001
10799475 9.991297e-001 -2.345916e-001 3.110543e-005 1.726499e+002 2.010819e-004 -3.557895e+001 9.988424e-001 -2.044921e-001
11099460 9.995246e-001 -2.503803e-001 1.093879e-005 -1.332224e+002 1.006974e-004 4.904673e+001 1.000439e+000 -2.681900e-001
11399445 1.000284e+000 -2.501486e-001 7.510591e-005 -2.417710e+001 2.743615e-004 -1.833184e+001 9.994611e-001 -2.111219e-001
11699430 9.996847e-001 -2.615474e-001 4.617145e-005 -1.154196e+002 1.906302e-004 1.491672e+002 9.994707e-001 -1.803358e-001
11999415 9.995149e-001 -2.463727e-001 8.231436e-005 1.491504e+002 8.183940e-005 -1.722031e+002 1.001281e+000 -1.603542e-001
12299400 9.994959e-001 -2.595402e-001 7.860916e-005 8.222176e+001 3.335555e-004 1.463794e+002 1.001779e+000 -1.909751e-001
12599385 9.995905e-001 -2.965254e-001 7.953506e-005 1.474840e+002 5.522127e-005 5.691762e+001 1.000289e+000 -3.136984e-001
12899370 9.994306e-001 -3.232355e-001 4.322360e-005 1.396235e+002 2.734984e-004 1.354644e+001 1.000861e+000 -4.310570e-001
13199355 9.995514e-001 -3.555406e-001 1.025674e-004 9.288615e+001 5.816187e-005 -2.615153e+001 9.992914e-001 -2.631210e-001
13499340 9.999027e-001 -3.047319e-001 2.871460e-005 -1.061099e+002 2.442412e-004 3.020024e+001 9.991839e-001 -3.249209e-001
13799325 9.998794e-001 -3.252909e-001 4.306337e-005 1.059217e+002 4.912008e-005 -1.155028e+002 9.986728e-001 -2.095226e-001
14099310 9.995688e-001 -3.400990e-001 5.170602e-005 7.829721e+001 1.812087e-004 -1.696929e+001 9.995999e-001 -2.388883e-001
14399295 9.997547e-001 -3.498119e-001 4.361296e-005 -1.325264e+002 1.722520e-004 -1.717493e+002 1.000380e+000 -2.908203e-001
14699280 9.993692e-001 -3.314892e-001 7.860140e-005 4.705868e+001 1.348175e-004 1.753518e+001 9.997571e-001 -2.449065e-001
14999265 9.994631e-001 -3.449449e-001 1.716237e-005 1.598362e+002 1.622324e-004 1.475319e+002 9.997746e-001 -2.479466e-001
15299250 9.988285e-001 -3.507446e-001 1.459046e-004 1.041746e+002 2.263071e-004 1.212500e+002 9.999805e-001 -3.545639e-001
15599235 9.998611e-001 -3.421117e-001 4.582723e-005 -6.041387e+001 2.393272e-004 1.079826e+002 9.989895e-001 -2.900187e-001
15899220 9.992449e-001 -3.249722e-001 7.284337e-005 -1.325559e+002 3.079029e-004 -5.260828e+001 1.000491e+000 -3.646910e-001
16199205 9.998610e-001 -3.276337e-001 6.322467e-005 1.159031e+002 1.369365e-004 1.366326e+002 1.001197e+000 -3.374177e-001
16499190 9.994656e-001 -3.351564e-001 9.998541e-005 9.876567e-001 1.963477e-004 -8.743390e+001 1.002962e+000 -3.170656e-001
16799175 9.989204e-001 -3.396284e-001 3.442921e-005 -1.263802e+002 1.994544e-004 8.779379e+001 1.001231e+000 -2.648996e-001
17099160 9.986780e-001 -3.672036e-001 7.099553e-005 5.543589e-001 1.333961e-004 -1.031277e+002 1.002295e+000 -3.180493e-001
17399145 1.000039e+000 -4.016116e-001 6.421112e-005 1.582648e+002 2.425081e-004 2.641949e+001 1.000587e+000 -2.915565e-001
17699130 1.000039e+000 -4.053971e-001 2.921625e-005 -7.251901e+001 9.079466e-005 6.168591e+001 1.000095e+000 -2.595133e-001
17999115 9.995079e-001 -3.612586e-001 6.687036e-005 -1.789066e+001 3.108000e-004 -1.644249e+001 1.000017e+000 -3.323981e-001
18299100 9.995092e-001 -3.549713e-001 3.726973e-005 4.915397e+001 4.467777e-004 1.143740e+002 1.000264e+000 -3.999803e-001
18599085 9.995428e-001 -3.898371e-001 6.394526e-005 3.852695e+001 1.014603e-004 -1.098246e+002 1.000839e+000 -3.815062e-001
18899070 1.000109e+000 -4.026421e-001 1.048080e-004 -5.749557e+001 1.882785e-004 2.180538e+001 9.995087e-001 -3.165242e-001
19199055 9.991804e-001 -4.362616e-001 2.001255e-005 -1.249263e+002 1.306412e-004 1.147032e+002 9.995137e-001 -2.650366e-001
19499040 1.000837e+000 -3.609987e-001 8.386328e-005 -5.994567e+001 1.477266e-004 9.687108e-002 9.990532e-001 -2.917794e-001
19799025 9.998093e-001 -4.029092e-001 1.406655e-004 6.971944e+001 6.854258e-005 7.751154e+001 1.000775e+000 -2.579505e-001
20099010 9.998224e-001 -4.067707e-001 3.711963e-005 3.412717e+001 1.736157e-004 -1.275833e+002 1.000720e+000 -3.436957e-001
20398995 9.988459e-001 -3.814778e-001 3.299418e-005 9.170255e+001 1.706451e-004 7.479875e+001 9.998516e-001 -3.188995e-001
20698980 9.989028e-001 -4.109413e-001 8.189971e-005 1.429346e+002 4.490267e-005 1.395465e+001 9.983722e-001 -3.837669e-001
20998965 9.987147e-001 -3.938112e-001 1.171965e-004 1.026607e+002 2.242917e-004 7.875765e+001 1.000338e+000 -3.322541e-001
21298950 9.990535e-001 -3.904244e-001 4.312007e-005 4.808410e+001 1.853823e-005 -5.662072e+001 9.997498e-001 -2.600242e-001
21598935 9.984643e-001 -4.735582e-001 7.088549e-005 -8.183096e+001 2.838518e-004 1.108852e+002 9.990045e-001 -2.941310e-001
21898920 9.992680e-001 -4.699107e-001 6.216841e-005 1.983780e+001 9.365331e-005 -1.318835e+002 9.998267e-001 -3.041113e-001
22198905 9.995142e-001 -4.780410e-001 1.148634e-004 -9.272019e+001 3.917376e-004 3.023798e+001 9.999343e-001 -3.717686e-001
22498890 9.990614e-001 -4.818629e-001 7.118812e-005 -1.681805e+002 1.673989e-004 1.710079e+002 1.001180e+000 -3.687498e-001
22798875 9.999314e-001 -4.133917e-001 6.783794e-005 -1.197451e+002 2.312634e-004 3.252065e+001 1.001502e+000 -3.732235e-001
23098860 9.996473e-001 -4.526248e-001 8.980308e-005 -2.757696e+001 1.926900e-004 1.403255e+002 1.001266e+000 -3.806648e-001
23398845 1.000253e+000 -4.680118e-001 8.267753e-005 6.161040e+001 1.489700e-004 -6.435699e+001 1.000140e+000 -3.901609e-001
23698830 9.998658e-001 -5.014153e-001 2.473391e-005 -2.713541e+001 2.485160e-004 1.308320e+002 1.000674e+000 -3.710062e-001
23998815 9.997535e-001 -4.714905e-001 9.284621e-005 -2.888504e-001 1.702607e-004 -1.065755e+002 9.986327e-001 -3.989134e-001
24298800 9.992786e-001 -4.827045e-001 8.635885e-005 -8.579835e+001 1.469276e-004 8.592364e+001 9.995888e-001 -4.225042e-001
24598785 9.992086e-001 -5.178664e-001 1.168426e-004 7.289252e+001 2.896510e-004 -1.786037e+002 9.995946e-001 -3.881668e-001
24898770 9.997008e-001 -4.627822e-001 5.174516e-005 4.360404e+001 1.001789e-004 -1.150524e+002 9.996804e-001 -3.543842e-001
25198755 9.990138e-001 -5.140166e-001 9.359945e-005 1.042093e+002 1.155552e-004 -1.716968e+002 9.997994e-001 -3.682621e-001
25498740 9.992121e-001 -5.431503e-001 1.118404e-004 -4.872631e+001 4.021514e-004 3.111259e+001 1.000644e+000 -4.667028e-001
25798725 9.992036e-001 -5.067914e-001 6.724342e-005 -8.288436e+001 1.295613e-004 -1.309875e+002 1.000987e+000 -4.653682e-001
26098710 9.999336e-001 -5.292763e-001 1.331978e-004 -8.774363e+001 1.037760e-004 -2.472478e+001 1.000981e+000 -4.075460e-001
26398695 9.999001e-001 -5.071787e-001 3.483432e-005 -1.157974e+002 1.252678e-004 1.719708e+002 9.999874e-001 -3.757823e-001
26698680 1.000309e+000 -5.346203e-001 7.835864e-005 1.445459e+002 2.430193e-004 -4.281784e+001 9.998564e-001 -4.169213e-001
26998665 9.998667e-001 -5.059543e-001 8.196237e-005 -4.834064e+001 1.581299e-004 -1.586089e+002 1.000812e+000 -3.852742e-001
27298650 9.999326e-001 -5.218272e-001 1.254999e-004 1.522009e+002 1.508696e-004 -3.025027e+001 1.001145e+000 -4.506471e-001
27598635 9.993481e-001 -5.136551e-001 4.412375e-005 -7.823010e+000 1.764762e-004 1.180779e+002 1.001055e+000 -4.348357e-001
27898620 9.993884e-001 -5.471100e-001 1.030718e-004 -1.190155e+001 2.933856e-004 -1.841817e+001 1.001835e+000 -4.366462e-001
28198605 9.994698e-001 -5.181007e-001 1.309690e-004 -4.711607e+000 1.294216e-004 1.544148e+002 1.000291e+000 -4.461274e-001
28498590 9.988369e-001 -5.956433e-001 8.419950e-005 9.758195e+001 9.234819e-005 1.196539e+002 1.000126e+000 -5.014319e-001
28798575 9.995623e-001 -5.624936e-001 5.557289e-005 -1.778992e+002 1.143703e-004 1.078708e+002 9.996867e-001 -4.888473e-001
29098560 9.992029e-001 -5.726098e-001 2.956008e-005 -1.616392e+002 3.212049e-004 -9.900937e+001 1.000895e+000 -4.107931e-001
29398545 9.992073e-001 -5.389378e-001 1.066528e-004 1.336260e+002 2.788234e-004 -1.215484e+000 1.000263e+000 -3.859656e-001
29698530 9.994018e-001 -5.165433e-001 1.291948e-004 1.620043e+002 2.365769e-004 1.522779e+002 1.000870e+000 -4.310105e-001
29998515 9.992099e-001 -5.706431e-001 7.514951e-006 -3.047055e+001 2.414588e-005 -5.797956e+001 1.002382e+000 -4.059577e-001
30298500 9.994059e-001 -5.659171e-001 3.463185e-005 1.128383e+002 1.386258e-004 1.659104e+002 1.001529e+000 -4.429215e-001
30598485 9.995664e-001 -5.603943e-001 8.110826e-005 2.474341e+001 2.742351e-004 -1.033535e+002 1.000689e+000 -5.024366e-001
30898470 9.996750e-001 -5.370394e-001 5.361504e-005 1.322228e+002 2.555353e-004 1.277027e+002 9.999349e-001 -4.864122e-001
31198455 9.997951e-001 -5.645480e-001 3.523091e-005 -1.420911e+002 2.084240e-004 -4.537384e+001 1.000155e+000 -4.455476e-001
31498440 9.995352e-001 -6.141328e-001 5.203101e-005 1.327355e+002 1.193751e-004 1.143978e+002 1.000665e+000 -4.872475e-001
31798425 9.996247e-001 -6.502962e-001 5.694190e-005 -1.352295e+002 1.649414e-005 -1.513228e+002 1.001509e+000 -4.924531e-001
32098410 9.997402e-001 -6.128480e-001 6.291636e-005 1.661057e+002 1.260566e-004 7.852154e+000 1.001966e+000 -3.753704e-001
32398395 9.995964e-001 -6.374797e-001 4.777449e-005 -6.782884e+000 6.690454e-005 1.068937e+002 1.001410e+000 -5.254675e-001
32698380 1.000230e+000 -6.218244e-001 9.391643e-005 -1.344277e+002 2.109845e-004 -9.191516e+000 1.000790e+000 -4.392939e-001
32998365 9.996507e-001 -6.621150e-001 3.726720e-005 3.797219e+001 5.539837e-005 9.691391e+001 1.000575e+000 -4.987446e-001
33298350 9.994067e-001 -6.081889e-001 5.823805e-005 3.868745e+001 1.669833e-004 -4.251059e+001 1.000991e+000 -4.978693e-001
33598335 9.991289e-001 -6.430766e-001 3.482002e-005 -1.512749e+002 3.053757e-004 1.723888e+002 1.000524e+000 -4.823364e-001
33898320 9.988759e-001 -6.873389e-001 1.227281e-004 4.943198e+000 9.231404e-005 -4.721081e+001 1.001405e+000 -5.038499e-001
34198305 9.989907e-001 -6.707822e-001 8.503802e-005 -1.378019e+002 6.147721e-005 9.099934e+001 1.000093e+000 -5.263628e-001
34498290 1.000005e+000 -6.940657e-001 6.044411e-005 6.505221e+001 1.040853e-004 -1.421480e+002 1.000017e+000 -4.308686e-001
34798275 9.993017e-001 -6.878929e-001 3.159215e-005 -1.691857e+002 1.101195e-004 7.713145e+001 9.996126e-001 -5.138681e-001
35098260 9.996029e-001 -6.652051e-001 1.129237e-004 1.831499e+001 1.052847e-005 -1.261405e+002 1.000631e+000 -4.854919e-001
35398245 1.000054e+000 -6.816846e-001 3.543407e-005 8.687350e+001 2.408026e-004 4.622571e+001 1.002454e+000 -5.467747e-001
35698230 9.997463e-001 -7.233905e-001 4.697924e-005 -1.715231e+002 1.524564e-004 -1.615677e+002 1.001549e+000 -4.715197e-001
35998215 9.997352e-001 -7.202330e-001 9.228937e-005 2.010388e+001 2.041128e-004 2.622635e+000 1.000448e+000 -5.248155e-001
36298200 9.994022e-001 -6.983184e-001 1.047645e-004 1.948618e+001 9.244920e-005 1.650750e+002 1.000876e+000 -5.477884e-001
36598185 9.994143e-001 -6.951039e-001 3.491560e-005 8.700646e+001 1.278679e-004 3.928014e+001 1.000362e+000 -5.071339e-001
36898170 1.000117e+000 -7.007031e-001 1.385745e-004 -1.192678e+001 1.794280e-004 -1.356645e+002 1.000966e+000 -5.543758e-001
37198155 9.996111e-001 -6.744207e-001 9.360348e-005 1.549834e+002 9.615461e-005 3.850278e+001 1.000166e+000 -5.431365e-001
37498140 9.998322e-001 -7.162032e-001 1.967023e-004 8.083559e+001 3.863845e-005 -1.618619e+002 1.000504e+000 -5.692430e-001
37798125 9.990426e-001 -7.031177e-001 5.140055e-005 -1.552845e+002 2.105460e-004 -1.696908e+001 1.000832e+000 -5.613399e-001
38098110 9.997383e-001 -7.005129e-001 2.297143e-005 1.270538e+002 1.843485e-004 9.425121e+001 9.998755e-001 -5.855870e-001
38398095 9.990420e-001 -7.415746e-001 1.523581e-004 2.721531e+001 1.074657e-004 8.485199e+001 1.000323e+000 -5.955979e-001
38698080 9.995624e-001 -7.541033e-001 4.241652e-005 1.998834e+000 1.557503e-004 -1.790247e+002 9.992447e-001 -6.029056e-001
38998065 9.992392e-001 -7.438417e-001 1.335078e-004 -6.947429e+001 1.448959e-004 -4.224782e+001 1.000124e+000 -5.332823e-001
39298050 9.998122e-001 -7.359785e-001 7.691632e-005 7.151937e+001 1.650201e-004 4.501043e+001 1.000010e+000 -5.345881e-001
39598035 1.000374e+000 -7.357352e-001 6.475405e-005 1.158344e+002 1.251234e-004 -1.007212e+002 1.001687e+000 -5.148953e-001
39898020 1.000315e+000 -7.347143e-001 4.715203e-005 7.310590e+001 6.675999e-005 7.803664e+000 1.002716e+000 -4.715976e-001
40198005 9.992624e-001 -6.862897e-001 2.284529e-004 -3.537275e+001 1.034331e-004 1.205523e+002 1.002232e+000 -6.008525e-001
40497990 1.000299e+000 -7.516025e-001 2.396740e-004 -1.204325e+002 2.071472e-004 -1.568374e+002 1.000398e+000 -5.704041e-001
40797975 1.000246e+000 -6.868364e-001 1.770817e-004 1.170724e+002 1.877369e-004 -1.039824e+002 1.000952e+000 -6.279588e-001
41097960 9.997463e-001 -7.363728e-001 1.527825e-004 -1.099171e+002 3.330065e-005 1.266436e+002 1.002012e+000 -6.188993e-001
41397945 9.994984e-001 -7.101325e-001 6.190796e-005 -1.223974e+002 2.962274e-004 7.272034e+001 1.000924e+000 -5.066921e-001
41697930 9.988263e-001 -6.897935e-001 9.124610e-005 -6.524248e+000 3.779352e-004 1.387537e+002 1.002014e+000 -4.683153e-001
41997915 9.988541e-001 -7.438828e-001 7.851997e-005 6.860378e+001 4.872067e-004 1.506744e+002 1.002459e+000 -4.667685e-001
42297900 9.995013e-001 -7.900991e-001 1.108557e-004 1.715763e+001 2.718562e-004 -1.313214e+002 1.002039e+000 -4.610578e-001
42597885 1.000091e+000 -7.879068e-001 1.547197e-004 2.182874e+001 2.965431e-004 3.185631e+001 1.002127e+000 -6.075943e-001
42897870 1.000278e+000 -7.152014e-001 1.130148e-004 3.156808e+001 2.914589e-004 8.142735e+001 1.001665e+000 -7.065352e-001
43197855 1.000422e+000 -7.954300e-001 1.014981e-004 -1.531891e+002 1.631982e-004 1.740400e+002 9.995109e-001 -6.071627e-001
43497840 9.998635e-001 -8.407230e-001 1.216735e-004 1.590833e+002 2.703356e-004 -4.246048e+001 9.999769e-001 -6.465092e-001
43797825 9.987022e-001 -8.041261e-001 1.575114e-004 5.323603e+001 2.406479e-004 -4.502019e+001 1.000858e+000 -6.966625e-001
44097810 1.000517e+000 -8.048485e-001 5.486016e-005 -1.000123e+002 6.855950e-005 -1.537332e+002 1.002381e+000 -6.601890e-001
44397795 1.000384e+000 -7.981306e-001 4.922633e-005 3.155692e+001 2.034863e-004 -1.485289e+002 1.001887e+000 -7.456799e-001
44697780 1.000821e+000 -8.142012e-001 9.667814e-005 -1.219069e+002 6.850229e-005 1.409496e+002 1.001607e+000 -7.182015e-001
44997765 1.000722e+000 -8.025419e-001 1.337320e-004 2.463984e+001 5.302843e-005 -4.331683e+001 1.003344e+000 -7.494568e-001
45297750 9.997228e-001 -8.856728e-001 1.109759e-004 -5.916690e+001 7.560963e-005 1.293389e+002 1.002104e+000 -7.701570e-001
45597735 1.001041e+000 -8.232720e-001 1.173993e-005 -4.004697e+001 3.545717e-004 6.465495e+001 1.003220e+000 -6.229559e-001
45897720 1.000133e+000 -8.143641e-001 1.924804e-004 -1.184982e+002 7.324325e-004 3.318218e+001 1.004065e+000 -6.716439e-001
46197705 1.001660e+000 -8.692240e-001 8.919047e-005 3.525606e+001 4.788981e-004 6.170592e+001 1.001717e+000 -7.111108e-001
46497690 1.000356e+000 -8.079947e-001 1.049311e-004 -1.052034e+002 4.275250e-004 6.262170e+001 1.001503e+000 -6.827888e-001
46797675 1.000443e+000 -8.305206e-001 5.674229e-005 1.394398e+002 2.000782e-004 1.818489e+001 1.001429e+000 -6.655607e-001
47097660 1.000672e+000 -8.792639e-001 9.305742e-005 5.077724e+001 3.778656e-004 -4.649341e+001 1.001429e+000 -7.242042e-001
47397645 1.000317e+000 -8.965621e-001 8.425970e-005 1.783515e+002 1.869605e-004 -1.336083e+002 1.001392e+000 -7.252377e-001
