!Agilent Technologies,N5230C,SG49000117,A.08.50.07
!Agilent N5230C: A.08.50.07
!Date: Thursday, May 16, 2024 19:32:05
!Correction: S11(Full 2 Port(1,2)) 
!S21(Full 2 Port(1,2)) 
!S12(Full 2 Port(1,2)) 
!S22(Full 2 Port(1,2)) 
!S2P File: Measurements: S11, S21, S12, S22:
# Hz S  MA   R 50
300000 1.004243e+000 -4.495312e-001 2.821122e-004 -1.795456e+002 4.393171e-004 -2.839030e+001 1.015606e+000 -8.485038e-001
599985 9.821959e-001 2.800575e-001 7.207688e-005 -9.826790e+001 1.123583e-004 1.063192e+002 9.662299e-001 2.919993e-001
899970 9.967531e-001 -1.258223e-001 4.817245e-005 2.909754e+001 9.388527e-005 -9.160802e+001 9.859822e-001 -4.566050e-001
1199955 9.974420e-001 -1.320655e-001 1.908429e-005 -9.410880e+001 8.759816e-005 1.556294e+002 9.962353e-001 -2.932392e-001
1499940 9.935431e-001 1.162534e-001 1.030931e-004 -1.795658e+002 1.340587e-004 9.206631e+001 9.930969e-001 5.450505e-002
1799925 9.912676e-001 1.871576e-001 3.156516e-005 1.435882e+002 1.452235e-004 -3.915630e+001 9.902170e-001 -6.782128e-002
2099910 9.983284e-001 -4.560342e-002 2.712820e-005 7.770613e+001 1.753999e-004 -8.019036e+001 9.985822e-001 7.459798e-002
2399895 9.989119e-001 -2.027915e-001 2.112344e-005 1.548075e+002 2.364509e-004 1.364496e+002 1.004064e+000 -3.667307e-002
2699880 9.996018e-001 -2.515234e-001 1.555280e-004 -9.111713e+001 3.651629e-004 -1.291606e+002 9.957415e-001 -1.921577e-001
2999865 9.996325e-001 -1.802191e-001 9.123857e-005 -1.434730e+002 1.262641e-004 -3.095891e+001 9.986443e-001 -1.706721e-001
3299850 1.000111e+000 -1.817213e-001 6.216731e-005 2.974070e+001 8.249371e-005 -1.549543e+002 9.988788e-001 -1.857518e-001
3599835 9.999663e-001 -1.370159e-001 6.396705e-005 1.036375e+002 2.164498e-004 5.675377e+001 9.980756e-001 -2.174720e-001
3899820 9.990299e-001 -1.881543e-001 2.949100e-005 -7.022272e+001 1.594027e-004 -4.084507e+001 9.992002e-001 -1.709019e-001
4199805 9.999230e-001 -2.203954e-001 1.643373e-005 5.380246e+001 1.152012e-004 6.222731e+001 1.000591e+000 -2.053498e-001
4499790 9.997877e-001 -1.960402e-001 6.720222e-005 -1.581273e+001 1.134379e-004 1.479574e+002 9.996021e-001 -2.603052e-001
4799775 9.998026e-001 -1.596497e-001 1.327392e-004 -1.100356e+002 1.185103e-004 -2.464788e+001 1.000430e+000 -1.640186e-001
5099760 9.998582e-001 -1.945955e-001 3.029547e-005 1.544104e+002 1.140793e-004 1.391787e+002 1.000829e+000 -1.732164e-001
5399745 1.000365e+000 -1.794476e-001 8.576753e-005 -1.701594e+002 1.947284e-004 5.008406e+001 1.001529e+000 -1.023249e-001
5699730 9.997932e-001 -2.134379e-001 4.819240e-005 -1.680918e+002 1.360848e-004 -2.472704e+001 1.002186e+000 -1.841714e-001
5999715 9.993238e-001 -1.588748e-001 1.427637e-005 1.350632e+002 1.994253e-004 8.544801e+001 1.001185e+000 -1.179755e-001
6299700 9.997827e-001 -1.743443e-001 2.544018e-005 1.298831e+002 1.699343e-004 -7.004047e+001 1.000326e+000 -1.538059e-001
6599685 9.998240e-001 -1.849749e-001 4.314908e-005 1.335743e+002 2.252410e-004 -1.234531e+002 1.000854e+000 -1.724482e-001
6899670 9.995345e-001 -2.023448e-001 4.758617e-005 -4.026941e+001 1.728765e-004 1.605951e+002 1.001272e+000 -2.265243e-001
7199655 9.995002e-001 -1.853363e-001 8.646578e-005 -9.420804e+001 1.241905e-005 -1.131238e+002 1.000882e+000 -2.252372e-001
7499640 9.994285e-001 -2.754489e-001 2.590662e-005 -4.416022e+001 1.965378e-004 1.075289e+002 1.001016e+000 -2.467768e-001
7799625 1.000205e+000 -2.294602e-001 4.827297e-005 1.182872e+002 3.889430e-005 -1.150541e+002 9.986870e-001 -2.350606e-001
8099610 9.995134e-001 -2.370556e-001 7.656618e-005 -6.159337e+001 4.654277e-005 7.878816e+001 9.991578e-001 -3.041974e-001
8399595 9.996080e-001 -2.363336e-001 7.024322e-005 -4.179402e+001 1.442619e-004 -4.700258e+001 1.000711e+000 -2.341893e-001
8699580 9.996350e-001 -2.214464e-001 3.674493e-005 6.047112e+001 8.085972e-005 -1.027838e+002 1.000377e+000 -2.780345e-001
8999565 9.993379e-001 -2.240010e-001 3.305078e-005 -1.047631e+000 1.891812e-004 7.893182e+001 1.000024e+000 -2.218150e-001
9299550 9.996370e-001 -2.639361e-001 4.663573e-005 -1.078974e+002 6.431212e-005 1.162534e+002 9.996340e-001 -2.227075e-001
9599535 9.995944e-001 -3.005145e-001 4.408034e-005 1.794225e+002 1.354613e-004 -1.339184e+001 9.988027e-001 -3.298595e-001
9899520 9.997603e-001 -3.571672e-001 4.503375e-005 1.258032e+002 9.426581e-005 -9.652051e+001 9.973069e-001 -4.828239e-001
10199505 9.997807e-001 -2.531174e-001 9.988160e-005 1.316511e+001 3.066656e-004 6.420723e+001 9.988779e-001 -2.332573e-001
10499490 9.997422e-001 -2.725901e-001 9.214873e-005 -1.593952e+002 1.356537e-004 -1.701096e+002 9.985559e-001 -1.766662e-001
10799475 9.990799e-001 -2.582954e-001 8.116155e-005 -1.764081e+002 1.413171e-004 -4.445722e+001 1.000048e+000 -2.336389e-001
11099460 9.992607e-001 -2.786599e-001 3.639507e-005 4.061000e+001 3.451738e-004 4.955291e+001 9.998461e-001 -2.273596e-001
11399445 9.994408e-001 -2.543581e-001 3.016192e-005 -1.647217e+002 8.739145e-005 -1.049360e+002 9.995990e-001 -1.654619e-001
11699430 9.997610e-001 -2.668448e-001 4.611379e-005 1.680891e+001 2.391621e-004 1.371575e+002 9.992857e-001 -2.303283e-001
11999415 9.990901e-001 -2.606808e-001 5.941137e-005 1.015300e+002 4.395906e-005 -2.559979e+000 1.000377e+000 -2.123285e-001
12299400 9.990317e-001 -2.707212e-001 8.451952e-006 -1.724344e+002 3.286807e-005 -1.623931e+002 1.000916e+000 -2.562420e-001
12599385 1.000299e+000 -2.990864e-001 8.780353e-005 1.259088e+002 1.799609e-004 6.065935e+001 1.001336e+000 -2.899167e-001
12899370 9.995366e-001 -3.497943e-001 3.305113e-006 1.812676e+001 5.004466e-005 3.674430e+000 9.994484e-001 -3.588738e-001
13199355 9.996138e-001 -3.223966e-001 3.388352e-005 -1.212708e+001 2.081472e-004 1.390142e+002 9.997272e-001 -2.196093e-001
13499340 9.994373e-001 -3.225268e-001 1.724078e-005 -1.659434e+002 4.574721e-005 5.230560e+001 9.986718e-001 -2.204641e-001
13799325 9.998130e-001 -3.545017e-001 1.207354e-004 -1.570741e+002 1.728038e-004 -6.849014e+001 9.986556e-001 -2.006113e-001
14099310 9.997566e-001 -3.441454e-001 1.052542e-004 1.792006e+002 1.116884e-004 9.550172e+001 9.992061e-001 -1.853505e-001
14399295 1.000075e+000 -3.415397e-001 8.180905e-005 -1.965925e+001 6.487071e-005 -1.666229e+002 1.000552e+000 -2.013133e-001
14699280 9.995086e-001 -3.184422e-001 6.651066e-005 -1.665070e+002 1.406747e-004 1.226975e+001 1.000055e+000 -2.543048e-001
14999265 9.994789e-001 -3.457083e-001 8.141320e-005 4.599816e+001 2.445550e-004 1.331277e+002 9.999922e-001 -2.966202e-001
15299250 9.986869e-001 -3.479468e-001 6.237104e-005 9.100313e+001 1.228669e-004 1.002032e+001 9.987698e-001 -2.741846e-001
15599235 9.991267e-001 -3.054105e-001 8.180008e-005 -1.637746e+002 1.746063e-004 1.351393e+002 9.991688e-001 -2.691030e-001
15899220 1.000052e+000 -3.291133e-001 6.730692e-005 -1.171996e+002 2.130220e-004 1.056455e+001 1.000020e+000 -2.561709e-001
16199205 9.997031e-001 -3.224752e-001 8.416994e-005 7.237888e+001 3.003436e-004 1.313012e+002 1.000540e+000 -2.940474e-001
16499190 9.996410e-001 -3.380997e-001 5.310979e-005 2.771043e+000 1.444428e-004 -8.810526e+001 1.001788e+000 -2.776715e-001
16799175 9.991801e-001 -3.121667e-001 7.901361e-005 8.540247e+001 2.212526e-004 1.028188e+002 1.001161e+000 -2.773177e-001
17099160 9.992847e-001 -3.922106e-001 5.000146e-005 4.061161e+001 2.321123e-004 1.302707e+002 1.001419e+000 -2.494722e-001
17399145 9.995702e-001 -3.965017e-001 3.952425e-005 1.061367e+002 2.242004e-004 -5.089178e+001 1.001276e+000 -2.563969e-001
17699130 9.997483e-001 -4.295795e-001 7.778117e-005 1.165780e+002 2.487724e-004 3.617968e+001 1.001982e+000 -2.717526e-001
17999115 9.993304e-001 -3.820625e-001 5.530480e-005 2.585035e+001 1.091811e-004 -5.776900e+001 1.000806e+000 -3.731993e-001
18299100 9.991250e-001 -3.932469e-001 1.270393e-004 -8.408186e+000 2.839738e-004 7.224093e+001 1.001031e+000 -4.008228e-001
18599085 9.998032e-001 -3.890077e-001 1.340121e-005 8.558680e+000 3.141613e-004 -1.261745e+002 1.001152e+000 -3.106680e-001
18899070 9.995719e-001 -4.086150e-001 1.089644e-004 -1.442511e+002 2.732186e-004 4.668592e+001 9.997638e-001 -2.453313e-001
19199055 9.996611e-001 -4.426345e-001 9.174890e-005 9.149683e+001 2.082403e-004 1.609400e+002 9.995325e-001 -2.651560e-001
19499040 1.000218e+000 -3.977891e-001 9.410917e-005 -1.645800e+002 6.927345e-005 3.729411e+001 9.999467e-001 -3.047007e-001
19799025 1.000482e+000 -4.036312e-001 3.852218e-005 1.216873e+002 1.835372e-004 1.536574e+002 9.992089e-001 -2.738172e-001
20099010 1.000286e+000 -4.248468e-001 6.794003e-005 1.043067e+002 2.392482e-004 6.286592e+000 9.992297e-001 -3.587442e-001
20398995 9.993758e-001 -4.171339e-001 7.244703e-005 -1.137049e+002 2.029365e-004 1.634728e+002 1.000543e+000 -3.393644e-001
20698980 9.993320e-001 -4.160035e-001 4.498081e-005 1.100272e+002 1.192914e-004 -8.380093e+001 9.982930e-001 -3.193608e-001
20998965 9.994754e-001 -4.110087e-001 1.529754e-004 -1.534151e+002 2.077329e-004 2.079942e+001 9.995275e-001 -3.428019e-001
21298950 9.991197e-001 -4.404359e-001 5.525864e-005 2.396519e+001 2.649862e-004 -1.721379e+002 9.991395e-001 -2.554744e-001
21598935 9.988590e-001 -4.426305e-001 5.871976e-005 3.729622e+001 2.505236e-004 1.130509e+001 9.996169e-001 -3.207691e-001
21898920 9.993873e-001 -4.761861e-001 1.011623e-004 1.186547e+002 1.797580e-004 1.275691e+002 9.983596e-001 -3.094081e-001
22198905 1.000101e+000 -4.709469e-001 8.687997e-005 -1.721522e+002 3.057868e-004 -1.366900e+002 9.991060e-001 -4.113075e-001
22498890 9.992338e-001 -4.514912e-001 9.085888e-005 1.124471e+002 2.029166e-004 9.294367e+001 9.996511e-001 -2.501402e-001
22798875 9.999077e-001 -4.311246e-001 4.115491e-005 -1.357498e+002 1.196077e-004 1.010869e+002 1.001573e+000 -3.558348e-001
23098860 1.000094e+000 -4.713906e-001 9.217227e-005 -7.974665e+001 7.552102e-005 -1.493248e+002 9.999520e-001 -3.529201e-001
23398845 1.000210e+000 -5.055266e-001 6.255059e-005 -1.247379e+002 1.488523e-004 -1.041796e+002 1.001325e+000 -3.275960e-001
23698830 9.998577e-001 -5.113335e-001 1.025325e-004 5.260014e+001 2.929156e-004 6.265998e+001 9.996973e-001 -3.900708e-001
23998815 9.994957e-001 -5.380169e-001 3.875773e-005 1.195553e+001 2.918895e-004 -1.022511e+002 9.990579e-001 -3.821655e-001
24298800 1.000261e+000 -5.174360e-001 3.457250e-005 8.208448e+001 7.597289e-005 -1.627200e+001 9.995148e-001 -3.768463e-001
24598785 9.991459e-001 -5.445598e-001 1.971797e-005 -1.501186e+001 2.290271e-004 -1.358378e+002 9.997479e-001 -3.497321e-001
24898770 9.993190e-001 -5.432663e-001 2.932423e-005 -5.795480e+000 1.198708e-004 -3.993995e+001 1.000221e+000 -4.490639e-001
25198755 1.000031e+000 -5.291280e-001 1.392779e-004 6.647175e+001 1.175878e-004 -6.620251e+001 1.000756e+000 -3.999018e-001
25498740 9.997057e-001 -5.256627e-001 7.262902e-005 1.660343e+002 7.800079e-005 -1.240127e+002 9.987726e-001 -4.316908e-001
25798725 9.992379e-001 -4.948378e-001 6.920680e-005 -1.216817e+002 1.424917e-004 8.360983e+001 9.997194e-001 -4.839504e-001
26098710 9.994109e-001 -5.551261e-001 1.194199e-004 -8.641595e+001 4.168581e-004 -8.651756e+001 9.998451e-001 -3.942585e-001
26398695 1.000227e+000 -5.204347e-001 3.989196e-005 -3.499483e+001 3.207718e-004 1.856495e+001 1.001660e+000 -4.386432e-001
26698680 1.000226e+000 -5.240340e-001 8.459451e-005 4.965609e+001 1.073942e-004 -9.140463e+001 1.000922e+000 -3.761797e-001
26998665 1.000225e+000 -5.064347e-001 1.111447e-004 7.613701e+000 2.347873e-004 -2.956731e+001 1.000613e+000 -3.825196e-001
27298650 9.991271e-001 -5.330659e-001 5.722389e-005 3.111461e+001 3.328667e-004 1.121202e+002 1.000466e+000 -3.681089e-001
27598635 9.998879e-001 -5.140597e-001 1.224727e-004 -7.678640e+001 2.572363e-004 -1.744489e+002 1.002385e+000 -4.041410e-001
27898620 9.991672e-001 -5.189447e-001 5.557748e-005 1.119544e+001 1.886627e-004 3.168487e+001 1.001397e+000 -4.038846e-001
28198605 9.988918e-001 -5.508425e-001 6.885981e-005 1.100729e+001 1.540488e-004 -1.493326e+002 1.000840e+000 -5.291284e-001
28498590 9.994421e-001 -5.635562e-001 4.118676e-005 -1.328404e+001 4.127951e-004 1.075923e+002 1.000489e+000 -4.261269e-001
28798575 9.987733e-001 -6.282793e-001 1.791613e-004 6.504535e+001 1.781463e-004 -1.390309e+002 9.993098e-001 -4.712890e-001
29098560 9.992604e-001 -5.853541e-001 9.872235e-005 1.745082e+002 2.164657e-004 5.597810e+001 9.991045e-001 -4.223724e-001
29398545 9.995313e-001 -5.704515e-001 7.106832e-005 1.064266e+002 1.723854e-004 1.725963e+002 1.000830e+000 -3.941102e-001
29698530 9.994905e-001 -5.868726e-001 4.476025e-005 1.355998e+002 2.427561e-004 8.640320e+000 1.001450e+000 -4.010347e-001
29998515 9.994592e-001 -5.847435e-001 1.209548e-004 1.323357e+002 1.950267e-004 1.435489e+002 1.002313e+000 -4.142156e-001
30298500 9.993523e-001 -6.268345e-001 1.736925e-004 1.593214e+002 1.437636e-004 3.887167e+001 1.001691e+000 -5.264361e-001
30598485 9.997700e-001 -5.768054e-001 6.031571e-005 -6.841840e+001 2.320674e-004 1.334374e+002 1.001650e+000 -5.026554e-001
30898470 9.994556e-001 -5.925675e-001 8.359026e-005 1.568438e+002 1.749152e-004 -1.567180e+000 9.995217e-001 -4.938594e-001
31198455 9.997194e-001 -5.706277e-001 1.356206e-005 1.520224e+002 1.045761e-004 5.493822e+001 9.995123e-001 -4.722394e-001
31498440 9.997446e-001 -6.400199e-001 1.377814e-004 1.379211e+002 8.808559e-005 1.728097e+002 1.000901e+000 -4.755235e-001
31798425 9.997181e-001 -6.237579e-001 1.444336e-004 3.666851e+001 3.698641e-004 8.541640e+001 1.002077e+000 -4.593424e-001
32098410 9.994053e-001 -6.462776e-001 6.020131e-005 -9.379386e+001 1.011271e-004 7.218026e+001 1.000139e+000 -4.133946e-001
32398395 1.000038e+000 -6.396658e-001 7.511352e-005 1.750286e+002 1.563413e-004 4.853157e+001 1.000696e+000 -4.378081e-001
32698380 9.995617e-001 -6.430209e-001 2.569709e-006 1.216800e+002 1.117729e-004 -1.682476e+002 1.000716e+000 -4.478304e-001
32998365 9.989604e-001 -6.804137e-001 1.335072e-004 -1.040985e+002 1.156007e-004 9.690352e+001 1.001143e+000 -4.555779e-001
33298350 1.000349e+000 -6.560603e-001 6.682047e-005 -1.164502e+002 1.146672e-004 1.543531e+002 1.000239e+000 -4.760940e-001
33598335 9.989815e-001 -6.865655e-001 1.981134e-005 5.357152e+001 1.309725e-004 4.561186e+001 1.000574e+000 -4.795147e-001
33898320 9.991365e-001 -6.859787e-001 1.018143e-004 -8.205045e+000 1.747703e-004 1.733166e+002 1.000996e+000 -5.165164e-001
34198305 9.997007e-001 -6.816982e-001 8.843416e-005 -1.253191e+001 3.815481e-004 1.657332e+001 1.000333e+000 -4.842191e-001
34498290 9.993540e-001 -7.353894e-001 2.305919e-005 3.751554e+001 6.367680e-005 -9.163116e+001 9.991142e-001 -4.927678e-001
34798275 9.991288e-001 -6.891896e-001 4.676885e-005 1.292769e+002 5.494273e-005 -4.092155e+001 9.998680e-001 -5.309542e-001
35098260 9.994131e-001 -7.213136e-001 1.299232e-004 9.269706e+001 7.766642e-005 -1.166634e+002 1.000776e+000 -4.725076e-001
35398245 9.990550e-001 -7.009113e-001 8.692753e-005 -5.376152e+001 1.953725e-004 -6.167244e+001 1.001881e+000 -4.932287e-001
35698230 9.992691e-001 -7.526773e-001 4.528320e-005 -1.121443e+002 1.272772e-004 6.644353e+001 1.001353e+000 -5.285828e-001
35998215 9.990766e-001 -7.194596e-001 3.868815e-005 1.601818e+002 7.472558e-005 1.576808e+001 1.001745e+000 -5.262221e-001
36298200 9.996133e-001 -6.981039e-001 1.960342e-005 5.260164e+001 8.813656e-005 1.301133e+002 1.001453e+000 -5.668369e-001
36598185 1.000448e+000 -7.043313e-001 1.097121e-004 -1.011464e+002 8.422237e-005 -6.169191e+001 1.000650e+000 -5.445509e-001
36898170 9.998721e-001 -7.274345e-001 6.423066e-005 -5.100161e+001 1.835693e-004 2.742555e+001 1.000221e+000 -5.950575e-001
37198155 9.996861e-001 -7.364741e-001 1.593514e-005 3.152837e+000 5.116648e-005 6.961440e+001 1.000571e+000 -5.179659e-001
37498140 9.996940e-001 -7.334290e-001 5.876766e-005 5.313628e+001 1.461456e-004 1.321867e+001 1.001190e+000 -5.350608e-001
37798125 9.990086e-001 -7.582943e-001 5.886837e-005 -1.778886e+002 1.159259e-004 9.204847e+001 9.999752e-001 -5.456252e-001
38098110 9.992972e-001 -7.365276e-001 5.419697e-005 3.098139e+001 2.101418e-004 -5.022314e+001 1.000899e+000 -5.588377e-001
38398095 9.988788e-001 -7.498331e-001 6.305187e-005 -1.585483e+002 1.710500e-004 8.733281e+001 9.998507e-001 -6.420359e-001
38698080 9.994189e-001 -7.952893e-001 8.325150e-005 -7.599747e+000 2.482702e-004 -1.202842e+002 1.000003e+000 -6.276526e-001
38998065 9.995648e-001 -7.482089e-001 2.950754e-005 -2.520733e+001 6.413159e-005 -7.426132e+000 1.000131e+000 -5.706237e-001
39298050 9.996405e-001 -7.478133e-001 8.543395e-005 2.113437e+001 3.723268e-005 -8.204960e+001 1.000327e+000 -5.838296e-001
39598035 9.999766e-001 -7.359825e-001 1.058320e-004 1.674784e+002 1.646679e-004 4.984483e+001 1.001337e+000 -5.251233e-001
39898020 1.000317e+000 -7.425681e-001 3.668939e-005 1.061284e+002 1.120061e-004 -1.533386e+002 1.002372e+000 -4.617217e-001
40198005 9.993814e-001 -7.997783e-001 1.785435e-004 5.492141e+001 2.277469e-004 4.953016e-001 1.002172e+000 -6.734190e-001
40497990 1.000106e+000 -7.931116e-001 1.352874e-004 3.183407e+001 5.653352e-004 8.039574e+001 1.001360e+000 -7.374197e-001
40797975 1.000123e+000 -7.569593e-001 4.976402e-005 -3.267326e+001 2.009539e-004 1.623211e+001 1.001604e+000 -6.370534e-001
41097960 9.991475e-001 -7.252875e-001 8.876117e-005 -5.564125e+001 2.213065e-004 -1.496690e+001 1.001206e+000 -5.866385e-001
41397945 9.993303e-001 -7.403333e-001 1.479456e-004 4.085426e+001 9.132294e-005 8.679497e+001 1.001298e+000 -5.203828e-001
41697930 9.980738e-001 -7.224509e-001 6.149571e-005 6.097876e+001 1.557519e-004 8.127538e+001 1.001689e+000 -5.090325e-001
41997915 9.993521e-001 -7.009240e-001 1.757211e-004 1.828414e+001 3.041229e-005 1.268452e+002 1.002107e+000 -6.138301e-001
42297900 9.995583e-001 -7.999583e-001 1.483049e-004 -4.280681e+001 2.955133e-004 -8.121654e+000 9.996721e-001 -5.292647e-001
42597885 9.989744e-001 -7.856824e-001 1.877219e-004 1.413542e+002 3.101485e-004 -8.604646e+001 1.000352e+000 -5.372726e-001
42897870 9.988874e-001 -7.755490e-001 8.419764e-005 -4.541989e+001 2.162881e-004 -3.793795e+001 1.001640e+000 -7.012316e-001
43197855 1.000121e+000 -8.270203e-001 1.326142e-004 4.971407e+001 7.678707e-005 -1.342522e+002 9.996917e-001 -7.362831e-001
43497840 9.998462e-001 -8.250861e-001 7.638461e-005 3.350758e+001 2.443430e-004 8.246408e+001 1.000279e+000 -6.571232e-001
43797825 9.996392e-001 -8.041886e-001 1.875319e-004 2.605215e+001 2.684605e-004 -1.591697e+002 1.000809e+000 -6.386267e-001
44097810 9.994164e-001 -8.088682e-001 1.861228e-004 -1.145308e+002 4.793736e-004 1.429917e+002 1.000896e+000 -6.823176e-001
44397795 1.000661e+000 -8.085935e-001 2.416939e-005 -1.107419e+002 2.974704e-004 1.465505e+002 9.998582e-001 -7.466133e-001
44697780 1.000695e+000 -8.533658e-001 4.826890e-005 -6.776018e+000 2.794409e-004 1.614694e+002 1.002042e+000 -6.368092e-001
44997765 1.000145e+000 -8.936648e-001 1.587609e-004 -9.757158e+001 2.351424e-004 1.271466e+002 1.002487e+000 -7.242722e-001
45297750 1.000338e+000 -8.966953e-001 4.604991e-005 1.352876e+002 1.731758e-004 -3.604112e+001 1.002382e+000 -7.324998e-001
45597735 1.001133e+000 -8.655083e-001 1.832670e-004 -1.760744e+002 1.537918e-004 1.693258e+001 1.001155e+000 -6.954117e-001
45897720 1.000234e+000 -8.820611e-001 7.944993e-005 -8.855550e+001 2.962508e-004 -7.418973e+001 1.002463e+000 -6.806450e-001
46197705 1.001132e+000 -8.871901e-001 2.483997e-004 -4.985755e+001 6.088271e-005 1.119539e+002 1.003211e+000 -6.514022e-001
46497690 1.000792e+000 -8.589415e-001 9.826931e-005 1.854501e+000 9.015540e-005 -1.425066e+002 1.001441e+000 -7.179039e-001
46797675 1.001160e+000 -8.741338e-001 8.298548e-005 -6.405697e+001 2.558221e-004 -5.961808e+001 1.002853e+000 -6.423148e-001
47097660 1.000208e+000 -9.130620e-001 1.372048e-004 1.237688e+002 3.927788e-004 -8.395235e+001 1.002037e+000 -8.278653e-001
47397645 9.998019e-001 -9.642480e-001 1.098054e-004 1.276103e+002 1.346983e-004 -2.509352e+001 1.001646e+000 -7.635472e-001
