!Agilent Technologies,N5230C,SG49000117,A.08.50.07
!Agilent N5230C: A.08.50.07
!Date: Thursday, May 16, 2024 19:32:43
!Correction: S11(Full 2 Port(1,2)) 
!S21(Full 2 Port(1,2)) 
!S12(Full 2 Port(1,2)) 
!S22(Full 2 Port(1,2)) 
!S2P File: Measurements: S11, S21, S12, S22:
# Hz S  MA   R 50
300000 1.007814e+000 -6.272967e-001 2.063132e-004 7.790320e+001 2.318414e-004 -6.582517e+001 1.015127e+000 -7.897345e-001
599985 9.817383e-001 2.693293e-001 1.760712e-004 -1.728613e+002 3.702330e-005 1.742086e+001 9.655330e-001 3.359979e-001
899970 9.967291e-001 -1.408551e-001 7.663420e-005 1.061556e+002 2.708869e-005 1.127089e+002 9.846745e-001 -4.391207e-001
1199955 9.970012e-001 -1.130993e-001 3.449603e-005 -2.973521e+001 1.767861e-004 -5.804079e+001 9.960310e-001 -2.314299e-001
1499940 9.926958e-001 1.259018e-001 9.919579e-005 1.453839e+002 8.918590e-005 -1.581642e+002 9.927467e-001 8.362129e-002
1799925 9.909334e-001 2.151544e-001 6.470208e-005 8.178191e+001 9.079463e-005 -1.329208e+002 9.906429e-001 4.024929e-002
2099910 9.978231e-001 -2.910557e-002 3.620647e-005 5.310973e+001 7.625328e-005 2.172986e+001 9.983585e-001 3.794641e-002
2399895 9.980108e-001 -1.713677e-001 1.212548e-004 6.445817e+001 1.133343e-004 1.089965e+002 1.004433e+000 -1.724023e-002
2699880 9.988403e-001 -2.762340e-001 7.086965e-005 -8.804927e+001 7.350446e-005 1.751793e+002 9.956897e-001 -2.216678e-001
2999865 9.990696e-001 -1.858562e-001 1.482147e-004 -1.358511e+002 2.866347e-004 1.149584e+002 9.993605e-001 -1.770848e-001
3299850 9.990598e-001 -1.705706e-001 7.068453e-006 -8.173017e+001 1.131451e-004 -1.650657e+002 9.977494e-001 -1.876902e-001
3599835 9.990686e-001 -1.531517e-001 9.072784e-005 -3.618280e+001 2.445113e-004 1.253719e+002 9.989666e-001 -2.495718e-001
3899820 9.982641e-001 -2.029818e-001 4.503756e-005 -7.681963e+001 2.721521e-004 -1.358986e+002 9.983899e-001 -1.782843e-001
4199805 9.995430e-001 -2.254206e-001 4.497862e-005 1.124276e+002 1.565612e-004 -5.514127e+001 9.999560e-001 -2.056994e-001
4499790 9.995592e-001 -2.096982e-001 1.853245e-005 -1.107507e+002 8.244141e-005 -4.388091e+001 1.000890e+000 -2.293187e-001
4799775 9.994143e-001 -1.961434e-001 7.244566e-005 -6.790804e+001 1.353911e-004 -1.582169e+002 1.000710e+000 -1.874767e-001
5099760 9.998797e-001 -1.971119e-001 8.286499e-005 -1.337922e+002 2.264654e-004 -1.332236e+002 1.000875e+000 -1.656416e-001
5399745 9.997703e-001 -1.683048e-001 9.592038e-005 -5.901731e+001 2.481648e-004 -1.886203e+001 1.001219e+000 -1.282595e-001
5699730 9.993241e-001 -1.701557e-001 6.030722e-005 -1.350862e+002 3.459376e-005 -1.469674e+002 1.000652e+000 -1.621995e-001
5999715 9.987549e-001 -1.714252e-001 4.839642e-005 -1.782492e+002 1.071513e-004 1.626988e+002 1.001325e+000 -1.377011e-001
6299700 9.987557e-001 -2.222685e-001 8.941604e-005 -1.261743e+002 2.878756e-004 1.521592e+002 1.000395e+000 -1.618181e-001
6599685 9.986330e-001 -1.913902e-001 2.852409e-005 -3.641590e+001 1.772301e-004 1.412654e+001 1.001251e+000 -2.120285e-001
6899670 9.989123e-001 -2.139405e-001 4.405953e-005 1.023785e+001 3.970400e-005 -3.244313e+001 9.998624e-001 -1.162089e-001
7199655 9.994040e-001 -2.370761e-001 5.222145e-005 6.577561e+001 9.896296e-005 1.394375e+002 1.000802e+000 -2.051849e-001
7499640 9.990659e-001 -2.656141e-001 1.841030e-005 -8.792931e+001 1.828962e-004 1.319733e+002 1.000917e+000 -2.644083e-001
7799625 9.992760e-001 -2.593911e-001 9.348822e-005 -1.386640e+002 1.851711e-004 1.436410e+002 9.995928e-001 -2.034008e-001
8099610 9.992540e-001 -2.343407e-001 6.200305e-005 -1.366828e+002 3.034243e-004 1.758295e+001 9.997907e-001 -3.026921e-001
8399595 9.995835e-001 -2.357427e-001 8.097595e-005 -1.648775e+002 1.610558e-004 6.340945e+001 9.990873e-001 -2.422249e-001
8699580 9.990299e-001 -2.632552e-001 4.814166e-005 -1.789320e+002 1.986098e-004 -9.403193e+001 1.000278e+000 -2.517086e-001
8999565 9.989235e-001 -2.349800e-001 3.020140e-005 1.320777e+002 1.712647e-004 5.597778e+001 1.000384e+000 -2.521847e-001
9299550 9.987977e-001 -2.584414e-001 1.075590e-004 -1.115422e+002 1.711528e-004 -1.464220e+002 9.999669e-001 -2.317359e-001
9599535 9.986354e-001 -3.214111e-001 7.467985e-005 1.264008e+002 6.765997e-005 3.216301e+001 9.987615e-001 -3.076844e-001
9899520 9.992577e-001 -3.870223e-001 4.499851e-005 -1.406028e+002 7.866527e-005 -8.847357e+001 9.966893e-001 -4.505321e-001
10199505 9.992721e-001 -2.443647e-001 5.119641e-005 2.133288e+001 1.460904e-004 -6.634575e+000 9.989930e-001 -2.018470e-001
10499490 9.986328e-001 -2.519949e-001 8.999702e-005 2.642661e+001 8.440338e-005 5.278974e+001 9.994915e-001 -2.283158e-001
10799475 9.985157e-001 -2.553552e-001 4.558307e-005 1.742695e+002 1.312004e-004 -1.234039e+002 9.995794e-001 -2.544571e-001
11099460 9.992468e-001 -2.531782e-001 2.410066e-005 1.635307e+002 1.979846e-004 1.436725e+002 9.988745e-001 -2.340178e-001
11399445 9.990274e-001 -2.943761e-001 3.909977e-005 1.489225e+002 9.164106e-005 1.525125e+002 9.991578e-001 -2.326123e-001
11699430 9.995130e-001 -2.793677e-001 1.037191e-004 -6.613693e+001 1.112868e-004 1.491773e+002 1.000883e+000 -1.965372e-001
11999415 9.988864e-001 -2.787208e-001 7.734305e-005 8.782409e+001 1.445039e-004 -6.514178e+001 1.000045e+000 -2.189491e-001
12299400 9.988547e-001 -3.004303e-001 5.939409e-005 1.303069e+002 1.105694e-004 2.954921e+001 1.001506e+000 -1.961183e-001
12599385 9.996655e-001 -3.173372e-001 5.112077e-005 9.629511e+001 1.127396e-004 1.274324e+002 1.000978e+000 -2.289332e-001
12899370 9.994243e-001 -3.625980e-001 8.108980e-005 -7.775497e+001 1.363385e-004 -1.306039e+002 1.000221e+000 -3.506597e-001
13199355 9.993601e-001 -3.642078e-001 4.075854e-005 6.179517e+001 1.359384e-004 1.439827e+002 9.997005e-001 -2.521143e-001
13499340 9.990718e-001 -3.503456e-001 4.917281e-005 -1.233375e+002 2.212705e-004 2.907423e+001 9.986206e-001 -2.831514e-001
13799325 9.996510e-001 -3.311311e-001 8.322959e-005 1.078095e+002 2.606397e-004 1.591021e+002 9.992554e-001 -3.267579e-001
14099310 9.990938e-001 -3.527459e-001 8.727216e-005 -1.123695e+002 5.952703e-006 -5.098268e+001 1.000502e+000 -2.850530e-001
14399295 9.997440e-001 -3.567158e-001 5.128377e-005 1.489333e+002 1.844773e-004 1.252822e+002 9.996944e-001 -3.070656e-001
14699280 9.988599e-001 -3.459085e-001 1.915727e-005 1.585221e+002 2.446572e-004 -5.300945e+001 1.000029e+000 -1.953898e-001
14999265 9.983538e-001 -3.540573e-001 5.902966e-005 -1.030497e+002 1.685946e-004 -1.650518e+002 9.998145e-001 -3.210052e-001
15299250 9.985523e-001 -3.361759e-001 4.789682e-005 -5.419644e+001 2.429656e-004 -1.614658e+002 9.992139e-001 -2.357349e-001
15599235 9.988180e-001 -3.750045e-001 3.957545e-005 -6.290319e+001 1.810401e-004 3.785972e+001 9.987549e-001 -3.116185e-001
15899220 9.994308e-001 -3.285742e-001 3.143452e-005 1.179086e+002 1.589694e-004 1.689911e+002 9.997202e-001 -2.822484e-001
16199205 9.988148e-001 -3.641885e-001 1.386780e-005 -1.481853e+002 1.845947e-004 4.690886e+001 1.000766e+000 -2.666235e-001
16499190 9.986506e-001 -3.806673e-001 1.456186e-004 -1.712340e+002 9.106284e-005 1.578632e+002 1.002076e+000 -2.679266e-001
16799175 9.989934e-001 -3.735783e-001 8.829805e-005 -3.284826e+001 3.385513e-004 -8.259531e+001 1.001960e+000 -2.537958e-001
17099160 9.997486e-001 -3.738661e-001 3.438446e-005 -1.555736e+002 1.470128e-004 5.964163e+001 1.001064e+000 -2.982801e-001
17399145 9.988347e-001 -4.224569e-001 3.529666e-005 -6.294061e+001 7.687537e-005 -2.998020e+001 1.001326e+000 -3.293435e-001
17699130 9.992906e-001 -4.092543e-001 6.031416e-005 1.496113e+002 2.416393e-004 1.139006e+002 1.001148e+000 -3.483393e-001
17999115 9.986755e-001 -3.706024e-001 1.454122e-005 4.482874e+001 1.474458e-004 -1.132223e+002 9.993266e-001 -3.283209e-001
18299100 9.992598e-001 -4.106214e-001 3.452074e-005 1.249398e+002 2.512684e-004 3.539070e+001 9.997349e-001 -3.883314e-001
18599085 9.994593e-001 -4.195399e-001 1.272967e-004 -6.455328e+001 2.094511e-004 -1.675943e+002 1.000959e+000 -3.528866e-001
18899070 9.986345e-001 -4.428546e-001 6.120183e-005 -1.605649e+001 4.043856e-004 -1.495244e+001 9.999216e-001 -2.287398e-001
19199055 9.989826e-001 -4.373921e-001 8.458542e-005 7.349561e+001 1.049594e-004 -1.023654e+001 1.001243e+000 -2.402490e-001
19499040 9.994485e-001 -4.305447e-001 4.860251e-005 -3.906659e+001 2.514519e-004 -1.049664e+002 9.996374e-001 -2.988662e-001
19799025 9.996865e-001 -4.343200e-001 9.450704e-005 1.160671e+001 2.184942e-004 7.910535e+001 9.986585e-001 -2.564063e-001
20099010 9.992784e-001 -4.490294e-001 3.019077e-005 -2.882781e+001 1.117402e-004 -1.543386e+002 9.996416e-001 -2.939284e-001
20398995 9.984960e-001 -4.206534e-001 5.906011e-005 -1.701489e+002 2.984723e-004 6.357095e+001 9.997575e-001 -3.564417e-001
20698980 9.985776e-001 -4.453265e-001 6.412582e-005 1.703948e+002 1.706202e-005 7.598524e+001 1.000534e+000 -3.081283e-001
20998965 9.985191e-001 -4.313457e-001 4.071414e-005 1.178734e+002 2.084805e-004 -5.650297e+001 9.994292e-001 -2.420346e-001
21298950 9.984825e-001 -4.335149e-001 1.343836e-004 2.870311e+001 1.980771e-004 7.835043e+001 9.995466e-001 -2.996864e-001
21598935 9.989012e-001 -4.697274e-001 1.390926e-004 -8.002625e+001 1.611974e-004 -5.468580e+001 9.989655e-001 -2.576608e-001
21898920 9.985293e-001 -5.180264e-001 1.259251e-004 -1.474391e+002 4.076448e-004 1.217978e+002 9.998011e-001 -3.308981e-001
22198905 9.993057e-001 -4.892976e-001 1.123161e-004 -1.348443e+001 2.419504e-004 -1.123788e+002 9.998133e-001 -3.880333e-001
22498890 9.992938e-001 -4.679553e-001 7.842054e-006 -1.898733e+001 3.648377e-004 7.745645e+001 9.998589e-001 -3.317413e-001
22798875 9.998645e-001 -4.720767e-001 1.700225e-005 -3.147916e+001 2.042989e-004 -1.717034e+002 1.000797e+000 -4.271660e-001
23098860 9.993370e-001 -4.996729e-001 8.496053e-005 -9.220470e+000 1.606247e-004 1.796155e+002 1.001609e+000 -3.708777e-001
23398845 9.996059e-001 -5.063609e-001 1.359942e-004 -7.023708e+001 2.105774e-004 1.721738e+002 1.001015e+000 -4.306497e-001
23698830 9.990509e-001 -5.380191e-001 8.290388e-005 -1.305753e+002 2.769284e-004 7.030481e+000 9.994836e-001 -4.030927e-001
23998815 9.985824e-001 -5.129446e-001 9.647712e-005 1.203580e+002 6.820905e-005 -4.286584e+001 9.984986e-001 -3.737287e-001
24298800 9.990257e-001 -5.186719e-001 2.926109e-005 1.327121e+002 2.363488e-004 -4.344893e+001 9.981443e-001 -3.754717e-001
24598785 9.985887e-001 -5.470989e-001 8.427945e-005 1.561111e+002 2.059876e-004 4.961732e+001 9.988918e-001 -3.723400e-001
24898770 9.989911e-001 -5.504136e-001 3.199153e-005 2.307041e+001 1.387350e-004 -5.824306e+001 1.000972e+000 -3.634440e-001
25198755 9.992204e-001 -5.375521e-001 7.023618e-006 -1.405041e+002 1.791345e-004 1.443687e+002 9.999979e-001 -4.194144e-001
25498740 9.989979e-001 -5.794480e-001 5.457308e-005 1.002809e+002 1.799675e-004 -6.626003e+001 1.000263e+000 -4.484339e-001
25798725 9.987558e-001 -5.240376e-001 3.352126e-005 -1.118462e+002 4.078314e-004 6.364806e+001 9.996676e-001 -4.683070e-001
26098710 9.995366e-001 -5.712930e-001 1.675442e-005 8.564169e+001 1.443064e-004 -1.651231e+002 1.001144e+000 -3.907865e-001
26398695 9.995866e-001 -5.843983e-001 2.539547e-005 -1.546348e+002 2.909748e-004 2.113138e+001 1.001307e+000 -4.068190e-001
26698680 9.991269e-001 -5.725921e-001 3.233139e-005 1.331653e+002 2.215163e-004 -1.577634e+002 1.000740e+000 -4.307283e-001
26998665 9.995729e-001 -5.419669e-001 1.121259e-004 1.317218e+002 3.006112e-004 -4.713167e+001 1.000778e+000 -4.006816e-001
27298650 9.996883e-001 -5.666318e-001 2.343227e-005 5.038531e+001 8.980779e-005 -1.103399e+002 1.000247e+000 -4.031220e-001
27598635 9.993121e-001 -5.529057e-001 2.018274e-005 -1.719409e+002 5.093838e-005 1.422340e+002 1.000934e+000 -4.563282e-001
27898620 9.985642e-001 -5.820020e-001 3.915036e-005 -8.412304e+001 1.183878e-004 8.220456e+001 1.001547e+000 -4.183268e-001
28198605 9.990762e-001 -5.498822e-001 9.694919e-005 -1.770053e+002 1.814818e-004 1.783706e+002 1.001648e+000 -4.600811e-001
28498590 9.997658e-001 -6.138118e-001 6.572293e-005 2.199640e+001 2.140976e-004 4.262805e+000 1.000971e+000 -4.390758e-001
28798575 9.984078e-001 -6.096416e-001 1.014063e-004 -1.181518e+002 1.229838e-004 1.799578e+002 9.992748e-001 -5.694221e-001
29098560 9.987441e-001 -6.032490e-001 9.124024e-005 -7.688359e+001 1.006005e-004 5.577768e+001 1.000442e+000 -4.373512e-001
29398545 9.992435e-001 -6.200204e-001 8.954128e-005 -6.871339e+001 1.656245e-004 1.048248e+002 1.000714e+000 -4.305269e-001
29698530 9.995883e-001 -6.049467e-001 7.119410e-005 5.357246e+001 3.301215e-004 -1.161958e+002 1.001911e+000 -4.072202e-001
29998515 9.988073e-001 -6.317111e-001 5.160542e-005 2.124962e+001 1.972123e-004 1.211600e+002 1.001868e+000 -4.897007e-001
30298500 9.998679e-001 -6.309646e-001 4.476876e-005 -1.360234e+001 1.363377e-004 -1.696713e+002 1.001380e+000 -5.088460e-001
30598485 9.996949e-001 -6.438336e-001 1.291067e-004 -1.163858e+002 1.539709e-004 4.916473e+001 1.001696e+000 -4.529562e-001
30898470 9.989187e-001 -6.177391e-001 8.444777e-005 1.656938e+002 3.739224e-004 -1.066350e+002 1.000172e+000 -5.621909e-001
31198455 9.989074e-001 -6.081532e-001 5.789622e-005 6.305019e+001 1.914748e-004 -5.953638e+001 9.996434e-001 -4.558719e-001
31498440 9.989901e-001 -6.656969e-001 4.789431e-005 1.307525e+002 2.860122e-004 1.155584e+002 1.000887e+000 -4.117808e-001
31798425 1.000083e+000 -6.937604e-001 8.403506e-005 1.569558e+001 3.600195e-004 -7.298748e+001 1.001323e+000 -4.709820e-001
32098410 9.993890e-001 -7.041501e-001 5.029270e-005 -1.080412e+000 1.449554e-004 1.510222e+002 1.001451e+000 -4.402833e-001
32398395 9.991995e-001 -6.981702e-001 2.548965e-005 9.211582e+001 1.021302e-004 -1.422835e+002 1.000535e+000 -4.193929e-001
32698380 9.993256e-001 -6.738280e-001 1.358177e-004 1.467012e+002 1.681353e-004 3.079260e+001 1.001433e+000 -4.253448e-001
32998365 9.994823e-001 -6.787774e-001 4.191045e-005 1.648195e+002 8.016465e-005 1.418766e+002 1.001325e+000 -4.669607e-001
33298350 9.994255e-001 -7.086846e-001 1.087714e-004 -9.250153e+001 1.655474e-004 -1.736632e+001 1.001346e+000 -5.790032e-001
33598335 9.986773e-001 -7.144017e-001 7.290965e-005 5.379446e+001 1.690720e-004 -1.448768e+002 1.000499e+000 -5.256386e-001
33898320 9.988622e-001 -7.103391e-001 1.210736e-004 4.862749e+001 1.768900e-004 3.122383e+000 1.000476e+000 -5.270262e-001
34198305 9.984671e-001 -7.355225e-001 4.906473e-005 1.275598e+002 2.110085e-004 1.384057e+002 9.997080e-001 -4.760009e-001
34498290 9.989073e-001 -7.520500e-001 1.212302e-005 -1.335244e+002 1.665950e-004 -1.002064e+002 9.995351e-001 -5.123747e-001
34798275 9.987351e-001 -7.699329e-001 3.906972e-005 1.083679e+001 2.578157e-004 4.698547e+001 9.989483e-001 -4.779746e-001
35098260 9.986821e-001 -7.354155e-001 1.937171e-004 1.111660e+002 1.242784e-004 -1.155660e+002 1.000457e+000 -4.776903e-001
35398245 9.986371e-001 -7.543426e-001 7.800320e-005 1.772211e+002 1.262399e-004 7.198750e+001 1.000884e+000 -4.745611e-001
35698230 9.991724e-001 -7.587922e-001 1.136061e-004 4.505054e+000 2.685222e-004 -1.106570e+002 1.001817e+000 -5.114457e-001
35998215 9.995516e-001 -7.156594e-001 1.421422e-004 -1.223344e+002 2.151547e-004 -5.181145e+001 1.000910e+000 -5.545279e-001
36298200 9.987106e-001 -7.713903e-001 8.828422e-005 1.640061e+002 2.726966e-004 1.200779e+002 1.001116e+000 -5.491713e-001
36598185 9.994147e-001 -8.241512e-001 9.346064e-005 1.702048e+002 9.510517e-005 -5.114475e+001 1.000209e+000 -5.704922e-001
36898170 9.996997e-001 -7.981142e-001 7.113141e-005 -1.070863e+002 3.078130e-004 1.634100e+001 1.000434e+000 -5.186796e-001
37198155 9.997616e-001 -7.676240e-001 1.381863e-004 -1.780804e+002 4.316790e-005 -3.907049e+001 1.001101e+000 -5.712605e-001
37498140 9.994044e-001 -7.730691e-001 1.454024e-004 -1.625618e+002 1.295006e-004 3.038528e+001 1.001456e+000 -5.261869e-001
37798125 9.988039e-001 -7.481015e-001 9.804411e-006 5.811012e+001 1.123203e-004 1.787407e+002 9.997472e-001 -5.362316e-001
38098110 9.988814e-001 -7.804578e-001 5.945775e-005 -9.361610e+001 2.796119e-004 -4.572992e+001 9.998205e-001 -6.082171e-001
38398095 9.992169e-001 -7.695437e-001 1.959190e-005 1.782566e+002 7.940993e-005 7.934940e+001 9.997521e-001 -5.788772e-001
38698080 9.983905e-001 -8.044086e-001 5.776569e-005 -8.198444e+001 1.794646e-004 -1.366027e+002 1.000359e+000 -5.405463e-001
38998065 9.992436e-001 -7.848172e-001 1.835874e-004 2.921068e+001 1.132197e-004 -6.988980e+001 1.000193e+000 -5.499999e-001
39298050 9.994531e-001 -7.943529e-001 1.137527e-004 -1.332053e+002 1.181753e-004 -5.774020e+001 1.000707e+000 -5.768132e-001
39598035 9.996824e-001 -8.025844e-001 5.647797e-005 5.462486e+001 1.470599e-004 7.824926e+001 1.001500e+000 -5.052052e-001
39898020 9.999308e-001 -7.678856e-001 9.849073e-005 1.119887e+002 1.579763e-004 -9.335552e+001 1.002817e+000 -4.545827e-001
40198005 9.988667e-001 -8.944345e-001 1.927588e-004 1.383165e+002 2.098982e-004 -1.785473e+002 1.003899e+000 -6.732906e-001
40497990 9.991624e-001 -9.142178e-001 1.853688e-004 1.070094e+002 1.610834e-004 1.418854e+002 1.001059e+000 -6.379464e-001
40797975 9.995628e-001 -8.087522e-001 1.279030e-004 -1.110621e+002 3.259577e-004 1.664258e+002 1.001220e+000 -6.729052e-001
41097960 9.982457e-001 -8.385303e-001 2.057392e-004 -1.010244e+002 1.708030e-004 1.499227e+002 1.002070e+000 -6.103210e-001
41397945 9.980725e-001 -7.925620e-001 9.439181e-005 -1.198217e+002 3.835446e-004 7.251019e+001 1.001045e+000 -4.805142e-001
41697930 9.985141e-001 -7.874429e-001 9.051806e-005 -5.519447e+001 3.203018e-004 -3.006964e+001 1.001132e+000 -4.760732e-001
41997915 9.992841e-001 -7.984180e-001 5.497852e-005 -1.387528e+002 1.756212e-004 8.545051e+001 1.001066e+000 -6.074719e-001
42297900 9.988067e-001 -8.519417e-001 1.730798e-004 1.509929e+002 1.443963e-004 1.263608e+002 1.000089e+000 -6.058168e-001
42597885 9.986264e-001 -8.578348e-001 7.364041e-005 1.259375e+002 2.604357e-004 2.748665e+001 1.002888e+000 -6.934038e-001
42897870 9.994671e-001 -8.660717e-001 1.521836e-004 -6.029218e+001 3.452512e-004 7.365696e+001 1.001910e+000 -6.760599e-001
43197855 9.995860e-001 -8.902810e-001 8.800344e-005 -3.355049e+001 6.600591e-004 -1.435397e+001 1.001978e+000 -5.953429e-001
43497840 9.992661e-001 -8.665917e-001 8.822529e-005 1.049316e+001 3.994172e-005 1.531632e+002 1.003116e+000 -7.093210e-001
43797825 9.992037e-001 -8.479069e-001 2.793074e-004 -1.007937e+002 4.381585e-005 1.120861e+002 1.001943e+000 -7.458072e-001
44097810 9.993159e-001 -7.927328e-001 2.820707e-004 1.424958e+002 1.793126e-005 1.379602e+002 1.000405e+000 -6.426545e-001
44397795 9.991910e-001 -8.832719e-001 1.461350e-004 1.118595e+002 1.364775e-004 1.729190e+002 1.000712e+000 -7.273591e-001
44697780 1.000004e+000 -8.280296e-001 5.945531e-005 1.258473e+002 2.352237e-004 -1.562234e+002 1.002637e+000 -7.577362e-001
44997765 9.997554e-001 -9.420537e-001 5.109779e-005 4.342738e+001 1.450120e-004 -8.679728e+001 1.002261e+000 -6.548762e-001
45297750 1.000055e+000 -9.841399e-001 6.419667e-005 4.806563e+001 2.244149e-004 1.297115e+002 1.002232e+000 -7.050369e-001
45597735 9.994715e-001 -9.175215e-001 8.945022e-005 -1.595091e+001 8.813449e-005 -1.777728e+002 1.002384e+000 -7.246336e-001
45897720 9.997872e-001 -9.045587e-001 5.314868e-005 4.553343e+001 1.508283e-004 1.586020e+002 1.002050e+000 -6.424246e-001
46197705 9.998069e-001 -9.975160e-001 6.189667e-005 -9.159644e+001 5.286004e-004 6.103134e+001 1.002899e+000 -7.936369e-001
46497690 1.000346e+000 -9.532694e-001 5.662016e-005 -1.247699e+002 2.918573e-004 1.208334e+002 1.002319e+000 -7.222842e-001
46797675 9.995146e-001 -8.518358e-001 2.096174e-004 -1.037679e+002 2.644747e-004 -9.669986e+001 1.002229e+000 -5.920978e-001
47097660 9.997342e-001 -9.978309e-001 5.744924e-005 -1.045956e+002 1.821881e-004 -5.847142e+001 1.001381e+000 -8.332152e-001
