!Agilent Technologies,N5230C,SG49000117,A.08.50.07
!Agilent N5230C: A.08.50.07
!Date: Thursday, May 16, 2024 19:33:29
!Correction: S11(Full 2 Port(1,2)) 
!S21(Full 2 Port(1,2)) 
!S12(Full 2 Port(1,2)) 
!S22(Full 2 Port(1,2)) 
!S2P File: Measurements: S11, S21, S12, S22:
# Hz S  MA   R 50
300000 1.008927e+000 -5.298094e-001 1.309134e-004 2.085795e+001 2.225922e-004 1.985401e+001 1.017801e+000 -8.129529e-001
599985 9.826270e-001 2.942218e-001 1.244758e-004 -1.537600e+002 4.033278e-005 1.317913e+000 9.654045e-001 2.481972e-001
899970 9.974157e-001 -1.082097e-001 5.004276e-005 -6.705735e+001 1.693791e-004 -5.672381e+001 9.857574e-001 -4.623617e-001
1199955 9.976239e-001 -1.136524e-001 4.821154e-005 -4.349030e+001 1.421262e-004 2.659924e+001 9.968150e-001 -2.057829e-001
1499940 9.937593e-001 9.504399e-002 1.210349e-004 1.385330e+002 1.565055e-004 1.486370e+002 9.933077e-001 1.178834e-001
1799925 9.911107e-001 1.799941e-001 1.283745e-004 4.019558e+001 2.885928e-005 7.976205e+001 9.905468e-001 -6.415464e-003
2099910 9.979528e-001 -3.131821e-002 3.999543e-005 1.611881e+002 2.959766e-005 3.457193e+001 9.986109e-001 4.621191e-002
2399895 9.990377e-001 -1.554151e-001 6.277164e-005 8.113225e+001 3.901371e-005 1.031307e+002 1.003797e+000 -4.560692e-002
2699880 9.994944e-001 -2.869747e-001 2.369736e-005 -6.073085e+001 8.167244e-005 1.496306e+002 9.961262e-001 -2.655383e-001
2999865 9.991821e-001 -1.919736e-001 9.458733e-005 -7.445409e+001 7.359429e-005 4.095213e+001 9.975937e-001 -1.212942e-001
3299850 1.000370e+000 -1.441332e-001 5.830812e-005 6.188815e+001 7.968906e-005 -5.951889e+001 9.976761e-001 -2.122370e-001
3599835 9.999140e-001 -1.331339e-001 6.079632e-005 -1.502721e+002 1.742103e-004 1.062212e+002 9.979771e-001 -1.689206e-001
3899820 9.990525e-001 -1.999949e-001 2.175902e-005 1.175681e+002 1.093794e-004 -1.606648e+002 9.986475e-001 -1.538780e-001
4199805 9.999434e-001 -2.281141e-001 8.213982e-006 -2.695662e+001 2.026626e-005 4.529534e+001 1.000509e+000 -2.108859e-001
4499790 1.000165e+000 -1.930971e-001 8.964709e-005 -8.889245e+001 7.854162e-005 -1.078875e+002 9.999674e-001 -2.033534e-001
4799775 1.000028e+000 -2.173563e-001 1.117577e-004 -2.691025e+001 3.955234e-005 -5.228120e+001 1.000483e+000 -1.353913e-001
5099760 1.000065e+000 -1.983911e-001 5.495392e-005 -1.286770e+000 7.885474e-005 -2.188111e+001 1.000994e+000 -1.673141e-001
5399745 1.000400e+000 -1.839481e-001 6.810996e-005 1.160009e+002 1.791543e-004 1.019807e+002 9.998245e-001 -9.079832e-002
5699730 9.999051e-001 -1.823853e-001 5.227450e-005 1.226509e+002 1.332676e-004 -8.431946e+001 1.001047e+000 -1.612827e-001
5999715 9.991089e-001 -1.726986e-001 2.454132e-005 -1.640532e+002 9.598453e-005 1.752385e+002 1.000886e+000 -9.614366e-002
6299700 9.999067e-001 -1.815726e-001 9.280887e-005 -1.193872e+001 2.134010e-004 1.235179e+002 1.001188e+000 -1.579068e-001
6599685 9.995321e-001 -2.008539e-001 5.046327e-005 -1.063429e+002 6.760054e-005 -1.286106e+002 9.995193e-001 -2.272837e-001
6899670 9.995164e-001 -2.537324e-001 5.766337e-005 1.681404e+002 7.087243e-005 3.675230e+001 1.000777e+000 -2.250534e-001
7199655 9.995523e-001 -2.728172e-001 1.249537e-004 -1.417719e+002 6.005444e-005 -7.372050e+001 9.998503e-001 -2.118014e-001
7499640 9.997284e-001 -2.693877e-001 5.446257e-005 7.272193e+001 3.275847e-004 -1.497305e+002 1.001213e+000 -3.129851e-001
7799625 9.995019e-001 -2.306598e-001 3.241882e-005 -1.422014e+001 1.969879e-004 -5.127895e+001 9.988419e-001 -2.245286e-001
8099610 9.997357e-001 -2.249694e-001 4.464732e-005 2.234081e+001 2.038811e-004 -1.229998e+002 1.000218e+000 -2.074506e-001
8399595 9.997599e-001 -2.270874e-001 6.009729e-005 -4.178590e+001 8.726482e-005 6.268149e+001 1.000046e+000 -2.820914e-001
8699580 9.998578e-001 -2.680429e-001 3.656390e-005 1.630922e+002 1.938843e-004 -1.547795e+002 9.993523e-001 -2.463006e-001
8999565 9.990757e-001 -2.524819e-001 4.195917e-005 8.009538e+001 7.243366e-005 -1.286758e+002 9.996307e-001 -2.513115e-001
9299550 9.995912e-001 -2.654367e-001 7.122687e-005 -1.678321e+002 1.687320e-004 1.319534e+002 9.986556e-001 -2.429507e-001
9599535 9.995235e-001 -3.070535e-001 2.154222e-005 -1.842955e+001 1.916863e-004 1.823550e+001 9.981928e-001 -3.346577e-001
9899520 9.992839e-001 -3.499376e-001 2.251870e-005 -9.324912e+000 1.885953e-004 1.370612e+002 9.976303e-001 -4.343806e-001
10199505 1.000204e+000 -2.681308e-001 7.503870e-006 1.293785e+002 1.437991e-004 4.009649e+001 9.999786e-001 -2.789094e-001
10499490 9.993528e-001 -2.756917e-001 9.692384e-005 1.498398e+002 1.744549e-004 -1.511037e+002 9.996293e-001 -1.975828e-001
10799475 9.996729e-001 -2.687978e-001 8.133124e-005 -8.296059e+000 1.103049e-004 1.315461e+002 1.000361e+000 -2.250784e-001
11099460 9.995865e-001 -2.784959e-001 1.001876e-004 1.431847e+002 1.300821e-004 4.454401e+001 9.990717e-001 -2.805360e-001
11399445 9.993852e-001 -2.566573e-001 4.536593e-005 7.097315e+000 1.882508e-004 -1.400802e+002 9.998482e-001 -2.679766e-001
11699430 9.995683e-001 -2.908995e-001 6.132788e-005 1.663566e+002 1.944265e-004 -7.147576e+001 1.000978e+000 -2.057497e-001
11999415 9.995134e-001 -2.799327e-001 1.045907e-004 -2.590791e+001 2.374572e-004 7.535873e+001 9.998916e-001 -2.507856e-001
12299400 9.993696e-001 -2.983635e-001 7.410609e-005 -2.384794e+000 7.591711e-005 5.662646e+001 1.001438e+000 -1.639986e-001
12599385 9.994743e-001 -3.073207e-001 1.119134e-004 1.652256e+001 1.961040e-004 1.530445e+002 1.001103e+000 -3.319315e-001
12899370 9.996318e-001 -3.467589e-001 4.070973e-005 -5.225721e+001 1.548928e-004 3.488719e+001 9.997834e-001 -4.255821e-001
13199355 9.997672e-001 -3.639172e-001 6.357235e-005 3.571471e+001 1.691016e-004 1.263539e+002 9.992867e-001 -2.293404e-001
13499340 9.998417e-001 -3.673806e-001 3.460518e-005 7.183926e+001 7.144386e-005 -1.364052e+002 9.992483e-001 -2.678039e-001
13799325 9.991581e-001 -3.478358e-001 1.109696e-004 5.858504e+001 1.730342e-004 8.881755e+001 9.993415e-001 -3.203373e-001
14099310 9.992750e-001 -3.841489e-001 8.830619e-005 -1.527370e+002 3.094298e-004 1.776770e+002 1.000255e+000 -2.735964e-001
14399295 9.997022e-001 -3.863993e-001 8.051445e-005 4.331540e+001 1.791331e-004 5.895769e+001 9.999409e-001 -2.673703e-001
14699280 9.995837e-001 -3.651249e-001 8.102589e-005 9.400624e+001 1.828449e-004 1.497533e+002 1.000602e+000 -2.373442e-001
14999265 9.993371e-001 -3.783319e-001 4.652830e-005 3.386543e+001 5.269453e-005 3.155331e+001 9.992502e-001 -2.388295e-001
15299250 9.991381e-001 -3.862974e-001 6.650290e-005 1.039011e+001 2.964241e-004 1.631765e+002 9.987679e-001 -3.083393e-001
15599235 9.995010e-001 -3.594171e-001 1.320982e-004 -1.343087e+002 3.147553e-004 -1.235079e+002 9.995213e-001 -2.562312e-001
15899220 9.995057e-001 -3.738714e-001 1.269851e-005 -1.568068e+002 2.044396e-004 1.732635e+002 1.001055e+000 -2.725473e-001
16199205 9.996065e-001 -3.759767e-001 5.129083e-005 9.251859e+000 1.784878e-004 -2.554265e+001 1.000592e+000 -2.905584e-001
16499190 9.993013e-001 -3.741706e-001 7.285080e-005 -1.712746e+002 2.763467e-004 3.044517e+001 1.000969e+000 -3.364314e-001
16799175 9.994021e-001 -4.066924e-001 4.961788e-005 -1.154210e+002 3.502989e-004 -1.793940e+002 1.002182e+000 -2.994904e-001
17099160 9.991775e-001 -4.316004e-001 7.205900e-006 -2.171975e+001 2.647125e-005 1.422777e+002 1.001991e+000 -3.132100e-001
17399145 9.995716e-001 -4.136803e-001 7.067154e-005 -1.460554e+002 1.011914e-004 1.283487e+002 1.001079e+000 -2.109322e-001
17699130 9.992406e-001 -4.374175e-001 1.209630e-005 1.580053e+002 1.684714e-004 6.787432e+001 1.001795e+000 -3.287168e-001
17999115 9.996147e-001 -4.529109e-001 8.046159e-005 -7.881344e+001 1.212647e-004 -1.435887e+002 1.000970e+000 -2.978946e-001
18299100 9.993154e-001 -4.259929e-001 8.849976e-005 1.208989e+002 2.990774e-004 -3.437299e+001 1.000264e+000 -3.699478e-001
18599085 9.992911e-001 -4.395512e-001 3.051521e-005 -1.001403e+002 3.115271e-004 4.190858e+001 1.000196e+000 -2.559527e-001
18899070 9.996373e-001 -4.760038e-001 5.901153e-005 -1.246317e+002 1.606720e-004 -1.459110e+002 9.996022e-001 -2.651744e-001
19199055 9.993484e-001 -4.650087e-001 4.078377e-005 -8.582689e+001 2.137504e-004 5.796561e+001 9.992822e-001 -3.154063e-001
19499040 9.999624e-001 -4.708897e-001 3.077985e-005 9.472613e+001 1.812348e-004 1.261349e+002 9.998276e-001 -3.316495e-001
19799025 9.995990e-001 -4.493994e-001 7.784830e-005 3.574405e+001 1.383199e-004 -1.552342e+002 9.988580e-001 -3.681153e-001
20099010 9.995127e-001 -4.548569e-001 5.935906e-005 1.762279e+002 2.169619e-004 1.797416e+002 9.991104e-001 -2.965423e-001
20398995 9.993393e-001 -4.535594e-001 2.003417e-005 5.606664e+001 2.001304e-004 -1.079671e+002 9.998714e-001 -3.569731e-001
20698980 9.990507e-001 -4.516093e-001 3.236156e-005 -1.203175e+002 1.915875e-004 -8.712855e+000 9.986242e-001 -3.635168e-001
20998965 9.989396e-001 -5.189385e-001 7.698880e-005 -2.622299e+001 2.532842e-004 -6.679964e+001 9.997382e-001 -3.246278e-001
21298950 9.986429e-001 -4.972212e-001 2.413096e-005 1.354126e+000 1.246704e-004 5.931881e+001 9.993924e-001 -2.192055e-001
21598935 9.984133e-001 -5.069422e-001 4.826310e-005 -5.687335e+001 2.817431e-004 -1.477258e+002 9.989323e-001 -2.491018e-001
21898920 9.986476e-001 -4.933011e-001 6.123977e-005 6.018920e+001 4.914106e-005 1.435636e+002 9.994113e-001 -3.126997e-001
22198905 9.995359e-001 -5.184212e-001 6.432173e-005 1.001406e+002 3.611053e-004 1.751478e+002 1.000340e+000 -3.473540e-001
22498890 9.998634e-001 -4.846576e-001 9.166974e-005 -3.163050e+001 8.996989e-005 8.687448e+001 1.000425e+000 -3.563057e-001
22798875 1.000121e+000 -4.701892e-001 1.543923e-004 6.083318e+000 2.375490e-004 1.664307e+002 1.000589e+000 -3.906007e-001
23098860 9.995513e-001 -4.795537e-001 1.064447e-004 -7.120518e+001 3.940461e-005 -5.655105e+001 1.001994e+000 -3.439274e-001
23398845 1.000419e+000 -5.397697e-001 2.793012e-005 -1.372905e+002 2.007248e-004 7.992808e+001 1.000405e+000 -3.862749e-001
23698830 9.992797e-001 -5.154524e-001 6.713963e-005 -1.624559e+002 1.347648e-004 -1.126587e+002 9.997097e-001 -3.228614e-001
23998815 9.990904e-001 -5.684803e-001 2.265846e-005 1.244052e+001 3.492149e-004 4.161779e+001 9.994086e-001 -2.932991e-001
24298800 1.000068e+000 -5.708053e-001 6.270481e-006 1.532129e+002 8.315035e-005 -3.635115e+001 9.996668e-001 -3.593405e-001
24598785 9.994086e-001 -5.484879e-001 1.114927e-004 6.322312e+001 7.825683e-005 3.933953e+001 1.000516e+000 -4.599795e-001
24898770 9.992782e-001 -5.941302e-001 9.374889e-005 1.424230e+002 8.094299e-005 -1.574382e+002 1.000712e+000 -3.757205e-001
25198755 9.991089e-001 -5.943213e-001 3.252692e-005 -1.323482e+002 3.366927e-004 -7.775669e+001 1.000491e+000 -3.864988e-001
25498740 1.000222e+000 -5.986778e-001 3.622323e-005 -5.513375e+001 6.850740e-005 1.270818e+002 1.000860e+000 -3.702492e-001
25798725 9.990402e-001 -5.777040e-001 7.805580e-005 5.486547e+001 1.486926e-004 -8.552528e+001 1.001299e+000 -4.019647e-001
26098710 9.998708e-001 -5.894910e-001 4.213057e-005 8.192371e+001 2.434616e-004 -1.610941e+002 1.000891e+000 -4.184182e-001
26398695 9.997216e-001 -5.733016e-001 9.797889e-005 -1.162574e+002 2.063859e-004 -1.752788e+002 1.001622e+000 -4.498299e-001
26698680 1.000393e+000 -6.199092e-001 7.103971e-005 6.028867e+001 7.327009e-005 3.454279e+000 1.001236e+000 -3.477099e-001
26998665 9.999496e-001 -5.938415e-001 4.738863e-005 -1.056919e+002 1.938640e-004 1.366287e+002 1.000103e+000 -3.655842e-001
27298650 9.998771e-001 -5.957131e-001 2.096533e-004 -7.700941e+001 1.662983e-004 3.397142e+001 1.000955e+000 -3.889791e-001
27598635 9.995213e-001 -6.409035e-001 7.914133e-005 -1.722150e+002 4.384501e-004 1.580172e+002 1.001286e+000 -4.339812e-001
27898620 9.990357e-001 -6.382595e-001 1.639596e-004 -1.374752e+002 8.326819e-005 1.748839e+002 1.002051e+000 -4.557893e-001
28198605 1.000019e+000 -6.374798e-001 5.471033e-005 7.323907e+000 1.522625e-004 1.012542e+002 1.000331e+000 -4.835092e-001
28498590 9.990851e-001 -6.618637e-001 3.550362e-005 6.350943e+001 3.371802e-004 -7.007465e+001 1.001037e+000 -4.025755e-001
28798575 9.993742e-001 -6.904839e-001 6.848764e-005 9.618475e+001 2.113574e-004 1.007525e+002 1.000315e+000 -5.119773e-001
29098560 1.000112e+000 -6.345779e-001 1.143983e-004 8.197813e+001 2.385982e-004 -7.549770e+001 1.000715e+000 -4.905101e-001
29398545 9.994081e-001 -6.445383e-001 5.822219e-005 3.787449e+000 3.008113e-004 8.366066e+001 1.000793e+000 -3.361535e-001
29698530 9.996625e-001 -6.133021e-001 7.573274e-005 8.782039e+001 1.429012e-004 -6.032243e+001 1.001118e+000 -3.932095e-001
29998515 9.990101e-001 -6.336687e-001 7.662271e-005 3.244288e+001 1.918122e-004 5.978517e+001 1.001986e+000 -4.793732e-001
30298500 9.991001e-001 -6.693037e-001 6.561315e-005 -9.333002e+001 1.733919e-004 -1.246405e+002 1.001026e+000 -5.346469e-001
30598485 9.995221e-001 -6.220484e-001 5.829909e-005 -1.136822e+002 2.579858e-004 6.340012e+001 1.000562e+000 -5.464256e-001
30898470 1.000007e+000 -6.312902e-001 6.749408e-005 1.619123e+002 3.100291e-004 1.758046e+002 1.000822e+000 -5.343786e-001
31198455 9.998052e-001 -6.651972e-001 1.219755e-004 1.143396e+002 7.181233e-005 -3.747754e+001 1.000331e+000 -4.380884e-001
31498440 9.993973e-001 -7.319240e-001 7.230355e-005 -1.240042e+002 4.829694e-005 9.008575e+001 1.000330e+000 -4.562168e-001
31798425 1.000007e+000 -7.250088e-001 6.856950e-005 -1.747244e+002 1.698976e-004 -7.969634e+001 1.001012e+000 -4.632748e-001
32098410 9.995979e-001 -7.588506e-001 7.812199e-005 -5.568803e+001 7.497773e-005 1.240800e+002 1.000864e+000 -3.964438e-001
32398395 9.995823e-001 -7.381206e-001 7.712920e-005 -2.836740e+001 1.993544e-004 1.713000e+002 1.001649e+000 -4.621349e-001
32698380 9.999037e-001 -6.903331e-001 4.444784e-005 -1.243138e+002 2.455039e-004 -1.031882e+002 1.001961e+000 -4.692289e-001
32998365 1.000351e+000 -7.099126e-001 2.333653e-005 -1.291525e+002 1.369188e-004 1.227381e+002 1.000845e+000 -4.887203e-001
33298350 1.000153e+000 -6.905209e-001 9.901883e-005 1.083659e+002 1.930501e-004 8.347965e+001 1.000815e+000 -5.281041e-001
33598335 9.994448e-001 -7.475332e-001 1.173830e-004 -7.575929e+001 2.753374e-004 1.582406e+002 1.001438e+000 -5.054518e-001
33898320 9.999350e-001 -7.722392e-001 5.061367e-005 1.607320e+002 2.332706e-004 -1.000448e+002 1.000359e+000 -5.324484e-001
34198305 9.988230e-001 -7.540358e-001 5.320766e-005 -1.773716e+002 1.036804e-004 -2.849126e+001 1.001565e+000 -4.891185e-001
34498290 9.989046e-001 -7.592546e-001 5.461208e-005 1.241572e+002 2.566457e-004 -9.411809e+001 9.990541e-001 -4.890128e-001
34798275 9.990385e-001 -8.085868e-001 1.686807e-004 -1.598769e+002 3.228888e-004 1.188225e+002 9.991797e-001 -5.246262e-001
35098260 9.996440e-001 -7.905918e-001 1.583987e-004 1.358035e+002 1.421874e-004 -1.424248e+002 1.001169e+000 -4.288104e-001
35398245 9.990760e-001 -8.187831e-001 3.234466e-005 1.790700e+002 3.880017e-005 9.236363e+001 1.001526e+000 -4.721908e-001
35698230 9.994549e-001 -8.622650e-001 5.657994e-005 1.378542e+002 1.048329e-004 1.228423e+002 1.001551e+000 -5.286675e-001
35998215 9.996980e-001 -7.759479e-001 3.391001e-005 1.797037e+002 7.838325e-005 -1.256449e+001 1.002034e+000 -5.259956e-001
36298200 9.991252e-001 -7.715695e-001 1.175434e-004 6.241107e+001 2.623974e-004 9.648009e+001 1.001159e+000 -5.412452e-001
36598185 9.996893e-001 -8.374119e-001 1.886468e-004 1.092683e+002 1.271261e-004 -2.545403e+001 1.000157e+000 -5.070332e-001
36898170 9.996690e-001 -8.035883e-001 4.030558e-005 -1.239188e+002 3.500636e-005 1.209715e+001 9.997331e-001 -5.399185e-001
37198155 9.999397e-001 -8.423472e-001 6.895679e-005 -7.408040e+001 1.457829e-004 -8.923213e+001 1.001471e+000 -5.550230e-001
37498140 9.994962e-001 -7.995874e-001 7.500245e-005 6.809507e+001 2.082346e-004 4.706148e+001 1.000931e+000 -5.266070e-001
37798125 9.990295e-001 -8.089959e-001 5.400996e-005 1.550988e+002 1.551709e-004 -1.244295e+002 1.001215e+000 -5.421046e-001
38098110 9.988477e-001 -8.405639e-001 6.774627e-005 -1.506513e+002 1.290163e-004 3.347360e-001 1.000468e+000 -5.976248e-001
38398095 9.986039e-001 -8.111404e-001 1.101472e-004 -1.401073e+002 2.685041e-004 1.735970e+002 9.995568e-001 -5.329897e-001
38698080 9.993687e-001 -8.504456e-001 1.265129e-005 -5.161858e+001 1.931432e-004 -7.056737e+001 9.996421e-001 -5.676758e-001
38998065 9.992999e-001 -8.631893e-001 1.449591e-004 3.148178e+001 5.936080e-005 5.127599e+001 9.999766e-001 -5.208793e-001
39298050 9.998274e-001 -8.332138e-001 5.767184e-005 1.199960e+002 6.673861e-005 -6.068319e+001 9.993283e-001 -5.658813e-001
39598035 9.998051e-001 -8.385086e-001 5.071891e-005 1.221051e+002 1.887859e-004 1.292832e+002 1.001803e+000 -5.098692e-001
39898020 1.000516e+000 -8.335629e-001 7.468918e-005 1.356491e+002 8.158852e-005 -9.993568e+001 1.001758e+000 -4.500337e-001
40198005 9.992058e-001 -8.785211e-001 2.835983e-004 -1.748344e+001 2.160415e-004 1.420966e+002 1.003816e+000 -6.389262e-001
40497990 1.000233e+000 -8.432857e-001 9.816882e-005 -2.301018e+001 7.535102e-005 1.637740e+002 1.001845e+000 -5.904502e-001
40797975 9.989500e-001 -8.621030e-001 2.218055e-004 1.545402e+001 1.909742e-004 1.472681e+002 1.000196e+000 -6.229334e-001
41097960 1.000022e+000 -8.002194e-001 1.196023e-004 3.424871e+000 1.245816e-004 1.531298e+001 1.000839e+000 -6.629643e-001
41397945 9.993783e-001 -8.808600e-001 4.632690e-005 -5.545240e+001 3.699743e-004 1.594641e+001 1.000625e+000 -5.597530e-001
41697930 9.995281e-001 -8.529580e-001 1.995082e-004 8.014402e+001 1.726799e-004 2.218597e+001 1.001578e+000 -4.507135e-001
41997915 9.985694e-001 -8.945673e-001 7.299988e-005 -9.046412e+000 2.276548e-004 5.799450e+001 1.001278e+000 -5.184889e-001
42297900 9.994957e-001 -8.468204e-001 1.597790e-004 -4.936438e+001 1.746717e-004 -1.008572e+002 9.994604e-001 -5.302122e-001
42597885 9.998786e-001 -8.923550e-001 1.840822e-004 1.368643e+002 1.415944e-004 -3.927417e+001 1.001290e+000 -6.468276e-001
42897870 9.999298e-001 -9.028696e-001 8.965749e-005 4.093457e+001 1.554417e-004 -1.189747e+000 1.001236e+000 -5.737229e-001
43197855 1.000634e+000 -8.877933e-001 4.684679e-005 1.300296e+002 1.651413e-004 -8.504438e+001 1.003394e+000 -6.119007e-001
43497840 1.000404e+000 -9.558965e-001 6.234114e-005 9.733898e+001 1.695563e-004 5.397194e+001 1.000427e+000 -6.269736e-001
43797825 9.998652e-001 -9.333072e-001 3.393304e-005 -1.520031e+002 3.525968e-005 1.162544e+002 1.000641e+000 -6.463335e-001
44097810 9.999300e-001 -9.220996e-001 3.961366e-005 -1.604568e+002 3.478079e-004 -2.472130e+001 1.000985e+000 -8.350502e-001
44397795 9.994492e-001 -9.557170e-001 1.138849e-004 1.009778e+002 1.702745e-004 1.669863e+002 1.001248e+000 -7.481161e-001
44697780 1.000047e+000 -9.482285e-001 8.208032e-005 1.327592e+002 3.436465e-004 1.420148e+002 1.002194e+000 -7.129996e-001
44997765 9.993647e-001 -9.840124e-001 1.626888e-004 1.096560e+002 1.606643e-004 1.589289e+002 1.002652e+000 -6.511975e-001
45297750 1.001100e+000 -1.015384e+000 1.764365e-004 9.206314e+001 2.795807e-004 1.127704e+002 1.003672e+000 -7.116432e-001
45597735 1.001397e+000 -1.053858e+000 1.368650e-004 -1.596882e+002 2.047023e-004 -1.726830e+002 1.002614e+000 -7.171560e-001
45897720 1.000457e+000 -9.986784e-001 4.470254e-005 -8.571930e+001 1.892524e-004 4.943267e+001 1.001396e+000 -6.486269e-001
46197705 1.001068e+000 -9.881070e-001 1.554474e-004 -5.472127e+001 1.394263e-004 4.890951e+001 1.001386e+000 -6.375346e-001
46497690 1.000890e+000 -9.769719e-001 8.994902e-005 1.114137e+001 2.768298e-004 2.139842e+001 1.002811e+000 -6.863961e-001
46797675 1.000186e+000 -9.993922e-001 1.400751e-004 1.589544e+001 1.191090e-004 -4.179002e+001 1.001885e+000 -7.942496e-001
47097660 9.994265e-001 -1.009812e+000 1.611192e-004 1.443982e+002 1.438822e-004 1.330162e+001 1.000532e+000 -8.465718e-001
47397645 1.000348e+000 -1.037101e+000 1.425891e-004 -5.992445e+001 1.765212e-004 1.361948e+002 9.992394e-001 -7.878645e-001
