!Agilent Technologies,N5230C,SG49000117,A.08.50.07
!Agilent N5230C: A.08.50.07
!Date: Monday, December 11, 2023 21:11:51
!Correction: S11(Full 2 Port(1,2)) 
!S21(Full 2 Port(1,2)) 
!S12(Full 2 Port(1,2)) 
!S22(Full 2 Port(1,2)) 
!S2P File: Measurements: S11, S21, S12, S22:
# Hz S  RI   R 50
300000 9.918287e-001 4.636775e-003 -3.829966e-005 1.618387e-005 4.479662e-005 -8.450590e-005 9.914857e-001 7.036647e-003
1049985 9.933094e-001 2.738781e-003 4.948753e-006 -5.438826e-006 -3.215000e-005 3.001247e-006 9.825949e-001 2.941693e-003
1799970 9.921984e-001 7.738635e-003 1.670070e-007 6.604651e-006 -8.089333e-007 -7.428829e-006 9.964755e-001 -6.945666e-003
2549955 9.981024e-001 -8.509937e-004 -5.960246e-005 -6.500985e-005 -1.410371e-004 -4.335800e-005 9.970757e-001 -5.965555e-003
3299940 9.983403e-001 -2.578654e-003 -6.222145e-006 1.310235e-006 1.797254e-005 1.633494e-005 9.978160e-001 -8.546138e-003
4049925 9.981582e-001 -2.459694e-003 -2.282928e-006 4.744592e-006 -3.225862e-005 1.636600e-005 9.948354e-001 -7.008735e-003
4799910 9.974826e-001 -2.931325e-003 -1.299085e-005 1.337242e-005 -1.451090e-005 -1.051665e-005 9.939197e-001 -7.258147e-003
5549895 9.968196e-001 -4.321107e-003 -4.678134e-006 9.794321e-007 -3.447569e-005 1.479139e-005 9.936866e-001 -8.173875e-003
6299880 9.971830e-001 -4.728538e-003 5.169950e-008 1.594136e-005 -7.757308e-006 2.227540e-005 9.931061e-001 -7.478507e-003
7049865 9.969648e-001 -5.187289e-003 5.850613e-006 9.456990e-007 -5.110267e-006 3.858608e-005 9.936602e-001 -9.744659e-003
7799850 9.967622e-001 -4.768618e-003 -1.973953e-006 8.398927e-006 1.802122e-006 2.399508e-005 9.924597e-001 -9.686762e-003
8549835 9.963246e-001 -4.717713e-003 -1.735228e-007 2.684341e-007 -2.109419e-005 2.168625e-005 9.926574e-001 -9.881858e-003
9299820 9.958993e-001 -5.120278e-003 3.249856e-006 7.124550e-006 -1.640536e-005 1.052599e-005 9.923043e-001 -1.137176e-002
10049805 9.966849e-001 -6.279256e-003 -2.204762e-006 -2.924093e-006 -1.186413e-005 1.624751e-005 9.937264e-001 -1.301030e-002
10799790 9.969599e-001 -6.764419e-003 -1.321071e-006 1.603607e-005 1.096498e-005 1.163346e-005 9.932041e-001 -1.365345e-002
11549775 9.967533e-001 -6.652024e-003 7.039040e-006 8.255735e-006 -3.869964e-006 1.207497e-005 9.920801e-001 -1.280132e-002
12299760 9.967982e-001 -6.944566e-003 -9.593802e-006 -1.683470e-006 8.577140e-008 1.089334e-005 9.914831e-001 -1.511281e-002
13049745 9.972834e-001 -7.564981e-003 5.276189e-006 6.017438e-006 -1.388893e-005 5.678586e-005 9.926364e-001 -1.489928e-002
13799730 9.960025e-001 -7.947562e-003 1.690957e-007 2.396324e-005 1.470892e-005 4.033872e-006 9.919529e-001 -1.706718e-002
14549715 9.960698e-001 -8.333309e-003 8.137027e-006 1.699464e-005 9.779232e-006 1.410773e-005 9.916660e-001 -1.708376e-002
15299700 9.962245e-001 -9.010807e-003 -2.987147e-006 4.294190e-006 -8.869577e-006 3.211395e-005 9.919084e-001 -1.814440e-002
16049685 9.954413e-001 -8.809746e-003 -1.957673e-006 1.184866e-005 3.647671e-005 2.751263e-005 9.913504e-001 -1.857168e-002
16799670 9.955996e-001 -9.154772e-003 2.385681e-006 1.248868e-005 6.842776e-006 2.880513e-005 9.915276e-001 -1.958130e-002
17549655 9.957847e-001 -9.689109e-003 1.430110e-005 6.729304e-006 5.859681e-006 4.828794e-005 9.917525e-001 -2.107518e-002
18299640 9.957588e-001 -9.670157e-003 -2.493179e-006 2.190860e-005 1.304191e-005 2.595765e-005 9.913568e-001 -1.978664e-002
19049625 9.959647e-001 -1.024223e-002 3.461259e-006 1.748476e-005 -2.427140e-005 1.425643e-005 9.911175e-001 -2.138963e-002
19799610 9.957692e-001 -9.887360e-003 -4.193561e-006 1.124512e-005 -2.129232e-005 2.556246e-005 9.906535e-001 -2.024721e-002
20549595 9.949347e-001 -1.124461e-002 1.582004e-007 1.074461e-005 -2.986088e-006 2.319420e-005 9.908596e-001 -2.093235e-002
21299580 9.950973e-001 -1.113731e-002 -8.397463e-006 1.515598e-005 2.048874e-005 6.578774e-005 9.923543e-001 -2.200121e-002
22049565 9.958683e-001 -1.212972e-002 3.718173e-006 1.446043e-005 -6.505200e-006 6.874434e-005 9.900361e-001 -2.286663e-002
22799550 9.961239e-001 -1.214027e-002 -3.197038e-006 2.201212e-005 -3.169575e-005 8.192305e-005 9.898272e-001 -2.269273e-002
23549535 9.955808e-001 -1.208849e-002 -6.502089e-006 2.114563e-005 -4.584422e-005 2.550244e-005 9.898103e-001 -2.277399e-002
24299520 9.955075e-001 -1.245880e-002 -5.391863e-007 6.056975e-006 -3.264750e-005 1.883934e-005 9.906396e-001 -2.446316e-002
25049505 9.956024e-001 -1.296003e-002 4.644477e-007 2.752156e-005 -2.137840e-005 -5.209794e-006 9.916743e-001 -2.550182e-002
25799490 9.951101e-001 -1.289075e-002 -8.164539e-006 5.910902e-006 3.054457e-005 2.329849e-005 9.902776e-001 -2.458825e-002
26549475 9.951463e-001 -1.301707e-002 -1.107292e-005 1.389779e-005 6.694543e-006 4.246940e-005 9.887310e-001 -2.584286e-002
27299460 9.958603e-001 -1.348842e-002 2.295865e-006 1.126451e-005 1.423975e-005 5.927507e-005 9.897838e-001 -2.843550e-002
28049445 9.956141e-001 -1.397495e-002 -6.210536e-006 1.529145e-005 -9.339235e-006 6.326933e-005 9.894912e-001 -2.820555e-002
28799430 9.954162e-001 -1.399067e-002 2.123390e-008 2.188080e-005 -3.082995e-005 5.043808e-005 9.900079e-001 -2.846032e-002
29549415 9.956461e-001 -1.442283e-002 1.326672e-006 2.041260e-005 -2.358101e-005 3.789871e-005 9.904066e-001 -2.840040e-002
30299400 9.953201e-001 -1.525846e-002 7.389734e-006 2.444314e-005 -2.052140e-005 2.696138e-005 9.897858e-001 -2.864083e-002
31049385 9.949884e-001 -1.577141e-002 -3.591671e-006 1.791007e-005 -2.599377e-006 2.432949e-005 9.883488e-001 -2.976103e-002
31799370 9.950641e-001 -1.579884e-002 4.532202e-006 2.589703e-005 3.425715e-006 2.909279e-005 9.876347e-001 -2.985307e-002
32549355 9.944324e-001 -1.529786e-002 5.088498e-006 3.187003e-005 2.383182e-005 3.797093e-005 9.886906e-001 -3.173892e-002
33299340 9.950763e-001 -1.556466e-002 -1.389958e-006 2.469195e-005 1.182718e-005 5.587590e-005 9.893729e-001 -3.256477e-002
34049325 9.945085e-001 -1.661503e-002 6.700791e-006 2.162637e-005 2.040191e-005 7.638439e-005 9.897571e-001 -3.258357e-002
34799310 9.958118e-001 -1.757227e-002 -1.108349e-005 2.473506e-005 -2.643897e-007 7.313173e-005 9.898441e-001 -3.314254e-002
35549295 9.950719e-001 -1.721500e-002 -2.035915e-006 2.677584e-005 -2.137480e-005 7.150383e-005 9.898881e-001 -3.268865e-002
36299280 9.949186e-001 -1.744490e-002 -5.790263e-007 3.282290e-005 -7.408452e-006 4.980215e-005 9.898089e-001 -3.398229e-002
37049265 9.950125e-001 -1.801996e-002 1.222394e-005 2.637740e-005 1.018069e-005 2.773414e-005 9.900853e-001 -3.642217e-002
37799250 9.950388e-001 -1.780991e-002 -1.083842e-005 3.178950e-005 2.801058e-005 3.643235e-005 9.903215e-001 -3.621591e-002
38549235 9.944848e-001 -1.854135e-002 -6.416514e-007 3.211393e-005 3.316403e-005 4.246630e-005 9.909974e-001 -3.740431e-002
39299220 9.948789e-001 -1.909471e-002 -1.158507e-005 2.146995e-005 5.306536e-005 4.883243e-005 9.887122e-001 -3.701088e-002
40049205 9.963206e-001 -1.966724e-002 9.339778e-006 1.279303e-005 1.916058e-005 9.012366e-005 9.906325e-001 -3.759854e-002
40799190 9.957421e-001 -2.010442e-002 -1.893192e-005 4.602649e-005 -2.042924e-005 6.894974e-005 9.890333e-001 -3.880866e-002
41549175 9.944829e-001 -2.033280e-002 1.417536e-005 4.007523e-005 1.887582e-005 8.515061e-005 9.885771e-001 -4.074987e-002
42299160 9.943320e-001 -1.986896e-002 -9.658000e-006 4.646492e-005 1.571305e-005 4.913522e-005 9.900327e-001 -3.951711e-002
43049145 9.946437e-001 -2.028954e-002 -1.389670e-005 1.034372e-005 -1.393818e-005 5.159989e-005 9.893681e-001 -4.137486e-002
43799130 9.950842e-001 -2.112055e-002 1.566902e-007 3.516899e-005 1.418319e-005 3.101780e-005 9.880336e-001 -4.195605e-002
44549115 9.952292e-001 -2.110216e-002 -7.645128e-006 2.028672e-005 2.442383e-006 2.684011e-005 9.892374e-001 -4.042086e-002
45299100 9.949208e-001 -2.101151e-002 -3.388781e-007 2.891381e-005 1.733240e-005 1.204131e-006 9.905249e-001 -4.151277e-002
46049085 9.946829e-001 -2.272658e-002 1.790394e-005 1.732439e-005 1.029930e-005 6.864552e-005 9.882203e-001 -4.456591e-002
46799070 9.954685e-001 -2.143410e-002 -1.247324e-005 2.168028e-005 -2.658831e-006 7.327471e-005 9.914277e-001 -4.569329e-002
47549055 9.950250e-001 -2.349117e-002 2.272789e-005 1.891286e-005 3.167696e-005 7.983636e-005 9.872187e-001 -4.534123e-002
48299040 9.942890e-001 -2.379952e-002 -8.804965e-006 5.034863e-005 5.618385e-006 8.473215e-005 9.882790e-001 -4.566845e-002
49049025 9.941301e-001 -2.355273e-002 2.114866e-005 3.343186e-005 -6.055414e-006 7.827120e-005 9.908913e-001 -4.869082e-002
49799010 9.945261e-001 -2.404594e-002 1.961180e-005 4.288815e-005 -4.688645e-006 9.251983e-005 9.897448e-001 -4.925371e-002
50548995 9.945330e-001 -2.417420e-002 2.192543e-006 4.891501e-005 2.620817e-005 1.158936e-004 9.894518e-001 -4.617504e-002
51298980 9.950490e-001 -2.368462e-002 -1.516374e-005 3.058772e-005 2.962606e-006 1.185508e-004 9.909354e-001 -4.657841e-002
52048965 9.950776e-001 -2.471577e-002 -1.130420e-005 3.302873e-005 -1.117308e-005 7.786236e-005 9.882176e-001 -5.186069e-002
52798950 9.949303e-001 -2.547120e-002 -2.464351e-007 1.337575e-005 1.527978e-005 1.147154e-004 9.881766e-001 -4.902330e-002
53548935 9.955816e-001 -2.514424e-002 1.944936e-006 3.451983e-005 -4.617601e-006 7.603138e-005 9.862875e-001 -5.122741e-002
54298920 9.953717e-001 -2.580103e-002 2.326470e-006 3.615037e-005 -4.868198e-005 3.697198e-005 9.890193e-001 -5.344551e-002
55048905 9.957069e-001 -2.598208e-002 2.339854e-005 3.085228e-005 3.041468e-005 6.395981e-005 9.898619e-001 -5.310323e-002
55798890 9.945984e-001 -2.530348e-002 -4.592095e-007 4.223580e-005 2.209986e-005 2.885247e-005 9.890513e-001 -5.282343e-002
56548875 9.941937e-001 -2.556099e-002 -8.430899e-006 4.638777e-005 2.310827e-005 3.297227e-005 9.874728e-001 -5.245833e-002
57298860 9.954221e-001 -2.709912e-002 -8.168679e-006 1.429509e-005 3.447284e-005 1.417441e-004 9.865180e-001 -5.413103e-002
58048845 9.948637e-001 -2.696568e-002 -6.339633e-006 4.156709e-005 4.292779e-005 8.087776e-005 9.873255e-001 -5.498142e-002
58798830 9.942876e-001 -2.762893e-002 1.360232e-005 4.400490e-005 3.591339e-006 9.426366e-005 9.868636e-001 -5.401521e-002
59548815 9.947420e-001 -2.765983e-002 -1.908828e-005 1.870950e-005 3.911445e-005 5.264459e-005 9.867334e-001 -5.444868e-002
60298800 9.952540e-001 -2.819609e-002 5.174011e-006 3.900628e-005 1.604057e-005 7.249442e-005 9.860675e-001 -5.585982e-002
61048785 9.948944e-001 -2.887986e-002 2.281081e-005 4.420238e-005 4.758928e-005 1.039147e-004 9.864675e-001 -5.572972e-002
61798770 9.943129e-001 -2.897442e-002 -4.100640e-006 4.254936e-005 -2.928384e-005 1.062252e-004 9.894937e-001 -5.583279e-002
62548755 9.937639e-001 -2.898140e-002 8.541261e-006 5.883872e-005 -8.882805e-006 1.199678e-004 9.920377e-001 -5.927541e-002
63298740 9.936060e-001 -2.884042e-002 -2.546355e-005 4.834487e-005 -5.864482e-005 7.869196e-005 9.906093e-001 -6.037068e-002
64048725 9.942964e-001 -2.945578e-002 -1.725211e-006 3.180180e-005 6.250117e-005 3.632230e-006 9.865120e-001 -5.931206e-002
64798710 9.952403e-001 -3.045287e-002 6.778066e-006 3.536207e-005 4.978998e-005 9.302275e-005 9.872148e-001 -6.156807e-002
65548695 9.943616e-001 -3.022457e-002 -8.437846e-006 3.689502e-005 5.745918e-005 5.871902e-005 9.854282e-001 -6.010637e-002
66298680 9.942940e-001 -3.059394e-002 6.135026e-006 5.240838e-005 2.743257e-005 9.296571e-005 9.869972e-001 -6.179448e-002
67048665 9.943921e-001 -3.078295e-002 4.434210e-007 2.715074e-005 3.696271e-005 1.095276e-004 9.882346e-001 -6.414176e-002
67798650 9.946738e-001 -3.103356e-002 -4.575485e-006 7.052592e-005 -2.545993e-005 1.416307e-004 9.878808e-001 -6.402163e-002
68548635 9.940744e-001 -3.184601e-002 -1.157641e-005 3.099607e-005 1.163224e-005 7.490617e-005 9.863436e-001 -6.280182e-002
69298620 9.939047e-001 -3.236308e-002 -2.158543e-005 4.410643e-005 -8.491430e-006 1.077274e-004 9.856150e-001 -6.223045e-002
70048605 9.943320e-001 -3.362046e-002 1.572519e-005 4.769735e-005 -2.142723e-005 1.285890e-004 9.871324e-001 -6.533965e-002
70798590 9.943281e-001 -3.338074e-002 8.473491e-006 4.989794e-005 -2.596815e-005 7.691335e-005 9.875800e-001 -6.471156e-002
71548575 9.950242e-001 -3.272183e-002 1.028120e-005 4.985508e-005 7.941347e-006 1.125765e-004 9.868910e-001 -6.505685e-002
72298560 9.941642e-001 -3.259945e-002 1.216795e-006 6.631526e-005 4.127049e-005 1.334369e-004 9.876432e-001 -6.441571e-002
73048545 9.937320e-001 -3.378822e-002 -8.148144e-006 4.006460e-005 6.047897e-006 6.763594e-005 9.890025e-001 -6.566785e-002
73798530 9.950161e-001 -3.443477e-002 3.471999e-006 4.743997e-005 7.359930e-006 1.048653e-004 9.861191e-001 -6.714629e-002
74548515 9.946305e-001 -3.428924e-002 -1.379866e-006 6.857091e-005 7.699948e-006 1.045726e-004 9.845640e-001 -6.789964e-002
75298500 9.933866e-001 -3.375386e-002 -1.826266e-005 4.367869e-005 5.683743e-005 8.134712e-005 9.849225e-001 -6.866571e-002
76048485 9.934767e-001 -3.533857e-002 -9.000762e-006 6.983746e-005 8.375249e-006 8.753507e-005 9.864689e-001 -6.968635e-002
76798470 9.930543e-001 -3.498284e-002 -5.043925e-006 4.777880e-005 -2.854869e-005 1.015491e-004 9.867512e-001 -7.032252e-002
77548455 9.936942e-001 -3.628100e-002 6.725434e-006 4.775267e-005 -1.740825e-005 8.984866e-005 9.857531e-001 -6.950209e-002
78298440 9.930652e-001 -3.745716e-002 -8.906865e-006 5.513026e-005 1.313080e-005 9.755431e-005 9.871129e-001 -7.100444e-002
79048425 9.925627e-001 -3.758473e-002 1.527641e-005 6.486492e-005 -4.164878e-005 8.498189e-005 9.846675e-001 -7.209484e-002
79798410 9.932647e-001 -3.784879e-002 -1.193077e-005 6.807704e-005 -1.677429e-005 9.275767e-005 9.864594e-001 -7.246400e-002
80548395 9.934130e-001 -3.776177e-002 8.539648e-006 4.028264e-005 3.386579e-006 8.359475e-005 9.864357e-001 -7.287025e-002
81298380 9.944992e-001 -3.743663e-002 2.825707e-006 5.070982e-005 -5.511598e-007 1.467739e-004 9.859766e-001 -7.345514e-002
82048365 9.951943e-001 -3.798020e-002 -4.169716e-006 5.953743e-005 -1.131927e-005 1.158697e-004 9.856299e-001 -7.355419e-002
82798350 9.947466e-001 -3.874639e-002 -1.498507e-005 5.799342e-005 1.397289e-005 1.426297e-004 9.847655e-001 -7.332705e-002
83548335 9.947403e-001 -3.955463e-002 -1.771212e-006 4.849631e-005 4.650511e-005 1.096220e-004 9.849556e-001 -7.787129e-002
84298320 9.934688e-001 -3.800626e-002 -8.218969e-006 7.581928e-005 -5.155161e-005 1.155203e-004 9.844670e-001 -7.699563e-002
85048305 9.940860e-001 -3.773631e-002 4.005518e-006 6.457750e-005 3.948045e-005 1.141375e-004 9.854964e-001 -7.768556e-002
85798290 9.938012e-001 -3.902953e-002 2.581619e-006 6.507694e-005 9.665614e-006 6.710218e-005 9.865069e-001 -7.899278e-002
86548275 9.937079e-001 -4.048562e-002 5.368295e-006 3.958251e-005 1.193925e-006 1.483736e-004 9.843822e-001 -7.930013e-002
87298260 9.952195e-001 -4.077127e-002 4.840282e-006 6.359659e-005 1.572058e-005 1.460467e-004 9.843537e-001 -8.033752e-002
88048245 9.945303e-001 -4.165778e-002 -3.626999e-005 4.008648e-005 7.411827e-005 1.403612e-004 9.858000e-001 -8.098727e-002
88798230 9.925703e-001 -4.058232e-002 -2.892570e-005 5.429209e-005 2.410385e-005 1.232625e-004 9.859476e-001 -8.139545e-002
89548215 9.940128e-001 -4.055519e-002 -4.844408e-006 5.113243e-005 1.723888e-006 1.450792e-004 9.835498e-001 -8.437247e-002
90298200 9.947816e-001 -4.175605e-002 -2.897811e-006 5.132691e-005 1.844887e-005 6.531128e-005 9.846286e-001 -8.460084e-002
91048185 9.926243e-001 -4.222092e-002 4.631783e-006 7.298499e-005 -2.062140e-005 1.398387e-004 9.853809e-001 -8.329054e-002
91798170 9.938050e-001 -4.319317e-002 -1.222373e-005 6.777846e-005 6.886205e-006 1.319577e-004 9.828172e-001 -8.339215e-002
92548155 9.938336e-001 -4.301909e-002 1.629858e-005 7.183181e-005 -2.739089e-005 1.020199e-004 9.850076e-001 -8.619495e-002
93298140 9.940783e-001 -4.287491e-002 -6.733197e-006 8.109471e-005 3.721757e-005 1.035083e-004 9.856756e-001 -8.778597e-002
94048125 9.948194e-001 -4.394090e-002 1.932356e-005 8.160826e-005 3.850080e-006 9.859134e-005 9.842497e-001 -8.754475e-002
94798110 9.950103e-001 -4.359271e-002 -7.027581e-006 5.304189e-005 -1.131573e-005 1.313271e-004 9.839128e-001 -8.677136e-002
95548095 9.938609e-001 -4.262699e-002 -1.198144e-005 6.143672e-005 -2.221633e-005 1.344119e-004 9.839515e-001 -8.608942e-002
96298080 9.943940e-001 -4.290918e-002 -2.307091e-006 5.300775e-005 -6.640877e-006 1.075270e-004 9.839325e-001 -8.769266e-002
97048065 9.938865e-001 -4.473565e-002 -5.539274e-006 5.793728e-005 3.224133e-005 6.983622e-005 9.858279e-001 -8.943410e-002
97798050 9.939118e-001 -4.625416e-002 2.030363e-005 8.795025e-005 -4.399510e-005 1.495527e-004 9.837679e-001 -9.064780e-002
98548035 9.926573e-001 -4.533600e-002 7.684038e-006 8.161264e-005 -4.625114e-006 1.093818e-004 9.838212e-001 -9.127182e-002
99298020 9.929660e-001 -4.466905e-002 1.702406e-005 2.508798e-005 2.387871e-005 1.151127e-004 9.834313e-001 -9.147935e-002
100048005 9.930750e-001 -4.492943e-002 3.089690e-006 6.638221e-005 4.895660e-005 7.733640e-005 9.837692e-001 -9.176904e-002
100797990 9.923121e-001 -4.578312e-002 6.066879e-006 6.430999e-005 6.915496e-005 5.034481e-005 9.841126e-001 -9.151374e-002
101547975 9.929368e-001 -4.588519e-002 -1.049779e-006 5.278616e-005 5.765102e-005 1.175181e-004 9.837607e-001 -8.968753e-002
102297960 9.922263e-001 -4.743630e-002 -1.032749e-005 7.433510e-005 6.763703e-005 1.281280e-004 9.846073e-001 -9.357894e-002
103047945 9.920813e-001 -4.644123e-002 1.074829e-006 6.073445e-005 4.786518e-005 1.265031e-004 9.846526e-001 -9.552693e-002
103797930 9.926296e-001 -4.650846e-002 2.145401e-005 6.651017e-005 3.017535e-005 1.671617e-004 9.823591e-001 -9.370383e-002
104547915 9.927601e-001 -4.711458e-002 2.713900e-005 6.668404e-005 6.814104e-005 1.366652e-004 9.833222e-001 -9.516980e-002
105297900 9.926219e-001 -4.773350e-002 1.193183e-005 7.764900e-005 2.427343e-005 1.109366e-004 9.850281e-001 -9.500092e-002
106047885 9.933783e-001 -4.827981e-002 7.552446e-006 8.325921e-005 9.053322e-005 1.883832e-004 9.846248e-001 -9.589722e-002
106797870 9.940193e-001 -4.894351e-002 9.186590e-006 9.459480e-005 -1.240266e-005 1.312417e-004 9.831814e-001 -9.743630e-002
107547855 9.922951e-001 -4.923515e-002 -4.841012e-006 6.735869e-005 3.332142e-005 1.096617e-004 9.834961e-001 -9.548703e-002
108297840 9.916834e-001 -4.923214e-002 2.071044e-005 6.573876e-005 7.183800e-005 1.691319e-004 9.833633e-001 -9.748410e-002
109047825 9.921509e-001 -4.910666e-002 9.129468e-006 7.504196e-005 2.410521e-005 1.905838e-004 9.826277e-001 -9.685206e-002
109797810 9.916633e-001 -5.004468e-002 5.782252e-006 8.715006e-005 5.444517e-005 1.972855e-004 9.791916e-001 -9.944424e-002
110547795 9.925561e-001 -5.093575e-002 -3.263852e-006 7.576243e-005 1.058447e-004 1.877890e-004 9.842505e-001 -9.939655e-002
111297780 9.929982e-001 -5.139745e-002 4.529698e-006 7.209007e-005 5.251750e-005 1.876853e-004 9.821321e-001 -1.010243e-001
112047765 9.926217e-001 -5.165123e-002 1.078781e-005 8.274966e-005 5.912671e-005 1.712480e-004 9.832216e-001 -1.018672e-001
112797750 9.924850e-001 -5.199905e-002 7.639375e-006 5.216850e-005 -8.181741e-006 1.845687e-004 9.831982e-001 -1.029857e-001
113547735 9.931167e-001 -5.184353e-002 2.487661e-005 7.542708e-005 5.284134e-005 1.706474e-004 9.823124e-001 -1.038116e-001
114297720 9.927977e-001 -5.250399e-002 2.075102e-005 9.302030e-005 1.341148e-005 2.070153e-004 9.836347e-001 -1.039906e-001
115047705 9.919681e-001 -5.267070e-002 -7.520255e-006 8.181398e-005 3.786275e-005 1.805152e-004 9.837729e-001 -1.067494e-001
115797690 9.917312e-001 -5.311232e-002 -7.730880e-006 8.470470e-005 3.708167e-005 1.251808e-004 9.812953e-001 -1.040868e-001
116547675 9.920133e-001 -5.338497e-002 1.174809e-005 5.619098e-005 -9.884870e-006 1.346218e-004 9.820764e-001 -1.066924e-001
117297660 9.922013e-001 -5.354039e-002 1.393372e-005 8.992061e-005 7.677655e-006 1.621544e-004 9.814035e-001 -1.065773e-001
