!Agilent Technologies,N5230C,SG49000117,A.08.50.07
!Agilent N5230C: A.08.50.07
!Date: Monday, December 11, 2023 21:17:29
!Correction: S11(Full 2 Port(1,2)) 
!S21(Full 2 Port(1,2)) 
!S12(Full 2 Port(1,2)) 
!S22(Full 2 Port(1,2)) 
!S2P File: Measurements: S11, S21, S12, S22:
# Hz S  RI   R 50
300000 9.926924e-001 5.371860e-003 -1.065731e-004 -4.681570e-005 -7.171544e-006 -1.827397e-004 9.927796e-001 9.407614e-003
1049985 9.934145e-001 2.562994e-003 -3.418805e-005 5.541128e-005 2.637658e-005 1.924436e-005 9.847794e-001 4.748590e-003
1799970 9.921760e-001 8.149833e-003 -8.546712e-005 2.213363e-005 -2.568965e-005 1.051302e-004 9.959998e-001 -7.178163e-003
2549955 9.991299e-001 -4.411039e-004 -4.561189e-005 -6.201860e-005 -1.958521e-005 -4.539689e-006 9.967588e-001 -6.124197e-003
3299940 9.987289e-001 -1.857175e-003 1.738813e-005 3.742043e-005 9.980644e-005 -6.907476e-005 9.981372e-001 -7.573789e-003
4049925 9.984810e-001 -1.534928e-003 -1.825188e-005 -6.534137e-005 2.311374e-005 -2.038343e-004 9.941158e-001 -6.313364e-003
4799910 9.979471e-001 -2.503601e-003 -3.590290e-005 -9.693600e-005 7.127249e-006 6.677454e-005 9.928755e-001 -6.688960e-003
5549895 9.972711e-001 -3.396432e-003 -3.610242e-005 -6.145378e-005 1.802163e-005 8.259984e-005 9.947662e-001 -7.379505e-003
6299880 9.973337e-001 -3.593490e-003 -1.019651e-006 -3.051625e-005 -3.462722e-005 -1.075125e-004 9.935210e-001 -8.334889e-003
7049865 9.970179e-001 -4.047794e-003 -1.309907e-005 4.355140e-005 -4.552796e-005 -1.852650e-004 9.943354e-001 -9.234851e-003
7799850 9.971911e-001 -4.122933e-003 1.564506e-005 2.904994e-005 2.978837e-005 5.167110e-005 9.937236e-001 -8.224412e-003
8549835 9.969171e-001 -3.886783e-003 -1.046982e-005 -1.400473e-005 -3.127174e-006 1.340003e-005 9.935122e-001 -9.033182e-003
9299820 9.966024e-001 -4.476734e-003 -2.763896e-005 5.440983e-005 1.233961e-004 3.353288e-005 9.929805e-001 -1.001459e-002
10049805 9.974626e-001 -5.624299e-003 1.365658e-005 6.584288e-005 -1.934505e-004 3.258824e-005 9.947588e-001 -1.101257e-002
10799790 9.974952e-001 -5.858951e-003 2.487933e-006 7.274409e-005 1.411872e-004 4.321965e-005 9.938320e-001 -1.206099e-002
11549775 9.980330e-001 -6.079811e-003 1.893812e-005 5.816347e-005 2.453910e-004 1.764076e-004 9.925987e-001 -1.128417e-002
12299760 9.979400e-001 -5.822590e-003 4.892176e-005 -4.446656e-005 -5.666739e-005 -2.667695e-004 9.936383e-001 -1.320579e-002
13049745 9.982337e-001 -6.729326e-003 4.548014e-005 2.989359e-005 3.217443e-005 3.782711e-005 9.932359e-001 -1.347619e-002
13799730 9.970446e-001 -6.697213e-003 -4.949499e-005 -7.370680e-005 2.403431e-004 -2.477803e-006 9.928479e-001 -1.658268e-002
14549715 9.971189e-001 -7.597806e-003 -5.593218e-005 5.067881e-006 1.279312e-004 2.317284e-004 9.929676e-001 -1.523953e-002
15299700 9.976969e-001 -7.520499e-003 -6.965650e-005 2.560377e-005 2.003151e-004 3.143782e-004 9.926214e-001 -1.703929e-002
16049685 9.963976e-001 -7.740720e-003 1.177459e-005 5.616147e-005 -1.729014e-004 1.781872e-004 9.926421e-001 -1.770283e-002
16799670 9.968179e-001 -8.622935e-003 -2.293077e-006 1.320337e-004 -2.708219e-004 -6.908703e-005 9.936309e-001 -1.963703e-002
17549655 9.974478e-001 -8.754269e-003 -1.697167e-005 -2.598950e-004 -3.390013e-004 -2.356274e-004 9.935104e-001 -1.960254e-002
18299640 9.973104e-001 -8.648298e-003 -3.995440e-006 -9.751414e-005 1.182676e-004 -9.157077e-005 9.928293e-001 -1.786720e-002
19049625 9.968135e-001 -9.495650e-003 7.389503e-005 2.949415e-007 3.445798e-004 -1.822323e-004 9.930308e-001 -1.983329e-002
19799610 9.965761e-001 -9.539224e-003 -4.621419e-005 -2.900182e-005 1.742755e-004 1.442516e-004 9.926436e-001 -1.943890e-002
20549595 9.957910e-001 -1.034373e-002 2.766385e-005 -1.841628e-006 4.797603e-005 5.915226e-005 9.932387e-001 -2.006527e-002
21299580 9.959910e-001 -1.021910e-002 -7.151670e-005 -1.533341e-005 -4.643155e-005 6.333843e-005 9.939042e-001 -2.093968e-002
22049565 9.969056e-001 -1.119963e-002 7.598562e-005 -1.533548e-005 -3.586353e-004 -1.850802e-004 9.915121e-001 -2.160111e-002
22799550 9.980830e-001 -1.124153e-002 -6.419023e-007 -4.028948e-006 1.275000e-004 -1.836147e-004 9.910651e-001 -2.120259e-002
23549535 9.968414e-001 -1.124369e-002 -5.856727e-005 5.036430e-005 -4.357400e-005 -3.745419e-004 9.919127e-001 -2.099892e-002
24299520 9.973917e-001 -1.169203e-002 -8.021223e-007 1.539966e-005 -1.553729e-004 4.021062e-005 9.922773e-001 -2.272009e-002
25049505 9.969075e-001 -1.213300e-002 2.905326e-005 6.012625e-005 1.521400e-004 1.545634e-004 9.939963e-001 -2.350082e-002
25799490 9.968353e-001 -1.155995e-002 -1.829607e-005 1.205402e-004 -3.645830e-004 2.783920e-004 9.932503e-001 -2.343763e-002
26549475 9.963899e-001 -1.275245e-002 -6.109419e-005 -4.143513e-005 1.010509e-004 9.924841e-005 9.912783e-001 -2.543451e-002
27299460 9.969753e-001 -1.315646e-002 1.230635e-007 -3.856525e-005 -8.856002e-005 7.489383e-005 9.916353e-001 -2.612906e-002
28049445 9.967723e-001 -1.368857e-002 -1.444370e-005 -1.153071e-006 -5.669397e-005 7.068276e-005 9.915355e-001 -2.775136e-002
28799430 9.969113e-001 -1.320042e-002 5.119535e-005 -1.497490e-005 -9.561917e-005 -7.704120e-006 9.921970e-001 -2.674524e-002
29549415 9.975366e-001 -1.348758e-002 2.782442e-005 6.999753e-005 -1.216429e-004 -1.029488e-004 9.914212e-001 -2.830519e-002
30299400 9.970093e-001 -1.512450e-002 3.911194e-006 3.614614e-005 -3.567821e-004 3.999354e-005 9.922472e-001 -2.814131e-002
31049385 9.961255e-001 -1.479756e-002 -4.527381e-005 2.273156e-005 -4.435795e-005 -2.762372e-004 9.899349e-001 -2.969440e-002
31799370 9.966545e-001 -1.482857e-002 -3.856118e-006 8.454784e-005 -8.284237e-005 -2.732434e-004 9.900424e-001 -2.951447e-002
32549355 9.961584e-001 -1.429179e-002 -8.881008e-005 5.336141e-005 -9.914939e-005 -1.986772e-006 9.921230e-001 -3.031581e-002
33299340 9.968148e-001 -1.438932e-002 -1.209260e-004 -1.996729e-005 3.975529e-005 -2.504852e-004 9.913693e-001 -3.174405e-002
34049325 9.955772e-001 -1.641091e-002 -3.600964e-005 -9.112865e-005 -4.126123e-005 1.109675e-004 9.911264e-001 -3.123287e-002
34799310 9.977055e-001 -1.637973e-002 -1.127975e-004 3.900662e-005 1.523761e-004 2.276849e-004 9.920802e-001 -3.335306e-002
35549295 9.968081e-001 -1.644816e-002 4.608193e-005 1.770463e-005 -1.342452e-004 1.213811e-004 9.914453e-001 -3.167490e-002
36299280 9.962891e-001 -1.692109e-002 1.278556e-005 1.709400e-004 -6.916902e-005 7.236313e-005 9.925640e-001 -3.169772e-002
37049265 9.966531e-001 -1.746387e-002 -7.578310e-005 -8.671860e-005 -1.599064e-004 -1.181720e-004 9.920838e-001 -3.499381e-002
37799250 9.969692e-001 -1.642022e-002 -1.391341e-005 4.422181e-005 -1.541864e-004 -1.711697e-004 9.920617e-001 -3.592398e-002
38549235 9.961858e-001 -1.783521e-002 3.620621e-005 5.885594e-005 -3.807676e-005 -3.858328e-005 9.935784e-001 -3.611384e-002
39299220 9.966562e-001 -1.810108e-002 -5.296476e-005 3.252420e-005 -1.519001e-005 -2.791170e-005 9.898101e-001 -3.652177e-002
40049205 9.971250e-001 -1.828469e-002 -1.124649e-005 2.531637e-005 2.907094e-004 -5.710278e-005 9.915024e-001 -3.574355e-002
40799190 9.975122e-001 -1.956349e-002 2.674943e-005 -3.257287e-005 -6.243358e-005 -2.764763e-005 9.909277e-001 -3.722066e-002
41549175 9.973955e-001 -1.863406e-002 -1.253386e-004 -8.866567e-005 -7.402520e-005 -4.576522e-005 9.897282e-001 -3.933734e-002
42299160 9.961569e-001 -1.911427e-002 -1.255945e-004 1.653215e-004 -4.100127e-005 7.674127e-005 9.920452e-001 -3.966552e-002
43049145 9.964245e-001 -2.007723e-002 -2.563640e-005 1.574857e-004 -2.905808e-005 1.554820e-004 9.902270e-001 -4.126707e-002
43799130 9.964075e-001 -2.029910e-002 8.461792e-005 -7.692566e-005 -2.722608e-005 6.756216e-005 9.898315e-001 -4.321371e-002
44549115 9.970266e-001 -1.961946e-002 8.195388e-006 8.338258e-005 -1.008276e-004 -3.794825e-004 9.904667e-001 -4.041401e-002
45299100 9.963483e-001 -2.051264e-002 -4.925223e-005 -3.203448e-005 2.502551e-004 1.184153e-005 9.919082e-001 -3.982328e-002
46049085 9.960318e-001 -2.195164e-002 4.676276e-005 1.806707e-005 1.816017e-004 -2.163265e-004 9.910557e-001 -4.259329e-002
46799070 9.970670e-001 -2.045299e-002 1.677207e-007 -6.465110e-005 3.242301e-004 -8.674224e-005 9.924632e-001 -4.568142e-002
47549055 9.966944e-001 -2.314656e-002 1.230637e-004 1.070759e-004 7.516190e-005 1.535642e-004 9.900401e-001 -4.473601e-002
48299040 9.960800e-001 -2.223069e-002 1.041262e-005 1.026952e-004 4.499476e-004 5.835548e-005 9.914998e-001 -4.558259e-002
49049025 9.958613e-001 -2.290103e-002 2.010576e-005 3.942370e-005 1.971698e-004 -3.481858e-007 9.936262e-001 -4.788404e-002
49799010 9.961047e-001 -2.411048e-002 -1.560042e-004 7.131473e-005 -9.116261e-005 -1.845847e-005 9.911192e-001 -4.728731e-002
50548995 9.961790e-001 -2.394102e-002 1.529345e-005 5.117007e-005 -1.054803e-004 -2.842777e-005 9.911559e-001 -4.523943e-002
51298980 9.969429e-001 -2.366520e-002 -4.904870e-005 1.006344e-004 3.116815e-004 2.422626e-005 9.931110e-001 -4.586630e-002
52048965 9.960130e-001 -2.380922e-002 -9.303546e-005 5.382835e-005 -2.508908e-004 1.303397e-004 9.901530e-001 -5.242758e-002
52798950 9.965172e-001 -2.480680e-002 2.053231e-005 3.080843e-006 2.838004e-005 1.899061e-005 9.911530e-001 -4.916307e-002
53548935 9.981011e-001 -2.418068e-002 2.103229e-005 -4.302235e-005 -5.240200e-005 -1.609567e-004 9.879286e-001 -5.104654e-002
54298920 9.979184e-001 -2.532035e-002 4.484931e-006 -4.750094e-005 6.641485e-005 2.422675e-004 9.919342e-001 -5.336981e-002
55048905 9.972709e-001 -2.533200e-002 -1.109633e-005 -7.670740e-005 4.338030e-005 3.339871e-004 9.903467e-001 -5.140295e-002
55798890 9.959661e-001 -2.443019e-002 -1.676565e-005 5.833536e-005 -2.795611e-004 2.849922e-004 9.907240e-001 -5.263137e-002
56548875 9.961906e-001 -2.566468e-002 2.118642e-004 3.320622e-005 5.819553e-005 -8.204205e-005 9.907838e-001 -5.205434e-002
57298860 9.965336e-001 -2.626278e-002 -1.183426e-005 -5.027458e-005 -2.831877e-004 -2.750312e-004 9.891713e-001 -5.212425e-002
58048845 9.968934e-001 -2.648330e-002 5.537210e-005 8.537252e-005 -6.868740e-004 6.975979e-005 9.911281e-001 -5.501718e-002
58798830 9.960132e-001 -2.669927e-002 1.019568e-004 -5.697506e-005 -2.807902e-004 2.571557e-004 9.889860e-001 -5.368452e-002
59548815 9.967720e-001 -2.711772e-002 -9.143377e-006 6.466847e-005 -2.929800e-005 -1.214946e-004 9.905376e-001 -5.495118e-002
60298800 9.969267e-001 -2.756382e-002 2.288329e-005 8.907661e-005 -3.102704e-004 -3.873370e-004 9.892036e-001 -5.371228e-002
61048785 9.963982e-001 -2.863037e-002 5.994367e-005 -4.345054e-005 -2.230360e-005 -4.681734e-004 9.886957e-001 -5.438240e-002
61798770 9.962363e-001 -2.821312e-002 -1.676467e-006 2.806114e-006 1.246727e-004 -5.553133e-004 9.902635e-001 -5.484514e-002
62548755 9.949188e-001 -2.798597e-002 5.306871e-005 -5.438547e-005 1.094279e-005 -5.053263e-004 9.949074e-001 -6.019069e-002
63298740 9.952822e-001 -2.827190e-002 5.911903e-005 1.352908e-005 4.778938e-004 -2.246704e-005 9.922488e-001 -5.818155e-002
64048725 9.959214e-001 -2.871999e-002 3.655800e-005 -1.089633e-004 -1.653722e-004 6.128792e-006 9.878212e-001 -5.630703e-002
64798710 9.969001e-001 -3.017482e-002 7.967689e-005 4.309202e-006 2.414866e-004 1.019000e-004 9.904816e-001 -6.256697e-002
65548695 9.958065e-001 -2.934309e-002 -1.668814e-005 -1.259957e-004 3.213221e-004 4.140283e-004 9.865066e-001 -6.041100e-002
66298680 9.969316e-001 -3.009992e-002 1.812718e-005 3.281623e-005 8.160109e-005 -2.851813e-004 9.878531e-001 -6.224942e-002
67048665 9.958896e-001 -3.003327e-002 2.189487e-006 1.986320e-005 2.043426e-004 -2.312427e-004 9.894605e-001 -6.344900e-002
67798650 9.957904e-001 -3.045103e-002 1.931912e-005 -4.047736e-005 -2.449629e-004 1.447179e-004 9.917071e-001 -6.132022e-002
68548635 9.964409e-001 -3.112540e-002 -3.281285e-005 -5.990473e-005 -4.635629e-006 -3.057063e-005 9.882029e-001 -6.266695e-002
69298620 9.960740e-001 -3.149576e-002 -6.315111e-005 1.155424e-004 4.343386e-006 7.891559e-005 9.869048e-001 -6.151974e-002
70048605 9.964163e-001 -3.216940e-002 -4.444387e-005 1.080006e-004 1.535655e-004 2.101643e-005 9.893516e-001 -6.324298e-002
70798590 9.958237e-001 -3.239308e-002 -7.649177e-005 1.167211e-004 2.994922e-005 1.232769e-004 9.873667e-001 -6.421693e-002
71548575 9.969645e-001 -3.197132e-002 -1.015976e-004 1.021660e-005 4.535017e-004 1.082588e-004 9.902614e-001 -6.253021e-002
72298560 9.960259e-001 -3.242526e-002 7.885320e-005 1.224715e-005 2.184669e-004 1.003065e-004 9.895653e-001 -6.318199e-002
73048545 9.957944e-001 -3.375299e-002 8.035723e-005 -3.311324e-005 -1.108557e-004 2.069789e-004 9.910555e-001 -6.539407e-002
73798530 9.968150e-001 -3.253831e-002 1.550282e-004 6.132697e-005 -5.909595e-005 1.380918e-004 9.901489e-001 -6.774820e-002
74548515 9.962926e-001 -3.395139e-002 -2.670169e-005 -2.551035e-005 -5.600588e-005 6.238740e-005 9.880619e-001 -6.564263e-002
75298500 9.958375e-001 -3.347830e-002 3.277762e-005 -3.780148e-005 8.438615e-005 2.919930e-004 9.857552e-001 -6.810302e-002
76048485 9.961622e-001 -3.465565e-002 -2.761782e-005 -4.571462e-005 -6.925830e-005 -1.379276e-004 9.885389e-001 -6.909806e-002
76798470 9.951798e-001 -3.409795e-002 -1.191148e-004 -2.783395e-006 -1.221683e-004 1.655916e-004 9.902836e-001 -6.920481e-002
77548455 9.956097e-001 -3.467518e-002 -6.226510e-006 -3.434886e-005 -2.006237e-004 4.226813e-005 9.885533e-001 -6.673182e-002
78298440 9.938393e-001 -3.690412e-002 1.291499e-004 -8.981286e-006 -6.736068e-005 -1.024571e-004 9.901358e-001 -6.956729e-002
79048425 9.940572e-001 -3.675437e-002 1.158397e-004 -2.497082e-004 -1.104910e-004 3.852212e-004 9.886436e-001 -7.217566e-002
79798410 9.950714e-001 -3.740167e-002 -2.098659e-005 2.017176e-004 1.399735e-004 -2.796169e-004 9.888684e-001 -7.092924e-002
80548395 9.952099e-001 -3.683207e-002 -2.475359e-005 -3.603174e-005 -2.798396e-004 -1.556232e-005 9.886829e-001 -7.045908e-002
81298380 9.964901e-001 -3.629509e-002 -3.374395e-005 -6.720118e-005 1.795884e-004 -3.499356e-005 9.881911e-001 -7.185190e-002
82048365 9.972062e-001 -3.681603e-002 -8.500099e-005 -3.447061e-005 -1.710043e-004 1.708190e-004 9.895198e-001 -7.217406e-002
82798350 9.979773e-001 -3.894236e-002 1.224983e-004 -6.294981e-006 -1.178342e-005 -1.438379e-004 9.871757e-001 -7.279424e-002
83548335 9.963119e-001 -3.932502e-002 -1.059154e-004 -9.777687e-005 1.195717e-004 -1.864906e-004 9.870307e-001 -7.655101e-002
84298320 9.953273e-001 -3.739266e-002 5.712488e-005 5.839727e-005 -3.383303e-004 -2.122927e-004 9.864153e-001 -7.552350e-002
85048305 9.968980e-001 -3.734829e-002 4.035530e-005 -1.223153e-004 -2.032244e-004 9.103243e-005 9.870362e-001 -7.789306e-002
85798290 9.951876e-001 -3.842081e-002 -2.654058e-005 8.191788e-005 -1.306452e-004 -2.879887e-005 9.879878e-001 -7.823566e-002
86548275 9.948837e-001 -4.016215e-002 -7.115226e-005 3.877043e-005 -1.629750e-004 -2.524809e-004 9.862179e-001 -7.803261e-002
87298260 9.967702e-001 -4.001295e-002 7.471147e-005 8.816070e-005 3.423957e-004 -1.644159e-004 9.863502e-001 -7.976117e-002
88048245 9.964181e-001 -4.052806e-002 -1.718065e-004 9.350603e-006 1.302985e-004 5.773275e-005 9.883803e-001 -8.172763e-002
88798230 9.957490e-001 -4.014427e-002 -9.197107e-005 8.074160e-005 1.243716e-004 8.291298e-005 9.877335e-001 -8.007745e-002
89548215 9.960682e-001 -3.924978e-002 -3.022605e-006 -2.991291e-004 3.608020e-005 9.052023e-006 9.863439e-001 -8.305299e-002
90298200 9.969656e-001 -4.074866e-002 -2.096925e-005 1.041140e-004 3.109420e-004 -2.590051e-005 9.876561e-001 -8.491218e-002
91048185 9.945927e-001 -4.136331e-002 -1.558641e-005 1.179745e-004 -2.681583e-005 -1.730941e-005 9.887881e-001 -8.306555e-002
91798170 9.958180e-001 -4.267988e-002 -1.163244e-004 4.773296e-005 -2.988363e-004 2.481050e-004 9.869874e-001 -8.317123e-002
92548155 9.955199e-001 -4.239266e-002 -1.616370e-004 1.886335e-005 2.024804e-004 1.475421e-004 9.886149e-001 -8.444991e-002
93298140 9.948815e-001 -4.231107e-002 4.313884e-005 2.358610e-005 4.022148e-004 -5.147110e-005 9.877052e-001 -8.760303e-002
94048125 9.969468e-001 -4.321080e-002 3.905814e-005 1.377573e-004 -1.348003e-004 2.528986e-004 9.869386e-001 -8.808181e-002
94798110 9.973086e-001 -4.264223e-002 -8.605421e-005 5.491880e-007 2.009858e-005 -8.407532e-005 9.875379e-001 -8.640684e-002
95548095 9.965189e-001 -4.136848e-002 4.555066e-005 1.068800e-004 -1.490567e-004 5.051263e-006 9.850144e-001 -8.562861e-002
96298080 9.969156e-001 -4.258499e-002 -7.658606e-005 -5.806669e-005 1.713282e-004 2.618667e-004 9.871807e-001 -8.604086e-002
97048065 9.960841e-001 -4.440340e-002 -8.390070e-005 -1.435988e-004 6.074826e-005 1.374334e-004 9.866929e-001 -8.841208e-002
97798050 9.948119e-001 -4.459926e-002 -1.011358e-004 1.363317e-004 1.983137e-004 1.948906e-004 9.865543e-001 -9.087508e-002
98548035 9.949661e-001 -4.467027e-002 2.705636e-005 9.643355e-005 -2.380667e-004 -6.555044e-005 9.862042e-001 -9.060337e-002
99298020 9.948385e-001 -4.357161e-002 -2.069902e-005 -8.534209e-006 -5.035279e-005 1.124363e-004 9.837521e-001 -8.884413e-002
100048005 9.948473e-001 -4.337896e-002 -7.039789e-005 -9.407104e-005 3.296245e-004 4.181534e-004 9.866101e-001 -9.164537e-002
100797990 9.943230e-001 -4.542432e-002 7.541105e-005 -3.633591e-005 -3.128047e-004 5.361406e-004 9.857271e-001 -9.068915e-002
101547975 9.946648e-001 -4.543906e-002 2.226494e-004 -8.561286e-006 -1.038216e-005 1.568216e-004 9.856519e-001 -8.902536e-002
102297960 9.940016e-001 -4.622678e-002 2.450933e-005 1.249478e-004 -2.772238e-004 -5.293990e-004 9.891397e-001 -9.189085e-002
103047945 9.933366e-001 -4.524678e-002 8.855266e-005 -8.552295e-005 -4.245055e-005 -4.541353e-004 9.856753e-001 -9.475895e-002
103797930 9.940494e-001 -4.541260e-002 8.758826e-005 7.255793e-006 -2.029719e-004 2.138634e-004 9.849357e-001 -9.111369e-002
104547915 9.951831e-001 -4.707648e-002 6.640002e-005 -1.781508e-004 -5.644306e-005 -2.032593e-004 9.863066e-001 -9.453204e-002
105297900 9.943615e-001 -4.598383e-002 1.222198e-004 -1.792925e-004 -1.674305e-004 2.315939e-004 9.875215e-001 -9.470234e-002
106047885 9.953982e-001 -4.700786e-002 -1.158605e-004 1.129650e-004 -1.192984e-004 -2.698822e-004 9.854912e-001 -9.418558e-002
106797870 9.956826e-001 -4.761536e-002 1.730082e-005 -9.992016e-005 -1.581524e-004 -5.038791e-004 9.840435e-001 -9.629507e-002
107547855 9.945015e-001 -4.729300e-002 4.442047e-005 1.819376e-004 8.540167e-005 -3.486043e-004 9.876778e-001 -9.429055e-002
108297840 9.936813e-001 -4.864443e-002 -7.320126e-005 5.588141e-005 1.976114e-004 1.493360e-004 9.861125e-001 -9.370421e-002
109047825 9.938009e-001 -4.842725e-002 3.227490e-005 -1.953441e-005 -1.941944e-004 3.880555e-005 9.846189e-001 -9.785509e-002
109797810 9.942205e-001 -4.898833e-002 3.525266e-005 8.910633e-005 4.309989e-004 -1.242651e-004 9.819248e-001 -9.678252e-002
110547795 9.943758e-001 -4.890903e-002 -5.711658e-005 5.070204e-005 4.456239e-005 1.565305e-004 9.862079e-001 -9.901131e-002
111297780 9.951749e-001 -5.013103e-002 6.144808e-005 5.452434e-005 2.951302e-004 4.842835e-004 9.839090e-001 -9.803628e-002
112047765 9.949451e-001 -5.154375e-002 -6.683332e-005 -6.619651e-005 1.708346e-004 1.821085e-004 9.864261e-001 -1.019383e-001
112797750 9.949581e-001 -5.086967e-002 -3.831539e-006 1.842135e-005 -1.517453e-004 -3.124162e-004 9.856940e-001 -1.022731e-001
113547735 9.947899e-001 -5.088934e-002 1.087913e-004 1.107830e-004 3.912756e-004 2.451509e-004 9.848307e-001 -1.034379e-001
114297720 9.946381e-001 -5.109005e-002 -8.240952e-005 3.694444e-006 8.288358e-005 8.379118e-005 9.868452e-001 -1.029029e-001
115047705 9.947014e-001 -5.244934e-002 -8.850016e-005 3.545050e-005 -8.002396e-006 3.075320e-004 9.869916e-001 -1.063655e-001
115797690 9.941398e-001 -5.176675e-002 -3.761059e-005 2.332218e-005 2.209081e-004 4.493167e-005 9.851643e-001 -1.042951e-001
116547675 9.938693e-001 -5.204988e-002 -1.683699e-004 -5.655029e-005 1.657283e-004 8.792534e-005 9.849458e-001 -1.056721e-001
