!Agilent Technologies,N5230C,SG49000117,A.08.50.07
!Agilent N5230C: A.08.50.07
!Date: Monday, December 11, 2023 21:21:23
!Correction: S11(Full 2 Port(1,2)) 
!S21(Full 2 Port(1,2)) 
!S12(Full 2 Port(1,2)) 
!S22(Full 2 Port(1,2)) 
!S2P File: Measurements: S11, S21, S12, S22:
# Hz S  RI   R 50
300000 9.929917e-001 3.734161e-003 1.901597e-004 1.186403e-006 2.224399e-004 1.458927e-004 9.871131e-001 6.986039e-003
1049985 9.930754e-001 3.464473e-003 -6.296744e-005 5.437465e-005 9.323284e-005 -1.347297e-004 9.813212e-001 3.339714e-003
1799970 9.927895e-001 8.614119e-003 -9.903270e-006 8.993974e-006 8.175751e-005 -2.076410e-004 9.965358e-001 -7.051515e-003
2549955 9.980840e-001 -3.143907e-004 -8.278220e-005 -1.561763e-004 -2.040462e-004 -1.262287e-004 9.960995e-001 -5.027217e-003
3299940 9.981709e-001 -2.093989e-003 2.245489e-005 5.850736e-005 -7.175450e-005 -9.464057e-005 9.982527e-001 -7.468297e-003
4049925 9.986882e-001 -2.067757e-003 -1.481661e-005 2.605570e-005 -2.604568e-004 8.863960e-005 9.951745e-001 -5.812309e-003
4799910 9.981092e-001 -1.903130e-003 -3.495451e-005 6.229002e-005 3.401529e-005 6.669567e-006 9.936396e-001 -5.806995e-003
5549895 9.971957e-001 -2.963733e-003 3.447321e-005 -2.625607e-005 1.321262e-004 -2.644292e-004 9.948108e-001 -7.498174e-003
6299880 9.983155e-001 -3.942761e-003 2.414658e-005 3.724760e-005 -1.469507e-004 -5.569962e-005 9.937869e-001 -6.104680e-003
7049865 9.976799e-001 -4.328926e-003 3.675562e-005 -4.659204e-005 4.554323e-006 -1.114065e-004 9.938969e-001 -8.312606e-003
7799850 9.975539e-001 -4.044414e-003 -3.861417e-005 -5.784517e-006 -1.996736e-005 -1.444809e-004 9.936214e-001 -8.729584e-003
8549835 9.974465e-001 -3.621836e-003 3.119183e-005 2.879702e-005 8.796612e-005 2.145858e-005 9.935400e-001 -9.013956e-003
9299820 9.969652e-001 -4.163011e-003 9.233519e-006 -2.376355e-006 -1.973725e-005 1.329819e-004 9.928587e-001 -8.472885e-003
10049805 9.980185e-001 -5.267905e-003 -1.423896e-005 3.718038e-005 1.360538e-004 -4.118815e-005 9.951205e-001 -1.131819e-002
10799790 9.978121e-001 -5.703431e-003 -7.695763e-005 3.217511e-005 7.838521e-005 4.284171e-005 9.949964e-001 -1.132926e-002
11549775 9.976213e-001 -5.351762e-003 3.772372e-005 -5.169682e-005 -2.147198e-004 -1.156703e-004 9.929651e-001 -1.135541e-002
12299760 9.978940e-001 -6.407809e-003 -5.518921e-005 1.488196e-006 -4.548625e-006 1.057065e-004 9.930959e-001 -1.395307e-002
13049745 9.983003e-001 -6.269705e-003 -8.337511e-005 -9.890005e-005 9.617221e-005 1.050600e-004 9.934240e-001 -1.427275e-002
13799730 9.975694e-001 -6.969705e-003 -7.782731e-006 -8.945206e-006 -3.533472e-004 -3.005789e-004 9.930125e-001 -1.588999e-002
14549715 9.975247e-001 -7.141910e-003 6.282038e-005 -2.286049e-005 -3.076228e-005 -2.667997e-004 9.932655e-001 -1.585794e-002
15299700 9.972630e-001 -8.042818e-003 -3.325796e-005 9.636590e-005 6.580669e-005 9.260219e-005 9.934043e-001 -1.808975e-002
16049685 9.960490e-001 -7.719267e-003 -1.279929e-005 7.767758e-005 1.675701e-004 -1.009443e-004 9.931103e-001 -1.633313e-002
16799670 9.977118e-001 -8.162686e-003 -2.957283e-006 1.542231e-005 3.099125e-004 1.169882e-004 9.933774e-001 -1.715785e-002
17549655 9.967114e-001 -8.388739e-003 2.615590e-005 3.853563e-005 1.192658e-004 1.363982e-004 9.944803e-001 -1.934907e-002
18299640 9.973442e-001 -8.337516e-003 7.122476e-005 -1.438524e-004 1.382421e-004 1.206020e-004 9.931031e-001 -1.825663e-002
19049625 9.971567e-001 -9.171028e-003 -2.457106e-005 -5.002184e-007 -4.392042e-005 1.706788e-004 9.933934e-001 -2.066397e-002
19799610 9.974434e-001 -9.409842e-003 -4.733845e-005 -3.483193e-005 -1.027106e-004 1.948458e-004 9.915893e-001 -1.811476e-002
20549595 9.964345e-001 -1.016853e-002 -8.861172e-005 -3.891172e-005 -1.365610e-004 2.636912e-005 9.923187e-001 -1.886687e-002
21299580 9.966211e-001 -9.857094e-003 -2.011427e-005 3.919473e-005 -1.511830e-004 -9.018778e-005 9.949197e-001 -2.078007e-002
22049565 9.975970e-001 -1.100490e-002 -4.538326e-005 -2.073010e-005 -2.098925e-004 -1.692631e-004 9.920417e-001 -2.153702e-002
22799550 9.978437e-001 -1.160200e-002 -3.967353e-005 3.596192e-005 -1.487190e-004 5.692232e-005 9.917074e-001 -2.042333e-002
23549535 9.968990e-001 -1.135973e-002 5.102447e-005 -8.731836e-005 -1.801698e-004 1.644561e-005 9.918997e-001 -2.077344e-002
24299520 9.971357e-001 -1.147310e-002 5.025549e-005 5.777878e-005 -9.551576e-005 -8.684555e-005 9.918199e-001 -2.350344e-002
25049505 9.968911e-001 -1.270408e-002 5.585140e-005 7.892383e-005 7.249590e-005 -3.314064e-004 9.934554e-001 -2.306806e-002
25799490 9.964635e-001 -1.206770e-002 1.146535e-006 8.973735e-005 -1.156613e-004 -2.898966e-004 9.933054e-001 -2.225871e-002
26549475 9.967350e-001 -1.152064e-002 -1.102470e-004 2.063916e-005 1.642735e-004 -1.460627e-004 9.901189e-001 -2.498417e-002
27299460 9.980375e-001 -1.265822e-002 7.632531e-005 -1.538772e-005 1.136663e-004 2.841536e-005 9.920600e-001 -2.797500e-002
28049445 9.974097e-001 -1.282261e-002 9.906240e-005 2.763801e-005 -9.955975e-005 1.634641e-004 9.922572e-001 -2.632542e-002
28799430 9.963828e-001 -1.248913e-002 4.956207e-005 -5.297349e-005 -7.712792e-005 1.528166e-004 9.922347e-001 -2.681440e-002
29549415 9.976134e-001 -1.360351e-002 2.254450e-005 4.276664e-005 -1.965868e-004 2.120186e-004 9.921448e-001 -2.847018e-002
30299400 9.969100e-001 -1.464122e-002 -2.610855e-006 8.269355e-005 -5.159404e-005 1.971336e-004 9.921570e-001 -2.852375e-002
31049385 9.967588e-001 -1.444055e-002 -4.544311e-005 -5.012180e-005 -7.128323e-005 -7.052157e-005 9.908156e-001 -2.874024e-002
31799370 9.957981e-001 -1.482011e-002 -2.416690e-005 -4.024424e-006 8.214013e-005 -3.164071e-004 9.909677e-001 -2.772057e-002
32549355 9.966379e-001 -1.362511e-002 -6.217333e-005 9.352060e-005 2.295084e-004 -1.194887e-004 9.906402e-001 -3.068848e-002
33299340 9.964790e-001 -1.461222e-002 -4.891283e-005 -2.601052e-005 1.091997e-004 -1.561053e-004 9.913545e-001 -3.142689e-002
34049325 9.968222e-001 -1.605635e-002 2.248504e-005 -9.325437e-005 6.125605e-005 1.248991e-004 9.922827e-001 -3.005691e-002
34799310 9.971243e-001 -1.659050e-002 1.136066e-004 1.554207e-005 -1.723780e-005 1.682300e-004 9.921408e-001 -3.187332e-002
35549295 9.971153e-001 -1.647929e-002 2.494249e-005 -9.415179e-005 -2.451339e-005 5.106145e-006 9.921026e-001 -3.127830e-002
36299280 9.968373e-001 -1.674674e-002 3.195343e-005 5.295076e-007 1.529079e-005 1.440091e-004 9.921245e-001 -3.330849e-002
37049265 9.962233e-001 -1.689855e-002 6.168515e-005 6.037840e-005 -1.015570e-004 1.145766e-004 9.936039e-001 -3.509398e-002
37799250 9.972409e-001 -1.702567e-002 -8.112538e-005 -4.857603e-005 -2.999151e-004 9.056957e-006 9.924259e-001 -3.382074e-002
38549235 9.957324e-001 -1.748370e-002 7.207682e-005 5.835696e-005 -1.448264e-004 -5.625692e-005 9.948393e-001 -3.666599e-002
39299220 9.966087e-001 -1.812363e-002 2.567732e-005 -2.817913e-005 1.805823e-005 -1.547316e-004 9.910485e-001 -3.517679e-002
40049205 9.979171e-001 -1.916866e-002 -8.294944e-005 -7.695934e-005 -2.675061e-005 2.415425e-004 9.924138e-001 -3.618087e-002
40799190 9.968662e-001 -1.981234e-002 -3.292074e-005 8.830255e-005 -1.573167e-004 -9.483325e-005 9.921243e-001 -3.737228e-002
41549175 9.965146e-001 -1.948357e-002 -3.688669e-005 1.184042e-004 1.467030e-004 -3.057446e-005 9.898638e-001 -3.908016e-002
42299160 9.965300e-001 -1.923872e-002 2.780893e-004 -1.281584e-004 3.638880e-004 1.260286e-004 9.919145e-001 -3.713552e-002
43049145 9.971353e-001 -1.923052e-002 -7.478602e-005 1.027059e-004 5.373026e-005 1.853006e-004 9.907869e-001 -4.001211e-002
43799130 9.967644e-001 -1.962999e-002 -2.870791e-005 8.914607e-006 1.451482e-004 1.791666e-006 9.908130e-001 -4.096879e-002
44549115 9.970569e-001 -2.122252e-002 1.068922e-004 4.719721e-005 -2.540354e-004 2.515742e-005 9.906119e-001 -3.967356e-002
45299100 9.964485e-001 -1.949588e-002 1.167963e-004 6.194529e-005 -7.809541e-005 2.764961e-005 9.929954e-001 -4.139745e-002
46049085 9.965756e-001 -2.176209e-002 -8.934329e-005 1.597112e-005 -1.974979e-004 -2.197909e-005 9.929124e-001 -4.253206e-002
46799070 9.969560e-001 -2.003238e-002 1.635484e-005 -9.132166e-006 -1.253759e-004 7.326226e-005 9.937748e-001 -4.262665e-002
47549055 9.968314e-001 -2.268261e-002 4.462799e-005 7.149401e-007 4.489144e-004 -2.833450e-004 9.892885e-001 -4.334460e-002
48299040 9.956877e-001 -2.282459e-002 -1.183960e-004 -8.823368e-005 5.418147e-008 1.618294e-004 9.907513e-001 -4.369082e-002
49049025 9.959774e-001 -2.222260e-002 -2.721775e-005 -7.130397e-005 3.653037e-006 -1.218040e-004 9.932464e-001 -4.730167e-002
49799010 9.958947e-001 -2.277598e-002 -1.649979e-004 6.857856e-005 5.318322e-005 3.236283e-004 9.928397e-001 -4.885149e-002
50548995 9.960183e-001 -2.222029e-002 6.197534e-005 -4.099263e-005 -1.482535e-004 -2.235159e-004 9.916416e-001 -4.443279e-002
51298980 9.966778e-001 -2.267676e-002 -1.047057e-004 -1.470191e-004 -2.287768e-004 -3.570274e-004 9.918904e-001 -4.568999e-002
52048965 9.964652e-001 -2.401446e-002 -5.106436e-005 -1.700506e-004 6.150323e-005 -3.929960e-005 9.910896e-001 -4.998105e-002
52798950 9.963692e-001 -2.473563e-002 -2.359554e-005 5.234137e-005 -5.004620e-004 -2.083437e-004 9.916567e-001 -4.911339e-002
53548935 9.978848e-001 -2.394040e-002 7.719549e-005 8.355630e-006 -1.417229e-004 -4.207278e-004 9.898822e-001 -4.955386e-002
54298920 9.976546e-001 -2.495079e-002 -6.598989e-005 9.258989e-005 -1.168380e-004 -1.063089e-004 9.924425e-001 -5.140423e-002
55048905 9.967442e-001 -2.516203e-002 -6.331268e-006 2.216881e-005 1.559563e-004 -2.274310e-004 9.928186e-001 -5.030914e-002
55798890 9.961068e-001 -2.420255e-002 7.699802e-005 3.469550e-005 3.078898e-004 -9.195631e-005 9.930654e-001 -5.168154e-002
56548875 9.953557e-001 -2.443915e-002 4.514847e-005 1.039894e-005 6.088608e-005 -8.132929e-005 9.905115e-001 -5.224488e-002
57298860 9.967124e-001 -2.660384e-002 -4.123566e-005 -1.158824e-005 -2.155588e-005 -1.466238e-004 9.890426e-001 -5.304342e-002
58048845 9.961551e-001 -2.561116e-002 6.926242e-005 7.098405e-005 -6.661708e-005 -2.680500e-004 9.906282e-001 -5.449858e-002
58798830 9.959423e-001 -2.569742e-002 -6.406501e-005 -3.305951e-005 4.772929e-004 7.395455e-004 9.899185e-001 -5.292865e-002
59548815 9.956861e-001 -2.612499e-002 1.990042e-005 -1.494403e-004 -1.715223e-004 8.512303e-005 9.907604e-001 -5.361722e-002
60298800 9.963492e-001 -2.718814e-002 9.729666e-005 -7.132222e-006 1.504391e-004 1.002144e-004 9.890130e-001 -5.271971e-002
61048785 9.966866e-001 -2.849571e-002 3.702810e-005 5.150782e-005 -2.565447e-004 3.663539e-004 9.901680e-001 -5.308238e-002
61798770 9.962541e-001 -2.801952e-002 1.276364e-004 6.234358e-005 -1.467398e-005 1.957583e-004 9.946676e-001 -5.588331e-002
62548755 9.946194e-001 -2.894014e-002 -1.389129e-004 4.139093e-005 -3.112080e-004 -1.965209e-004 9.969413e-001 -5.802886e-002
63298740 9.951385e-001 -2.771774e-002 -6.972511e-005 5.541491e-005 4.553399e-004 -5.653927e-004 9.939671e-001 -5.929091e-002
64048725 9.957960e-001 -2.783412e-002 -1.089495e-004 5.527119e-005 -2.573504e-004 2.955222e-004 9.899908e-001 -5.871395e-002
64798710 9.976104e-001 -2.948901e-002 -2.864129e-005 -3.420532e-005 6.626967e-005 3.878197e-004 9.913731e-001 -6.194106e-002
65548695 9.954851e-001 -2.886280e-002 8.027290e-005 4.269242e-005 1.103386e-004 -1.235995e-004 9.886988e-001 -6.030294e-002
66298680 9.957097e-001 -2.963975e-002 -5.451945e-005 4.243577e-005 5.557259e-004 -1.512949e-004 9.901573e-001 -6.224636e-002
67048665 9.951017e-001 -2.989173e-002 -1.170296e-004 2.621231e-005 1.284027e-004 2.624289e-004 9.898780e-001 -6.220899e-002
67798650 9.961361e-001 -2.950800e-002 -1.025934e-005 5.536590e-005 3.473006e-004 7.448105e-004 9.910133e-001 -6.139135e-002
68548635 9.952539e-001 -3.097804e-002 -8.644732e-005 3.940342e-005 1.185257e-004 9.067381e-005 9.886869e-001 -6.063009e-002
69298620 9.960508e-001 -3.076560e-002 -1.844164e-005 4.517331e-005 3.267497e-004 1.026955e-004 9.900618e-001 -6.244696e-002
70048605 9.961106e-001 -3.255258e-002 -1.562756e-005 6.846026e-005 -1.963372e-004 -9.740623e-005 9.924880e-001 -6.485161e-002
70798590 9.955283e-001 -3.230540e-002 -1.755590e-004 5.020294e-005 1.146012e-004 -1.191898e-004 9.891679e-001 -6.393509e-002
71548575 9.971461e-001 -3.125146e-002 2.267417e-005 -4.831462e-005 1.153277e-004 2.592067e-004 9.882648e-001 -6.378298e-002
72298560 9.956569e-001 -3.137240e-002 1.265034e-004 8.470438e-005 1.603446e-004 -2.456924e-004 9.907269e-001 -6.201332e-002
73048545 9.954863e-001 -3.315672e-002 1.412414e-004 3.392001e-005 -3.438899e-004 -4.064214e-005 9.927819e-001 -6.439524e-002
73798530 9.967203e-001 -3.278309e-002 -5.909681e-005 4.489853e-005 1.178829e-004 -2.311025e-004 9.895227e-001 -6.629396e-002
74548515 9.956790e-001 -3.381100e-002 -3.489386e-005 -1.920518e-005 -4.211185e-004 3.288928e-005 9.871681e-001 -6.697540e-002
75298500 9.944178e-001 -3.209404e-002 1.329095e-004 -1.244390e-004 -3.874615e-004 1.134295e-004 9.872877e-001 -6.578676e-002
76048485 9.953802e-001 -3.321299e-002 -2.929786e-005 8.183043e-005 -2.303912e-004 3.101159e-006 9.885580e-001 -6.908977e-002
76798470 9.942348e-001 -3.368294e-002 6.166713e-005 1.133904e-004 -1.969392e-004 3.119092e-005 9.893470e-001 -7.010648e-002
77548455 9.964785e-001 -3.522409e-002 9.859164e-005 -1.596328e-004 6.187700e-005 -7.536036e-005 9.877239e-001 -6.769269e-002
78298440 9.953755e-001 -3.696165e-002 -5.123064e-005 -7.342978e-005 -2.399574e-004 3.858055e-005 9.908786e-001 -7.094619e-002
79048425 9.940625e-001 -3.599058e-002 -6.255719e-005 5.872279e-005 -4.091482e-005 -4.556340e-005 9.872710e-001 -7.138196e-002
79798410 9.944723e-001 -3.698926e-002 -5.394798e-005 -1.120825e-004 -1.121019e-004 -3.949809e-005 9.898095e-001 -7.167785e-002
80548395 9.943931e-001 -3.631999e-002 -1.475712e-004 -1.519400e-005 1.892749e-004 9.067382e-006 9.899286e-001 -7.213695e-002
81298380 9.963737e-001 -3.485769e-002 -1.677491e-004 4.296602e-005 2.013429e-004 1.461825e-004 9.893991e-001 -7.149037e-002
82048365 9.974916e-001 -3.588561e-002 8.128692e-006 3.039771e-005 -1.376754e-004 -1.477797e-006 9.889885e-001 -7.116923e-002
82798350 9.965170e-001 -3.747083e-002 1.513990e-004 5.778657e-005 -3.787664e-004 -5.571995e-005 9.875715e-001 -7.122983e-002
83548335 9.969187e-001 -3.783684e-002 -1.183892e-004 -1.189443e-005 -2.979063e-004 1.731534e-004 9.887838e-001 -7.702762e-002
84298320 9.951848e-001 -3.643890e-002 6.449684e-005 2.154902e-005 7.317574e-005 -1.326566e-004 9.884648e-001 -7.556228e-002
85048305 9.944582e-001 -3.620286e-002 6.129764e-005 2.503729e-005 -1.147547e-004 -2.248984e-004 9.904113e-001 -7.546132e-002
85798290 9.959788e-001 -3.860527e-002 -1.370077e-004 1.247343e-004 8.020579e-005 -3.633939e-004 9.892959e-001 -7.749727e-002
86548275 9.950520e-001 -3.880353e-002 7.387285e-005 7.308871e-005 1.016263e-004 -1.529453e-006 9.877241e-001 -7.933570e-002
87298260 9.968453e-001 -3.957086e-002 2.779719e-005 -9.173678e-005 2.717930e-004 -3.183737e-004 9.880540e-001 -7.911020e-002
88048245 9.965706e-001 -4.003225e-002 -8.575584e-005 -1.102798e-004 -2.030869e-005 2.258672e-005 9.891125e-001 -7.919850e-002
88798230 9.932711e-001 -3.847573e-002 -1.245486e-004 -5.533205e-005 -1.372111e-004 -9.374267e-005 9.877075e-001 -8.042047e-002
89548215 9.950472e-001 -3.820977e-002 -6.027429e-005 1.755679e-004 2.801434e-004 1.096400e-005 9.859834e-001 -8.426597e-002
90298200 9.969829e-001 -4.030748e-002 -1.089278e-004 -1.247081e-005 -2.680745e-004 -1.427961e-004 9.900069e-001 -8.536909e-002
91048185 9.929261e-001 -4.092951e-002 3.374677e-007 -5.445584e-005 6.880403e-005 7.776287e-005 9.895453e-001 -8.103330e-002
91798170 9.961814e-001 -4.110085e-002 -6.382121e-005 1.704332e-004 1.711357e-004 3.897990e-004 9.856753e-001 -8.202647e-002
92548155 9.948242e-001 -4.203976e-002 -2.047834e-004 1.287325e-005 8.456800e-005 4.064675e-005 9.878780e-001 -8.479537e-002
93298140 9.948202e-001 -4.079212e-002 -1.222077e-004 -1.614266e-004 -1.188517e-004 4.677222e-004 9.888126e-001 -8.587112e-002
94048125 9.963353e-001 -4.203174e-002 -9.413481e-005 4.922942e-005 1.491004e-004 4.740806e-004 9.871565e-001 -8.652072e-002
94798110 9.967988e-001 -4.255021e-002 1.049146e-004 -6.174568e-005 4.558219e-005 6.786492e-005 9.856237e-001 -8.404556e-002
95548095 9.952527e-001 -4.052886e-002 1.566948e-005 3.840451e-005 -1.645363e-004 -1.176919e-004 9.869515e-001 -8.490139e-002
96298080 9.955198e-001 -4.151621e-002 -1.646622e-005 1.689604e-004 2.188788e-004 -5.818367e-005 9.853118e-001 -8.586769e-002
97048065 9.945683e-001 -4.271751e-002 1.436353e-004 1.461400e-004 1.916031e-004 1.589892e-004 9.881839e-001 -8.833215e-002
97798050 9.960249e-001 -4.465031e-002 -5.393948e-005 8.891247e-006 -4.095209e-005 -1.759594e-004 9.890155e-001 -8.602017e-002
98548035 9.940732e-001 -4.325071e-002 -1.834134e-004 -1.151636e-004 -9.855552e-006 2.180129e-004 9.872717e-001 -9.028488e-002
99298020 9.941307e-001 -4.310707e-002 -1.550082e-005 -1.442113e-004 -9.991449e-005 2.143331e-004 9.863015e-001 -8.983094e-002
100048005 9.940133e-001 -4.391773e-002 -2.787607e-005 -2.872344e-005 5.002635e-004 -2.861087e-004 9.867662e-001 -8.869302e-002
100797990 9.933234e-001 -4.336810e-002 -5.501782e-005 5.550510e-005 1.696381e-004 1.644782e-004 9.869655e-001 -8.969690e-002
101547975 9.942887e-001 -4.414515e-002 1.678172e-004 6.963230e-005 -4.152986e-004 -2.403266e-004 9.873451e-001 -9.026582e-002
102297960 9.933054e-001 -4.563234e-002 6.320715e-005 7.896400e-005 -1.920946e-004 -1.059675e-004 9.880855e-001 -9.056987e-002
103047945 9.938855e-001 -4.442950e-002 -1.336289e-004 9.862779e-005 2.166098e-004 -2.875642e-004 9.878229e-001 -9.351411e-002
103797930 9.939259e-001 -4.511980e-002 2.862755e-005 -8.330452e-005 -2.671643e-004 -5.261093e-005 9.861950e-001 -9.382912e-002
104547915 9.936680e-001 -4.507374e-002 8.834106e-005 1.528951e-004 -8.706073e-005 -1.444393e-004 9.873894e-001 -9.381987e-002
105297900 9.937685e-001 -4.719535e-002 -6.962522e-005 6.111655e-005 -1.771588e-004 9.397409e-006 9.890439e-001 -9.515876e-002
106047885 9.948226e-001 -4.582303e-002 1.026264e-005 2.573899e-005 -2.121436e-004 -1.401362e-005 9.885058e-001 -9.468058e-002
106797870 9.951017e-001 -4.727034e-002 -4.748799e-005 8.686843e-005 2.312652e-004 1.410792e-005 9.850798e-001 -9.612695e-002
107547855 9.936491e-001 -4.749376e-002 6.208738e-005 -8.384563e-005 -9.191962e-005 7.375031e-005 9.879507e-001 -9.276699e-002
108297840 9.930344e-001 -4.736525e-002 -2.138169e-004 -4.725434e-005 2.956651e-004 1.297453e-004 9.868883e-001 -9.398623e-002
109047825 9.937872e-001 -4.735895e-002 -9.447687e-006 -9.363008e-006 -1.380667e-004 2.898050e-004 9.855717e-001 -9.679596e-002
109797810 9.928703e-001 -4.880832e-002 1.340365e-004 3.010692e-005 3.342761e-004 2.795739e-005 9.824154e-001 -1.011069e-001
110547795 9.939704e-001 -4.940645e-002 -5.963883e-005 9.264285e-006 -5.438564e-005 -2.509359e-004 9.872984e-001 -9.871276e-002
111297780 9.947496e-001 -4.954135e-002 -1.082379e-004 8.970054e-005 -6.915621e-005 1.574605e-004 9.859210e-001 -9.813838e-002
112047765 9.939412e-001 -5.012465e-002 2.329831e-005 2.471643e-005 8.741476e-005 -1.856158e-004 9.868684e-001 -1.002905e-001
112797750 9.935632e-001 -5.007476e-002 -1.214083e-004 1.866609e-004 -2.585436e-006 -1.060294e-004 9.888311e-001 -1.001222e-001
113547735 9.946244e-001 -5.064045e-002 -2.651135e-005 6.010231e-006 4.313255e-004 4.925761e-005 9.853157e-001 -1.020536e-001
114297720 9.939134e-001 -5.074748e-002 1.260628e-004 -2.678665e-005 4.963924e-006 -3.641604e-004 9.860713e-001 -1.032531e-001
115047705 9.927249e-001 -5.064564e-002 -1.724836e-004 6.062147e-005 2.163859e-004 -3.036626e-004 9.863071e-001 -1.050186e-001
115797690 9.922051e-001 -5.215933e-002 -6.945638e-005 -9.935629e-005 1.543976e-004 -6.905519e-005 9.843405e-001 -1.030776e-001
116547675 9.924061e-001 -5.024823e-002 2.008174e-004 -1.166978e-004 8.727518e-005 4.642216e-005 9.852505e-001 -1.063828e-001
