!Agilent Technologies,N5230C,SG49000117,A.08.50.07
!Agilent N5230C: A.08.50.07
!Date: Monday, December 11, 2023 21:24:06
!Correction: S11(Full 2 Port(1,2)) 
!S21(Full 2 Port(1,2)) 
!S12(Full 2 Port(1,2)) 
!S22(Full 2 Port(1,2)) 
!S2P File: Measurements: S11, S21, S12, S22:
# Hz S  RI   R 50
300000 9.902264e-001 4.491930e-003 -1.001564e-004 -4.727135e-005 3.181793e-004 5.880711e-005 9.913365e-001 9.060796e-003
1049985 9.923864e-001 3.212452e-003 -3.591905e-005 5.650055e-006 -1.591576e-004 -3.241094e-004 9.827374e-001 4.244432e-003
1799970 9.921641e-001 8.293635e-003 -3.346730e-005 6.155308e-005 2.208144e-005 -1.357614e-004 9.964402e-001 -6.348110e-003
2549955 9.983565e-001 -5.377222e-004 -7.701902e-005 -2.669800e-005 1.798890e-005 -1.376978e-004 9.966556e-001 -5.315049e-003
3299940 9.989839e-001 -1.848688e-003 -2.367853e-005 -6.866073e-005 8.082761e-005 9.064678e-006 9.983832e-001 -6.988178e-003
4049925 9.986843e-001 -1.818848e-003 2.913308e-005 -6.150141e-005 -2.028145e-005 4.319279e-005 9.953292e-001 -5.634434e-003
4799910 9.978750e-001 -1.856642e-003 -7.402294e-005 -3.827652e-005 -2.140465e-005 1.378189e-007 9.940892e-001 -5.538557e-003
5549895 9.973215e-001 -3.142416e-003 -2.587706e-005 -2.567646e-006 4.250572e-005 -5.967452e-005 9.956313e-001 -6.888380e-003
6299880 9.979340e-001 -3.794545e-003 3.769198e-005 -8.473048e-005 -9.442542e-005 8.418927e-005 9.936423e-001 -5.718758e-003
7049865 9.977818e-001 -4.115032e-003 -1.319024e-005 -2.855601e-005 8.248480e-005 6.151703e-005 9.948384e-001 -8.511169e-003
7799850 9.973053e-001 -3.559945e-003 -1.302224e-006 2.384556e-005 -8.525026e-005 -5.510581e-006 9.939967e-001 -7.526644e-003
8549835 9.972350e-001 -3.369831e-003 2.352088e-005 7.264324e-005 9.265809e-005 1.898221e-005 9.932491e-001 -8.284278e-003
9299820 9.969355e-001 -4.098279e-003 -9.779155e-005 -5.244126e-005 1.101045e-004 -1.583524e-004 9.922704e-001 -1.126696e-002
10049805 9.977215e-001 -4.967265e-003 8.221719e-006 3.588706e-005 -1.527127e-004 1.360973e-004 9.955457e-001 -1.099962e-002
10799790 9.986814e-001 -5.493413e-003 1.560780e-005 1.462088e-004 -8.197384e-005 -6.343867e-005 9.945692e-001 -1.164219e-002
11549775 9.980851e-001 -5.418597e-003 4.754322e-006 -3.782162e-005 -9.664881e-009 -1.651306e-004 9.950059e-001 -1.089633e-002
12299760 9.980860e-001 -5.958368e-003 7.303985e-005 -4.422285e-005 -8.634102e-005 1.586985e-004 9.931512e-001 -1.351552e-002
13049745 9.987683e-001 -6.314761e-003 -4.178807e-005 2.115035e-005 -9.380787e-006 1.766428e-004 9.956956e-001 -1.344912e-002
13799730 9.970316e-001 -6.587149e-003 4.242674e-006 -1.254301e-005 -3.675501e-005 -1.797824e-004 9.949573e-001 -1.523148e-002
14549715 9.975430e-001 -7.559371e-003 8.893250e-005 4.942136e-005 -1.139937e-004 -1.607100e-004 9.946617e-001 -1.562056e-002
15299700 9.976283e-001 -7.214067e-003 2.004682e-005 -2.576752e-005 -1.143942e-005 -2.470294e-004 9.943001e-001 -1.548939e-002
16049685 9.968238e-001 -7.641293e-003 5.729324e-005 -9.083423e-005 1.452241e-004 -2.028543e-004 9.920711e-001 -1.734203e-002
16799670 9.974085e-001 -7.967341e-003 -1.444041e-005 -2.689046e-007 1.910814e-004 3.062115e-004 9.934536e-001 -1.838591e-002
17549655 9.974569e-001 -8.392616e-003 -3.500434e-005 -3.660394e-005 1.219431e-004 2.846119e-005 9.939741e-001 -1.776659e-002
18299640 9.974458e-001 -8.474176e-003 3.286600e-006 -1.277727e-004 1.898670e-004 7.330549e-005 9.927389e-001 -1.833214e-002
19049625 9.977865e-001 -8.813568e-003 1.706733e-005 -1.847978e-005 -8.736249e-005 1.317458e-004 9.940562e-001 -1.979635e-002
19799610 9.966338e-001 -8.707557e-003 1.810316e-005 9.279236e-005 1.455057e-005 3.956062e-004 9.927205e-001 -1.877375e-002
20549595 9.964440e-001 -1.001177e-002 2.081638e-005 -1.562805e-006 2.959474e-004 1.713998e-004 9.928839e-001 -1.845465e-002
21299580 9.969811e-001 -9.818154e-003 -5.236976e-005 -6.892999e-005 -2.508228e-004 3.061341e-004 9.943185e-001 -1.906684e-002
22049565 9.978767e-001 -1.133435e-002 2.210899e-006 2.389804e-005 -5.681604e-005 1.817062e-004 9.928973e-001 -2.025974e-002
22799550 9.980939e-001 -1.079378e-002 7.489153e-005 9.191419e-005 -2.006652e-005 1.396823e-004 9.924831e-001 -2.106723e-002
23549535 9.979488e-001 -1.097085e-002 7.917127e-005 2.546864e-005 3.824971e-005 2.779851e-004 9.921803e-001 -2.136271e-002
24299520 9.968088e-001 -1.143635e-002 7.740941e-005 -3.008898e-005 2.109539e-004 3.050989e-005 9.932746e-001 -2.375797e-002
25049505 9.971580e-001 -1.130787e-002 -3.942874e-005 -8.178498e-005 7.088028e-005 -3.620412e-004 9.947861e-001 -2.271101e-002
25799490 9.973923e-001 -1.137493e-002 -2.388580e-005 1.421251e-005 -1.290414e-004 2.119310e-004 9.926677e-001 -2.293034e-002
26549475 9.967749e-001 -1.195123e-002 8.841506e-006 7.494725e-005 -1.259545e-004 2.239779e-004 9.907863e-001 -2.464903e-002
27299460 9.979833e-001 -1.198214e-002 -5.189699e-005 2.403899e-005 -5.133520e-005 -8.752522e-005 9.928619e-001 -2.797070e-002
28049445 9.979786e-001 -1.288800e-002 3.926942e-005 -5.819184e-006 1.372498e-004 -5.594588e-005 9.923760e-001 -2.697974e-002
28799430 9.975960e-001 -1.303077e-002 1.198540e-004 -3.467945e-005 4.935052e-005 -1.443459e-004 9.913682e-001 -2.597500e-002
29549415 9.973726e-001 -1.308979e-002 -2.664984e-005 -1.563215e-005 1.878161e-004 -1.480262e-004 9.939129e-001 -2.653621e-002
30299400 9.967079e-001 -1.431678e-002 6.403408e-005 8.059668e-005 2.979165e-004 1.281657e-005 9.931008e-001 -2.616403e-002
31049385 9.969152e-001 -1.372351e-002 3.155764e-005 3.215034e-005 -3.513640e-005 9.411371e-005 9.907200e-001 -2.774739e-002
31799370 9.971812e-001 -1.447578e-002 1.960366e-005 2.358125e-006 2.343961e-004 -1.840815e-005 9.901640e-001 -2.811711e-002
32549355 9.962589e-001 -1.429146e-002 2.417500e-005 -4.309562e-006 1.303571e-004 4.011778e-004 9.921800e-001 -3.094400e-002
33299340 9.966674e-001 -1.401903e-002 3.185993e-005 -5.283039e-005 -3.163406e-005 1.900779e-004 9.921617e-001 -3.057497e-002
34049325 9.967363e-001 -1.514632e-002 5.171128e-007 7.489634e-005 7.449161e-005 1.897025e-004 9.931182e-001 -3.099171e-002
34799310 9.974911e-001 -1.630463e-002 1.699467e-005 -6.854069e-005 -1.471478e-004 -5.116242e-005 9.918768e-001 -3.041284e-002
35549295 9.970061e-001 -1.600829e-002 -3.827893e-005 2.819910e-007 -1.276378e-004 -7.163599e-005 9.933996e-001 -3.117060e-002
36299280 9.971427e-001 -1.579279e-002 -7.997079e-005 1.556706e-005 1.064845e-004 -8.356044e-005 9.920526e-001 -3.180321e-002
37049265 9.969617e-001 -1.686953e-002 2.272831e-006 -9.038726e-005 -6.315635e-005 -1.097411e-004 9.931263e-001 -3.384092e-002
37799250 9.975570e-001 -1.729480e-002 -5.483361e-005 -1.084247e-004 1.608259e-004 -1.372417e-004 9.931782e-001 -3.375268e-002
38549235 9.968588e-001 -1.724275e-002 -3.370031e-005 -1.999803e-005 2.423321e-004 2.756457e-005 9.942822e-001 -3.589418e-002
39299220 9.970134e-001 -1.815310e-002 -3.571719e-005 -7.352839e-005 1.337884e-004 1.039613e-004 9.920285e-001 -3.520100e-002
40049205 9.985661e-001 -1.793765e-002 4.026326e-005 -1.492275e-005 -6.794432e-005 6.554375e-005 9.948691e-001 -3.503760e-002
40799190 9.988052e-001 -1.866443e-002 7.394488e-005 -1.137983e-004 4.960204e-005 1.473856e-004 9.923984e-001 -3.797103e-002
41549175 9.962167e-001 -1.909115e-002 2.186408e-005 1.176091e-004 -3.834311e-005 -1.161784e-004 9.900977e-001 -3.811754e-002
42299160 9.964527e-001 -1.845902e-002 -5.860986e-005 -1.685639e-005 -2.311366e-004 -5.228227e-005 9.924278e-001 -3.769832e-002
43049145 9.960234e-001 -1.813134e-002 -1.037603e-004 -2.691398e-005 -5.854229e-005 1.022699e-004 9.922525e-001 -3.816387e-002
43799130 9.979441e-001 -2.054550e-002 7.570970e-005 2.795995e-004 -1.179571e-004 -2.738222e-004 9.923860e-001 -4.093875e-002
44549115 9.962200e-001 -2.016031e-002 -3.160823e-005 1.076359e-004 7.507396e-005 -4.092754e-005 9.920202e-001 -3.746145e-002
45299100 9.957858e-001 -1.941689e-002 1.204124e-004 -5.966660e-005 6.886092e-005 -9.308267e-005 9.926701e-001 -3.912901e-002
46049085 9.972104e-001 -2.067672e-002 -2.006888e-006 -8.461249e-005 -1.201962e-004 2.010293e-004 9.903295e-001 -4.215463e-002
46799070 9.973098e-001 -2.028005e-002 -2.300338e-005 -7.854584e-005 7.622081e-005 2.790378e-004 9.932224e-001 -4.378422e-002
47549055 9.969374e-001 -2.193158e-002 -5.749976e-005 1.017523e-004 8.948182e-006 2.219052e-004 9.899211e-001 -4.354576e-002
48299040 9.957691e-001 -2.357018e-002 -9.785432e-005 -6.549397e-005 -2.387561e-004 -5.110904e-005 9.922505e-001 -4.442083e-002
49049025 9.969380e-001 -2.213810e-002 8.519720e-005 6.006072e-005 -1.420900e-004 1.576525e-004 9.944539e-001 -4.646527e-002
49799010 9.968790e-001 -2.221290e-002 -8.250743e-007 1.063752e-004 -1.460894e-004 1.162342e-004 9.931225e-001 -4.518154e-002
50548995 9.974073e-001 -2.288576e-002 -9.325887e-005 3.913050e-005 1.015688e-004 2.192353e-004 9.931092e-001 -4.335515e-002
51298980 9.981980e-001 -2.228858e-002 8.628651e-006 -1.194197e-005 -3.540616e-004 -1.936670e-004 9.923654e-001 -4.398672e-002
52048965 9.970015e-001 -2.266587e-002 -2.248236e-005 -5.735876e-005 -4.311067e-004 5.344854e-004 9.917892e-001 -5.011524e-002
52798950 9.972963e-001 -2.429624e-002 -3.835642e-005 -6.097886e-006 -4.671227e-004 1.391356e-004 9.914135e-001 -4.670082e-002
53548935 9.984704e-001 -2.322188e-002 1.813749e-004 2.234342e-005 -1.552038e-004 1.925590e-004 9.910719e-001 -4.903553e-002
54298920 9.975829e-001 -2.386280e-002 3.493673e-005 5.966342e-005 -9.586650e-005 -1.231846e-004 9.926829e-001 -5.342416e-002
55048905 9.970631e-001 -2.484760e-002 6.201085e-005 7.498044e-005 -1.532127e-004 -2.216170e-004 9.930964e-001 -5.039783e-002
55798890 9.972751e-001 -2.387416e-002 -1.744375e-005 4.421891e-005 -1.927198e-004 2.468342e-004 9.927005e-001 -5.155898e-002
56548875 9.961444e-001 -2.365134e-002 1.375249e-005 9.612395e-005 -2.344247e-004 -4.451286e-005 9.907129e-001 -5.227027e-002
57298860 9.975461e-001 -2.558568e-002 1.449381e-005 9.812765e-005 -3.059748e-004 8.809509e-005 9.901250e-001 -4.957298e-002
58048845 9.964998e-001 -2.543109e-002 4.063488e-005 -1.656442e-005 2.281572e-005 -8.058774e-005 9.903442e-001 -5.363602e-002
58798830 9.966934e-001 -2.618947e-002 3.284587e-006 7.310036e-006 -5.295322e-005 -1.157754e-004 9.901659e-001 -5.223866e-002
59548815 9.970627e-001 -2.598733e-002 1.233458e-005 1.055570e-004 1.483871e-005 3.610083e-004 9.920614e-001 -5.246693e-002
60298800 9.978963e-001 -2.540503e-002 -1.232042e-004 2.050068e-005 -5.203730e-004 9.391688e-005 9.897856e-001 -5.301440e-002
61048785 9.966419e-001 -2.783903e-002 -3.798988e-005 5.294182e-005 -8.449367e-005 8.068398e-007 9.893588e-001 -5.339470e-002
61798770 9.963506e-001 -2.673805e-002 -9.223116e-005 1.205860e-004 -3.341603e-004 8.408850e-005 9.911056e-001 -5.388991e-002
62548755 9.954270e-001 -2.742134e-002 9.553548e-005 -6.897796e-005 -1.235957e-004 1.686349e-005 9.945848e-001 -5.737021e-002
63298740 9.947377e-001 -2.707734e-002 -1.031454e-005 1.184358e-005 1.171115e-004 -3.130341e-004 9.953052e-001 -5.984657e-002
64048725 9.966474e-001 -2.782073e-002 2.971668e-005 -5.350231e-005 -1.245380e-004 4.410727e-005 9.893286e-001 -5.806982e-002
64798710 9.974251e-001 -2.814903e-002 -1.235605e-004 2.624438e-005 -9.246821e-005 -1.363455e-004 9.889641e-001 -5.735701e-002
65548695 9.961371e-001 -2.860945e-002 3.524997e-005 3.451971e-005 3.266968e-004 -2.875536e-004 9.887660e-001 -5.928720e-002
66298680 9.963114e-001 -2.917125e-002 1.527298e-005 -3.950031e-005 1.407239e-004 2.107032e-004 9.910254e-001 -5.941982e-002
67048665 9.964227e-001 -2.918567e-002 1.602668e-005 -6.380399e-005 1.094163e-004 8.377609e-005 9.907802e-001 -6.308123e-002
67798650 9.965129e-001 -3.005547e-002 7.955178e-005 -7.141411e-005 1.736766e-004 -1.949576e-004 9.927113e-001 -6.246785e-002
68548635 9.960740e-001 -2.988478e-002 1.215036e-004 -7.677994e-005 -7.376297e-005 2.488643e-005 9.901996e-001 -6.154437e-002
69298620 9.960763e-001 -3.059077e-002 -8.615200e-006 6.076376e-005 2.191805e-004 -2.529390e-004 9.887610e-001 -6.325154e-002
70048605 9.961773e-001 -3.157188e-002 -6.572635e-005 -1.487821e-004 2.311367e-004 7.379796e-005 9.919261e-001 -6.383379e-002
70798590 9.966664e-001 -3.157162e-002 -5.952940e-005 7.435689e-005 3.089747e-005 6.730443e-005 9.895678e-001 -6.423243e-002
71548575 9.969406e-001 -3.051890e-002 1.141015e-004 1.008748e-004 6.093212e-006 -2.671903e-005 9.903014e-001 -6.316877e-002
72298560 9.973701e-001 -3.096046e-002 7.543458e-005 -1.554791e-006 -1.716378e-004 -4.690263e-005 9.920331e-001 -6.260367e-002
73048545 9.953474e-001 -3.158982e-002 -2.513764e-006 -9.539317e-007 4.663387e-004 8.093236e-005 9.940906e-001 -6.423319e-002
73798530 9.974167e-001 -3.225220e-002 -5.839714e-005 -1.383922e-005 1.884412e-006 -9.613151e-005 9.888788e-001 -6.407922e-002
74548515 9.970030e-001 -3.214767e-002 -1.025851e-004 -1.623712e-005 3.563444e-004 2.450075e-004 9.878517e-001 -6.572217e-002
75298500 9.953223e-001 -3.232388e-002 -9.867459e-005 4.300360e-005 2.114560e-004 5.425883e-006 9.882531e-001 -6.569897e-002
76048485 9.962303e-001 -3.394478e-002 -1.398991e-005 8.719386e-005 1.366929e-004 1.103974e-004 9.892976e-001 -6.816819e-002
76798470 9.960260e-001 -3.365336e-002 -1.513059e-004 -2.008060e-004 -1.197266e-004 2.177751e-004 9.897981e-001 -6.768918e-002
77548455 9.957795e-001 -3.477334e-002 1.483984e-004 -4.305742e-005 4.169553e-005 4.251562e-006 9.884762e-001 -6.702794e-002
78298440 9.948641e-001 -3.512020e-002 6.580158e-005 -1.554191e-004 8.498639e-005 -4.194946e-005 9.909495e-001 -6.962176e-002
79048425 9.950792e-001 -3.642314e-002 1.635999e-005 -3.787285e-005 1.973106e-005 -4.229276e-005 9.869668e-001 -7.081063e-002
79798410 9.955975e-001 -3.542864e-002 1.207183e-004 -3.347845e-006 -1.602431e-004 -5.965941e-005 9.902691e-001 -7.058005e-002
80548395 9.959250e-001 -3.598328e-002 3.105814e-005 1.208612e-004 -6.309294e-005 1.603713e-004 9.879538e-001 -7.080960e-002
81298380 9.971930e-001 -3.488154e-002 -6.391263e-007 -1.578080e-004 -6.255173e-005 1.214051e-004 9.895189e-001 -7.099450e-002
82048365 9.967317e-001 -3.628207e-002 1.106712e-004 -7.677390e-005 1.010226e-004 -2.257503e-005 9.901688e-001 -7.141364e-002
82798350 9.976853e-001 -3.583025e-002 -8.096897e-005 -4.429768e-005 2.934152e-004 3.710577e-004 9.876924e-001 -7.118619e-002
83548335 9.967195e-001 -3.782179e-002 -7.418604e-005 1.658520e-005 -5.124263e-005 1.228739e-005 9.889106e-001 -7.669038e-002
84298320 9.948161e-001 -3.618981e-002 6.441930e-005 -1.895531e-005 -1.019951e-004 3.642360e-004 9.870500e-001 -7.627039e-002
85048305 9.975359e-001 -3.709331e-002 -1.150979e-004 -1.857112e-005 1.338587e-004 2.423238e-004 9.889264e-001 -7.529418e-002
85798290 9.962205e-001 -3.626373e-002 -4.180190e-006 -9.381392e-005 3.658604e-005 -4.478085e-005 9.898892e-001 -7.581243e-002
86548275 9.964327e-001 -3.797137e-002 5.812900e-005 6.366296e-005 8.157130e-005 -1.139456e-004 9.891676e-001 -7.753998e-002
87298260 9.977838e-001 -3.878666e-002 -2.950597e-004 -2.974128e-005 -6.895258e-005 -1.452165e-004 9.886474e-001 -7.855754e-002
88048245 9.973366e-001 -4.016420e-002 7.131653e-005 -1.825590e-004 -3.511260e-004 2.066532e-004 9.888504e-001 -7.738017e-002
88798230 9.948301e-001 -3.871669e-002 2.053149e-004 -6.444767e-005 1.609699e-004 -1.744445e-004 9.906567e-001 -8.142897e-002
89548215 9.959651e-001 -3.859355e-002 -1.684808e-004 5.184618e-005 3.916168e-005 3.869370e-004 9.878750e-001 -8.177835e-002
90298200 9.971601e-001 -3.953646e-002 -4.934020e-005 6.214008e-005 -8.981404e-005 -1.986009e-004 9.884987e-001 -8.190033e-002
91048185 9.947566e-001 -4.035446e-002 -1.136086e-004 -1.772991e-004 -1.659301e-004 -1.198341e-004 9.900938e-001 -8.109400e-002
91798170 9.954928e-001 -4.084675e-002 -1.484022e-004 -1.398322e-004 -5.909089e-006 2.626474e-004 9.854879e-001 -8.121922e-002
92548155 9.958076e-001 -4.116101e-002 4.536547e-005 -8.949455e-005 2.976341e-004 -2.630761e-005 9.871926e-001 -8.372001e-002
93298140 9.965848e-001 -4.048920e-002 -4.683950e-005 -4.913334e-005 -7.316664e-005 -5.687081e-005 9.892589e-001 -8.353297e-002
94048125 9.978852e-001 -4.200646e-002 5.094485e-005 7.798495e-005 1.893008e-004 3.586437e-005 9.871774e-001 -8.432509e-002
94798110 9.976438e-001 -4.188111e-002 -1.089187e-004 1.098494e-004 -7.770510e-005 -5.166843e-004 9.878680e-001 -8.214229e-002
95548095 9.956924e-001 -4.085472e-002 -8.762553e-005 1.869393e-007 3.632600e-004 2.158441e-005 9.864560e-001 -8.331451e-002
96298080 9.970248e-001 -4.088194e-002 2.893115e-005 2.792786e-005 -1.475928e-004 -2.124446e-004 9.870953e-001 -8.431908e-002
97048065 9.962298e-001 -4.119237e-002 1.049558e-004 7.330398e-005 -1.143257e-004 -4.886749e-005 9.902324e-001 -8.721384e-002
97798050 9.963006e-001 -4.398509e-002 -1.233728e-005 -3.443249e-005 -4.596585e-004 1.944651e-004 9.879349e-001 -8.909985e-002
98548035 9.935127e-001 -4.350027e-002 3.687165e-006 1.019605e-005 -2.193258e-004 -3.047087e-004 9.882814e-001 -8.965451e-002
99298020 9.947571e-001 -4.291832e-002 1.620863e-004 2.448020e-005 1.547467e-004 -2.838050e-004 9.873700e-001 -9.032766e-002
100048005 9.948817e-001 -4.293327e-002 1.152485e-004 -4.720565e-005 -2.906595e-004 -3.066799e-004 9.880282e-001 -8.929235e-002
100797990 9.949691e-001 -4.279910e-002 -3.424395e-005 1.055780e-004 2.777546e-004 -3.819720e-004 9.887467e-001 -9.228867e-002
101547975 9.947909e-001 -4.416848e-002 4.450227e-007 3.825350e-005 3.189241e-005 4.693483e-006 9.874137e-001 -8.690563e-002
102297960 9.940556e-001 -4.524739e-002 3.855252e-005 1.358173e-005 2.170378e-004 1.001752e-004 9.878733e-001 -9.042974e-002
103047945 9.933859e-001 -4.480905e-002 -3.033446e-005 1.088574e-004 6.068959e-004 6.497727e-005 9.895701e-001 -9.177319e-002
103797930 9.947246e-001 -4.371126e-002 -4.015142e-005 -5.815169e-006 1.229569e-005 -5.216844e-005 9.869972e-001 -9.336749e-002
104547915 9.948502e-001 -4.641805e-002 6.546489e-005 2.956027e-005 -1.179160e-004 3.017396e-007 9.877641e-001 -9.142188e-002
105297900 9.936998e-001 -4.587015e-002 -1.119876e-004 -8.068582e-006 -1.380273e-004 -1.101224e-004 9.887224e-001 -9.285683e-002
106047885 9.951327e-001 -4.696920e-002 -1.714229e-005 5.041662e-005 -4.452694e-005 -2.778725e-004 9.874495e-001 -9.411554e-002
106797870 9.960461e-001 -4.761622e-002 4.472932e-005 -2.650384e-005 1.725659e-004 2.044591e-004 9.883741e-001 -9.553077e-002
107547855 9.943971e-001 -4.690048e-002 -8.685391e-005 -3.990759e-005 6.228394e-004 3.823649e-004 9.884828e-001 -9.363435e-002
108297840 9.936628e-001 -4.718089e-002 2.795213e-005 -5.145742e-005 -2.016813e-004 -7.655500e-005 9.876495e-001 -9.523085e-002
109047825 9.942250e-001 -4.677066e-002 -2.802118e-005 -3.285773e-006 -1.699777e-004 -2.713249e-004 9.865647e-001 -9.511592e-002
109797810 9.936553e-001 -4.763278e-002 4.735673e-005 -8.812713e-005 -4.716340e-004 3.256687e-004 9.851388e-001 -9.778517e-002
110547795 9.951456e-001 -4.840090e-002 -1.172634e-004 1.209758e-004 1.041670e-004 4.666422e-004 9.892106e-001 -9.623058e-002
111297780 9.946370e-001 -4.915291e-002 1.163650e-004 -9.399421e-005 -4.145790e-004 -9.831703e-005 9.875269e-001 -9.810922e-002
112047765 9.947463e-001 -4.912419e-002 3.163343e-006 4.506698e-005 -3.989410e-004 4.702302e-005 9.866973e-001 -1.002793e-001
112797750 9.943655e-001 -4.937781e-002 -1.209216e-004 -4.084165e-005 -1.595831e-004 2.333560e-004 9.870477e-001 -1.016140e-001
113547735 9.960058e-001 -4.876459e-002 1.502128e-004 -6.471945e-005 2.008902e-004 1.711719e-004 9.855578e-001 -1.019187e-001
114297720 9.956671e-001 -4.907109e-002 -9.689054e-005 1.009587e-004 -3.358684e-004 -3.431174e-005 9.873397e-001 -1.012524e-001
115047705 9.942132e-001 -4.965582e-002 6.377628e-005 -3.095767e-006 -1.782700e-004 -1.133522e-005 9.879333e-001 -1.060051e-001
115797690 9.933692e-001 -5.074869e-002 9.629692e-005 -3.544848e-005 3.140674e-004 -1.099227e-004 9.848564e-001 -1.014386e-001
116547675 9.942449e-001 -5.121225e-002 -5.008366e-005 1.307598e-004 7.563719e-005 -3.453487e-004 9.861597e-001 -1.037814e-001
