!Agilent Technologies,N5230C,SG49000117,A.08.50.07
!Agilent N5230C: A.08.50.07
!Date: Monday, December 11, 2023 21:27:32
!Correction: S11(Full 2 Port(1,2)) 
!S21(Full 2 Port(1,2)) 
!S12(Full 2 Port(1,2)) 
!S22(Full 2 Port(1,2)) 
!S2P File: Measurements: S11, S21, S12, S22:
# Hz S  RI   R 50
300000 9.924639e-001 4.421684e-003 1.815176e-004 1.192701e-004 -2.302982e-005 -3.550409e-004 9.915666e-001 5.314813e-003
1049985 9.938818e-001 2.698495e-003 -8.901678e-006 7.732975e-005 2.257394e-005 -7.774292e-005 9.825864e-001 4.774921e-003
1799970 9.921753e-001 8.834930e-003 1.387332e-005 -5.429076e-005 -1.152631e-004 6.635276e-005 9.971333e-001 -6.286292e-003
2549955 9.983298e-001 2.730061e-004 -8.147713e-005 -5.070759e-005 5.558399e-005 6.630892e-005 9.981248e-001 -4.458182e-003
3299940 9.982784e-001 -1.301322e-003 2.642827e-005 6.792374e-005 7.612730e-005 -6.702243e-005 9.981164e-001 -7.292293e-003
4049925 9.990728e-001 -1.077120e-003 -6.191690e-005 -4.286067e-005 2.570125e-005 7.725851e-005 9.957134e-001 -5.785076e-003
4799910 9.977638e-001 -2.416183e-003 2.668491e-005 -1.056749e-005 -8.974293e-006 2.059244e-004 9.947888e-001 -5.798286e-003
5549895 9.979357e-001 -3.099686e-003 -9.893542e-005 -1.018372e-004 5.822707e-005 -7.873471e-005 9.944061e-001 -5.895755e-003
6299880 9.983875e-001 -3.976458e-003 1.416374e-004 6.393639e-005 5.260939e-005 -3.006649e-007 9.939349e-001 -5.528757e-003
7049865 9.980165e-001 -4.277184e-003 -1.262067e-005 4.332376e-005 -8.778107e-005 -4.928157e-005 9.951252e-001 -8.401749e-003
7799850 9.979498e-001 -3.973931e-003 -2.532365e-005 -2.137811e-005 -3.286536e-005 -1.801353e-004 9.939502e-001 -7.656870e-003
8549835 9.974028e-001 -3.265805e-003 -1.742423e-006 -2.418892e-006 6.826653e-005 1.163332e-004 9.941590e-001 -7.977794e-003
9299820 9.970853e-001 -3.708910e-003 -4.645213e-005 -4.231586e-006 -3.774539e-005 6.409040e-005 9.943404e-001 -9.121531e-003
10049805 9.979320e-001 -4.979699e-003 4.115249e-005 3.131794e-005 6.766220e-005 3.927541e-006 9.951685e-001 -1.142638e-002
10799790 9.985406e-001 -5.459220e-003 4.413640e-005 1.566152e-005 7.865799e-005 -1.142765e-004 9.951655e-001 -1.177388e-002
11549775 9.979032e-001 -5.179239e-003 9.217057e-006 9.020275e-006 -1.483151e-004 -1.207462e-005 9.943939e-001 -9.829995e-003
12299760 9.982468e-001 -5.590409e-003 -4.388927e-005 -6.046147e-005 -1.328952e-004 2.487593e-005 9.947174e-001 -1.242589e-002
13049745 9.986222e-001 -5.834487e-003 2.474125e-005 3.818941e-005 1.491422e-004 6.625390e-005 9.956208e-001 -1.283470e-002
13799730 9.976414e-001 -6.879976e-003 8.996769e-006 -2.277566e-005 -2.011086e-004 4.009754e-005 9.947639e-001 -1.504265e-002
14549715 9.975736e-001 -7.332104e-003 7.476401e-006 -2.626366e-005 -4.160850e-004 7.095969e-005 9.942619e-001 -1.516946e-002
15299700 9.981890e-001 -8.009747e-003 -2.871433e-005 -4.050260e-005 -1.175013e-004 -5.095407e-005 9.943230e-001 -1.564402e-002
16049685 9.977795e-001 -7.501183e-003 5.229433e-006 2.429480e-005 9.016762e-006 2.157985e-004 9.956660e-001 -1.596555e-002
16799670 9.974517e-001 -8.087412e-003 -3.698059e-005 2.220357e-005 -2.813488e-004 -2.102987e-004 9.945973e-001 -1.638325e-002
17549655 9.979119e-001 -8.226252e-003 -1.765721e-005 1.533399e-005 1.910787e-004 -7.219128e-005 9.948236e-001 -1.918469e-002
18299640 9.975597e-001 -9.027202e-003 2.824330e-005 -1.654294e-005 2.155033e-004 -2.162526e-004 9.938039e-001 -1.830705e-002
19049625 9.975699e-001 -9.567401e-003 -8.226056e-005 -3.406129e-005 2.674818e-004 7.627287e-005 9.950516e-001 -1.982874e-002
19799610 9.976618e-001 -8.360780e-003 2.509112e-005 -4.677227e-005 2.284560e-005 4.238480e-004 9.931605e-001 -1.830769e-002
20549595 9.974441e-001 -1.004421e-002 -2.239044e-005 2.666273e-005 2.188895e-005 6.165262e-005 9.940930e-001 -1.914229e-002
21299580 9.973380e-001 -9.423698e-003 4.846289e-005 -2.231510e-006 -1.685500e-004 1.139465e-004 9.947733e-001 -2.019669e-002
22049565 9.985915e-001 -1.084806e-002 8.223749e-005 -9.733355e-006 -3.398517e-004 2.931309e-004 9.922585e-001 -2.014985e-002
22799550 9.991090e-001 -1.122693e-002 8.024074e-005 -7.206044e-005 -3.654677e-004 2.839919e-004 9.926512e-001 -2.061473e-002
23549535 9.979183e-001 -1.062838e-002 -1.463206e-005 -3.510455e-005 -3.834422e-004 1.269258e-004 9.928237e-001 -1.974465e-002
24299520 9.979104e-001 -1.120883e-002 -4.858311e-005 5.605057e-005 -3.309929e-004 -1.200824e-004 9.942638e-001 -2.257877e-002
25049505 9.980735e-001 -1.135504e-002 5.694701e-005 -2.449138e-005 -3.219309e-005 -6.325362e-005 9.949210e-001 -2.418338e-002
25799490 9.974238e-001 -1.130064e-002 -1.215560e-004 -1.930375e-006 2.349527e-005 7.183386e-006 9.943516e-001 -2.345668e-002
26549475 9.973738e-001 -1.104949e-002 4.432095e-005 -6.547412e-005 3.408982e-005 -1.867579e-004 9.914092e-001 -2.409544e-002
27299460 9.984821e-001 -1.151778e-002 5.112352e-005 -1.879980e-005 1.098002e-004 -3.002936e-004 9.934480e-001 -2.548721e-002
28049445 9.977556e-001 -1.300891e-002 -6.749595e-005 -1.308929e-004 2.841272e-004 -6.104272e-005 9.924229e-001 -2.656992e-002
28799430 9.981700e-001 -1.230634e-002 -5.866505e-005 -6.457681e-005 2.830754e-004 2.807085e-004 9.936643e-001 -2.604972e-002
29549415 9.979149e-001 -1.310991e-002 -7.494938e-005 5.940895e-005 1.192705e-004 3.027018e-004 9.939163e-001 -2.680357e-002
30299400 9.979618e-001 -1.403474e-002 5.758121e-006 -2.068554e-005 1.651332e-004 2.268825e-004 9.926510e-001 -2.754056e-002
31049385 9.972205e-001 -1.412424e-002 1.097126e-004 7.251990e-005 -6.213271e-005 2.235602e-004 9.913648e-001 -2.786937e-002
31799370 9.976863e-001 -1.452554e-002 1.153617e-004 4.161620e-006 -5.904865e-005 -3.434914e-005 9.921683e-001 -2.774489e-002
32549355 9.966991e-001 -1.427972e-002 -2.598454e-005 4.551158e-005 7.078268e-005 -2.779075e-004 9.917457e-001 -2.953431e-002
33299340 9.976668e-001 -1.425412e-002 -1.513589e-005 -2.371670e-005 -1.478140e-005 -7.109997e-005 9.931757e-001 -2.954209e-002
34049325 9.971100e-001 -1.512123e-002 4.102903e-005 1.172748e-005 4.134492e-005 -1.052397e-004 9.927624e-001 -3.061601e-002
34799310 9.986567e-001 -1.565506e-002 4.243498e-005 -5.351567e-006 1.337460e-004 -4.353677e-005 9.930309e-001 -3.018634e-002
35549295 9.977219e-001 -1.605049e-002 6.933640e-005 -1.093341e-004 1.389564e-004 4.530950e-005 9.929233e-001 -3.081238e-002
36299280 9.974291e-001 -1.606832e-002 7.751152e-005 2.663913e-005 7.866301e-005 1.845542e-004 9.928996e-001 -3.184812e-002
37049265 9.975438e-001 -1.656090e-002 -3.263789e-005 1.099491e-004 2.851212e-005 4.415548e-005 9.937224e-001 -3.430482e-002
37799250 9.975988e-001 -1.622953e-002 6.823510e-006 4.770091e-005 -9.411363e-005 -2.515749e-005 9.931508e-001 -3.377009e-002
38549235 9.968265e-001 -1.711582e-002 6.624734e-005 1.106366e-004 -7.879947e-005 -2.569330e-004 9.944224e-001 -3.487070e-002
39299220 9.974397e-001 -1.720261e-002 3.199269e-005 -5.243720e-005 1.853293e-004 -7.163614e-005 9.918822e-001 -3.555416e-002
40049205 9.987066e-001 -1.806495e-002 7.220253e-005 2.924716e-004 -1.195057e-004 -4.958421e-005 9.943793e-001 -3.441025e-002
40799190 9.983761e-001 -1.901664e-002 7.612506e-005 6.338443e-005 -1.333249e-004 -8.294555e-005 9.924884e-001 -3.733796e-002
41549175 9.973972e-001 -1.864520e-002 4.977016e-005 -5.951984e-005 2.649231e-004 7.437038e-005 9.920469e-001 -3.778935e-002
42299160 9.965325e-001 -1.943586e-002 -4.115461e-005 -1.659826e-004 2.473047e-005 -9.565760e-005 9.937868e-001 -3.567442e-002
43049145 9.970224e-001 -1.965514e-002 -3.357912e-005 -1.628804e-004 -1.303925e-004 3.014068e-004 9.927026e-001 -3.909426e-002
43799130 9.978642e-001 -2.017186e-002 1.345227e-004 -1.687303e-005 -1.898037e-004 1.324099e-005 9.923506e-001 -4.090877e-002
44549115 9.982268e-001 -1.915364e-002 1.565882e-004 -9.636401e-005 3.416755e-005 1.244861e-004 9.923260e-001 -3.891774e-002
45299100 9.982473e-001 -1.833034e-002 2.672105e-005 4.705902e-006 5.450208e-005 1.439321e-004 9.928012e-001 -3.903931e-002
46049085 9.984275e-001 -2.157995e-002 1.276498e-004 5.765091e-005 -3.185887e-004 -2.188553e-004 9.916682e-001 -4.325256e-002
46799070 9.972754e-001 -1.972382e-002 -1.067061e-005 9.461255e-006 3.958135e-005 3.942474e-006 9.959481e-001 -4.508956e-002
47549055 9.978626e-001 -2.238884e-002 2.175630e-005 -2.282364e-004 -1.440192e-004 -6.191259e-004 9.910430e-001 -4.267365e-002
48299040 9.966732e-001 -2.209339e-002 -3.787181e-006 5.521697e-005 -4.362556e-005 -1.574210e-004 9.919670e-001 -4.363534e-002
49049025 9.971499e-001 -2.263756e-002 -8.575134e-005 -8.100473e-005 1.625723e-004 -4.449604e-004 9.937497e-001 -4.648160e-002
49799010 9.966229e-001 -2.225198e-002 -1.783559e-006 7.796497e-005 5.460186e-005 -7.778344e-005 9.918629e-001 -4.785033e-002
50548995 9.969884e-001 -2.162996e-002 -4.518002e-005 4.102841e-005 2.394667e-005 1.557766e-004 9.924062e-001 -4.410456e-002
51298980 9.978222e-001 -2.174176e-002 -1.139479e-004 -7.261350e-005 1.290412e-004 -2.142965e-005 9.937590e-001 -4.420171e-002
52048965 9.969209e-001 -2.324674e-002 2.269383e-005 -7.809031e-007 2.130845e-004 1.933029e-004 9.930987e-001 -5.080693e-002
52798950 9.973376e-001 -2.421966e-002 -6.054246e-007 -9.250455e-005 7.429886e-005 3.518901e-004 9.905970e-001 -4.704359e-002
53548935 9.978726e-001 -2.421474e-002 5.319578e-005 -5.851922e-005 2.890998e-004 -2.609266e-004 9.903461e-001 -4.858798e-002
54298920 9.985194e-001 -2.394613e-002 -3.129400e-005 2.783253e-005 3.819847e-004 -5.106167e-004 9.924603e-001 -5.080123e-002
55048905 9.975801e-001 -2.507354e-002 7.220857e-005 -6.499793e-005 -2.071642e-005 1.204401e-004 9.933775e-001 -5.089778e-002
55798890 9.981781e-001 -2.393592e-002 -4.310518e-005 -4.454428e-005 1.658652e-004 -1.329236e-005 9.933078e-001 -4.925682e-002
56548875 9.963034e-001 -2.353105e-002 -5.398860e-005 -7.722675e-006 2.351863e-005 -7.351614e-005 9.917256e-001 -4.918335e-002
57298860 9.977388e-001 -2.543447e-002 6.408132e-006 2.819985e-005 -9.796611e-005 3.114005e-004 9.917051e-001 -5.132066e-002
58048845 9.975777e-001 -2.630014e-002 -6.008635e-005 -6.293146e-005 -1.094331e-004 3.321637e-004 9.910756e-001 -5.293381e-002
58798830 9.969814e-001 -2.552627e-002 -2.332010e-005 -1.791476e-004 -9.406435e-006 5.176380e-005 9.907423e-001 -5.159405e-002
59548815 9.972341e-001 -2.550901e-002 -8.839415e-005 7.875486e-005 -5.959759e-004 6.182950e-005 9.919616e-001 -5.295932e-002
60298800 9.974877e-001 -2.642366e-002 -8.562289e-005 4.591936e-005 -4.249977e-004 -1.360347e-005 9.909206e-001 -5.386420e-002
61048785 9.975176e-001 -2.692335e-002 -6.069942e-005 5.985281e-005 -2.932356e-005 -2.462446e-004 9.899070e-001 -5.205224e-002
61798770 9.969779e-001 -2.689708e-002 5.680757e-005 9.874340e-005 4.820552e-006 -1.094801e-004 9.940737e-001 -5.377417e-002
62548755 9.965214e-001 -2.757245e-002 -7.955475e-005 -1.661118e-004 1.365636e-004 -1.093209e-004 9.989201e-001 -5.579950e-002
63298740 9.962608e-001 -2.705765e-002 -1.519112e-005 -5.939845e-005 -6.873748e-005 -2.742973e-004 9.965148e-001 -5.634354e-002
64048725 9.968591e-001 -2.792388e-002 -5.249102e-005 -1.136173e-004 -1.850119e-004 -1.745229e-004 9.894401e-001 -5.633582e-002
64798710 9.980201e-001 -2.878309e-002 -3.516459e-005 -4.635017e-005 -2.158644e-004 -3.127512e-004 9.919981e-001 -5.852570e-002
65548695 9.968261e-001 -2.883690e-002 -4.074224e-005 -4.497388e-006 2.194481e-004 9.426469e-005 9.869004e-001 -5.658521e-002
66298680 9.968435e-001 -2.795209e-002 1.538199e-005 1.250612e-005 -2.068960e-004 -2.226093e-004 9.931394e-001 -6.002743e-002
67048665 9.971647e-001 -3.025308e-002 -5.475569e-005 -7.134593e-006 3.910739e-004 -2.799042e-004 9.910811e-001 -6.059907e-002
67798650 9.977303e-001 -2.954533e-002 1.289452e-004 -5.454125e-005 -1.663030e-004 -4.310008e-005 9.929934e-001 -6.049882e-002
68548635 9.959783e-001 -3.005479e-002 2.563824e-005 4.565109e-005 3.828936e-004 3.608240e-004 9.900610e-001 -6.253998e-002
69298620 9.965260e-001 -3.046948e-002 3.145961e-005 -4.276598e-005 3.966926e-004 2.417223e-005 9.901358e-001 -6.007185e-002
70048605 9.968750e-001 -3.180067e-002 7.842090e-005 -1.293813e-004 -1.130911e-004 2.159274e-004 9.908713e-001 -6.183429e-002
70798590 9.963895e-001 -3.052026e-002 1.416480e-004 1.147956e-004 -1.332229e-004 1.664468e-004 9.903666e-001 -6.133286e-002
71548575 9.982232e-001 -3.105294e-002 -5.874647e-005 -9.242378e-005 2.731775e-004 1.739341e-004 9.910085e-001 -6.333068e-002
72298560 9.966841e-001 -3.090799e-002 -2.307476e-004 1.118545e-004 -1.104633e-004 -2.372656e-004 9.899660e-001 -6.178856e-002
73048545 9.963883e-001 -3.204854e-002 5.522951e-005 -1.977352e-004 1.996115e-005 1.474567e-004 9.915063e-001 -6.265710e-002
73798530 9.970273e-001 -3.197832e-002 -9.154953e-005 -3.389634e-005 -3.147783e-004 3.235020e-005 9.893729e-001 -6.221588e-002
74548515 9.970977e-001 -3.222413e-002 1.197835e-004 -9.177840e-005 -6.766803e-006 -2.880731e-004 9.897764e-001 -6.464768e-002
75298500 9.963164e-001 -3.110631e-002 -4.403888e-005 5.051374e-006 1.664268e-004 3.387875e-004 9.893476e-001 -6.668425e-002
76048485 9.962185e-001 -3.300807e-002 -1.976345e-005 -2.457511e-004 -1.374874e-004 1.431678e-004 9.885807e-001 -6.718471e-002
76798470 9.956176e-001 -3.301976e-002 1.044531e-004 -1.265972e-005 -1.327068e-005 -1.831794e-004 9.911134e-001 -6.769583e-002
77548455 9.955065e-001 -3.349060e-002 2.249820e-006 3.908150e-005 -1.030114e-004 1.462456e-004 9.887648e-001 -6.670611e-002
78298440 9.959382e-001 -3.603451e-002 -4.476356e-005 -1.110864e-004 4.598806e-004 -1.032922e-004 9.921047e-001 -7.011350e-002
79048425 9.953587e-001 -3.568073e-002 4.492007e-005 7.756393e-005 6.526689e-005 1.432282e-004 9.887443e-001 -6.919108e-002
79798410 9.954466e-001 -3.584832e-002 -1.524205e-005 -3.459967e-004 2.974330e-005 -2.297934e-004 9.895003e-001 -6.916979e-002
80548395 9.955397e-001 -3.586626e-002 1.132251e-004 -6.939450e-005 -1.959566e-004 -3.566852e-005 9.908099e-001 -6.838356e-002
81298380 9.983113e-001 -3.619629e-002 -8.502463e-005 9.003770e-006 3.379932e-004 2.387579e-005 9.901511e-001 -7.182977e-002
82048365 9.979792e-001 -3.685453e-002 4.681764e-005 -2.404752e-007 2.099866e-004 -1.084975e-004 9.888052e-001 -7.050811e-002
82798350 9.977039e-001 -3.746579e-002 -6.008029e-005 1.171572e-004 1.033427e-006 2.609657e-005 9.914082e-001 -6.989919e-002
83548335 9.968137e-001 -3.695250e-002 4.033048e-005 -9.376402e-005 3.548124e-005 1.022669e-004 9.888939e-001 -7.524117e-002
84298320 9.962742e-001 -3.540262e-002 -8.821539e-005 -3.000165e-005 2.223271e-004 -1.673979e-004 9.897119e-001 -7.402366e-002
85048305 9.978749e-001 -3.556152e-002 1.232077e-005 -5.024681e-005 -3.396420e-004 -3.790806e-004 9.884343e-001 -7.420764e-002
85798290 9.953258e-001 -3.751519e-002 -1.084079e-005 3.196233e-005 2.301216e-004 1.360740e-004 9.907317e-001 -7.587364e-002
86548275 9.970008e-001 -3.820790e-002 -1.456125e-004 -4.100987e-005 -1.100891e-004 -1.173693e-004 9.908395e-001 -7.758675e-002
87298260 9.989848e-001 -3.861092e-002 9.173109e-005 6.753310e-005 3.493066e-004 1.176639e-004 9.893703e-001 -7.815884e-002
88048245 9.977939e-001 -3.876944e-002 6.663608e-005 -8.974556e-005 4.291150e-004 -5.135314e-005 9.893525e-001 -7.910803e-002
88798230 9.953678e-001 -3.921763e-002 1.167689e-004 -1.754453e-005 4.385015e-006 2.291090e-004 9.893557e-001 -7.959776e-002
89548215 9.968703e-001 -3.851512e-002 -9.183586e-005 8.189335e-005 1.197638e-004 2.177494e-004 9.883986e-001 -8.181990e-002
90298200 9.981325e-001 -3.952387e-002 3.240001e-005 9.619422e-005 3.883395e-004 -1.318661e-004 9.913664e-001 -8.302481e-002
91048185 9.953368e-001 -4.000273e-002 -5.629255e-005 9.168460e-005 4.162978e-007 -1.444977e-004 9.893523e-001 -7.943512e-002
91798170 9.959648e-001 -4.158959e-002 -5.736138e-006 -1.753950e-004 3.332170e-006 2.689439e-005 9.880058e-001 -8.044984e-002
92548155 9.977514e-001 -4.155358e-002 -3.673590e-005 -1.769663e-006 1.300982e-004 4.866890e-005 9.905710e-001 -8.362106e-002
93298140 9.959776e-001 -4.123717e-002 -1.224944e-004 1.755849e-004 1.024034e-004 -7.661969e-005 9.881129e-001 -8.513299e-002
94048125 9.976453e-001 -4.253328e-002 1.989104e-006 4.792438e-005 3.899245e-004 4.590728e-004 9.876119e-001 -8.624820e-002
94798110 9.982136e-001 -4.101045e-002 -7.590722e-005 -1.570040e-004 4.137979e-004 -8.092127e-005 9.880628e-001 -8.478221e-002
95548095 9.973521e-001 -4.020560e-002 -1.296051e-004 -7.387602e-005 4.140113e-005 1.996671e-004 9.881392e-001 -8.263971e-002
96298080 9.972197e-001 -4.080175e-002 1.016140e-006 -1.362866e-004 7.493381e-005 9.628460e-005 9.897264e-001 -8.523500e-002
97048065 9.962613e-001 -4.192590e-002 5.992882e-006 3.884369e-005 1.354915e-004 -7.382807e-005 9.913526e-001 -8.835544e-002
97798050 9.970016e-001 -4.446425e-002 -1.568560e-004 -1.279316e-004 5.539665e-005 6.245147e-004 9.904239e-001 -8.694381e-002
98548035 9.948835e-001 -4.379679e-002 9.283937e-005 -8.099640e-005 1.255053e-004 -2.160701e-004 9.884120e-001 -8.839710e-002
99298020 9.968941e-001 -4.265913e-002 -9.125264e-005 2.400343e-004 3.429685e-004 -2.971969e-004 9.885482e-001 -8.914942e-002
100048005 9.965338e-001 -4.233760e-002 5.725287e-005 1.828124e-004 1.345845e-004 -8.120326e-005 9.890948e-001 -8.977429e-002
100797990 9.954454e-001 -4.460862e-002 -5.717046e-005 -1.142839e-004 9.881720e-005 1.858811e-004 9.888817e-001 -8.787519e-002
101547975 9.960265e-001 -4.304024e-002 2.333147e-005 2.172778e-005 -9.881440e-005 3.845114e-005 9.874514e-001 -8.659912e-002
102297960 9.950015e-001 -4.560767e-002 4.831265e-005 2.138814e-004 -4.769796e-004 1.215138e-004 9.893230e-001 -8.983819e-002
103047945 9.955084e-001 -4.499104e-002 -1.302175e-004 -2.811242e-005 -1.866075e-004 5.549389e-005 9.905667e-001 -9.106873e-002
103797930 9.968394e-001 -4.438018e-002 1.777092e-004 1.524092e-004 -3.230317e-004 1.009275e-004 9.856585e-001 -9.126984e-002
104547915 9.960180e-001 -4.553199e-002 4.565356e-005 -1.762250e-005 -9.830072e-005 1.864580e-004 9.890744e-001 -9.484295e-002
105297900 9.951867e-001 -4.561062e-002 1.290398e-004 5.208488e-005 1.702241e-005 1.700981e-004 9.899790e-001 -9.597135e-002
106047885 9.966029e-001 -4.510231e-002 4.893195e-005 -9.919144e-005 -7.380289e-004 -5.311671e-004 9.880868e-001 -9.577681e-002
106797870 9.969450e-001 -4.683733e-002 -1.297887e-004 3.971736e-006 4.869725e-006 -2.701626e-004 9.888771e-001 -9.308890e-002
107547855 9.945322e-001 -4.687007e-002 -1.493729e-004 -5.459705e-005 -7.269414e-005 -5.792652e-005 9.884778e-001 -9.238306e-002
108297840 9.936214e-001 -4.801682e-002 -1.914239e-004 -5.214737e-005 -1.414568e-004 -2.511355e-004 9.886696e-001 -9.318209e-002
109047825 9.957929e-001 -4.639107e-002 9.809309e-005 8.099116e-006 -1.487259e-004 -5.061999e-005 9.881872e-001 -9.470560e-002
109797810 9.958661e-001 -4.760464e-002 2.941185e-005 -2.491717e-005 -1.112235e-004 3.468748e-004 9.852539e-001 -9.691043e-002
110547795 9.954616e-001 -4.832149e-002 -2.069339e-004 -7.571212e-005 -7.941575e-005 2.906083e-004 9.858663e-001 -9.551616e-002
111297780 9.959605e-001 -4.796207e-002 -1.578106e-004 1.758770e-005 2.781400e-004 -2.525353e-004 9.868476e-001 -9.971896e-002
112047765 9.956622e-001 -4.965884e-002 -2.776190e-005 3.585694e-005 2.316931e-004 -1.920955e-004 9.889317e-001 -9.900482e-002
112797750 9.959317e-001 -4.984804e-002 -1.322075e-004 6.497296e-005 1.345731e-004 -3.184119e-004 9.868098e-001 -9.800073e-002
113547735 9.954827e-001 -4.908211e-002 1.297614e-004 6.056166e-005 3.451341e-004 -3.909236e-004 9.862837e-001 -1.006528e-001
114297720 9.957476e-001 -5.059726e-002 8.970618e-005 3.497865e-005 5.796002e-005 2.467131e-004 9.875315e-001 -1.015211e-001
115047705 9.947523e-001 -5.017672e-002 -3.344443e-005 -6.875553e-005 -7.486576e-006 -2.928489e-004 9.881037e-001 -1.033560e-001
115797690 9.939950e-001 -5.009442e-002 1.607624e-005 8.801612e-005 -4.032984e-004 -9.071871e-005 9.866310e-001 -1.006294e-001
116547675 9.949458e-001 -5.073793e-002 2.324092e-005 -4.079169e-005 -2.851863e-004 -1.254298e-004 9.869515e-001 -1.030646e-001
