!Agilent Technologies,N5230C,SG49000117,A.08.50.07
!Agilent N5230C: A.08.50.07
!Date: Monday, December 11, 2023 21:29:53
!Correction: S11(Full 2 Port(1,2)) 
!S21(Full 2 Port(1,2)) 
!S12(Full 2 Port(1,2)) 
!S22(Full 2 Port(1,2)) 
!S2P File: Measurements: S11, S21, S12, S22:
# Hz S  RI   R 50
300000 9.910331e-001 6.222764e-003 -5.391331e-005 9.876557e-005 -2.866356e-004 -1.158370e-004 9.958428e-001 8.186531e-003
1049985 9.934592e-001 3.582567e-003 -7.860427e-005 6.016575e-005 8.068384e-005 2.858631e-004 9.824419e-001 3.131283e-003
1799970 9.926889e-001 8.088293e-003 3.587686e-005 1.205463e-004 7.224284e-005 -7.852633e-005 9.968511e-001 -5.457745e-003
2549955 9.989170e-001 -4.806588e-004 -6.934255e-005 -8.592803e-005 -2.512977e-004 -2.366779e-004 9.962825e-001 -5.242937e-003
3299940 9.989800e-001 -2.061503e-003 1.183059e-005 8.036217e-005 -6.978173e-005 1.113088e-004 9.977945e-001 -7.089438e-003
4049925 9.989111e-001 -1.292532e-003 -2.333180e-007 -3.290981e-005 1.348432e-004 8.422208e-005 9.955831e-001 -6.004284e-003
4799910 9.983979e-001 -1.878769e-003 -7.649757e-005 4.499696e-005 -1.985715e-004 2.371125e-005 9.939415e-001 -5.171657e-003
5549895 9.978209e-001 -3.608602e-003 7.395836e-006 1.676440e-005 -6.386041e-005 -9.909159e-006 9.944734e-001 -5.873369e-003
6299880 9.981443e-001 -3.509841e-003 2.688439e-005 5.152432e-005 -1.379086e-004 -9.054948e-005 9.949499e-001 -6.446281e-003
7049865 9.980441e-001 -4.002464e-003 9.820159e-006 -3.357743e-006 -1.235287e-004 1.000647e-004 9.950532e-001 -7.916184e-003
7799850 9.983871e-001 -3.756403e-003 4.770298e-005 -2.645703e-005 -7.243895e-005 1.588554e-004 9.932860e-001 -7.392935e-003
8549835 9.975865e-001 -3.037174e-003 -6.523291e-005 6.542053e-005 1.068090e-004 -2.029109e-006 9.942297e-001 -8.201008e-003
9299820 9.975269e-001 -3.888437e-003 3.713803e-005 -6.444343e-005 2.901929e-005 4.739517e-005 9.941083e-001 -9.021793e-003
10049805 9.979493e-001 -5.006779e-003 6.195588e-005 -3.455498e-005 5.070964e-005 -4.500664e-005 9.950287e-001 -9.828170e-003
10799790 9.985334e-001 -5.138740e-003 4.140333e-005 -6.088368e-005 1.253983e-004 -1.825707e-004 9.955506e-001 -1.137507e-002
11549775 9.986476e-001 -5.056733e-003 6.512648e-006 1.580185e-005 -1.126189e-004 2.305573e-004 9.942122e-001 -1.044655e-002
12299760 9.985632e-001 -5.721407e-003 4.363025e-005 -6.344647e-005 1.863082e-004 7.672916e-005 9.927308e-001 -1.334635e-002
13049745 9.988163e-001 -5.695292e-003 -4.830360e-005 -9.497810e-005 2.801875e-005 8.467968e-005 9.945018e-001 -1.418350e-002
13799730 9.980699e-001 -6.172908e-003 6.230703e-006 -4.220860e-005 1.594904e-004 -2.383399e-004 9.944851e-001 -1.475385e-002
14549715 9.982360e-001 -7.074977e-003 4.362357e-005 -1.098360e-004 1.448857e-004 3.131579e-004 9.927187e-001 -1.538579e-002
15299700 9.976284e-001 -7.892940e-003 3.456685e-006 4.345109e-005 -4.966433e-005 -7.157067e-005 9.936149e-001 -1.687740e-002
16049685 9.974432e-001 -7.986405e-003 7.195759e-006 1.518690e-005 6.951311e-006 6.341571e-005 9.943879e-001 -1.605256e-002
16799670 9.977189e-001 -8.072259e-003 -1.049660e-004 -5.595481e-005 1.883878e-004 2.554093e-004 9.942107e-001 -1.822412e-002
17549655 9.976614e-001 -7.967662e-003 3.794003e-005 -1.604307e-005 -7.852796e-005 -1.881797e-005 9.940501e-001 -1.973646e-002
18299640 9.984099e-001 -8.020423e-003 -7.331384e-005 -3.310517e-005 -1.327962e-004 -7.262515e-005 9.935782e-001 -1.776627e-002
19049625 9.980708e-001 -9.266361e-003 -5.421064e-005 4.734215e-005 -2.320584e-004 -1.268388e-004 9.933404e-001 -2.060325e-002
19799610 9.982834e-001 -8.663033e-003 -7.332553e-005 2.153643e-006 -8.901337e-005 -1.488449e-004 9.939092e-001 -1.825930e-002
20549595 9.971279e-001 -1.030650e-002 4.668127e-005 7.485268e-005 9.548919e-005 -1.806896e-004 9.934856e-001 -1.812247e-002
21299580 9.981240e-001 -9.739010e-003 6.254620e-005 3.890594e-005 1.950554e-005 -1.422152e-004 9.947999e-001 -2.009241e-002
22049565 9.985137e-001 -1.076349e-002 1.571355e-005 -3.428985e-005 -1.222808e-004 2.798142e-004 9.933118e-001 -2.018693e-002
22799550 9.986098e-001 -1.086191e-002 4.970510e-006 -2.594217e-005 -1.667738e-004 1.843865e-004 9.922021e-001 -2.000911e-002
23549535 9.982937e-001 -1.084167e-002 4.959842e-005 4.825393e-005 -9.072713e-005 2.382219e-004 9.934726e-001 -2.085117e-002
24299520 9.980619e-001 -1.077019e-002 4.366244e-006 1.217327e-004 7.950961e-005 -5.192763e-005 9.925499e-001 -2.229952e-002
25049505 9.984311e-001 -1.139624e-002 5.309514e-005 -8.205040e-005 -2.061760e-004 -2.624191e-004 9.939910e-001 -2.428208e-002
25799490 9.973479e-001 -1.100095e-002 1.913225e-005 -6.007318e-005 1.976131e-004 -1.801639e-004 9.945830e-001 -2.317741e-002
26549475 9.969658e-001 -1.102515e-002 -1.678447e-005 7.371096e-005 1.572607e-004 1.848734e-004 9.911389e-001 -2.318196e-002
27299460 9.985222e-001 -1.274952e-002 -7.771001e-005 -3.255473e-005 1.136330e-004 1.451962e-004 9.930525e-001 -2.631767e-002
28049445 9.986475e-001 -1.270345e-002 3.491836e-005 4.977275e-005 1.497387e-004 -6.332955e-005 9.924153e-001 -2.707590e-002
28799430 9.982835e-001 -1.250292e-002 1.403718e-005 1.433655e-004 -1.072520e-004 2.805795e-004 9.935529e-001 -2.634122e-002
29549415 9.981923e-001 -1.273982e-002 -6.483245e-005 -1.491665e-005 -2.317605e-004 1.311026e-004 9.947542e-001 -2.726343e-002
30299400 9.981024e-001 -1.424944e-002 -1.440627e-005 -5.132292e-005 -1.793241e-004 -1.697618e-004 9.935781e-001 -2.655176e-002
31049385 9.974586e-001 -1.407623e-002 1.667496e-005 -1.539239e-005 -5.975587e-005 -1.879439e-004 9.910131e-001 -2.784236e-002
31799370 9.973930e-001 -1.364892e-002 -2.934539e-005 -2.921625e-006 1.345827e-004 -5.421855e-005 9.913976e-001 -2.833453e-002
32549355 9.970641e-001 -1.330336e-002 2.574308e-005 1.800983e-005 3.204865e-005 -1.857433e-005 9.929065e-001 -2.983882e-002
33299340 9.981288e-001 -1.475834e-002 -1.092970e-004 -8.301858e-006 -1.410390e-004 1.721541e-004 9.921768e-001 -3.096574e-002
34049325 9.969511e-001 -1.528243e-002 -3.321188e-005 3.258453e-005 -2.835300e-004 4.931334e-006 9.925159e-001 -3.048795e-002
34799310 9.986619e-001 -1.523450e-002 6.522623e-005 1.661260e-005 -1.560050e-004 -5.919824e-005 9.932287e-001 -3.079761e-002
35549295 9.978534e-001 -1.623126e-002 -1.157311e-005 -4.660093e-005 -4.528825e-005 -5.721405e-005 9.934176e-001 -3.123945e-002
36299280 9.978770e-001 -1.622626e-002 -8.207033e-005 -5.298699e-005 2.817629e-005 -3.366508e-004 9.937621e-001 -3.202406e-002
37049265 9.978249e-001 -1.644995e-002 4.061575e-005 8.518625e-005 1.054807e-005 -2.359038e-004 9.934913e-001 -3.438689e-002
37799250 9.973427e-001 -1.614822e-002 2.480449e-005 -4.734587e-005 2.330572e-004 1.462104e-004 9.937335e-001 -3.448314e-002
38549235 9.971189e-001 -1.691164e-002 8.339573e-006 2.661162e-005 2.977267e-004 1.758043e-004 9.944693e-001 -3.522875e-002
39299220 9.975779e-001 -1.700998e-002 8.561872e-005 -4.765547e-006 -4.348680e-005 -2.076718e-005 9.918936e-001 -3.436686e-002
40049205 9.988580e-001 -1.860305e-002 -2.344107e-004 -5.308670e-005 -2.237794e-004 2.035596e-004 9.947076e-001 -3.495524e-002
40799190 9.978773e-001 -1.905975e-002 -1.169129e-004 -9.082214e-005 -2.889792e-005 5.168740e-005 9.922795e-001 -3.669828e-002
41549175 9.961553e-001 -1.845135e-002 8.146870e-005 -1.389480e-004 -9.000428e-006 -6.971735e-005 9.921019e-001 -3.906522e-002
42299160 9.969056e-001 -1.786708e-002 -2.038037e-005 -1.115039e-004 -2.318803e-004 -1.659275e-004 9.940300e-001 -3.658160e-002
43049145 9.971280e-001 -1.761159e-002 -8.762088e-005 -5.154027e-005 -2.126893e-005 -1.561745e-004 9.935645e-001 -3.900159e-002
43799130 9.982216e-001 -1.897283e-002 9.716287e-006 7.600827e-006 4.620368e-005 -1.908218e-004 9.908600e-001 -4.131460e-002
44549115 9.973838e-001 -1.840255e-002 -5.350592e-005 4.917984e-005 -1.133815e-004 7.001338e-005 9.911671e-001 -3.748217e-002
45299100 9.973039e-001 -1.984997e-002 -1.302755e-004 -7.227475e-005 3.728953e-004 1.747268e-004 9.936045e-001 -3.924292e-002
46049085 9.978971e-001 -2.076409e-002 -4.259103e-005 -8.408531e-005 3.222047e-004 -2.263217e-004 9.908460e-001 -4.463469e-002
46799070 9.993846e-001 -1.977056e-002 -4.323375e-005 1.309223e-004 2.635164e-005 -1.279020e-004 9.945499e-001 -4.456517e-002
47549055 9.979282e-001 -2.220336e-002 -1.071188e-004 -4.477306e-005 1.393573e-004 -4.458010e-005 9.901960e-001 -4.220467e-002
48299040 9.975790e-001 -2.256403e-002 -5.081967e-005 2.248617e-004 1.781337e-004 2.911847e-004 9.925964e-001 -4.323920e-002
49049025 9.973481e-001 -2.069158e-002 1.137550e-004 1.062698e-004 3.217849e-004 -2.198535e-004 9.963815e-001 -4.560711e-002
49799010 9.970310e-001 -2.173524e-002 6.541199e-005 3.550830e-005 1.594853e-004 1.340993e-004 9.923272e-001 -4.684989e-002
50548995 9.974141e-001 -2.193001e-002 -1.586211e-004 -7.230376e-005 -3.742859e-004 2.401979e-005 9.938760e-001 -4.310737e-002
51298980 9.981591e-001 -2.195248e-002 1.047362e-004 -2.270500e-004 -3.517583e-004 2.566737e-004 9.948147e-001 -4.535390e-002
52048965 9.981923e-001 -2.232602e-002 6.283578e-005 2.538846e-005 -1.445848e-004 -5.511380e-005 9.926702e-001 -5.042410e-002
52798950 9.977464e-001 -2.390082e-002 -5.601751e-005 -2.096757e-004 -3.192747e-004 9.577919e-005 9.922529e-001 -4.686410e-002
53548935 9.979036e-001 -2.456230e-002 -7.701272e-005 4.973193e-005 1.786253e-005 3.209984e-004 9.892288e-001 -4.959617e-002
54298920 9.985435e-001 -2.480997e-002 8.599273e-005 8.280040e-005 3.724642e-005 -1.822883e-004 9.926826e-001 -5.061781e-002
55048905 9.978971e-001 -2.411284e-002 -6.186078e-005 2.063232e-006 -2.428272e-004 -1.076970e-004 9.933724e-001 -5.248113e-002
55798890 9.971952e-001 -2.457964e-002 1.423906e-005 5.679205e-005 -2.091304e-004 -4.577803e-004 9.923199e-001 -5.008188e-002
56548875 9.965457e-001 -2.379970e-002 1.253465e-004 3.109840e-005 1.935762e-004 1.906586e-004 9.921779e-001 -4.868976e-002
57298860 9.987889e-001 -2.508099e-002 1.630390e-005 7.447693e-005 -4.885960e-004 -2.670184e-004 9.910225e-001 -5.238547e-002
58048845 9.976437e-001 -2.540953e-002 -3.942352e-005 6.760248e-005 -1.394391e-004 -2.868515e-004 9.922239e-001 -5.214712e-002
58798830 9.966185e-001 -2.527430e-002 -7.105105e-005 9.601496e-005 -3.391078e-004 1.187852e-004 9.893622e-001 -5.085971e-002
59548815 9.975306e-001 -2.568260e-002 -6.249762e-005 3.067266e-005 -2.041608e-004 5.351721e-005 9.915575e-001 -5.216946e-002
60298800 9.982381e-001 -2.617127e-002 -2.633195e-006 -6.561409e-006 -1.626637e-005 -8.216239e-005 9.908217e-001 -5.393510e-002
61048785 9.973774e-001 -2.760788e-002 -1.203409e-004 3.227249e-005 2.467591e-005 -4.930960e-004 9.904866e-001 -5.305060e-002
61798770 9.972017e-001 -2.758169e-002 -1.167012e-004 7.110801e-005 2.046068e-004 -1.698360e-004 9.925027e-001 -5.243516e-002
62548755 9.969643e-001 -2.670230e-002 3.430598e-005 1.224069e-004 3.692478e-004 8.259398e-005 9.952933e-001 -5.854111e-002
63298740 9.961713e-001 -2.703704e-002 -2.927991e-005 1.233977e-005 -9.756644e-005 1.035138e-004 9.939346e-001 -5.813984e-002
64048725 9.967668e-001 -2.754042e-002 -1.147679e-004 6.057102e-005 2.026622e-004 -1.994104e-004 9.882765e-001 -5.724093e-002
64798710 9.986202e-001 -2.874505e-002 -2.670219e-005 1.940617e-005 1.738782e-004 8.269780e-005 9.896536e-001 -5.820623e-002
65548695 9.974116e-001 -2.768360e-002 5.760715e-005 4.375665e-005 -2.179877e-005 1.390861e-004 9.895827e-001 -5.834591e-002
66298680 9.973500e-001 -2.816178e-002 -1.710903e-004 1.211792e-005 1.479880e-004 2.371170e-004 9.907799e-001 -5.656108e-002
67048665 9.970816e-001 -2.940260e-002 1.512782e-005 -9.748034e-005 -2.744029e-006 2.429227e-004 9.943280e-001 -6.398935e-002
67798650 9.977304e-001 -2.847913e-002 6.017040e-005 2.964411e-005 -2.306506e-004 1.707153e-004 9.924991e-001 -6.256191e-002
68548635 9.967262e-001 -3.034975e-002 6.485664e-005 9.933353e-005 -2.644602e-004 1.184116e-004 9.923840e-001 -6.080351e-002
69298620 9.977707e-001 -3.035989e-002 3.511076e-005 2.270490e-005 -3.552840e-006 -7.647095e-005 9.862179e-001 -5.964398e-002
70048605 9.967532e-001 -3.073715e-002 -2.903531e-005 -6.902778e-005 -6.861419e-004 1.576704e-004 9.905473e-001 -6.273442e-002
70798590 9.975448e-001 -3.138373e-002 4.551266e-005 1.039509e-004 2.535040e-004 -1.998479e-004 9.916553e-001 -6.268237e-002
71548575 9.976440e-001 -3.074329e-002 -2.936426e-005 1.071943e-004 1.027181e-004 2.768397e-005 9.922528e-001 -6.122415e-002
72298560 9.966947e-001 -2.947300e-002 2.106630e-006 6.587212e-005 -3.569672e-004 9.249638e-005 9.913057e-001 -6.007055e-002
73048545 9.972616e-001 -3.273683e-002 1.079787e-004 1.405084e-005 -5.053167e-004 3.502081e-006 9.911731e-001 -6.327026e-002
73798530 9.985510e-001 -3.269887e-002 -1.238044e-004 -2.061880e-004 3.984634e-005 1.558121e-004 9.900874e-001 -6.467146e-002
74548515 9.985438e-001 -3.186300e-002 -2.068044e-004 -9.170687e-006 2.995240e-004 -2.576842e-004 9.871557e-001 -6.532549e-002
75298500 9.955363e-001 -3.125853e-002 -2.106199e-005 2.083987e-005 1.712583e-004 -1.171857e-004 9.888346e-001 -6.615926e-002
76048485 9.965476e-001 -3.264252e-002 -1.100946e-005 9.709899e-005 -2.765382e-004 1.155956e-004 9.904087e-001 -6.698414e-002
76798470 9.961315e-001 -3.428100e-002 1.048586e-004 -7.418986e-005 2.712124e-004 4.073454e-004 9.907666e-001 -6.813525e-002
77548455 9.967719e-001 -3.454189e-002 -6.744947e-005 -1.254559e-004 2.050786e-004 1.967595e-004 9.897631e-001 -6.596737e-002
78298440 9.969103e-001 -3.560724e-002 8.712384e-005 -1.075501e-004 -2.585190e-004 1.714183e-005 9.892190e-001 -6.930406e-002
79048425 9.946534e-001 -3.507692e-002 8.676058e-005 3.794243e-005 -1.837652e-004 -2.875373e-004 9.889256e-001 -6.976330e-002
79798410 9.964180e-001 -3.531665e-002 1.212008e-005 -1.203057e-004 -3.874185e-005 -1.423690e-004 9.896703e-001 -6.864844e-002
80548395 9.959787e-001 -3.556331e-002 8.589655e-005 -1.167598e-004 8.264621e-006 -4.381522e-004 9.918437e-001 -7.061087e-002
81298380 9.980298e-001 -3.548227e-002 -2.686860e-006 -2.779895e-005 -5.599283e-005 -1.991011e-004 9.902393e-001 -7.025589e-002
82048365 9.987392e-001 -3.592516e-002 6.840281e-005 -9.884450e-005 -3.097295e-005 -1.077629e-004 9.895341e-001 -7.020253e-002
82798350 9.978477e-001 -3.682686e-002 -1.598138e-005 -6.705727e-005 1.882148e-004 -1.130007e-005 9.902571e-001 -7.100905e-002
83548335 9.978541e-001 -3.657759e-002 1.786021e-004 -2.439668e-004 5.068326e-005 -3.235408e-004 9.892339e-001 -7.414267e-002
84298320 9.971610e-001 -3.501174e-002 1.179858e-005 -1.173515e-004 2.100324e-004 -1.717505e-004 9.889402e-001 -7.396436e-002
85048305 9.980028e-001 -3.578002e-002 8.430261e-006 -1.093686e-004 1.665327e-004 -1.513250e-004 9.884986e-001 -7.404636e-002
85798290 9.965460e-001 -3.699572e-002 1.130338e-005 -4.442236e-005 -3.134815e-004 2.778912e-004 9.894596e-001 -7.683305e-002
86548275 9.976534e-001 -3.775590e-002 -9.112534e-005 9.090993e-006 -1.263900e-005 5.047565e-005 9.888172e-001 -7.667904e-002
87298260 9.983792e-001 -3.874488e-002 2.108887e-005 -6.433929e-005 9.488448e-005 -4.335372e-005 9.879632e-001 -7.847865e-002
88048245 9.977140e-001 -3.876783e-002 -2.903524e-006 2.225355e-004 3.737041e-004 -3.140981e-004 9.891294e-001 -7.737861e-002
88798230 9.954136e-001 -3.780668e-002 -3.600222e-005 1.366569e-005 4.176321e-005 2.755211e-004 9.903341e-001 -7.777583e-002
89548215 9.963243e-001 -3.895419e-002 4.810262e-005 1.329560e-005 -2.397520e-004 5.131125e-005 9.877366e-001 -8.246591e-002
90298200 9.984902e-001 -3.891145e-002 -8.618637e-005 -8.384248e-005 8.400987e-005 1.881977e-004 9.881268e-001 -8.264220e-002
91048185 9.957080e-001 -3.939308e-002 3.382491e-005 -6.155319e-005 -8.260516e-005 2.670496e-004 9.863017e-001 -7.931783e-002
91798170 9.962447e-001 -4.262336e-002 6.740652e-005 1.497693e-004 1.196402e-004 3.716997e-004 9.866837e-001 -8.010471e-002
92548155 9.978590e-001 -4.029781e-002 1.601798e-004 -2.734508e-005 -3.483558e-004 -4.022491e-005 9.889230e-001 -8.326945e-002
93298140 9.975618e-001 -4.072789e-002 -1.100116e-005 1.689405e-004 -2.138298e-004 -2.172640e-005 9.897611e-001 -8.407564e-002
94048125 9.986213e-001 -4.229789e-002 -3.325014e-005 3.944832e-005 -1.626182e-004 1.475903e-004 9.903820e-001 -8.463586e-002
94798110 9.971597e-001 -4.022403e-002 -1.218081e-004 -1.424505e-004 -1.774069e-004 -9.213030e-005 9.880189e-001 -8.262516e-002
95548095 9.979719e-001 -3.973296e-002 3.689859e-005 1.547977e-004 -1.233990e-004 -3.030159e-004 9.877896e-001 -8.563774e-002
96298080 9.974947e-001 -4.227497e-002 2.215470e-005 9.541216e-005 5.766789e-005 -3.212712e-004 9.895302e-001 -8.189745e-002
97048065 9.968877e-001 -4.235779e-002 1.330523e-005 -1.616466e-004 -2.014163e-004 5.312839e-005 9.897619e-001 -8.758585e-002
97798050 9.975935e-001 -4.380216e-002 -1.614319e-005 3.062307e-005 -9.308365e-005 -1.043253e-005 9.870036e-001 -8.720756e-002
98548035 9.956798e-001 -4.322329e-002 -5.420251e-006 -5.756837e-005 -2.795179e-005 -1.516039e-004 9.880154e-001 -8.963053e-002
99298020 9.960535e-001 -4.158277e-002 9.067616e-005 1.058362e-004 1.581909e-004 -1.730447e-004 9.853773e-001 -8.893497e-002
100048005 9.970366e-001 -4.306171e-002 -1.416919e-004 -2.070459e-004 -1.093517e-004 -3.026516e-004 9.884056e-001 -8.781920e-002
100797990 9.959736e-001 -4.228091e-002 1.075724e-005 1.020782e-005 2.858067e-004 2.053194e-004 9.878046e-001 -8.816940e-002
101547975 9.977915e-001 -4.339860e-002 -1.644893e-005 -1.917879e-004 5.001620e-004 -4.970885e-005 9.877986e-001 -8.743770e-002
102297960 9.949564e-001 -4.459260e-002 -1.164022e-004 1.204262e-004 2.100650e-004 -4.958952e-004 9.896764e-001 -8.948165e-002
103047945 9.946474e-001 -4.325646e-002 1.179655e-004 -2.480637e-005 -1.377557e-004 -1.143408e-004 9.873066e-001 -9.442575e-002
103797930 9.956324e-001 -4.429662e-002 7.442484e-005 -5.605761e-005 3.879718e-004 4.501469e-004 9.848348e-001 -8.983515e-002
104547915 9.959984e-001 -4.479478e-002 -1.495565e-005 -1.449788e-004 2.834622e-004 2.601462e-004 9.866835e-001 -9.097821e-002
105297900 9.958562e-001 -4.527447e-002 -5.688312e-007 -9.323031e-005 3.651626e-004 -1.461106e-004 9.901198e-001 -9.245750e-002
106047885 9.966708e-001 -4.668883e-002 6.947650e-005 -8.561263e-005 -5.387339e-005 2.115649e-004 9.908094e-001 -9.298368e-002
106797870 9.969528e-001 -4.611043e-002 7.746260e-005 -2.601275e-005 5.106269e-005 5.964286e-004 9.859621e-001 -9.458210e-002
107547855 9.949331e-001 -4.660915e-002 -9.233523e-005 -5.869997e-005 5.049001e-005 2.420067e-004 9.877806e-001 -9.398503e-002
108297840 9.959183e-001 -4.688304e-002 -7.327840e-005 7.713932e-005 5.141721e-004 -1.603220e-004 9.891431e-001 -9.540910e-002
109047825 9.957933e-001 -4.705165e-002 -5.388260e-005 -1.044494e-005 3.949035e-004 1.484311e-004 9.870418e-001 -9.546027e-002
109797810 9.948993e-001 -4.792966e-002 3.292674e-005 5.263594e-005 1.724543e-004 1.483353e-004 9.830395e-001 -9.638714e-002
110547795 9.955810e-001 -4.853551e-002 1.578020e-004 -7.987003e-005 7.766007e-005 3.354337e-004 9.901511e-001 -9.695318e-002
111297780 9.959962e-001 -4.917766e-002 1.890376e-004 6.309748e-005 -1.819220e-004 1.166723e-004 9.858356e-001 -9.767859e-002
112047765 9.960932e-001 -4.870334e-002 -3.093959e-005 -7.413411e-006 -3.166004e-004 1.619232e-004 9.893757e-001 -9.881505e-002
112797750 9.967330e-001 -4.982754e-002 1.416053e-005 -3.833191e-005 1.249999e-004 4.240060e-004 9.875689e-001 -9.929837e-002
113547735 9.961684e-001 -4.916974e-002 -1.884928e-005 1.241743e-004 2.337753e-004 -5.046211e-005 9.864335e-001 -9.968382e-002
114297720 9.966338e-001 -4.921079e-002 -9.235284e-005 6.634692e-006 -1.759338e-004 2.887124e-004 9.892281e-001 -1.014345e-001
115047705 9.955786e-001 -5.066095e-002 -7.932928e-005 -8.296129e-006 -1.513362e-004 1.119326e-005 9.874579e-001 -1.025837e-001
115797690 9.948205e-001 -4.964728e-002 5.531340e-007 9.076535e-005 -2.629430e-004 -1.162135e-004 9.853584e-001 -1.011550e-001
116547675 9.950188e-001 -5.072060e-002 1.561885e-005 2.433309e-005 -2.084608e-004 -7.285591e-005 9.869785e-001 -1.038079e-001
