!Agilent Technologies,N5230C,SG49000117,A.08.50.07
!Agilent N5230C: A.08.50.07
!Date: Monday, December 11, 2023 21:33:23
!Correction: S11(Full 2 Port(1,2)) 
!S21(Full 2 Port(1,2)) 
!S12(Full 2 Port(1,2)) 
!S22(Full 2 Port(1,2)) 
!S2P File: Measurements: S11, S21, S12, S22:
# Hz S  RI   R 50
300000 9.944804e-001 4.766013e-003 1.336973e-004 -6.238570e-005 3.608316e-004 2.166387e-004 9.877509e-001 1.081863e-002
1049985 9.936671e-001 2.977678e-003 -2.608663e-005 -3.948617e-005 -1.280000e-005 5.184449e-005 9.836577e-001 3.080297e-003
1799970 9.923248e-001 9.066972e-003 -2.351284e-005 5.323095e-005 1.911132e-004 -1.188030e-005 9.965550e-001 -6.096504e-003
2549955 9.985856e-001 -9.292507e-005 -4.213105e-005 -1.270094e-004 -1.664731e-004 -6.969490e-005 9.977622e-001 -4.477161e-003
3299940 9.988630e-001 -1.328626e-003 -1.308828e-005 1.520980e-005 -5.223811e-005 9.903051e-005 9.983333e-001 -7.562903e-003
4049925 9.990696e-001 -1.360626e-003 -4.800420e-005 5.892250e-005 -6.717674e-005 2.247128e-004 9.952468e-001 -5.732603e-003
4799910 9.981099e-001 -2.025350e-003 4.407597e-005 -4.351589e-005 -4.946459e-005 -1.105245e-004 9.954821e-001 -5.635710e-003
5549895 9.975336e-001 -3.548883e-003 6.513924e-005 -1.116755e-005 1.375303e-004 8.437499e-005 9.942124e-001 -6.113681e-003
6299880 9.983181e-001 -3.657754e-003 -2.497021e-006 -1.872736e-006 -6.980677e-005 1.927548e-004 9.948596e-001 -5.879762e-003
7049865 9.983777e-001 -3.237114e-003 2.004322e-005 -4.672483e-005 5.725399e-005 5.162854e-005 9.951980e-001 -8.340891e-003
7799850 9.982131e-001 -3.522974e-003 -7.157099e-006 -4.354470e-005 3.399958e-005 -9.430970e-005 9.944845e-001 -8.165514e-003
8549835 9.977109e-001 -2.934261e-003 -5.137292e-005 3.646480e-005 4.328425e-005 2.543268e-005 9.942647e-001 -7.761959e-003
9299820 9.975588e-001 -3.122463e-003 -5.645269e-005 -4.551814e-005 -2.734935e-005 -1.190876e-004 9.940085e-001 -9.757115e-003
10049805 9.984831e-001 -4.898868e-003 -1.602637e-005 -1.308400e-005 -1.023116e-004 2.676601e-005 9.956132e-001 -1.036724e-002
10799790 9.988096e-001 -5.739358e-003 -5.948570e-005 -3.491055e-006 -2.318759e-005 -9.310134e-005 9.951694e-001 -1.200786e-002
11549775 9.987053e-001 -5.489663e-003 -3.273760e-005 -5.146158e-006 -5.717637e-005 -7.653803e-005 9.936256e-001 -1.088026e-002
12299760 9.988947e-001 -5.076159e-003 1.631500e-007 -5.985868e-005 8.473778e-005 3.003648e-004 9.942361e-001 -1.377676e-002
13049745 9.994415e-001 -6.017709e-003 7.863424e-005 6.898272e-005 -1.163140e-004 2.271272e-004 9.940695e-001 -1.347202e-002
13799730 9.975896e-001 -6.223578e-003 2.307411e-005 -2.284888e-005 -1.490991e-004 -2.472802e-004 9.948336e-001 -1.451246e-002
14549715 9.978840e-001 -6.876055e-003 -4.405014e-005 8.466288e-006 -6.958515e-005 -3.440683e-004 9.954371e-001 -1.453860e-002
15299700 9.987575e-001 -8.066294e-003 1.333542e-005 4.981854e-005 1.747403e-004 -3.555469e-004 9.948633e-001 -1.599669e-002
16049685 9.979988e-001 -7.897343e-003 -1.871315e-005 -4.402138e-005 2.013360e-004 3.531351e-005 9.943679e-001 -1.558452e-002
16799670 9.979765e-001 -7.438574e-003 -1.484849e-005 -4.591129e-005 6.742332e-005 3.642540e-005 9.942011e-001 -1.905546e-002
17549655 9.982668e-001 -8.093928e-003 -8.554503e-007 4.727750e-005 -1.181659e-004 8.444708e-005 9.938943e-001 -2.001012e-002
18299640 9.984204e-001 -8.411371e-003 5.642966e-006 -2.568686e-005 3.303119e-004 3.522038e-004 9.939647e-001 -1.760579e-002
19049625 9.982095e-001 -8.470468e-003 8.166512e-005 -1.548404e-005 -2.064211e-004 -3.897518e-005 9.938374e-001 -2.054874e-002
19799610 9.986202e-001 -8.568504e-003 3.273725e-005 -4.793538e-005 -2.718885e-004 5.501047e-005 9.932997e-001 -1.752909e-002
20549595 9.975913e-001 -9.734360e-003 -2.985250e-005 -9.814767e-006 -1.662620e-004 -1.956858e-004 9.924462e-001 -1.913824e-002
21299580 9.976302e-001 -9.716089e-003 -7.649972e-006 7.727244e-006 -1.989430e-004 -1.873704e-004 9.949337e-001 -1.874649e-002
22049565 9.983418e-001 -1.063630e-002 -1.619532e-005 6.256675e-005 -6.757787e-005 4.062173e-005 9.923124e-001 -2.158387e-002
22799550 9.986957e-001 -1.091045e-002 -8.217137e-005 -7.437856e-005 2.240158e-004 -2.881233e-004 9.934252e-001 -2.115913e-002
23549535 9.982771e-001 -1.096911e-002 1.796611e-005 1.508904e-005 -6.189855e-005 -2.246557e-004 9.923915e-001 -2.191013e-002
24299520 9.983318e-001 -1.108283e-002 4.098490e-005 -5.988415e-005 1.033430e-004 -2.442970e-004 9.942875e-001 -2.168913e-002
25049505 9.986904e-001 -1.126164e-002 2.730769e-005 6.145139e-005 9.701036e-005 5.749022e-005 9.934364e-001 -2.401500e-002
25799490 9.978462e-001 -1.155076e-002 -3.116377e-005 4.507744e-005 1.353027e-005 1.945451e-004 9.942173e-001 -2.265860e-002
26549475 9.981226e-001 -1.155694e-002 -2.246368e-005 -4.633389e-005 -1.920865e-006 3.807086e-005 9.923011e-001 -2.320144e-002
27299460 9.984143e-001 -1.195555e-002 8.177727e-005 -1.108884e-004 -7.455565e-006 2.067492e-004 9.928417e-001 -2.728739e-002
28049445 9.988476e-001 -1.250698e-002 -2.726106e-005 -8.436681e-005 5.316204e-005 3.871040e-004 9.931964e-001 -2.533983e-002
28799430 9.972120e-001 -1.220428e-002 2.485795e-005 7.031570e-005 3.822266e-005 7.360638e-005 9.942041e-001 -2.609590e-002
29549415 9.987724e-001 -1.270828e-002 4.970932e-006 -1.851395e-005 -3.188642e-004 -1.071235e-004 9.938228e-001 -2.638623e-002
30299400 9.982212e-001 -1.363889e-002 2.646351e-006 -1.704130e-005 -2.295295e-004 1.656928e-005 9.922724e-001 -2.653343e-002
31049385 9.982061e-001 -1.417487e-002 2.631196e-005 8.441207e-005 3.368743e-005 -1.201995e-004 9.920365e-001 -2.769562e-002
31799370 9.979864e-001 -1.397882e-002 -2.239364e-005 -7.482191e-006 3.658427e-005 -1.448628e-004 9.910966e-001 -2.769256e-002
32549355 9.970858e-001 -1.387709e-002 2.530741e-005 9.108029e-006 -7.275488e-005 -3.311632e-004 9.921463e-001 -2.983745e-002
33299340 9.978433e-001 -1.390488e-002 -8.781109e-005 -4.973384e-005 3.451990e-005 -3.522659e-004 9.932817e-001 -3.177976e-002
34049325 9.974732e-001 -1.477019e-002 7.833920e-005 -7.920167e-005 -5.404952e-005 -1.646621e-004 9.925721e-001 -2.972160e-002
34799310 9.986385e-001 -1.556983e-002 -4.182744e-006 -1.623557e-005 2.814354e-004 1.964730e-004 9.940025e-001 -3.061546e-002
35549295 9.978508e-001 -1.602115e-002 -5.112884e-005 9.628522e-005 2.581170e-004 2.785380e-004 9.936107e-001 -3.001704e-002
36299280 9.980395e-001 -1.548462e-002 4.990017e-005 -7.415326e-005 -8.863555e-005 9.452896e-005 9.934344e-001 -3.186761e-002
37049265 9.983665e-001 -1.689483e-002 -4.632807e-005 1.827876e-004 -1.478637e-004 3.811314e-005 9.941970e-001 -3.416217e-002
37799250 9.978970e-001 -1.658990e-002 4.209262e-005 4.605572e-005 -1.163933e-004 1.149863e-004 9.939247e-001 -3.372078e-002
38549235 9.973117e-001 -1.726911e-002 -5.135460e-005 -7.215791e-005 -1.120902e-004 8.175659e-005 9.950886e-001 -3.484469e-002
39299220 9.981874e-001 -1.778718e-002 4.526944e-005 2.459838e-005 -8.173798e-005 -3.466878e-005 9.928639e-001 -3.551694e-002
40049205 9.991020e-001 -1.690752e-002 7.103440e-005 -2.410770e-005 -2.249588e-004 2.720294e-005 9.944749e-001 -3.611758e-002
40799190 9.988857e-001 -1.885145e-002 1.205065e-004 -9.746558e-005 -3.815314e-004 6.257385e-005 9.935989e-001 -3.677049e-002
41549175 9.985679e-001 -1.907345e-002 -2.061029e-004 -3.589586e-005 3.492979e-004 3.766786e-005 9.931214e-001 -3.857145e-002
42299160 9.968575e-001 -1.933661e-002 6.220183e-005 -9.124989e-005 1.230571e-004 -4.120971e-005 9.938408e-001 -3.649725e-002
43049145 9.977539e-001 -1.895020e-002 1.063143e-004 1.581096e-004 5.678327e-005 3.802255e-005 9.930425e-001 -3.774313e-002
43799130 9.982206e-001 -1.879830e-002 6.678122e-005 1.670565e-004 -1.183191e-005 1.317000e-004 9.911819e-001 -3.949870e-002
44549115 9.980605e-001 -1.958268e-002 -7.803061e-005 6.652329e-005 3.984975e-004 1.601314e-004 9.923128e-001 -3.921926e-002
45299100 9.977533e-001 -1.857504e-002 3.143186e-005 2.004630e-005 -1.554321e-004 3.235820e-004 9.931986e-001 -3.894391e-002
46049085 9.979630e-001 -2.136975e-002 -8.621275e-005 -1.009961e-004 -8.193057e-006 3.161846e-004 9.915371e-001 -4.252012e-002
46799070 9.990902e-001 -2.075856e-002 -1.340447e-004 -1.104931e-004 -3.418817e-004 1.770505e-004 9.962606e-001 -4.387397e-002
47549055 9.986213e-001 -2.217193e-002 1.110833e-004 -1.009884e-004 -1.572777e-004 9.249580e-005 9.922020e-001 -4.254276e-002
48299040 9.972544e-001 -2.160081e-002 -1.362906e-004 6.848868e-006 1.327229e-004 2.888197e-005 9.936621e-001 -4.345478e-002
49049025 9.974944e-001 -2.182408e-002 -1.213720e-004 -8.227997e-005 -5.730093e-005 9.138144e-005 9.942372e-001 -4.586231e-002
49799010 9.973243e-001 -2.263290e-002 -1.416648e-004 1.814972e-005 4.825005e-005 2.362963e-004 9.931017e-001 -4.849768e-002
50548995 9.977137e-001 -2.192206e-002 -7.087058e-006 9.529661e-005 -2.955869e-004 1.142020e-004 9.933124e-001 -4.451483e-002
51298980 9.978894e-001 -2.148655e-002 1.203220e-004 4.650961e-005 2.427400e-005 -6.073638e-005 9.935099e-001 -4.456241e-002
52048965 9.987319e-001 -2.191366e-002 -7.446314e-007 -1.218962e-005 1.612445e-004 9.785859e-005 9.918249e-001 -5.191150e-002
52798950 9.970014e-001 -2.459327e-002 -1.069238e-004 -1.320007e-004 5.915629e-005 -3.091994e-004 9.921815e-001 -4.633595e-002
53548935 9.979535e-001 -2.351983e-002 -3.615524e-005 8.686429e-005 -4.188835e-006 5.174903e-005 9.907244e-001 -4.814162e-002
54298920 9.988720e-001 -2.396129e-002 -1.041806e-004 -4.831967e-005 -2.151950e-004 8.481884e-005 9.928303e-001 -5.030305e-002
55048905 9.989324e-001 -2.418633e-002 -9.204768e-006 1.158173e-005 4.233083e-004 -1.620107e-004 9.950379e-001 -5.163312e-002
55798890 9.973527e-001 -2.391203e-002 1.724075e-005 -2.758955e-005 4.764569e-004 3.352727e-004 9.939245e-001 -4.828684e-002
56548875 9.977250e-001 -2.408146e-002 1.081619e-005 -4.950864e-005 2.485439e-004 -4.221475e-005 9.899841e-001 -4.907975e-002
57298860 9.982260e-001 -2.481418e-002 -2.061661e-005 -4.455673e-005 -2.496275e-004 3.538894e-005 9.914309e-001 -5.218997e-002
58048845 9.981967e-001 -2.502882e-002 -9.672172e-005 1.542322e-004 -3.796269e-005 5.026662e-005 9.927159e-001 -5.278492e-002
58798830 9.970472e-001 -2.570404e-002 -1.151172e-004 -5.814810e-005 1.752242e-004 2.343937e-004 9.905714e-001 -4.963326e-002
59548815 9.973232e-001 -2.570236e-002 3.512881e-005 -4.784476e-005 1.794449e-005 -2.540888e-004 9.901044e-001 -5.288154e-002
60298800 9.990830e-001 -2.574955e-002 -3.216453e-005 -8.852346e-006 -7.354537e-005 -4.942387e-004 9.913564e-001 -5.371539e-002
61048785 9.977286e-001 -2.781017e-002 6.865968e-005 -1.258343e-004 5.558328e-004 -2.055147e-004 9.929842e-001 -5.226200e-002
61798770 9.967157e-001 -2.709468e-002 1.411126e-004 1.417092e-005 5.956857e-005 -8.638055e-005 9.936680e-001 -5.465710e-002
62548755 9.966557e-001 -2.686836e-002 -2.143646e-005 -2.106969e-005 9.525498e-005 -9.266219e-005 9.974231e-001 -5.757897e-002
63298740 9.959373e-001 -2.721933e-002 4.684137e-006 9.359819e-005 2.034231e-005 6.081504e-005 9.958469e-001 -5.940356e-002
64048725 9.970431e-001 -2.771918e-002 -1.034185e-004 -4.672209e-005 1.643877e-005 -1.131547e-004 9.907368e-001 -5.914999e-002
64798710 9.985010e-001 -2.761818e-002 1.486750e-004 3.127671e-005 1.904732e-004 -1.516849e-005 9.925144e-001 -6.035577e-002
65548695 9.972434e-001 -2.834259e-002 1.354952e-004 3.885283e-005 3.409230e-004 -2.083614e-004 9.907377e-001 -5.758930e-002
66298680 9.973694e-001 -2.822449e-002 -4.135682e-005 4.113767e-005 2.530970e-004 4.962839e-004 9.922849e-001 -5.875654e-002
67048665 9.980457e-001 -2.886889e-002 9.586055e-005 1.167868e-005 6.282367e-005 -4.696428e-004 9.917047e-001 -6.197059e-002
67798650 9.975855e-001 -2.991346e-002 -2.837157e-005 -1.286195e-004 1.260195e-004 -8.147940e-007 9.916053e-001 -6.255286e-002
68548635 9.974847e-001 -3.026238e-002 1.398144e-004 1.209746e-004 2.355642e-004 3.291705e-004 9.905958e-001 -6.040046e-002
69298620 9.968327e-001 -3.109595e-002 1.625759e-004 -5.647762e-005 2.023317e-004 9.330790e-005 9.898557e-001 -6.026756e-002
70048605 9.978047e-001 -3.190769e-002 -5.217094e-005 -1.401425e-004 1.848465e-004 2.548772e-004 9.927520e-001 -6.350233e-002
70798590 9.970980e-001 -3.113967e-002 -2.147571e-005 -1.398099e-005 -2.321842e-004 4.137249e-005 9.919116e-001 -6.272612e-002
71548575 9.980980e-001 -3.086693e-002 -1.702993e-004 -7.857369e-005 -3.436845e-004 9.638862e-005 9.911405e-001 -6.207914e-002
72298560 9.981218e-001 -3.055141e-002 -7.266125e-006 1.101666e-004 -2.073589e-004 2.082810e-004 9.921301e-001 -6.194641e-002
73048545 9.961908e-001 -3.169180e-002 -3.373795e-005 -6.312907e-005 -3.101198e-005 2.278993e-004 9.946059e-001 -6.302326e-002
73798530 9.984853e-001 -3.263516e-002 7.815031e-005 1.924670e-004 -3.441986e-004 -6.881586e-005 9.901935e-001 -6.426506e-002
74548515 9.980411e-001 -3.211669e-002 -4.910505e-006 -7.071889e-006 -2.191014e-004 -1.568975e-004 9.900141e-001 -6.506374e-002
75298500 9.972975e-001 -3.142249e-002 4.264494e-005 -3.130416e-005 -2.725123e-004 1.344447e-004 9.895743e-001 -6.515132e-002
76048485 9.966576e-001 -3.367147e-002 -1.513611e-004 -1.266432e-004 -3.398873e-004 -2.307127e-004 9.915166e-001 -6.822777e-002
76798470 9.961953e-001 -3.223616e-002 1.475097e-004 4.289685e-005 -2.105427e-004 -1.517232e-004 9.904618e-001 -6.850406e-002
77548455 9.971464e-001 -3.471790e-002 -1.415429e-004 -2.909242e-005 1.015716e-004 3.473819e-004 9.913812e-001 -6.725340e-002
78298440 9.967281e-001 -3.551275e-002 -6.755771e-007 -1.702204e-004 -2.002719e-004 1.506151e-005 9.908790e-001 -6.852045e-002
79048425 9.941457e-001 -3.559154e-002 -2.411282e-004 7.192657e-006 1.585848e-004 -1.940647e-004 9.898326e-001 -6.983931e-002
79798410 9.959416e-001 -3.516925e-002 -3.840212e-006 5.042418e-006 -2.624109e-004 -5.003222e-005 9.921143e-001 -6.803412e-002
80548395 9.967496e-001 -3.629316e-002 2.356713e-004 9.996211e-005 6.981859e-005 -2.161913e-005 9.910682e-001 -7.022206e-002
81298380 9.986110e-001 -3.474573e-002 9.427413e-005 -5.965481e-005 -4.637011e-005 -1.118585e-004 9.908499e-001 -7.053118e-002
82048365 9.988539e-001 -3.620161e-002 -1.892302e-005 -5.782489e-005 6.964187e-005 -2.644735e-004 9.885849e-001 -7.056420e-002
82798350 9.978297e-001 -3.682565e-002 1.996203e-005 2.460790e-005 -2.657308e-005 -4.786422e-004 9.889150e-001 -6.894287e-002
83548335 9.973838e-001 -3.668505e-002 1.379895e-004 -2.440600e-004 -2.298022e-004 -3.835882e-004 9.894493e-001 -7.414550e-002
84298320 9.971631e-001 -3.552520e-002 1.134556e-004 1.275330e-004 9.843995e-006 -2.534517e-004 9.883686e-001 -7.313420e-002
85048305 9.969638e-001 -3.478540e-002 -3.574395e-005 -2.339586e-005 6.967661e-005 1.428187e-004 9.894315e-001 -7.618549e-002
85798290 9.971408e-001 -3.678644e-002 -1.648088e-005 -2.350131e-005 1.434870e-004 7.642815e-005 9.918825e-001 -7.473220e-002
86548275 9.967641e-001 -3.839527e-002 -1.043342e-004 -8.544931e-005 1.680073e-004 -1.683685e-004 9.882826e-001 -7.666441e-002
87298260 9.986500e-001 -3.713268e-002 -9.653998e-005 2.380448e-005 -4.181706e-006 3.092072e-004 9.876551e-001 -7.776614e-002
88048245 9.969374e-001 -3.958334e-002 1.042273e-004 -2.078099e-004 1.769777e-004 6.830060e-005 9.921361e-001 -7.785030e-002
88798230 9.965863e-001 -3.756240e-002 -2.928298e-005 1.173691e-004 -1.303329e-004 2.443086e-004 9.900376e-001 -7.921742e-002
89548215 9.982729e-001 -3.861658e-002 -1.281687e-004 -1.292665e-004 -2.330858e-004 5.822259e-005 9.884685e-001 -8.168424e-002
90298200 9.985428e-001 -3.865573e-002 1.642196e-005 3.468126e-005 -5.789001e-005 -3.878185e-005 9.900948e-001 -8.186437e-002
91048185 9.951628e-001 -3.929128e-002 -1.457448e-004 8.142298e-005 6.395611e-005 7.633407e-005 9.905683e-001 -8.006755e-002
91798170 9.975212e-001 -4.105355e-002 6.305314e-005 7.110075e-005 -1.314031e-005 7.872106e-005 9.866738e-001 -7.992161e-002
92548155 9.971991e-001 -4.049785e-002 4.577571e-005 1.662902e-004 -2.098718e-004 4.726638e-004 9.900473e-001 -8.157849e-002
93298140 9.974899e-001 -4.088733e-002 8.341788e-005 5.125831e-005 -1.187465e-004 1.617574e-004 9.912338e-001 -8.494975e-002
94048125 9.990166e-001 -4.102698e-002 7.395940e-005 -1.599337e-004 -8.678458e-005 3.718668e-005 9.899073e-001 -8.577522e-002
94798110 9.980453e-001 -4.202361e-002 2.263910e-005 -1.984490e-005 -1.129831e-004 3.150023e-004 9.874347e-001 -8.310097e-002
95548095 9.985875e-001 -3.988866e-002 -9.667056e-005 -8.740706e-005 -4.604150e-004 -1.248356e-004 9.889310e-001 -8.191523e-002
96298080 9.972157e-001 -4.103438e-002 1.460876e-004 1.137317e-004 2.236374e-004 -2.407743e-005 9.904183e-001 -8.517159e-002
97048065 9.975920e-001 -4.306770e-002 1.260856e-004 1.305483e-004 -3.199483e-004 -1.791833e-004 9.888297e-001 -8.754104e-002
97798050 9.970859e-001 -4.374494e-002 -8.240360e-008 -1.700420e-004 -4.430306e-004 -2.574620e-004 9.895669e-001 -8.916897e-002
98548035 9.958451e-001 -4.321627e-002 4.861985e-005 2.740229e-005 1.006147e-004 1.570162e-004 9.898463e-001 -9.024043e-002
99298020 9.964620e-001 -4.292344e-002 -8.639751e-005 -2.808055e-004 7.924716e-005 4.922329e-005 9.867122e-001 -8.929237e-002
100048005 9.963624e-001 -4.286377e-002 5.442565e-006 6.057696e-005 -2.344369e-004 -3.743097e-004 9.913052e-001 -8.899356e-002
100797990 9.946542e-001 -4.403106e-002 3.776124e-005 -5.524763e-005 -3.353764e-004 -1.549009e-004 9.900157e-001 -8.906512e-002
101547975 9.967095e-001 -4.345635e-002 -1.041984e-004 9.514907e-005 -3.286233e-004 -3.140293e-004 9.885414e-001 -8.649170e-002
102297960 9.961895e-001 -4.462256e-002 4.843767e-005 -3.425327e-005 -2.523839e-004 -4.932432e-004 9.861267e-001 -9.027676e-002
103047945 9.961221e-001 -4.407397e-002 -2.325331e-005 7.490201e-005 -6.382116e-005 -5.461626e-005 9.883067e-001 -8.995116e-002
103797930 9.968887e-001 -4.388539e-002 -1.042354e-004 -5.152855e-005 1.545559e-004 -3.508676e-004 9.867789e-001 -9.014294e-002
104547915 9.964440e-001 -4.493677e-002 -1.331812e-004 9.689010e-005 1.023040e-004 3.406409e-004 9.887390e-001 -9.278862e-002
105297900 9.956061e-001 -4.482530e-002 -1.045548e-004 6.792728e-005 4.776720e-005 1.380292e-004 9.878814e-001 -9.405436e-002
106047885 9.973615e-001 -4.568418e-002 6.168557e-005 1.187975e-004 -2.242086e-004 -1.622740e-004 9.910955e-001 -9.358086e-002
106797870 9.977998e-001 -4.756212e-002 1.939073e-005 -6.754792e-005 -1.775675e-004 -2.720122e-004 9.897669e-001 -9.399785e-002
107547855 9.954703e-001 -4.651425e-002 -1.141478e-004 -1.752424e-004 5.584821e-006 -1.061963e-004 9.888083e-001 -9.120581e-002
108297840 9.956915e-001 -4.718243e-002 -4.283591e-005 -6.040613e-005 5.566796e-006 7.334077e-006 9.880134e-001 -9.425075e-002
109047825 9.946898e-001 -4.657751e-002 1.133389e-004 -1.995360e-004 7.817844e-005 1.076233e-004 9.890416e-001 -9.287663e-002
109797810 9.958890e-001 -4.799766e-002 -7.114638e-006 5.603550e-005 1.880185e-004 -2.136724e-004 9.848291e-001 -9.464784e-002
110547795 9.959068e-001 -4.843122e-002 -9.285410e-005 -9.139050e-005 1.654261e-004 -4.550869e-004 9.886857e-001 -9.508317e-002
111297780 9.968082e-001 -4.961930e-002 -8.782977e-005 -7.118427e-005 -2.192382e-004 1.008529e-004 9.870316e-001 -9.961022e-002
112047765 9.960810e-001 -4.876697e-002 1.658438e-005 2.073854e-004 1.773191e-004 1.999198e-005 9.882225e-001 -1.001941e-001
112797750 9.965395e-001 -4.933165e-002 -1.266198e-004 4.840911e-005 3.033936e-004 -3.285324e-005 9.881457e-001 -9.906489e-002
113547735 9.966999e-001 -4.983722e-002 1.355305e-004 -1.186384e-004 4.039954e-004 1.788310e-004 9.866954e-001 -1.000713e-001
114297720 9.963569e-001 -4.987922e-002 -8.828378e-005 4.274890e-005 -2.042015e-004 -7.224292e-005 9.900193e-001 -1.016253e-001
115047705 9.960654e-001 -5.045692e-002 -7.274345e-005 -8.677490e-005 -2.656561e-004 4.271038e-004 9.882839e-001 -1.039843e-001
115797690 9.949939e-001 -4.993675e-002 -4.000226e-005 8.780265e-005 -1.961901e-004 2.158380e-004 9.874192e-001 -1.010040e-001
116547675 9.949472e-001 -5.032043e-002 -8.950944e-005 -9.801432e-005 1.145108e-004 -8.168286e-005 9.873559e-001 -1.040382e-001
