!Agilent Technologies,N5230C,SG49000117,A.08.50.07
!Agilent N5230C: A.08.50.07
!Date: Monday, December 11, 2023 21:35:51
!Correction: S11(Full 2 Port(1,2)) 
!S21(Full 2 Port(1,2)) 
!S12(Full 2 Port(1,2)) 
!S22(Full 2 Port(1,2)) 
!S2P File: Measurements: S11, S21, S12, S22:
# Hz S  RI   R 50
300000 9.913438e-001 4.969361e-003 -1.389554e-004 8.249043e-005 5.074177e-004 1.242187e-004 9.901642e-001 1.360108e-002
1049985 9.932403e-001 3.103565e-003 -4.307595e-005 6.032149e-005 -1.401312e-004 1.309668e-004 9.822242e-001 4.798657e-003
1799970 9.923686e-001 8.476978e-003 -3.645782e-005 4.951427e-005 -1.530148e-004 -1.107526e-004 9.963309e-001 -5.482303e-003
2549955 9.984133e-001 2.715925e-005 -1.405979e-004 -1.004543e-004 -3.288754e-004 5.108042e-005 9.960948e-001 -5.250651e-003
3299940 9.990026e-001 -1.584757e-003 9.002753e-005 5.069799e-005 9.371507e-005 -1.466253e-004 9.986280e-001 -7.379427e-003
4049925 9.991722e-001 -1.628909e-003 -4.297024e-005 -8.506644e-006 9.754572e-005 7.958950e-005 9.962432e-001 -5.004161e-003
4799910 9.985717e-001 -1.535058e-003 5.238036e-005 6.119029e-005 1.565589e-004 -2.395181e-005 9.939353e-001 -5.498315e-003
5549895 9.981626e-001 -3.281064e-003 -4.825295e-005 -5.026771e-005 2.272550e-004 -4.655864e-005 9.944181e-001 -5.677005e-003
6299880 9.985157e-001 -3.198905e-003 2.360575e-005 -5.987376e-005 -1.243726e-004 1.518443e-004 9.950868e-001 -5.451027e-003
7049865 9.985983e-001 -3.861394e-003 -6.987674e-006 -5.868094e-005 -5.634504e-005 8.923556e-005 9.953393e-001 -7.506198e-003
7799850 9.981828e-001 -3.673699e-003 1.710962e-005 7.660500e-005 7.436181e-005 -9.803813e-005 9.938498e-001 -7.546349e-003
8549835 9.975331e-001 -3.522972e-003 1.618690e-005 1.978236e-005 6.916546e-005 -6.861750e-005 9.947339e-001 -7.477029e-003
9299820 9.976419e-001 -3.456963e-003 -1.373504e-005 3.132326e-005 -9.185599e-005 -5.580531e-005 9.937400e-001 -9.587314e-003
10049805 9.982314e-001 -4.463916e-003 1.106301e-006 -4.786847e-005 -2.731030e-005 -2.358223e-004 9.957730e-001 -1.042464e-002
10799790 9.986474e-001 -4.642878e-003 -1.476170e-004 -2.791247e-005 1.278175e-004 -8.728470e-005 9.958640e-001 -1.130953e-002
11549775 9.987189e-001 -5.108294e-003 -3.032675e-005 -6.395655e-005 7.929430e-005 -8.170108e-005 9.946778e-001 -1.054166e-002
12299760 9.986351e-001 -5.358330e-003 -1.692471e-005 -1.976045e-006 -1.932268e-004 -1.706823e-004 9.929023e-001 -1.229228e-002
13049745 9.991757e-001 -5.976709e-003 -1.517614e-005 5.484073e-005 -9.200438e-005 -8.009793e-005 9.948149e-001 -1.292131e-002
13799730 9.984599e-001 -6.400919e-003 -1.269597e-005 -5.829851e-006 7.763351e-005 -1.650400e-004 9.949256e-001 -1.445187e-002
14549715 9.984700e-001 -6.635388e-003 1.018336e-004 -1.781700e-005 4.770549e-005 2.145095e-005 9.938870e-001 -1.427969e-002
15299700 9.984607e-001 -7.513710e-003 -4.543886e-005 1.250717e-005 3.499895e-004 1.008067e-004 9.946468e-001 -1.706039e-002
16049685 9.978622e-001 -7.637596e-003 -2.415662e-005 -4.182533e-005 1.515389e-004 3.128900e-004 9.937671e-001 -1.775069e-002
16799670 9.981197e-001 -7.620042e-003 7.751007e-005 -1.860288e-005 2.641578e-004 6.593872e-005 9.937788e-001 -1.698891e-002
17549655 9.981768e-001 -8.275034e-003 -9.918671e-005 2.842897e-005 -3.333489e-005 2.767165e-004 9.941680e-001 -1.843593e-002
18299640 9.981759e-001 -8.091446e-003 5.285331e-006 -2.084166e-005 -1.134368e-005 1.853836e-004 9.937501e-001 -1.786193e-002
19049625 9.981723e-001 -9.032938e-003 8.069007e-005 7.017430e-005 -1.439271e-004 2.238164e-004 9.949843e-001 -1.927227e-002
19799610 9.979159e-001 -8.285035e-003 2.586371e-005 -3.227076e-005 5.625179e-005 1.884903e-004 9.937249e-001 -1.807882e-002
20549595 9.971452e-001 -9.554486e-003 2.367200e-005 5.200232e-006 -1.839805e-004 -3.705627e-005 9.945704e-001 -1.792720e-002
21299580 9.975925e-001 -9.423575e-003 2.471721e-005 9.847005e-005 1.670342e-004 -1.195235e-004 9.960441e-001 -2.005130e-002
22049565 9.990609e-001 -1.043814e-002 7.122868e-005 -1.270434e-004 -7.142202e-005 -1.971356e-004 9.930686e-001 -2.072226e-002
22799550 9.996965e-001 -1.065452e-002 7.723587e-005 8.640081e-005 -2.620007e-005 -2.023500e-004 9.937758e-001 -2.054435e-002
23549535 9.987556e-001 -1.041678e-002 -1.704442e-005 2.207777e-005 9.490022e-006 -2.584570e-004 9.926317e-001 -2.092529e-002
24299520 9.982272e-001 -1.084340e-002 1.466023e-005 5.479655e-005 5.028239e-005 -1.685123e-004 9.941935e-001 -2.307647e-002
25049505 9.982788e-001 -1.083865e-002 -8.137007e-005 -7.428689e-005 2.142623e-004 1.214715e-004 9.949123e-001 -2.335845e-002
25799490 9.976241e-001 -1.137780e-002 -2.874806e-005 -1.064678e-004 1.516093e-005 -9.107708e-005 9.945624e-001 -2.231746e-002
26549475 9.982586e-001 -1.145652e-002 2.992935e-005 1.379599e-004 -1.537211e-005 2.571036e-004 9.923725e-001 -2.364143e-002
27299460 9.992461e-001 -1.131640e-002 -3.804869e-006 -1.684696e-004 -1.985854e-004 1.581290e-004 9.930816e-001 -2.650655e-002
28049445 9.985735e-001 -1.226090e-002 1.163213e-004 -1.323519e-005 -9.020082e-005 5.895576e-006 9.930379e-001 -2.570062e-002
28799430 9.984708e-001 -1.160285e-002 5.926483e-005 -2.961809e-005 -1.774124e-004 1.608232e-004 9.926332e-001 -2.468683e-002
29549415 9.984653e-001 -1.288338e-002 -2.155135e-005 1.429830e-004 -1.168110e-004 4.758372e-005 9.933983e-001 -2.673136e-002
30299400 9.982169e-001 -1.335562e-002 1.498307e-004 5.435661e-005 1.063309e-004 -1.830445e-004 9.937331e-001 -2.735956e-002
31049385 9.985462e-001 -1.477052e-002 1.545967e-004 3.905050e-005 1.395531e-004 -2.599847e-004 9.922017e-001 -2.708107e-002
31799370 9.981293e-001 -1.455278e-002 9.657603e-005 2.817138e-005 2.195752e-004 -1.135012e-004 9.910595e-001 -2.809738e-002
32549355 9.973227e-001 -1.419438e-002 3.272905e-005 -5.548663e-005 -2.084908e-005 1.469295e-004 9.924023e-001 -2.999382e-002
33299340 9.972188e-001 -1.430209e-002 -5.815832e-006 4.867808e-006 1.872543e-004 1.451784e-004 9.936522e-001 -2.969156e-002
34049325 9.967999e-001 -1.520798e-002 1.107418e-005 1.155719e-005 -4.739121e-005 1.021831e-004 9.929972e-001 -3.027521e-002
34799310 9.984958e-001 -1.527966e-002 2.838687e-005 3.350212e-005 -1.305822e-005 -8.131377e-005 9.922494e-001 -3.084572e-002
35549295 9.978915e-001 -1.574687e-002 -1.089894e-005 1.240581e-004 -2.766853e-004 -1.503721e-008 9.923127e-001 -2.964475e-002
36299280 9.974049e-001 -1.600832e-002 1.509831e-005 8.106244e-005 -1.078812e-004 -1.614160e-004 9.921946e-001 -3.181646e-002
37049265 9.978808e-001 -1.691524e-002 -7.617289e-006 1.401543e-006 -3.654647e-005 -1.627043e-004 9.942101e-001 -3.406098e-002
37799250 9.987013e-001 -1.662868e-002 -4.444379e-005 -8.288778e-005 -7.471401e-005 -2.944072e-004 9.940499e-001 -3.344271e-002
38549235 9.976790e-001 -1.694848e-002 -1.937782e-005 6.848256e-006 6.567391e-005 -1.282499e-004 9.944583e-001 -3.525005e-002
39299220 9.983906e-001 -1.738326e-002 -6.211780e-005 1.448258e-005 1.604950e-004 -2.515429e-004 9.926294e-001 -3.458916e-002
40049205 9.987220e-001 -1.840501e-002 4.357369e-005 -8.301077e-005 1.115188e-004 7.451054e-005 9.921741e-001 -3.499483e-002
40799190 1.000292e+000 -1.923885e-002 8.021613e-005 -5.277637e-005 -4.615475e-004 1.770805e-004 9.927716e-001 -3.677541e-002
41549175 9.975336e-001 -1.871572e-002 -2.224464e-005 -5.762522e-005 1.184943e-004 3.796281e-004 9.911407e-001 -3.839352e-002
42299160 9.983105e-001 -1.802818e-002 8.882612e-005 -7.636895e-005 -2.013920e-004 2.798066e-005 9.937537e-001 -3.529673e-002
43049145 9.975310e-001 -1.872614e-002 1.311190e-005 -3.029314e-005 -2.450721e-004 -1.618816e-004 9.924618e-001 -3.758695e-002
43799130 9.980502e-001 -2.055335e-002 1.551198e-004 1.236773e-004 -2.023225e-004 1.584765e-004 9.905269e-001 -3.907821e-002
44549115 9.992936e-001 -2.012374e-002 -2.689997e-005 -2.271862e-004 6.577186e-005 -2.161506e-004 9.923047e-001 -3.957875e-002
45299100 9.997241e-001 -1.941473e-002 -3.667342e-005 -1.268753e-004 -7.678097e-006 1.064364e-005 9.933813e-001 -3.793856e-002
46049085 9.984575e-001 -2.088944e-002 6.371819e-005 1.677602e-005 5.332517e-005 4.841201e-005 9.915699e-001 -4.250920e-002
46799070 9.988910e-001 -1.922960e-002 -1.133412e-004 5.713999e-005 3.306770e-004 -3.612588e-004 9.961939e-001 -4.486967e-002
47549055 9.974019e-001 -2.108981e-002 6.891265e-005 -5.017846e-006 2.026964e-004 -2.041185e-004 9.894993e-001 -4.250237e-002
48299040 9.978616e-001 -2.325697e-002 1.207363e-004 -2.169483e-004 -4.284351e-005 -7.179835e-006 9.912055e-001 -4.434620e-002
49049025 9.972485e-001 -2.133418e-002 -5.051597e-005 2.188282e-005 2.293799e-004 2.089021e-005 9.943358e-001 -4.626115e-002
49799010 9.969913e-001 -2.195794e-002 -9.707874e-005 -7.941704e-006 -4.165815e-005 4.393157e-005 9.937012e-001 -4.740325e-002
50548995 9.973797e-001 -2.162556e-002 1.949783e-005 1.237180e-005 -1.601187e-004 2.464415e-004 9.943200e-001 -4.376464e-002
51298980 9.984639e-001 -2.195436e-002 7.624344e-005 -8.951423e-005 3.156024e-004 -2.540483e-005 9.952461e-001 -4.660661e-002
52048965 9.986128e-001 -2.263401e-002 3.201197e-005 2.238259e-004 1.804838e-004 1.944714e-004 9.923513e-001 -4.821385e-002
52798950 9.982325e-001 -2.323799e-002 2.324570e-004 -1.223204e-004 3.042230e-004 -3.938839e-004 9.913623e-001 -4.535116e-002
53548935 9.985884e-001 -2.399605e-002 -8.967926e-005 4.396405e-005 -1.791367e-005 1.884009e-004 9.890402e-001 -4.799797e-002
54298920 9.989405e-001 -2.390202e-002 -1.333087e-005 6.170769e-005 -2.539265e-005 2.869795e-004 9.930747e-001 -4.883069e-002
55048905 9.988974e-001 -2.516758e-002 8.330167e-005 -4.469690e-005 -1.127184e-004 3.492886e-004 9.955931e-001 -5.050289e-002
55798890 9.972251e-001 -2.320574e-002 -1.291871e-004 -3.583866e-005 -3.663510e-004 1.849168e-004 9.932866e-001 -4.983262e-002
56548875 9.972028e-001 -2.332142e-002 1.542958e-005 5.210515e-006 -1.140515e-004 9.434839e-005 9.924799e-001 -4.848172e-002
57298860 9.982356e-001 -2.571824e-002 1.668233e-005 -2.497361e-005 -4.522618e-004 -1.983651e-004 9.905152e-001 -5.166941e-002
58048845 9.984110e-001 -2.491060e-002 3.235077e-005 9.300336e-005 -3.324601e-005 -3.349217e-004 9.907107e-001 -5.203328e-002
58798830 9.976923e-001 -2.671903e-002 2.281065e-004 1.036368e-004 -1.040436e-004 -9.027274e-005 9.923292e-001 -5.079379e-002
59548815 9.981462e-001 -2.557877e-002 -4.772093e-005 1.111771e-004 -4.064345e-004 -2.462251e-004 9.918942e-001 -5.246885e-002
60298800 9.980183e-001 -2.627722e-002 -6.174237e-006 -3.204831e-005 1.159639e-004 1.872472e-005 9.889497e-001 -5.472355e-002
61048785 9.981799e-001 -2.679600e-002 -6.881768e-005 -6.670378e-005 1.000964e-004 -2.974334e-005 9.906964e-001 -5.111506e-002
61798770 9.978824e-001 -2.623931e-002 9.784961e-005 6.214000e-005 2.335690e-004 -3.813513e-005 9.941302e-001 -5.196397e-002
62548755 9.974135e-001 -2.662931e-002 1.132585e-004 -8.083975e-006 3.412302e-004 -6.733067e-005 9.949367e-001 -5.468030e-002
63298740 9.968248e-001 -2.730948e-002 -6.983132e-005 -1.735259e-004 1.641350e-004 -9.663266e-005 9.955376e-001 -5.742634e-002
64048725 9.971651e-001 -2.683072e-002 -5.116118e-005 -2.124032e-005 -3.686145e-004 -1.071303e-004 9.883745e-001 -5.593918e-002
64798710 9.979147e-001 -2.838965e-002 -1.031938e-004 2.929655e-005 8.240027e-005 -5.577296e-004 9.913657e-001 -5.736612e-002
65548695 9.983034e-001 -2.782655e-002 -1.519910e-004 -8.604440e-005 1.597170e-004 -3.725151e-006 9.900990e-001 -5.954737e-002
66298680 9.973776e-001 -2.869811e-002 -9.940648e-005 6.257495e-005 -1.718431e-004 -8.135500e-005 9.907580e-001 -5.919899e-002
67048665 9.982015e-001 -2.941490e-002 2.451700e-006 -7.835015e-006 7.040027e-005 -4.735319e-004 9.918262e-001 -6.217538e-002
67798650 9.976642e-001 -2.862200e-002 8.514579e-005 -9.387951e-005 -1.290407e-004 1.890128e-004 9.907329e-001 -6.181381e-002
68548635 9.976623e-001 -3.008722e-002 1.180339e-004 -1.220136e-004 8.360980e-005 1.705378e-004 9.902694e-001 -6.071123e-002
69298620 9.976395e-001 -3.056515e-002 -8.094241e-005 7.988809e-005 -4.164342e-004 -4.242842e-004 9.905242e-001 -5.875608e-002
70048605 9.979513e-001 -3.195462e-002 4.398204e-005 1.155019e-004 1.564972e-004 -4.297398e-004 9.913896e-001 -6.241409e-002
70798590 9.982942e-001 -3.135163e-002 -6.236172e-005 2.153014e-004 1.621492e-004 -8.102236e-005 9.915120e-001 -6.084019e-002
71548575 9.984205e-001 -3.065156e-002 8.163304e-005 3.278291e-005 1.787199e-004 -5.565442e-004 9.922903e-001 -6.053681e-002
72298560 9.968764e-001 -3.077712e-002 5.465613e-005 1.106030e-005 1.676624e-004 -1.263701e-004 9.932521e-001 -6.201489e-002
73048545 9.963418e-001 -3.084868e-002 -9.855925e-005 9.251991e-005 3.811828e-004 1.634523e-004 9.917094e-001 -6.285158e-002
73798530 9.980617e-001 -3.293546e-002 8.208270e-005 -7.190310e-005 1.971783e-004 -9.126585e-007 9.893480e-001 -6.504355e-002
74548515 9.978836e-001 -3.267920e-002 -5.920383e-005 -1.753198e-005 2.407930e-004 -3.465946e-004 9.878138e-001 -6.454121e-002
75298500 9.977551e-001 -3.175225e-002 -1.676056e-004 -3.887704e-005 4.127579e-004 2.504470e-004 9.903057e-001 -6.460849e-002
76048485 9.979998e-001 -3.279582e-002 -7.034814e-005 1.359558e-004 -1.619692e-005 -6.265096e-005 9.907111e-001 -6.823348e-002
76798470 9.970379e-001 -3.177910e-002 1.795616e-005 8.530581e-005 3.930053e-004 1.859110e-004 9.897928e-001 -6.705364e-002
77548455 9.973763e-001 -3.395038e-002 -9.767798e-005 -4.633230e-005 8.415511e-005 -4.787945e-005 9.901195e-001 -6.530196e-002
78298440 9.969978e-001 -3.402939e-002 1.736815e-005 -1.483320e-004 2.884553e-004 1.047576e-004 9.911056e-001 -6.739479e-002
79048425 9.969708e-001 -3.525658e-002 1.575958e-004 -1.547528e-005 -2.128466e-004 1.338366e-005 9.894308e-001 -6.868356e-002
79798410 9.964280e-001 -3.509835e-002 -7.665140e-005 -1.101780e-004 3.440227e-006 2.510125e-004 9.887406e-001 -7.052997e-002
80548395 9.972478e-001 -3.582701e-002 1.361187e-004 -1.116738e-004 -1.979679e-005 1.772206e-004 9.908092e-001 -7.065997e-002
81298380 9.977500e-001 -3.463169e-002 5.347650e-005 7.632967e-005 -1.645160e-004 2.433393e-004 9.891460e-001 -6.851142e-002
82048365 9.990046e-001 -3.678048e-002 -7.507445e-005 -4.119437e-005 -6.313364e-005 -1.427455e-004 9.902836e-001 -6.943864e-002
82798350 9.974701e-001 -3.681766e-002 6.580701e-006 2.000184e-004 -8.064474e-005 -7.411416e-005 9.898261e-001 -7.093211e-002
83548335 9.975404e-001 -3.679164e-002 5.610415e-006 -1.296808e-004 -9.312217e-005 1.454069e-004 9.905730e-001 -7.480952e-002
84298320 9.973418e-001 -3.540087e-002 4.908495e-005 2.992017e-005 -2.915405e-004 2.828942e-005 9.886501e-001 -7.366806e-002
85048305 9.988412e-001 -3.492812e-002 -4.005970e-006 -2.588792e-004 9.687449e-005 -1.008234e-004 9.908186e-001 -7.390275e-002
85798290 9.964463e-001 -3.739012e-002 -1.108595e-004 -1.193947e-004 -3.675226e-004 -1.298819e-004 9.919315e-001 -7.580798e-002
86548275 9.966727e-001 -3.718997e-002 8.939125e-005 7.824028e-005 7.766194e-005 1.937866e-004 9.900803e-001 -7.492218e-002
87298260 9.992256e-001 -3.855897e-002 1.391582e-004 5.324141e-005 -3.239755e-004 -3.012081e-004 9.908472e-001 -7.911298e-002
88048245 9.984813e-001 -3.897564e-002 8.095184e-005 7.178447e-005 -1.085539e-005 -1.235929e-004 9.892163e-001 -7.759543e-002
88798230 9.955145e-001 -3.720076e-002 3.388392e-005 5.607866e-005 -1.153099e-004 -2.623997e-004 9.908199e-001 -7.883406e-002
89548215 9.980810e-001 -3.759293e-002 4.365090e-005 7.357142e-005 -1.720585e-004 1.126865e-004 9.892020e-001 -8.201597e-002
90298200 9.979320e-001 -3.999367e-002 -8.624012e-005 -1.308096e-004 1.805163e-005 -2.290706e-004 9.912964e-001 -8.207940e-002
91048185 9.955167e-001 -4.050748e-002 -2.135073e-004 -5.647735e-005 -1.028671e-004 -5.032504e-004 9.886041e-001 -8.114322e-002
91798170 9.982049e-001 -4.055045e-002 5.421678e-005 1.754949e-005 3.340420e-005 1.039758e-004 9.877152e-001 -7.986370e-002
92548155 9.972761e-001 -4.070524e-002 7.381305e-005 2.502503e-005 3.789891e-005 -2.615873e-004 9.894740e-001 -8.243274e-002
93298140 9.976190e-001 -4.120652e-002 9.686482e-005 -1.811389e-004 -3.288566e-006 -2.698511e-004 9.921404e-001 -8.606432e-002
94048125 9.986503e-001 -4.151713e-002 -1.009155e-004 5.369914e-005 -6.667320e-005 -8.397217e-005 9.896785e-001 -8.381354e-002
94798110 9.969800e-001 -4.132257e-002 -5.876856e-006 -1.143354e-004 1.121936e-005 -3.623168e-005 9.896851e-001 -8.446797e-002
95548095 9.982606e-001 -4.098106e-002 -2.993603e-005 -5.047603e-005 1.489688e-004 -2.254300e-004 9.873428e-001 -8.372962e-002
96298080 9.978263e-001 -4.056947e-002 -1.639665e-004 -8.189916e-005 2.304938e-004 1.240740e-004 9.883123e-001 -8.341008e-002
97048065 9.978641e-001 -4.292862e-002 1.095901e-004 1.535153e-005 9.764381e-005 -1.239042e-004 9.919508e-001 -8.513574e-002
97798050 9.971319e-001 -4.355830e-002 -5.444135e-005 -8.150158e-005 -5.254724e-005 6.872880e-005 9.874917e-001 -8.743783e-002
98548035 9.971538e-001 -4.279523e-002 3.589093e-008 3.212932e-005 1.155454e-005 -3.010694e-005 9.905710e-001 -8.845491e-002
99298020 9.957618e-001 -4.214155e-002 -1.258216e-006 2.465438e-005 5.215143e-004 1.237218e-004 9.892340e-001 -8.876999e-002
100048005 9.969786e-001 -4.293033e-002 -2.869742e-005 1.911175e-005 1.778881e-004 2.874476e-004 9.904429e-001 -8.774699e-002
100797990 9.966051e-001 -4.282533e-002 -1.009429e-004 -4.356280e-005 3.218121e-004 2.637026e-004 9.887630e-001 -8.934484e-002
101547975 9.969921e-001 -4.305816e-002 -1.351121e-005 -1.314564e-004 2.762871e-004 2.208523e-004 9.897872e-001 -8.456220e-002
102297960 9.960660e-001 -4.561137e-002 3.488651e-005 -5.325544e-005 -8.129363e-005 3.682608e-004 9.870443e-001 -9.080882e-002
103047945 9.966843e-001 -4.458080e-002 7.542443e-005 -4.149368e-005 -3.913128e-004 6.516726e-005 9.893687e-001 -9.204613e-002
103797930 9.969926e-001 -4.458435e-002 1.038566e-004 -6.791018e-005 2.177833e-004 -9.394194e-005 9.884852e-001 -8.990033e-002
104547915 9.956988e-001 -4.420533e-002 1.927636e-005 1.597489e-004 6.968063e-005 -8.231998e-006 9.859927e-001 -9.259430e-002
105297900 9.959246e-001 -4.495297e-002 -2.970265e-005 6.066579e-005 -1.466001e-004 4.791813e-004 9.894955e-001 -9.188621e-002
106047885 9.976662e-001 -4.584772e-002 3.146357e-005 -4.118177e-005 -1.186896e-004 -4.123734e-005 9.897090e-001 -9.204070e-002
106797870 9.979283e-001 -4.648885e-002 -1.374913e-005 -1.052509e-004 -7.191175e-005 -4.090133e-004 9.896640e-001 -9.433538e-002
107547855 9.958290e-001 -4.706343e-002 7.447263e-005 1.026853e-004 4.161013e-004 -2.782255e-005 9.855219e-001 -9.149393e-002
108297840 9.949404e-001 -4.806061e-002 -1.659755e-005 -8.085870e-006 4.990147e-005 -1.297860e-004 9.906709e-001 -9.296000e-002
109047825 9.957435e-001 -4.708374e-002 2.267613e-005 -1.227994e-005 -4.892750e-004 -1.171759e-005 9.893723e-001 -9.413058e-002
109797810 9.956083e-001 -4.649169e-002 -3.991447e-006 5.456594e-005 -2.607435e-004 1.953365e-004 9.853061e-001 -9.611115e-002
110547795 9.959399e-001 -4.928464e-002 -1.134845e-004 -2.413580e-005 -3.256915e-004 2.579615e-004 9.884322e-001 -9.589232e-002
111297780 9.966223e-001 -4.878836e-002 3.262845e-005 -2.598991e-005 -2.235663e-004 -2.349708e-004 9.874307e-001 -9.702925e-002
112047765 9.962094e-001 -4.861439e-002 -1.270324e-004 -1.541036e-004 -4.039454e-004 -7.265356e-005 9.880161e-001 -9.771680e-002
112797750 9.958781e-001 -4.858932e-002 -9.592597e-006 -1.531615e-004 1.956853e-004 -3.278000e-004 9.895499e-001 -9.921099e-002
113547735 9.962505e-001 -4.796761e-002 1.221881e-004 -2.463498e-005 -3.485167e-004 -1.462091e-005 9.859396e-001 -9.899053e-002
114297720 9.967362e-001 -5.022641e-002 -6.999437e-005 -1.332628e-004 -7.084878e-005 -1.525743e-004 9.897290e-001 -9.896672e-002
115047705 9.949521e-001 -5.134024e-002 6.563866e-005 2.013092e-005 -3.713100e-005 2.240868e-004 9.879844e-001 -1.022714e-001
115797690 9.954145e-001 -4.986254e-002 -9.118695e-005 -7.628535e-005 1.356430e-004 2.342733e-004 9.859316e-001 -1.008888e-001
116547675 9.951274e-001 -5.112527e-002 7.504313e-005 7.962446e-005 1.503343e-004 -3.242547e-004 9.860792e-001 -1.039089e-001
