!Agilent Technologies,N5230C,SG49000117,A.08.50.07
!Agilent N5230C: A.08.50.07
!Date: Monday, December 11, 2023 22:51:14
!Correction: S11(Full 2 Port(1,2)) 
!S21(Full 2 Port(1,2)) 
!S12(Full 2 Port(1,2)) 
!S22(Full 2 Port(1,2)) 
!S2P File: Measurements: S11, S21, S12, S22:
# Hz S  RI   R 50
300000 9.911540e-001 5.156711e-003 -1.725574e-005 -1.607410e-004 -4.281579e-004 2.126381e-004 9.966720e-001 8.356667e-003
349985 9.787913e-001 7.068555e-003 5.868320e-005 -3.204992e-005 4.734702e-004 -3.192060e-004 9.580666e-001 8.140527e-003
399970 9.761102e-001 9.921743e-003 8.086246e-006 2.308102e-004 -9.274350e-005 1.113710e-004 9.482989e-001 4.734325e-003
449955 9.731855e-001 1.225065e-002 -7.957817e-005 -1.138773e-004 4.766463e-005 1.871229e-004 9.435174e-001 7.362373e-003
499940 9.644516e-001 1.640624e-002 7.671010e-006 -3.929783e-006 -5.546198e-005 1.068373e-004 9.236525e-001 1.600063e-002
549925 9.673879e-001 1.887079e-002 -1.844293e-005 -7.487421e-007 -1.880032e-004 -5.223515e-005 9.262530e-001 2.336521e-002
599910 9.714531e-001 1.578144e-002 3.872736e-005 -2.897110e-005 -1.107607e-004 -2.664787e-005 9.449162e-001 2.330572e-002
649895 9.728002e-001 1.353604e-002 4.326983e-005 5.164582e-005 -1.240694e-004 1.337620e-004 9.470308e-001 3.486894e-003
699880 9.727069e-001 1.401161e-002 -2.851583e-005 6.607054e-006 -1.318464e-004 3.029428e-007 9.412045e-001 3.130997e-003
749865 9.743095e-001 1.468107e-002 -6.888790e-005 -6.703999e-006 -1.862942e-004 5.772427e-006 9.445754e-001 7.513448e-003
799850 9.791602e-001 1.351289e-002 1.405394e-005 -4.958016e-005 -5.654620e-005 -7.355917e-005 9.520385e-001 7.613929e-003
849835 9.821389e-001 1.141919e-002 -5.167278e-006 1.422855e-005 4.885770e-005 1.090975e-005 9.584714e-001 8.361164e-003
899820 9.849755e-001 8.788157e-003 -5.128722e-005 1.076804e-005 -2.610334e-004 8.390672e-005 9.653187e-001 5.794263e-003
949805 9.874105e-001 7.030770e-003 -1.596058e-005 1.046008e-005 9.102027e-005 -3.101048e-005 9.719507e-001 6.376815e-003
999790 9.898015e-001 5.546776e-003 -1.525706e-004 3.451819e-005 1.458962e-004 -4.239570e-005 9.770443e-001 4.206390e-003
1049775 9.929432e-001 2.466617e-003 8.697075e-006 1.356762e-005 -1.421386e-005 -1.636991e-004 9.816154e-001 2.972994e-003
1099760 9.963884e-001 1.949569e-004 -6.452008e-005 2.521068e-005 -1.606114e-004 -1.346234e-004 9.876531e-001 3.685354e-003
1149745 9.985479e-001 -2.865101e-003 -3.605973e-005 1.130845e-004 1.089145e-004 -5.744644e-005 9.948652e-001 1.400652e-003
1199730 9.974853e-001 2.316157e-003 1.791629e-005 4.650264e-005 2.484900e-004 1.003900e-004 9.950332e-001 1.677625e-003
1249715 9.963213e-001 2.663600e-003 -7.644535e-006 -4.364628e-005 2.926839e-005 5.935935e-005 9.937674e-001 3.400122e-003
1299700 9.958066e-001 4.152964e-003 -1.682124e-005 -7.653849e-005 7.048534e-005 -2.003277e-004 9.941564e-001 1.691703e-003
1349685 9.950272e-001 4.135665e-003 5.574590e-005 -1.125543e-004 5.244138e-005 -1.693767e-004 9.932470e-001 6.695106e-004
1399670 9.952987e-001 4.956604e-003 4.543526e-005 1.424586e-005 -5.599688e-005 6.242767e-005 9.928915e-001 5.278802e-005
1449655 9.940891e-001 5.681176e-003 1.150204e-006 -3.300756e-005 -1.087813e-004 1.129469e-004 9.940605e-001 -9.307518e-004
1499640 9.936713e-001 6.046286e-003 -1.099346e-004 4.084856e-006 -5.642933e-005 -5.991251e-005 9.946934e-001 7.918206e-004
1549625 9.936026e-001 5.357642e-003 1.386782e-005 -7.840672e-005 1.476748e-004 1.242724e-005 9.943986e-001 -8.748147e-003
1599610 9.937736e-001 7.692692e-003 8.070968e-006 -1.804852e-005 -9.448936e-005 1.051883e-004 9.918701e-001 -3.567223e-003
1649595 9.940633e-001 7.411442e-003 -3.040815e-005 -4.603821e-005 -1.463136e-005 -7.997957e-005 9.926971e-001 -3.141188e-003
1699580 9.930382e-001 8.179422e-003 -5.755355e-005 -2.757855e-005 8.673158e-005 -1.404602e-004 9.938912e-001 -4.459420e-003
1749565 9.922392e-001 8.167380e-003 -8.574212e-006 8.185906e-005 1.701548e-004 -6.435441e-005 9.961949e-001 -6.046808e-003
1799550 9.915574e-001 8.325043e-003 3.933822e-005 -4.240346e-005 7.318257e-005 -1.928909e-004 9.961354e-001 -5.539522e-003
1849535 9.915879e-001 9.398515e-003 5.071102e-005 -4.008353e-005 1.193268e-004 -8.039259e-005 9.938712e-001 -5.020527e-003
1899520 9.916321e-001 1.086657e-002 -2.369320e-005 -2.843964e-005 3.433568e-005 -1.556205e-004 9.929727e-001 -2.943599e-003
1949505 9.912041e-001 1.125511e-002 4.741209e-005 -1.539648e-006 -5.904250e-005 -1.802327e-005 9.934348e-001 -3.452477e-003
1999490 9.905959e-001 1.215481e-002 -3.086304e-005 -6.568537e-005 -2.742859e-004 1.045497e-005 9.948816e-001 -3.466431e-003
2049475 9.978881e-001 -4.425961e-004 4.742107e-007 -1.302702e-005 -1.854145e-004 3.962740e-005 9.969749e-001 -2.406967e-003
2099460 9.975621e-001 -6.227942e-004 -7.027914e-006 -5.555210e-005 -5.749275e-006 -7.608834e-005 9.950837e-001 -1.818070e-003
2149445 9.974145e-001 -2.321628e-004 2.945174e-005 -1.284906e-004 -3.320073e-005 -1.727098e-005 9.970257e-001 -8.130240e-004
2199430 9.972870e-001 -1.364193e-004 8.693722e-005 -7.865768e-005 1.211989e-005 6.169871e-005 9.967677e-001 -2.472597e-003
2249415 9.984085e-001 -1.989948e-005 -9.804631e-005 -4.027248e-005 -1.754832e-004 1.950835e-004 9.969667e-001 -2.208542e-003
2299400 9.981260e-001 -5.931971e-004 7.471684e-005 -2.398450e-005 -5.332503e-005 -1.274266e-004 9.986396e-001 -2.089353e-003
2349385 9.984166e-001 -1.369784e-003 3.160718e-005 1.083886e-004 -3.438538e-005 1.116513e-004 9.989586e-001 -4.550859e-003
2399370 9.980931e-001 -6.127166e-004 5.257936e-005 9.942250e-005 -1.046602e-004 3.916790e-005 1.000050e+000 -1.298968e-003
2449355 9.961281e-001 -1.593246e-003 -8.624726e-005 -1.065700e-005 2.762961e-005 -2.905124e-004 9.991741e-001 -5.247972e-003
2499340 9.979926e-001 1.137493e-003 3.528652e-005 3.443058e-005 2.376816e-005 1.148526e-004 1.000085e+000 -5.778743e-003
2549325 9.984474e-001 -3.895175e-004 4.065631e-005 -6.646910e-005 -1.843717e-004 2.501220e-005 9.987116e-001 -4.307199e-003
2599310 9.979918e-001 -5.006099e-004 -1.463472e-004 2.981925e-005 -2.492009e-005 6.178071e-005 9.982032e-001 -3.694595e-003
2649295 9.984380e-001 -1.007260e-003 7.592770e-005 3.157672e-005 1.409535e-004 2.242055e-005 9.985420e-001 -5.691535e-003
2699280 9.977645e-001 -2.041627e-003 3.214579e-005 -8.320964e-005 -2.125178e-004 -6.279050e-005 9.944275e-001 -5.468983e-003
2749265 9.966467e-001 -1.758033e-003 -2.969822e-005 -2.511483e-005 -2.460946e-005 2.840502e-005 1.002121e+000 -2.980457e-003
2799250 9.978225e-001 -1.320300e-003 -1.072439e-004 4.942188e-005 -1.310068e-004 -2.446573e-005 9.984844e-001 -8.768567e-003
2849235 9.978185e-001 -1.140147e-003 1.303043e-005 -2.299024e-005 7.422554e-005 1.480669e-004 9.968497e-001 -5.257955e-003
2899220 9.987971e-001 -1.555768e-003 1.983275e-005 -1.247099e-005 5.438081e-005 6.576890e-005 1.000428e+000 -1.678846e-003
2949205 9.980353e-001 -9.548167e-004 -6.144742e-005 2.325501e-005 2.817557e-005 1.615325e-005 9.985738e-001 -5.979157e-003
2999190 9.976416e-001 -1.705183e-003 -3.202593e-005 -4.394836e-005 3.119113e-004 -9.763625e-005 9.991571e-001 -4.905843e-003
3049175 9.978628e-001 -1.412197e-003 -7.581279e-005 -2.513202e-005 9.028204e-005 2.137509e-006 9.983763e-001 -4.377249e-003
3099160 9.978060e-001 -1.412154e-003 4.298294e-005 6.285319e-006 -1.913683e-005 6.603761e-005 9.986085e-001 -5.287678e-003
3149145 9.977295e-001 -1.061192e-003 3.342958e-005 -2.718724e-005 1.060360e-004 1.362844e-004 9.987498e-001 -5.053991e-003
3199130 9.979735e-001 -8.619897e-004 -3.387384e-005 -1.975359e-005 -5.224499e-005 -8.278403e-005 9.978066e-001 -4.254173e-003
3249115 9.982529e-001 -2.217200e-003 1.558578e-005 -3.119425e-006 1.098329e-005 -9.861428e-005 9.975954e-001 -4.913920e-003
3299100 9.987915e-001 -1.436530e-003 5.533297e-006 4.602611e-005 -6.198791e-005 4.698227e-005 9.984610e-001 -6.101788e-003
3349085 9.986770e-001 -1.953699e-003 1.239111e-005 -3.486748e-005 1.207711e-005 -3.280333e-005 9.973918e-001 -6.052588e-003
3399070 9.978638e-001 -1.294693e-003 5.586816e-005 -4.824609e-005 -4.655011e-005 -1.047018e-004 9.965743e-001 -5.605035e-003
3449055 9.977180e-001 -1.577881e-003 2.211805e-005 2.786229e-005 2.595936e-005 4.184163e-005 9.954780e-001 -5.978811e-003
3499040 9.978641e-001 -1.421913e-004 -1.155320e-006 1.688689e-005 -5.210533e-005 1.095177e-004 9.958193e-001 -1.711328e-003
3549025 9.983678e-001 -1.412924e-003 -1.718370e-005 2.724998e-006 1.902128e-004 -2.008168e-004 9.958241e-001 -5.183250e-003
3599010 9.977784e-001 -8.621174e-004 9.281588e-005 1.692093e-005 -4.901335e-005 3.628485e-005 9.960344e-001 -5.484670e-003
3648995 9.985263e-001 -8.665670e-004 6.717381e-006 3.036749e-006 -4.749318e-006 9.148001e-005 9.959150e-001 -4.137344e-003
3698980 9.988266e-001 -2.279287e-004 9.268319e-006 -7.205809e-005 -4.638969e-006 -5.079498e-005 9.955166e-001 -4.277105e-003
3748965 9.986010e-001 -1.020901e-003 -7.093704e-005 1.279162e-005 1.170970e-005 2.151881e-004 9.953669e-001 -4.626725e-003
3798950 9.982777e-001 -1.019417e-003 -1.524389e-005 3.329387e-005 5.130870e-005 -2.787735e-005 9.951749e-001 -3.952135e-003
3848935 9.981261e-001 -7.071266e-004 6.708010e-005 2.849901e-005 1.422118e-004 1.463858e-004 9.963469e-001 -3.791506e-003
3898920 9.979722e-001 -1.201489e-003 5.607949e-005 -3.261693e-005 1.381388e-004 -1.129554e-004 9.946538e-001 -4.206498e-003
3948905 9.984347e-001 -8.316441e-004 -5.445621e-005 1.291420e-005 2.467234e-005 2.520860e-005 9.953570e-001 -4.556585e-003
3998890 9.988527e-001 -1.777804e-003 -5.242081e-006 3.541086e-006 -1.658099e-005 1.687372e-005 9.959009e-001 -4.925228e-003
4048875 9.984674e-001 -1.250147e-003 4.037705e-005 5.154811e-005 1.316454e-004 -5.874248e-005 9.961753e-001 -4.748941e-003
4098860 9.989466e-001 -8.628640e-004 -4.419109e-005 4.068507e-005 -2.727757e-005 1.211444e-004 9.950018e-001 -4.780733e-003
4148845 9.987395e-001 -8.177036e-004 2.875218e-005 3.375590e-005 -6.030736e-005 4.663983e-005 9.946011e-001 -4.440600e-003
4198830 9.982867e-001 -1.211106e-003 2.083822e-005 3.166356e-005 -5.659946e-005 2.980230e-005 9.954242e-001 -5.414651e-003
4248815 9.985380e-001 -2.142941e-003 -6.570170e-005 -1.007584e-006 1.155679e-004 -5.855625e-006 9.953460e-001 -5.502449e-003
4298800 9.988294e-001 -1.237531e-003 1.901233e-005 1.553420e-005 9.750485e-005 9.780584e-005 9.953968e-001 -4.374759e-003
4348785 9.987291e-001 -1.560001e-003 1.371483e-005 -7.114731e-005 -2.093887e-004 1.467477e-006 9.946793e-001 -5.392274e-003
4398770 9.988068e-001 -1.641331e-003 -2.422437e-005 1.233481e-006 1.020187e-005 9.108092e-005 9.945055e-001 -4.573346e-003
4448755 9.980886e-001 -1.689089e-003 -1.694251e-005 -5.126210e-005 1.273412e-005 -1.466019e-005 9.951681e-001 -4.930697e-003
4498740 9.976475e-001 -1.337986e-003 -4.879965e-005 -4.051642e-005 -1.341080e-004 -1.574422e-004 9.951742e-001 -4.186256e-003
4548725 9.977925e-001 -1.050793e-003 3.772051e-008 5.922261e-005 -7.112366e-005 1.576685e-004 9.954908e-001 -4.010256e-003
4598710 9.978716e-001 -1.511609e-003 -1.075649e-005 -3.496724e-005 2.778933e-004 1.846851e-005 9.949812e-001 -3.511265e-003
4648695 9.977214e-001 -2.483710e-003 5.304774e-005 -1.065845e-005 2.221843e-005 -9.327989e-005 9.950806e-001 -3.960860e-003
4698680 9.981471e-001 -1.478956e-003 2.872969e-005 -1.071795e-005 1.482399e-004 -2.615645e-004 9.951306e-001 -3.464793e-003
4748665 9.975691e-001 -1.366797e-003 2.987667e-005 -2.601127e-005 6.571364e-005 -9.335949e-005 9.937449e-001 -3.831672e-003
4798650 9.976436e-001 -1.278131e-003 3.531506e-006 1.828372e-005 -1.895306e-004 -7.346641e-005 9.949186e-001 -4.803730e-003
4848635 9.979600e-001 -2.041953e-003 4.747764e-005 -1.450922e-005 1.189832e-004 -6.691115e-005 9.958115e-001 -4.737389e-003
4898620 9.977314e-001 -2.275005e-003 2.406199e-005 7.442520e-005 -2.680537e-005 1.452230e-004 9.960915e-001 -4.901696e-003
4948605 9.978053e-001 -2.959389e-003 -2.828203e-005 4.271226e-005 1.037619e-004 -8.436049e-005 9.951596e-001 -4.834524e-003
4998590 9.978861e-001 -2.277784e-003 1.637368e-004 1.055606e-004 -6.476694e-005 -1.723226e-004 9.959173e-001 -4.343060e-003
5048575 9.981339e-001 -2.114081e-003 3.881656e-006 -7.614121e-006 -2.023689e-004 5.297612e-005 9.947888e-001 -5.341628e-003
5098560 9.980463e-001 -2.041085e-003 1.787634e-005 1.925138e-005 -6.804069e-005 1.060494e-005 9.944400e-001 -4.549915e-003
5148545 9.981684e-001 -2.322788e-003 3.279854e-005 2.427709e-005 -4.068406e-005 -5.507831e-005 9.948779e-001 -4.928640e-003
5198530 9.981799e-001 -2.199442e-003 -5.728542e-005 -1.497354e-005 1.860015e-004 8.387272e-005 9.951335e-001 -4.965391e-003
5248515 9.986780e-001 -2.394266e-003 1.011640e-005 4.144412e-005 6.636803e-005 -1.333085e-004 9.961675e-001 -5.039532e-003
5298500 9.976364e-001 -3.434429e-003 3.749820e-005 1.146720e-005 -6.772045e-005 1.447688e-004 9.961880e-001 -5.904267e-003
5348485 9.977186e-001 -2.285794e-003 5.039468e-005 -4.287372e-006 3.137783e-005 -3.827839e-005 9.933853e-001 -5.462803e-003
5398470 9.976541e-001 -2.906537e-003 2.833598e-005 -6.398610e-005 9.220470e-005 8.751268e-005 9.954705e-001 -5.010977e-003
5448455 9.977810e-001 -2.543890e-003 2.604678e-005 -1.672415e-005 8.576135e-005 -7.639603e-005 9.950803e-001 -5.706678e-003
5498440 9.981602e-001 -2.862187e-003 -7.058985e-005 6.128541e-005 6.809885e-005 6.475425e-005 9.960923e-001 -5.463430e-003
5548425 9.971356e-001 -2.823462e-003 -3.087551e-005 -4.052602e-005 9.311683e-005 2.546493e-005 9.953338e-001 -5.699170e-003
5598410 9.969393e-001 -2.954483e-003 -2.913329e-005 1.262655e-005 -1.121164e-004 2.265065e-005 9.953046e-001 -4.872506e-003
5648395 9.977518e-001 -2.703940e-003 3.427290e-005 -2.072222e-005 -1.986014e-006 -1.414911e-004 9.948587e-001 -5.069171e-003
5698380 9.974273e-001 -2.980755e-003 -1.026414e-004 2.069039e-005 1.284718e-004 -1.373055e-004 9.968119e-001 -4.294224e-003
5748365 9.978561e-001 -2.704149e-003 -3.994094e-005 -1.959465e-005 -6.695346e-005 1.632427e-004 9.959627e-001 -3.936271e-003
5798350 9.978684e-001 -2.905425e-003 3.174907e-005 -5.063956e-005 -1.737275e-004 1.360979e-004 9.964808e-001 -3.430209e-003
5848335 9.978827e-001 -2.987522e-003 -1.491019e-006 2.110150e-005 5.614519e-005 -2.511452e-005 9.960001e-001 -3.564848e-003
5898320 9.978597e-001 -2.912653e-003 5.494364e-005 4.953726e-005 6.490506e-005 -4.969048e-005 9.956374e-001 -3.282109e-003
5948305 9.975045e-001 -2.732436e-003 3.846072e-005 5.945298e-005 -6.492147e-005 2.750554e-005 9.944581e-001 -3.638037e-003
5998290 9.978558e-001 -2.948342e-003 -2.084282e-005 3.775095e-005 8.866253e-006 -1.948785e-005 9.948830e-001 -3.950200e-003
6048275 9.979479e-001 -3.402678e-003 -5.707859e-005 -4.885809e-005 -7.373365e-005 1.124423e-004 9.954398e-001 -2.709469e-003
6098260 9.976225e-001 -2.945095e-003 2.850525e-005 -3.405259e-005 -7.375082e-005 8.016900e-005 9.965945e-001 -3.527593e-003
6148245 9.977731e-001 -3.309778e-003 -4.461446e-005 3.219335e-005 3.820248e-005 1.197510e-004 9.953187e-001 -2.799951e-003
6198230 9.981186e-001 -3.477638e-003 4.045132e-005 2.764516e-005 2.633436e-005 1.385466e-004 9.945577e-001 -3.778247e-003
6248215 9.982700e-001 -3.101171e-003 2.086919e-005 -6.909939e-006 4.237179e-005 -1.951522e-005 9.955550e-001 -4.433487e-003
6298200 9.980468e-001 -3.323522e-003 2.513907e-005 -5.926401e-005 2.147173e-005 -2.242409e-004 9.958949e-001 -4.150353e-003
6348185 9.978734e-001 -4.093843e-003 -4.701952e-005 -3.390246e-007 -4.189579e-005 1.744984e-004 9.954009e-001 -4.283795e-003
6398170 9.982261e-001 -3.601572e-003 -6.950161e-005 3.175802e-005 -1.985131e-005 5.788914e-005 9.952066e-001 -5.067255e-003
6448155 9.982527e-001 -3.402667e-003 -2.796858e-006 7.780950e-005 -4.204664e-005 -9.497230e-005 9.947981e-001 -5.121068e-003
6498140 9.978726e-001 -3.377872e-003 -3.577170e-005 7.522110e-005 -1.378480e-004 3.743804e-005 9.940254e-001 -5.739500e-003
6548125 9.980373e-001 -3.807129e-003 3.471521e-005 -2.673813e-005 -1.866958e-004 1.066588e-004 9.947566e-001 -4.823157e-003
6598110 9.978811e-001 -3.300706e-003 -6.704625e-005 -7.041409e-006 -1.120008e-004 -2.010083e-004 9.954086e-001 -5.321538e-003
6648095 9.979027e-001 -3.538387e-003 -1.043030e-004 -3.912957e-005 2.964937e-005 1.004605e-005 9.946312e-001 -6.227342e-003
6698080 9.977625e-001 -3.401518e-003 6.106433e-005 -6.518962e-005 6.104908e-005 -1.987770e-004 9.947588e-001 -6.627422e-003
6748065 9.983757e-001 -3.325624e-003 1.366586e-005 -5.049216e-006 -5.877306e-005 -2.826563e-005 9.947845e-001 -5.851444e-003
6798050 9.978574e-001 -3.757303e-003 -3.476097e-005 4.006192e-006 9.202463e-005 2.876153e-005 9.960662e-001 -6.247294e-003
6848035 9.982610e-001 -3.697370e-003 3.575965e-005 -1.764421e-005 -6.815877e-005 -2.156456e-004 9.953803e-001 -5.428295e-003
6898020 9.978258e-001 -3.504972e-003 -6.595450e-006 -1.590763e-005 1.054446e-004 8.835222e-006 9.954509e-001 -7.102882e-003
6948005 9.976954e-001 -3.453791e-003 -2.789496e-005 -8.833776e-005 -4.570846e-005 -1.222712e-004 9.952447e-001 -7.355824e-003
6997990 9.981011e-001 -3.602919e-003 9.655460e-006 6.164485e-005 1.187393e-005 1.161106e-004 9.962338e-001 -6.360152e-003
7047975 9.976541e-001 -3.815078e-003 8.092388e-006 5.305596e-005 -2.719004e-004 8.493522e-005 9.957603e-001 -7.122174e-003
7097960 9.980624e-001 -4.048334e-003 -9.631276e-006 -6.969237e-006 1.064841e-005 2.535456e-005 9.954690e-001 -6.919628e-003
7147945 9.980658e-001 -3.949522e-003 6.799749e-005 3.678697e-006 1.708820e-004 1.763770e-005 9.963902e-001 -6.674427e-003
7197930 9.976935e-001 -3.397410e-003 -4.452592e-005 -2.506687e-005 1.189204e-005 -9.269723e-005 9.965923e-001 -7.249977e-003
7247915 9.979577e-001 -3.486415e-003 7.194767e-006 1.073037e-004 3.414202e-005 3.837077e-005 9.952746e-001 -6.695838e-003
7297900 9.980193e-001 -3.479671e-003 -2.635512e-005 5.224607e-005 6.301338e-005 1.013889e-004 9.949170e-001 -7.337077e-003
7347885 9.972523e-001 -4.152135e-003 -6.338576e-005 7.105500e-005 1.207852e-004 2.521868e-004 9.947004e-001 -8.013112e-003
7397870 9.977684e-001 -3.454007e-003 9.106556e-006 -4.128285e-005 7.194930e-005 -1.970927e-004 9.962850e-001 -8.043430e-003
7447855 9.977874e-001 -3.799903e-003 1.594468e-005 1.060062e-004 1.593321e-004 1.196312e-004 9.965164e-001 -8.258210e-003
7497840 9.976338e-001 -3.610810e-003 -5.033064e-005 -9.616667e-005 1.323372e-004 -1.563947e-004 9.964595e-001 -6.186433e-003
7547825 9.969587e-001 -3.494994e-003 3.490239e-005 2.935212e-005 2.327360e-004 2.803574e-004 9.958562e-001 -7.421177e-003
7597810 9.975919e-001 -3.694796e-003 -3.752598e-005 -9.587964e-005 -1.760107e-004 5.014140e-006 9.948792e-001 -7.564790e-003
7647795 9.971484e-001 -3.930260e-003 5.249106e-006 -8.318826e-005 2.218085e-004 5.426314e-005 9.953104e-001 -9.011328e-003
7697780 9.980842e-001 -3.449946e-003 2.408035e-005 3.610883e-006 5.536016e-005 7.567814e-005 9.945711e-001 -6.935583e-003
7747765 9.976396e-001 -3.636697e-003 -6.468652e-005 9.584687e-005 9.236294e-005 5.151374e-005 9.949151e-001 -7.525242e-003
7797750 9.978555e-001 -3.595403e-003 -6.526868e-005 -8.795413e-007 1.710560e-004 -9.370852e-005 9.942650e-001 -6.419545e-003
7847735 9.976246e-001 -3.132351e-003 -3.567992e-005 -3.355654e-005 -5.232753e-005 1.689902e-004 9.958549e-001 -6.702322e-003
7897720 9.976609e-001 -3.520404e-003 6.366005e-006 -5.614143e-005 9.401055e-006 1.044496e-004 9.946132e-001 -6.402776e-003
7947705 9.975150e-001 -3.327662e-003 6.205825e-005 -3.984438e-005 4.392654e-005 -2.120256e-005 9.946195e-001 -5.912412e-003
7997690 9.979256e-001 -3.413881e-003 -3.056004e-005 3.279447e-005 -1.263536e-004 1.671547e-005 9.941188e-001 -6.169334e-003
8047675 9.976342e-001 -3.650488e-003 -4.504980e-005 3.341692e-005 6.914425e-005 -7.504841e-005 9.955025e-001 -6.548666e-003
8097660 9.973131e-001 -3.402053e-003 3.299714e-005 -6.691754e-006 -1.292363e-005 -3.773118e-005 9.944718e-001 -6.158228e-003
8147645 9.975066e-001 -3.744524e-003 -4.035968e-006 1.547728e-005 7.564056e-005 3.154379e-005 9.951720e-001 -6.643347e-003
