!Agilent Technologies,N5230C,SG49000117,A.08.50.07
!Agilent N5230C: A.08.50.07
!Date: Monday, December 11, 2023 22:55:43
!Correction: S11(Full 2 Port(1,2)) 
!S21(Full 2 Port(1,2)) 
!S12(Full 2 Port(1,2)) 
!S22(Full 2 Port(1,2)) 
!S2P File: Measurements: S11, S21, S12, S22:
# Hz S  RI   R 50
300000 9.916509e-001 4.697379e-003 7.020439e-005 1.074174e-005 -8.799024e-005 -3.075652e-004 9.960015e-001 1.038895e-002
1049985 9.930167e-001 2.808638e-003 -7.816648e-005 8.632995e-005 -1.017153e-004 1.020073e-004 9.826385e-001 3.591175e-003
1799970 9.923528e-001 8.391755e-003 5.634216e-005 8.436146e-005 1.354142e-004 9.250797e-005 9.963095e-001 -6.306621e-003
2549955 9.979467e-001 -2.501947e-004 -1.006184e-004 -9.479728e-005 -2.703062e-005 1.803833e-005 9.967394e-001 -3.694588e-003
3299940 9.985320e-001 -1.361505e-003 -2.105374e-005 -1.876883e-005 8.104256e-005 -8.802441e-005 9.979849e-001 -6.873307e-003
4049925 9.987714e-001 -1.363832e-003 -6.098400e-005 -1.039493e-004 -1.402668e-004 -1.032981e-005 9.958014e-001 -4.512920e-003
4799910 9.980772e-001 -1.637217e-003 3.179190e-005 -2.144469e-005 2.281965e-005 9.828658e-005 9.958062e-001 -4.864116e-003
5549895 9.972215e-001 -3.442570e-003 -9.035960e-006 7.971247e-006 1.960944e-005 1.599603e-004 9.950737e-001 -5.961726e-003
6299880 9.980792e-001 -3.731029e-003 -6.456466e-006 8.085631e-005 -1.292544e-004 2.767513e-005 9.949578e-001 -3.882371e-003
7049865 9.975469e-001 -3.370835e-003 -5.403984e-005 -1.071145e-005 2.084878e-005 1.121033e-004 9.954517e-001 -7.719165e-003
7799850 9.977909e-001 -3.238097e-003 -2.742298e-005 1.463881e-005 1.523241e-004 -1.960019e-005 9.952623e-001 -6.435951e-003
8549835 9.975189e-001 -2.959195e-003 6.190805e-005 -7.289174e-006 -1.386650e-004 -2.233728e-005 9.952991e-001 -6.451188e-003
9299820 9.973504e-001 -2.738493e-003 5.664194e-005 -8.884531e-005 -1.254008e-005 9.405839e-005 9.938164e-001 -8.029445e-003
10049805 9.981823e-001 -4.573960e-003 -9.880892e-006 -2.149163e-005 -1.597285e-004 -3.863406e-005 9.964877e-001 -9.134453e-003
10799790 9.983017e-001 -5.037903e-003 9.232047e-005 -8.102642e-005 -1.261593e-004 -4.752629e-005 9.964312e-001 -1.043406e-002
11549775 9.982787e-001 -5.074548e-003 1.521270e-005 8.141822e-006 9.740484e-005 -1.542888e-004 9.956688e-001 -9.975220e-003
12299760 9.991161e-001 -5.198466e-003 4.401042e-005 -7.628374e-005 -2.465800e-006 5.568848e-005 9.941363e-001 -1.020390e-002
13049745 9.993626e-001 -5.081945e-003 -9.924151e-006 1.059600e-005 3.681008e-005 -5.579945e-005 9.971005e-001 -1.075382e-002
13799730 9.978399e-001 -6.609400e-003 -1.963802e-005 7.803913e-005 4.082844e-004 4.923960e-005 9.946279e-001 -1.423290e-002
14549715 9.978572e-001 -6.670409e-003 -1.442728e-005 -7.535520e-005 9.822660e-006 -1.897443e-004 9.951568e-001 -1.418418e-002
15299700 9.978272e-001 -7.728962e-003 2.205977e-005 -1.738333e-005 -6.903393e-005 7.126290e-005 9.967871e-001 -1.464322e-002
16049685 9.972396e-001 -7.127894e-003 -4.382656e-005 -1.060060e-005 7.599713e-005 2.264998e-004 9.960353e-001 -1.469995e-002
16799670 9.970891e-001 -7.523697e-003 1.021770e-004 5.074219e-005 2.849196e-005 1.371701e-004 9.955591e-001 -1.612692e-002
17549655 9.983044e-001 -7.810659e-003 2.424465e-005 -4.858579e-005 -1.666832e-004 5.920191e-005 9.962702e-001 -1.756432e-002
18299640 9.976848e-001 -7.933649e-003 -1.364447e-004 1.134253e-005 -3.996573e-005 4.863136e-005 9.964670e-001 -1.537059e-002
19049625 9.981903e-001 -8.452408e-003 -4.396485e-005 1.026763e-004 7.023501e-006 -2.919063e-004 9.952181e-001 -1.709404e-002
19799610 9.977555e-001 -7.991240e-003 3.165860e-005 7.575537e-005 -2.439316e-005 -4.165263e-005 9.944468e-001 -1.659411e-002
20549595 9.970364e-001 -9.312375e-003 9.708689e-005 -1.134534e-004 6.028649e-005 -2.046213e-005 9.947193e-001 -1.655360e-002
21299580 9.975535e-001 -9.963561e-003 2.536239e-005 -1.558321e-005 1.483795e-004 -1.304884e-004 9.966351e-001 -1.842459e-002
22049565 9.985783e-001 -1.117758e-002 7.426833e-005 -1.030266e-004 7.043264e-005 -8.579116e-005 9.945861e-001 -1.922984e-002
22799550 9.984404e-001 -1.057994e-002 -2.650889e-005 -4.537778e-005 2.002245e-004 3.323846e-004 9.954081e-001 -2.031872e-002
23549535 9.980426e-001 -1.074657e-002 -2.025290e-006 -4.889179e-005 1.350929e-005 1.622700e-004 9.953954e-001 -1.918848e-002
24299520 9.973536e-001 -1.035105e-002 -4.614064e-005 2.816244e-005 -2.154882e-004 2.237042e-004 9.949706e-001 -2.141654e-002
25049505 9.984220e-001 -1.140447e-002 3.146728e-005 -6.357891e-005 -1.729661e-004 2.025652e-004 9.956089e-001 -2.254171e-002
25799490 9.982635e-001 -1.037768e-002 6.848759e-005 -3.423452e-005 -2.601811e-004 -7.366274e-005 9.947436e-001 -2.096921e-002
26549475 9.979287e-001 -1.141101e-002 -1.386367e-004 1.035449e-004 -2.088382e-004 1.314920e-004 9.942917e-001 -2.250178e-002
27299460 9.977230e-001 -1.258665e-002 -2.435540e-005 4.466929e-005 -3.315185e-004 4.764584e-005 9.951242e-001 -2.465387e-002
28049445 9.987947e-001 -1.324784e-002 -8.730670e-005 5.401346e-005 -1.107803e-004 -8.780130e-005 9.954721e-001 -2.484355e-002
28799430 9.984902e-001 -1.191498e-002 -6.636230e-006 2.386615e-005 -2.233683e-004 1.064673e-004 9.955932e-001 -2.506689e-002
29549415 9.989827e-001 -1.282610e-002 -2.339073e-005 1.097696e-005 -3.755004e-005 -2.053305e-004 9.945795e-001 -2.412007e-002
30299400 9.976344e-001 -1.385347e-002 -1.712533e-005 2.825566e-005 4.893917e-005 -3.150175e-004 9.951100e-001 -2.577862e-002
31049385 9.975476e-001 -1.398434e-002 1.035814e-004 5.191196e-005 -2.523427e-004 -1.690942e-004 9.938388e-001 -2.479219e-002
31799370 9.981186e-001 -1.417247e-002 9.428565e-006 3.585816e-005 -6.422459e-005 -1.696139e-004 9.936736e-001 -2.562692e-002
32549355 9.966447e-001 -1.397026e-002 6.282862e-005 1.182167e-005 1.993987e-004 -3.431083e-004 9.947308e-001 -2.899715e-002
33299340 9.978343e-001 -1.347160e-002 -7.374455e-005 4.672873e-005 -4.250686e-005 1.670606e-004 9.946052e-001 -2.824024e-002
34049325 9.971976e-001 -1.509719e-002 7.677083e-006 1.875861e-005 4.526927e-006 2.178872e-005 9.961960e-001 -2.849610e-002
34799310 9.985233e-001 -1.584882e-002 -6.746907e-005 -1.933853e-005 -1.189370e-004 8.047408e-005 9.952436e-001 -2.918642e-002
35549295 9.979730e-001 -1.523148e-002 -1.849484e-005 1.383194e-005 -4.457147e-005 -3.225576e-005 9.949552e-001 -2.829237e-002
36299280 9.976013e-001 -1.607067e-002 6.160860e-005 7.929722e-005 -6.945319e-005 1.620434e-004 9.956800e-001 -3.025990e-002
37049265 9.981070e-001 -1.631150e-002 7.254467e-005 -5.596728e-005 -2.516565e-004 9.151612e-005 9.953228e-001 -3.258586e-002
37799250 9.980657e-001 -1.571723e-002 1.127462e-004 6.171447e-005 -2.971422e-004 -4.756262e-005 9.953656e-001 -3.200606e-002
38549235 9.969435e-001 -1.603936e-002 3.277492e-005 4.129471e-005 -6.800549e-005 -1.441162e-004 9.961821e-001 -3.289095e-002
39299220 9.969550e-001 -1.732130e-002 -4.237161e-006 -5.616165e-005 -2.654349e-005 -4.851305e-005 9.936603e-001 -3.323949e-002
40049205 9.993495e-001 -1.862432e-002 1.939791e-004 -6.196727e-005 -7.543887e-005 -2.121947e-004 9.962497e-001 -3.261645e-002
40799190 9.991482e-001 -1.815227e-002 -1.185476e-006 5.262988e-005 4.246472e-005 6.322284e-005 9.951629e-001 -3.460739e-002
41549175 9.973368e-001 -1.880079e-002 -4.858463e-005 4.369579e-007 -1.014253e-004 -4.658573e-005 9.936954e-001 -3.547319e-002
42299160 9.979075e-001 -1.808613e-002 1.828687e-004 -3.035934e-005 6.119764e-005 -2.251217e-004 9.961582e-001 -3.441662e-002
43049145 9.980411e-001 -1.745148e-002 1.563946e-005 -1.001030e-004 -4.633582e-005 1.008265e-004 9.935263e-001 -3.662980e-002
43799130 9.973357e-001 -1.981021e-002 1.274646e-004 -2.382379e-005 1.764615e-005 2.254522e-004 9.948197e-001 -3.820816e-002
44549115 9.973949e-001 -1.945838e-002 -1.154495e-004 -4.529795e-005 -8.756189e-005 1.095325e-004 9.944604e-001 -3.529713e-002
45299100 9.973565e-001 -1.890955e-002 -1.370117e-004 -3.158664e-005 -1.897745e-004 2.800651e-004 9.953289e-001 -3.573552e-002
46049085 9.982967e-001 -2.084761e-002 -7.733790e-005 -5.603523e-005 -2.759299e-004 1.191849e-004 9.931298e-001 -4.023314e-002
46799070 9.984170e-001 -1.925738e-002 1.170102e-004 7.310126e-005 -1.236310e-004 9.191324e-005 9.954225e-001 -4.098238e-002
47549055 9.980489e-001 -2.166611e-002 -7.240460e-005 6.904742e-005 -7.891222e-005 -1.923272e-004 9.929387e-001 -3.979535e-002
48299040 9.969718e-001 -2.273703e-002 -1.833672e-004 -9.151289e-006 3.314877e-004 -2.940893e-004 9.948077e-001 -4.060753e-002
49049025 9.965394e-001 -2.183455e-002 -1.893672e-004 7.001399e-005 -7.724559e-005 -3.051023e-004 9.973308e-001 -4.611918e-002
49799010 9.969212e-001 -2.136246e-002 -6.180221e-005 6.297798e-005 -3.402963e-004 -1.563746e-004 9.966699e-001 -4.446799e-002
50548995 9.977857e-001 -2.173205e-002 3.803842e-005 -7.562424e-005 -3.988499e-004 7.972486e-005 9.963471e-001 -4.082314e-002
51298980 9.987231e-001 -2.160692e-002 -1.161327e-004 -6.452890e-005 -1.720757e-005 -2.149978e-004 9.967989e-001 -4.236286e-002
52048965 9.985785e-001 -2.293581e-002 4.969167e-005 -1.164009e-004 9.120126e-006 -1.672347e-005 9.927209e-001 -4.596387e-002
52798950 9.984539e-001 -2.308892e-002 -2.180932e-005 -3.651619e-005 1.591704e-004 -1.274162e-004 9.937301e-001 -4.212268e-002
53548935 9.983212e-001 -2.323131e-002 1.218993e-004 -8.022424e-005 6.153143e-004 -1.950668e-004 9.916511e-001 -4.573006e-002
54298920 9.979574e-001 -2.395870e-002 1.119672e-005 1.308996e-004 3.175229e-004 -1.328075e-004 9.940913e-001 -4.950763e-002
55048905 9.980796e-001 -2.417691e-002 5.097190e-005 1.198830e-004 2.222463e-004 3.679600e-004 9.968421e-001 -4.893054e-002
55798890 9.976299e-001 -2.302025e-002 -5.243730e-005 1.929275e-005 -1.370695e-004 2.623881e-004 9.932833e-001 -4.915349e-002
56548875 9.969974e-001 -2.272971e-002 -4.601643e-005 3.351109e-005 2.537089e-004 2.727699e-004 9.936647e-001 -4.678813e-002
57298860 9.981178e-001 -2.497409e-002 -7.249413e-005 1.469334e-004 3.697464e-004 2.651843e-004 9.909928e-001 -4.830263e-002
58048845 9.987442e-001 -2.485853e-002 -8.836024e-005 4.981098e-005 3.758314e-004 -2.052671e-004 9.915548e-001 -5.004635e-002
58798830 9.974471e-001 -2.529731e-002 1.057361e-004 6.689139e-005 1.901809e-004 4.345234e-004 9.940106e-001 -5.029669e-002
59548815 9.976169e-001 -2.498883e-002 2.689900e-005 -1.214250e-004 5.868501e-004 4.226796e-004 9.944005e-001 -5.088485e-002
60298800 9.993456e-001 -2.638239e-002 -4.690499e-005 -6.108813e-005 5.889332e-004 1.348591e-004 9.939179e-001 -5.429906e-002
61048785 9.976240e-001 -2.616042e-002 -2.490656e-005 -3.380541e-005 1.134081e-004 -2.884858e-004 9.928743e-001 -4.884275e-002
61798770 9.969068e-001 -2.708113e-002 -1.895066e-005 2.830060e-005 5.171432e-004 4.288732e-005 9.957961e-001 -5.187901e-002
62548755 9.966039e-001 -2.679050e-002 5.097777e-005 3.192294e-005 2.792490e-004 -6.451190e-005 1.001049e+000 -5.612456e-002
63298740 9.964714e-001 -2.678121e-002 -1.012457e-004 1.965090e-005 -1.081006e-004 5.186178e-004 9.989150e-001 -5.257114e-002
64048725 9.975052e-001 -2.703364e-002 -7.593579e-005 8.542906e-005 -1.329183e-004 5.075149e-004 9.928384e-001 -5.254538e-002
64798710 9.991397e-001 -2.800591e-002 -6.482082e-005 3.415479e-005 -2.676795e-006 2.097995e-004 9.951614e-001 -5.560319e-002
65548695 9.957629e-001 -2.818274e-002 6.583562e-005 1.003155e-004 -3.326630e-004 2.102296e-004 9.896656e-001 -5.520067e-002
66298680 9.965863e-001 -2.815853e-002 -4.441693e-005 2.317149e-005 -2.745736e-004 3.793499e-004 9.938289e-001 -5.647061e-002
67048665 9.973809e-001 -2.805026e-002 -3.012201e-005 8.174912e-005 -1.643488e-004 2.514150e-004 9.956161e-001 -5.956534e-002
67798650 9.969653e-001 -2.910687e-002 3.235876e-006 -7.940318e-006 -7.927833e-005 -1.163460e-004 9.945838e-001 -5.887367e-002
68548635 9.971259e-001 -2.993592e-002 4.157047e-005 -3.927276e-005 1.230457e-004 -3.455057e-004 9.933269e-001 -5.632412e-002
69298620 9.971731e-001 -3.037416e-002 -5.268981e-005 -9.625753e-005 -2.469410e-004 3.270465e-005 9.928476e-001 -5.772230e-002
70048605 9.970837e-001 -3.164536e-002 -1.515772e-005 -1.319554e-004 -2.659038e-004 -2.884844e-004 9.937909e-001 -6.022824e-002
70798590 9.972582e-001 -3.131466e-002 6.490212e-005 7.611171e-005 2.505567e-004 3.176509e-004 9.950457e-001 -5.893154e-002
71548575 9.983626e-001 -3.039419e-002 -4.934751e-005 -2.743466e-006 -5.109044e-004 2.207825e-004 9.939117e-001 -5.947716e-002
72298560 9.979646e-001 -3.031565e-002 -1.117876e-004 9.348665e-006 -7.829293e-005 -1.576262e-004 9.929351e-001 -5.784551e-002
73048545 9.969693e-001 -3.112040e-002 -1.411762e-005 -1.966082e-005 -1.951858e-004 1.001485e-004 9.962066e-001 -5.984270e-002
73798530 9.982635e-001 -3.232107e-002 1.077413e-004 1.029266e-004 -2.856127e-004 8.406639e-005 9.939655e-001 -6.154643e-002
74548515 9.979072e-001 -3.207567e-002 9.774090e-006 -5.817606e-005 -3.812889e-004 1.699820e-004 9.900575e-001 -6.285971e-002
75298500 9.963557e-001 -3.138214e-002 7.466570e-005 8.082351e-005 -1.602883e-004 -1.195392e-004 9.904895e-001 -6.335372e-002
76048485 9.967579e-001 -3.262255e-002 8.556851e-005 1.553933e-004 -6.616297e-005 7.897946e-005 9.928041e-001 -6.553543e-002
76798470 9.958773e-001 -3.184813e-002 -2.208073e-004 -8.150092e-005 -4.377316e-004 1.269673e-004 9.926040e-001 -6.592274e-002
77548455 9.966864e-001 -3.368117e-002 2.802509e-005 6.936525e-005 3.236298e-007 -2.199435e-004 9.928208e-001 -6.442986e-002
78298440 9.968175e-001 -3.518361e-002 2.105053e-005 6.072310e-005 -3.622299e-004 -2.104272e-004 9.939079e-001 -6.541301e-002
79048425 9.956954e-001 -3.489070e-002 -5.534271e-005 1.888900e-004 -2.654986e-004 -6.133299e-005 9.912173e-001 -6.658138e-002
79798410 9.954960e-001 -3.554730e-002 3.891206e-006 -1.190414e-004 -2.078216e-005 -2.078171e-004 9.913971e-001 -6.676529e-002
80548395 9.971795e-001 -3.601333e-002 -1.820142e-004 7.215477e-005 -1.499446e-004 -1.577684e-004 9.929671e-001 -6.666049e-002
81298380 9.986476e-001 -3.531823e-002 2.280650e-004 5.465389e-005 5.335862e-005 1.070626e-004 9.933038e-001 -6.753112e-002
82048365 9.978182e-001 -3.547981e-002 2.022410e-005 -2.819864e-005 -5.688336e-005 1.394266e-004 9.939352e-001 -6.659503e-002
82798350 9.982066e-001 -3.664098e-002 -1.122340e-004 4.621107e-005 4.389884e-004 -1.101497e-004 9.902645e-001 -6.700327e-002
83548335 9.978645e-001 -3.743735e-002 -1.615437e-004 7.364019e-005 2.182736e-004 -1.169732e-004 9.910660e-001 -7.182766e-002
84298320 9.962509e-001 -3.599060e-002 9.886797e-005 9.504659e-008 6.154097e-005 -9.633378e-005 9.897974e-001 -7.038993e-002
85048305 9.972447e-001 -3.580150e-002 1.984781e-005 1.318881e-004 1.336198e-004 2.944195e-004 9.915333e-001 -7.091842e-002
85798290 9.969857e-001 -3.614182e-002 -4.388822e-005 7.641329e-005 1.787218e-004 3.860174e-004 9.930430e-001 -7.146106e-002
86548275 9.967754e-001 -3.827050e-002 1.021745e-004 1.031941e-004 2.011687e-004 4.435267e-005 9.900736e-001 -7.371569e-002
87298260 9.992978e-001 -3.765617e-002 -1.532193e-006 -8.317613e-005 2.575320e-005 -7.278736e-005 9.916307e-001 -7.486951e-002
88048245 9.990996e-001 -3.874965e-002 -1.901700e-006 3.197553e-006 1.981985e-004 3.463599e-004 9.924444e-001 -7.502056e-002
88798230 9.962813e-001 -3.740189e-002 -1.264368e-004 -1.051228e-004 -1.489434e-004 4.732340e-004 9.921521e-001 -7.479852e-002
89548215 9.975470e-001 -3.715995e-002 3.355895e-005 -8.403225e-005 7.180843e-005 -3.190261e-005 9.910468e-001 -7.875090e-002
90298200 9.986525e-001 -3.981612e-002 3.486683e-005 -5.654252e-006 -2.728776e-004 1.076768e-004 9.917375e-001 -7.868477e-002
91048185 9.959421e-001 -3.850440e-002 -6.008427e-005 -1.908679e-005 -1.858283e-004 1.132642e-004 9.926660e-001 -7.701952e-002
91798170 9.978430e-001 -3.982130e-002 5.539127e-005 1.299143e-004 6.665046e-005 7.054730e-005 9.892264e-001 -7.758996e-002
92548155 9.969817e-001 -3.960133e-002 5.618296e-005 4.687052e-005 1.724642e-004 -1.379262e-004 9.912776e-001 -8.105624e-002
93298140 9.964972e-001 -3.863754e-002 -2.784430e-005 6.314117e-005 -1.939618e-004 1.869227e-004 9.925938e-001 -8.264644e-002
94048125 9.980425e-001 -4.023041e-002 8.872402e-005 -7.276203e-005 -1.306275e-004 -2.416591e-004 9.892088e-001 -8.141128e-002
94798110 9.974145e-001 -4.191507e-002 1.728951e-004 -1.676042e-004 -1.723236e-004 -8.674062e-006 9.905760e-001 -7.987707e-002
95548095 9.974840e-001 -4.137200e-002 -5.488795e-005 4.666740e-005 -1.779069e-004 -6.035746e-005 9.914718e-001 -8.106735e-002
96298080 9.981923e-001 -4.035471e-002 -1.950681e-004 -4.942746e-005 -2.870528e-004 -2.925975e-004 9.926026e-001 -8.246714e-002
97048065 9.973609e-001 -4.120815e-002 -5.348587e-005 -1.035007e-005 1.124527e-004 7.707110e-005 9.910558e-001 -8.277434e-002
97798050 9.976836e-001 -4.387809e-002 2.140467e-004 -1.200137e-004 -5.020461e-005 -2.436309e-004 9.921117e-001 -8.421279e-002
98548035 9.958853e-001 -4.252801e-002 3.518700e-005 1.061090e-004 -2.649179e-004 -2.036962e-004 9.919020e-001 -8.534418e-002
99298020 9.962560e-001 -4.132529e-002 1.451246e-005 1.994574e-004 3.527136e-005 -1.166985e-004 9.904491e-001 -8.447519e-002
100048005 9.960125e-001 -4.141943e-002 -1.827664e-004 1.169417e-006 1.925496e-005 -7.252505e-004 9.907723e-001 -8.314152e-002
100797990 9.962350e-001 -4.296191e-002 1.308450e-004 1.080293e-004 -2.312990e-004 -4.082265e-006 9.900651e-001 -8.422904e-002
101547975 9.955826e-001 -4.372014e-002 -6.438596e-005 1.702409e-005 -3.322527e-004 -2.179529e-004 9.913785e-001 -8.357169e-002
102297960 9.955797e-001 -4.437095e-002 -5.816252e-005 4.571719e-005 -2.233515e-004 -1.692362e-004 9.898979e-001 -8.678529e-002
103047945 9.948215e-001 -4.431248e-002 1.547977e-004 -1.431043e-005 -8.939935e-006 -2.648878e-004 9.914363e-001 -8.708067e-002
103797930 9.963781e-001 -4.262152e-002 3.026438e-005 -6.374909e-005 1.315624e-007 2.176982e-004 9.890848e-001 -8.567726e-002
104547915 9.972239e-001 -4.368993e-002 8.551659e-005 9.319403e-005 -1.616923e-004 -2.410529e-004 9.906048e-001 -8.968831e-002
105297900 9.957851e-001 -4.468195e-002 -1.653683e-004 4.308661e-005 2.203878e-005 -2.253875e-004 9.901093e-001 -8.550821e-002
106047885 9.977110e-001 -4.578435e-002 -4.048664e-005 -1.284671e-004 3.196539e-004 -1.592863e-004 9.925948e-001 -8.793982e-002
106797870 9.969218e-001 -4.556861e-002 -9.926983e-005 8.675821e-005 4.775198e-005 -5.352575e-004 9.894204e-001 -8.979774e-002
107547855 9.951468e-001 -4.610819e-002 5.947344e-005 1.304379e-005 9.165209e-006 -2.960792e-004 9.893751e-001 -8.899725e-002
108297840 9.954844e-001 -4.571922e-002 -7.336766e-005 -1.768315e-005 1.016325e-004 1.233977e-004 9.909589e-001 -8.901305e-002
109047825 9.943901e-001 -4.613866e-002 -1.813161e-004 2.771870e-005 -1.039841e-004 2.614163e-005 9.910159e-001 -8.922637e-002
109797810 9.939603e-001 -4.651842e-002 -3.563459e-005 1.616057e-004 4.911738e-004 1.524235e-004 9.871978e-001 -9.158144e-002
110547795 9.953811e-001 -4.809768e-002 -5.014488e-005 -1.399278e-004 -5.717585e-005 6.671763e-005 9.908271e-001 -9.096381e-002
111297780 9.953589e-001 -4.864387e-002 -3.151186e-005 7.864294e-005 1.709032e-004 1.414246e-005 9.884925e-001 -9.402585e-002
112047765 9.956321e-001 -4.857848e-002 -4.260621e-005 -8.908111e-005 2.114553e-004 1.944030e-004 9.906409e-001 -9.428541e-002
112797750 9.965953e-001 -4.983303e-002 -2.211329e-005 1.346842e-004 2.951511e-004 -1.546703e-004 9.916314e-001 -9.530284e-002
113547735 9.958671e-001 -4.909471e-002 -4.556283e-005 5.489506e-005 1.666214e-006 4.055320e-004 9.885334e-001 -9.573564e-002
114297720 9.948856e-001 -4.894427e-002 7.633878e-005 4.929853e-005 3.859465e-004 2.793044e-004 9.907792e-001 -9.573784e-002
115047705 9.952286e-001 -4.923693e-002 -1.057077e-004 1.422235e-004 -1.030544e-004 2.720803e-004 9.907789e-001 -9.877177e-002
115797690 9.951618e-001 -4.947703e-002 -7.496261e-005 5.714504e-005 5.832586e-005 2.049248e-004 9.882391e-001 -9.780043e-002
116547675 9.955167e-001 -5.045594e-002 2.006345e-005 5.355323e-005 -2.981597e-005 -1.011098e-004 9.871917e-001 -1.000975e-001
