!Agilent Technologies,N5230C,SG49000117,A.08.50.07
!Agilent N5230C: A.08.50.07
!Date: Monday, December 11, 2023 22:57:40
!Correction: S11(Full 2 Port(1,2)) 
!S21(Full 2 Port(1,2)) 
!S12(Full 2 Port(1,2)) 
!S22(Full 2 Port(1,2)) 
!S2P File: Measurements: S11, S21, S12, S22:
# Hz S  RI   R 50
300000 9.924473e-001 5.747509e-003 7.754165e-005 -3.034003e-007 6.989728e-005 -3.541750e-004 9.927856e-001 1.055403e-002
1049985 9.939244e-001 2.255760e-003 -1.499180e-005 -1.113485e-004 3.880919e-005 6.720277e-005 9.815078e-001 3.703350e-003
1799970 9.923409e-001 8.413349e-003 -6.277530e-005 7.588778e-005 1.720395e-005 2.541010e-004 9.952207e-001 -6.826292e-003
2549955 9.988044e-001 -3.696829e-004 -5.240608e-005 -3.198047e-005 -2.341257e-004 -6.417441e-005 9.969295e-001 -4.190509e-003
3299940 9.986191e-001 -1.576550e-003 5.415395e-006 1.877738e-005 -2.227343e-005 -3.955545e-005 9.988874e-001 -6.025521e-003
4049925 9.988013e-001 -1.098145e-003 3.420681e-005 -1.165284e-005 -6.532174e-005 -1.126119e-004 9.958520e-001 -3.886205e-003
4799910 9.976461e-001 -1.524214e-003 3.422306e-005 1.183173e-005 1.241740e-005 -8.010793e-005 9.956290e-001 -3.669771e-003
5549895 9.977174e-001 -2.551063e-003 9.778243e-006 4.430223e-005 -4.684436e-005 -4.606692e-005 9.959442e-001 -4.702395e-003
6299880 9.986957e-001 -3.339646e-003 -2.455699e-006 -3.605208e-005 -3.328440e-005 6.712696e-005 9.953774e-001 -4.120564e-003
7049865 9.977055e-001 -3.406090e-003 9.075744e-006 6.560111e-005 2.583077e-005 8.557506e-005 9.964760e-001 -6.382458e-003
7799850 9.977618e-001 -3.327080e-003 9.378365e-006 4.849682e-006 3.837299e-005 -1.825408e-004 9.951531e-001 -6.065132e-003
8549835 9.980091e-001 -3.155485e-003 -3.982145e-006 1.970872e-005 -2.359160e-005 -3.344623e-006 9.956531e-001 -5.445199e-003
9299820 9.977112e-001 -3.292856e-003 2.995834e-005 5.315452e-006 3.252392e-004 1.246060e-004 9.955281e-001 -7.715809e-003
10049805 9.983286e-001 -3.922489e-003 1.977909e-005 -1.019332e-004 8.186644e-005 4.718323e-005 9.986801e-001 -9.705975e-003
10799790 9.985847e-001 -5.381928e-003 -7.002193e-006 2.957593e-005 3.399180e-004 -7.332910e-005 9.964991e-001 -1.053969e-002
11549775 9.988309e-001 -4.440158e-003 -4.987709e-006 -5.054717e-005 6.602994e-005 -7.002606e-005 9.952638e-001 -9.687738e-003
12299760 9.990851e-001 -5.435702e-003 6.481658e-006 3.251186e-005 -1.215248e-005 1.129626e-004 9.940167e-001 -1.171436e-002
13049745 9.993490e-001 -5.810122e-003 -3.572314e-005 2.405979e-005 -1.198876e-004 4.525684e-005 9.967836e-001 -1.185781e-002
13799730 9.976748e-001 -6.752325e-003 -1.285198e-005 -1.003104e-005 1.065899e-004 -1.503405e-004 9.956960e-001 -1.410109e-002
14549715 9.984136e-001 -6.949029e-003 -2.895602e-005 -3.168267e-005 2.054805e-004 -1.482327e-004 9.964722e-001 -1.276408e-002
15299700 9.975911e-001 -7.358882e-003 2.309018e-005 -4.838571e-005 1.129520e-004 3.975754e-005 9.963621e-001 -1.422160e-002
16049685 9.976867e-001 -6.865792e-003 -1.537149e-005 -1.725654e-006 1.851242e-005 2.437048e-004 9.944946e-001 -1.354010e-002
16799670 9.985719e-001 -7.368729e-003 -9.449776e-005 2.925038e-005 3.394000e-005 1.396556e-004 9.966830e-001 -1.575984e-002
17549655 9.982567e-001 -7.633899e-003 8.636554e-005 -1.393718e-005 2.067834e-004 7.075244e-005 9.952206e-001 -1.782464e-002
18299640 9.979398e-001 -7.980340e-003 -1.840102e-005 1.355677e-005 -1.761617e-004 1.140410e-004 9.969462e-001 -1.499788e-002
19049625 9.977151e-001 -8.067028e-003 1.912893e-005 3.823682e-005 -6.565496e-005 -3.498734e-005 9.954519e-001 -1.731148e-002
19799610 9.973677e-001 -8.010442e-003 -3.939611e-005 7.886485e-005 -3.099380e-004 4.627245e-005 9.943174e-001 -1.536439e-002
20549595 9.968822e-001 -9.626106e-003 2.437679e-005 6.491585e-005 -4.962122e-005 -1.853198e-004 9.960549e-001 -1.637981e-002
21299580 9.973469e-001 -9.445634e-003 5.905816e-005 -1.327415e-004 -6.965113e-005 -2.537286e-004 9.973060e-001 -1.895848e-002
22049565 9.989934e-001 -1.002760e-002 -6.523608e-005 -1.885928e-005 -2.746066e-005 -1.426376e-004 9.949448e-001 -1.925961e-002
22799550 9.986581e-001 -1.033363e-002 -3.081073e-005 -7.168448e-006 3.334936e-004 -2.763041e-004 9.952580e-001 -1.906186e-002
23549535 9.982988e-001 -1.044090e-002 6.526437e-005 6.392878e-005 1.651254e-004 -1.322577e-004 9.954479e-001 -1.918137e-002
24299520 9.980022e-001 -1.091065e-002 -4.430466e-005 -8.147997e-005 9.512786e-005 -2.224581e-004 9.962049e-001 -2.112709e-002
25049505 9.981491e-001 -1.133206e-002 6.027393e-006 -6.220427e-005 4.208462e-004 -6.071310e-005 9.958797e-001 -2.111820e-002
25799490 9.975653e-001 -1.151711e-002 -1.004059e-004 2.852257e-005 2.220053e-004 8.530595e-005 9.964173e-001 -2.114095e-002
26549475 9.979521e-001 -1.087038e-002 7.591209e-005 2.004717e-005 2.434487e-005 7.904766e-005 9.941344e-001 -2.214262e-002
27299460 9.985566e-001 -1.217314e-002 -9.450128e-006 -5.878399e-005 -2.307445e-004 1.870589e-004 9.951055e-001 -2.601367e-002
28049445 9.986782e-001 -1.242631e-002 3.835485e-005 1.344788e-005 5.522359e-005 2.066051e-004 9.938237e-001 -2.405841e-002
28799430 9.982468e-001 -1.163509e-002 -2.644588e-005 3.819618e-005 -2.244312e-004 -5.821000e-005 9.957731e-001 -2.432840e-002
29549415 9.986681e-001 -1.238354e-002 -2.427249e-005 -2.347677e-005 -7.151360e-005 -1.022547e-004 9.967804e-001 -2.426810e-002
30299400 9.981958e-001 -1.348736e-002 1.071947e-004 -4.159706e-007 -4.104152e-005 -1.392363e-004 9.963156e-001 -2.535785e-002
31049385 9.974409e-001 -1.345232e-002 6.683485e-005 8.079007e-006 -4.398980e-005 -1.808889e-005 9.935662e-001 -2.587189e-002
31799370 9.975844e-001 -1.357491e-002 -2.401150e-005 -1.950982e-005 6.173515e-005 -1.149742e-004 9.925474e-001 -2.599382e-002
32549355 9.973224e-001 -1.305508e-002 -6.213767e-005 2.086938e-005 -1.395978e-005 -6.919433e-005 9.934911e-001 -2.801578e-002
33299340 9.986191e-001 -1.330751e-002 1.147894e-005 1.168527e-005 7.721371e-005 2.069017e-004 9.952450e-001 -2.774933e-002
34049325 9.975973e-001 -1.444582e-002 1.133542e-004 2.785768e-005 2.537781e-004 1.269046e-004 9.956784e-001 -2.870217e-002
34799310 9.986680e-001 -1.534037e-002 5.120714e-005 -1.542511e-005 4.459852e-005 2.629179e-004 9.957616e-001 -2.847677e-002
35549295 9.984469e-001 -1.602006e-002 -2.589438e-007 1.338326e-004 -8.738003e-005 4.037303e-004 9.949521e-001 -2.823003e-002
36299280 9.976806e-001 -1.501175e-002 -4.594717e-005 1.805069e-005 -2.760159e-005 4.923329e-005 9.960093e-001 -2.985245e-002
37049265 9.985138e-001 -1.636587e-002 3.601468e-005 -4.656273e-005 -1.591143e-004 1.875543e-004 9.949207e-001 -3.189502e-002
37799250 9.980286e-001 -1.532900e-002 -5.283425e-005 -6.123794e-005 -1.081787e-004 -1.176419e-004 9.955959e-001 -3.226211e-002
38549235 9.970976e-001 -1.646420e-002 -7.064398e-005 8.809135e-006 -1.038754e-004 -1.031002e-004 9.967478e-001 -3.284854e-002
39299220 9.982480e-001 -1.693905e-002 -6.457790e-006 9.457328e-005 -6.058086e-005 -1.466450e-004 9.935477e-001 -3.263541e-002
40049205 9.989198e-001 -1.790014e-002 -1.625587e-004 -2.384162e-005 -5.104076e-005 3.714911e-004 9.947789e-001 -3.274862e-002
40799190 9.983482e-001 -1.858970e-002 -9.764114e-005 -1.046301e-005 8.475487e-005 1.968391e-004 9.953408e-001 -3.494567e-002
41549175 9.971782e-001 -1.940022e-002 3.295350e-005 5.033459e-005 -8.082474e-005 3.661376e-004 9.940271e-001 -3.533985e-002
42299160 9.975070e-001 -1.750305e-002 2.815533e-005 -9.067117e-005 -1.389237e-004 1.739544e-004 9.948819e-001 -3.395076e-002
43049145 9.973030e-001 -1.888381e-002 3.882358e-005 -1.106563e-004 -1.805287e-004 -1.480711e-004 9.929411e-001 -3.703851e-002
43799130 9.985685e-001 -1.859697e-002 -1.344957e-004 -9.263551e-005 -1.433412e-004 -2.809548e-004 9.925293e-001 -3.819406e-002
44549115 9.980167e-001 -1.899561e-002 1.105479e-004 -8.981998e-005 -2.612918e-004 1.012556e-004 9.937656e-001 -3.510232e-002
45299100 9.965172e-001 -1.898341e-002 -1.993841e-004 3.373087e-006 -2.254938e-004 -1.644975e-004 9.969041e-001 -3.709336e-002
46049085 9.982757e-001 -2.096218e-002 3.634985e-005 1.138119e-004 -2.354819e-004 1.486143e-004 9.955130e-001 -3.944785e-002
46799070 9.980485e-001 -1.903206e-002 -3.427074e-005 1.253202e-004 4.403117e-005 3.544658e-004 9.969358e-001 -4.223071e-002
47549055 9.979832e-001 -2.099199e-002 -1.883408e-004 1.283653e-004 8.515602e-006 -2.865150e-004 9.922779e-001 -4.138952e-002
48299040 9.970933e-001 -2.151604e-002 8.271321e-005 9.268008e-005 3.303111e-004 2.460439e-004 9.941541e-001 -4.037045e-002
49049025 9.977076e-001 -2.127352e-002 -4.820211e-006 5.061723e-005 -1.502317e-004 -4.066623e-004 9.955029e-001 -4.539404e-002
49799010 9.973773e-001 -2.191066e-002 4.985899e-006 -5.194115e-005 -4.020424e-005 -1.679794e-004 9.956849e-001 -4.451584e-002
50548995 9.973117e-001 -2.154091e-002 5.841341e-005 -9.656337e-005 1.092500e-004 -2.028170e-004 9.950774e-001 -4.117263e-002
51298980 9.977839e-001 -2.106120e-002 7.447179e-005 -6.447765e-005 3.136670e-004 -4.162419e-004 9.957363e-001 -4.207041e-002
52048965 9.976425e-001 -2.197645e-002 -1.405001e-004 4.057791e-005 1.751572e-004 -2.508441e-004 9.932837e-001 -4.598415e-002
52798950 9.982504e-001 -2.421763e-002 5.501300e-005 1.096700e-004 -9.349494e-005 1.470595e-004 9.952808e-001 -4.299236e-002
53548935 9.982325e-001 -2.356612e-002 -1.287596e-004 1.324538e-005 2.018639e-004 3.233830e-004 9.925544e-001 -4.771402e-002
54298920 9.983789e-001 -2.347840e-002 -1.480775e-005 -1.315415e-004 2.108047e-004 -4.708582e-005 9.945335e-001 -4.826224e-002
55048905 9.979716e-001 -2.458313e-002 1.364456e-004 7.231730e-005 2.380735e-004 5.145961e-005 9.936911e-001 -4.738823e-002
55798890 9.979745e-001 -2.318339e-002 -7.455103e-005 8.213239e-005 -5.152108e-005 -2.948019e-004 9.946542e-001 -4.845458e-002
56548875 9.968784e-001 -2.388410e-002 -8.347729e-005 -7.826880e-006 -2.476892e-004 3.038351e-004 9.939611e-001 -4.734109e-002
57298860 9.979282e-001 -2.522770e-002 2.096365e-005 1.662093e-004 -3.136296e-004 9.066779e-005 9.946636e-001 -4.872519e-002
58048845 9.984592e-001 -2.498562e-002 4.198245e-005 1.264918e-004 9.412952e-005 1.616785e-005 9.936858e-001 -4.858926e-002
58798830 9.967407e-001 -2.590139e-002 -1.248226e-004 -8.771914e-005 2.657817e-005 8.131284e-004 9.929872e-001 -4.854940e-002
59548815 9.980680e-001 -2.525684e-002 -8.734821e-005 -5.048939e-005 -4.035186e-004 -1.442151e-005 9.911279e-001 -4.991616e-002
60298800 9.979482e-001 -2.575892e-002 2.690127e-005 2.560216e-006 1.315766e-005 2.075626e-004 9.927309e-001 -4.836277e-002
61048785 9.980255e-001 -2.685306e-002 6.110562e-005 -4.733763e-006 1.256819e-004 2.474364e-004 9.912307e-001 -5.017409e-002
61798770 9.970168e-001 -2.682875e-002 8.020857e-006 1.861876e-004 -1.851484e-004 1.012276e-004 9.934111e-001 -5.121011e-002
62548755 9.967353e-001 -2.660777e-002 1.288666e-004 4.667068e-005 -1.891292e-004 9.338519e-005 9.985433e-001 -5.330784e-002
63298740 9.956063e-001 -2.624625e-002 2.145576e-005 5.204080e-005 -4.227053e-004 1.227115e-004 9.965535e-001 -5.535799e-002
64048725 9.976537e-001 -2.729832e-002 -3.825464e-005 -1.775849e-005 -3.957794e-004 1.321317e-004 9.922119e-001 -5.437049e-002
64798710 9.980884e-001 -2.762342e-002 -2.467678e-006 -3.063912e-005 9.468373e-005 -1.554522e-004 9.928299e-001 -5.812187e-002
65548695 9.974899e-001 -2.793299e-002 1.679358e-004 -2.029652e-005 -1.318769e-004 -4.506397e-004 9.919459e-001 -5.422955e-002
66298680 9.971511e-001 -2.854995e-002 -8.210815e-005 8.551231e-005 -2.068645e-004 -1.009582e-005 9.930746e-001 -5.605944e-002
67048665 9.970062e-001 -2.852818e-002 -5.434624e-005 1.018816e-004 -4.597084e-004 1.012840e-004 9.943154e-001 -5.781308e-002
67798650 9.965209e-001 -2.860773e-002 9.924691e-005 -5.655469e-005 1.596413e-004 -1.435488e-004 9.946474e-001 -5.952667e-002
68548635 9.966946e-001 -3.029718e-002 -4.020285e-005 -4.229204e-007 3.993809e-004 -6.385087e-005 9.941278e-001 -5.925108e-002
69298620 9.967185e-001 -3.027752e-002 -6.255056e-005 4.710565e-005 -3.591460e-005 2.745546e-004 9.936582e-001 -5.536063e-002
70048605 9.973279e-001 -3.100632e-002 -1.339258e-004 2.319892e-005 -2.268577e-004 -4.545074e-004 9.921566e-001 -5.913530e-002
70798590 9.975433e-001 -3.121168e-002 3.005668e-005 6.505879e-005 -2.222377e-004 -2.195108e-004 9.945225e-001 -6.100359e-002
71548575 9.987881e-001 -3.042317e-002 -4.708847e-005 3.754996e-005 -9.827891e-005 -3.585592e-004 9.933818e-001 -5.857710e-002
72298560 9.974501e-001 -2.959335e-002 -1.007653e-004 7.631838e-005 2.787467e-004 -1.451951e-004 9.952584e-001 -6.064390e-002
73048545 9.958674e-001 -3.119005e-002 -8.905947e-005 8.205815e-005 8.252732e-005 -1.507179e-004 9.937400e-001 -6.101275e-002
73798530 9.990106e-001 -3.202274e-002 8.025816e-005 -4.948130e-005 1.056540e-004 3.952268e-004 9.921991e-001 -6.248452e-002
74548515 9.974572e-001 -3.184398e-002 -1.009387e-004 8.970306e-005 1.039580e-004 -3.295203e-005 9.916831e-001 -6.393676e-002
75298500 9.962969e-001 -3.109144e-002 1.373819e-005 -1.089700e-004 2.550568e-004 2.285906e-005 9.906752e-001 -6.243984e-002
76048485 9.966663e-001 -3.287080e-002 -7.046925e-006 9.589651e-005 -1.491538e-004 -5.492692e-005 9.912214e-001 -6.297039e-002
76798470 9.962603e-001 -3.251789e-002 -1.279283e-004 4.606838e-005 4.576918e-004 2.426951e-004 9.939613e-001 -6.496639e-002
77548455 9.972119e-001 -3.288226e-002 8.082187e-005 5.522373e-005 -1.119958e-004 2.060055e-004 9.913519e-001 -6.287348e-002
78298440 9.963212e-001 -3.453543e-002 -2.728746e-005 1.208454e-004 -2.844615e-004 2.111257e-004 9.925434e-001 -6.564036e-002
79048425 9.954237e-001 -3.489798e-002 -7.246510e-006 3.336599e-005 -3.499110e-004 -1.131738e-005 9.924359e-001 -6.535199e-002
79798410 9.958393e-001 -3.588571e-002 -6.197218e-005 -1.462925e-004 -3.260228e-004 1.199202e-004 9.922807e-001 -6.572317e-002
80548395 9.971305e-001 -3.591618e-002 -5.727126e-005 1.172928e-004 7.076881e-005 1.551083e-004 9.923422e-001 -6.668897e-002
81298380 9.976710e-001 -3.477819e-002 -6.602037e-005 1.474673e-004 -9.923897e-005 1.301257e-004 9.928585e-001 -6.705016e-002
82048365 9.981601e-001 -3.487457e-002 -1.439055e-004 4.897730e-005 -1.307874e-004 8.127506e-006 9.917012e-001 -6.626143e-002
82798350 9.974067e-001 -3.720384e-002 5.551278e-005 1.693147e-004 9.635222e-005 -1.067902e-005 9.908251e-001 -6.745799e-002
83548335 9.977799e-001 -3.769039e-002 -1.074613e-004 -8.244329e-005 -7.209305e-005 -9.433511e-006 9.924592e-001 -7.152988e-002
84298320 9.965820e-001 -3.561243e-002 -1.145723e-004 1.783525e-005 -2.617818e-004 -1.248625e-004 9.923106e-001 -7.176994e-002
85048305 9.962966e-001 -3.499087e-002 -9.536863e-006 1.330607e-005 -9.238248e-005 2.441007e-004 9.901649e-001 -7.061611e-002
85798290 9.969892e-001 -3.602372e-002 -4.134849e-005 8.276803e-005 -1.568818e-004 -5.397199e-005 9.929806e-001 -7.286280e-002
86548275 9.970728e-001 -3.819119e-002 1.956892e-004 8.144949e-006 -2.777069e-004 1.304512e-004 9.913331e-001 -7.433067e-002
87298260 9.985079e-001 -3.777936e-002 1.461467e-005 -6.355332e-005 -2.527484e-004 -2.851943e-004 9.901469e-001 -7.405127e-002
88048245 9.970142e-001 -3.801084e-002 -1.337351e-004 -5.328900e-005 -1.172155e-004 -4.258521e-004 9.928362e-001 -7.409582e-002
88798230 9.957619e-001 -3.832836e-002 -7.030128e-005 -6.583535e-005 1.342321e-004 -8.300017e-005 9.924135e-001 -7.509537e-002
89548215 9.969130e-001 -3.675676e-002 -2.897744e-006 -9.203414e-006 -1.887064e-004 -3.061240e-004 9.895113e-001 -7.924594e-002
90298200 9.977483e-001 -3.977381e-002 1.763737e-004 -1.250577e-004 -1.849916e-004 1.066625e-004 9.916005e-001 -7.725992e-002
91048185 9.954814e-001 -3.937418e-002 -6.311606e-005 -5.568229e-005 -3.310001e-004 -6.779193e-007 9.925177e-001 -7.653841e-002
91798170 9.960424e-001 -3.994383e-002 -4.143656e-005 1.820434e-004 -3.272385e-005 7.868445e-005 9.887861e-001 -7.738437e-002
92548155 9.961985e-001 -4.005209e-002 7.533601e-006 3.145486e-005 2.267184e-004 3.021672e-004 9.921659e-001 -7.941464e-002
93298140 9.974333e-001 -4.042796e-002 -3.764113e-005 -1.580996e-004 -1.988316e-004 5.223194e-005 9.917070e-001 -8.083872e-002
94048125 9.976241e-001 -4.130788e-002 1.014962e-004 1.204520e-004 1.207352e-004 1.721767e-004 9.931986e-001 -8.105801e-002
94798110 9.977258e-001 -3.942072e-002 5.522518e-005 -2.573133e-004 3.297914e-004 -6.743801e-005 9.932556e-001 -8.122239e-002
95548095 9.963180e-001 -4.006794e-002 -4.680741e-005 1.206399e-004 -1.973107e-004 -1.019116e-004 9.912360e-001 -8.047243e-002
96298080 9.978776e-001 -3.962635e-002 6.007301e-005 7.987252e-005 3.675839e-005 6.966858e-005 9.901960e-001 -8.168474e-002
97048065 9.970492e-001 -4.188884e-002 -9.267463e-005 -1.240017e-004 -3.978595e-005 -4.125363e-004 9.935961e-001 -8.318262e-002
97798050 9.968833e-001 -4.291256e-002 -5.351536e-005 -1.141968e-004 5.736269e-004 -6.867641e-005 9.906746e-001 -8.533016e-002
98548035 9.959522e-001 -4.194527e-002 1.751772e-005 -7.633018e-005 -1.825456e-005 -4.478319e-004 9.911286e-001 -8.341756e-002
99298020 9.960551e-001 -4.133753e-002 5.119815e-005 1.159319e-004 -1.115203e-004 -4.799915e-005 9.905834e-001 -8.273087e-002
100048005 9.955103e-001 -4.209681e-002 -2.081223e-005 -5.537802e-005 4.608038e-004 -1.614314e-004 9.907317e-001 -8.473840e-002
100797990 9.950635e-001 -4.299356e-002 1.418203e-005 8.850561e-005 3.003598e-004 -1.351305e-004 9.935565e-001 -8.297487e-002
101547975 9.964941e-001 -4.345177e-002 3.732968e-005 2.522946e-005 1.252387e-004 -1.034329e-004 9.900621e-001 -8.280347e-002
102297960 9.959175e-001 -4.487617e-002 1.071199e-004 -1.307541e-004 2.025686e-004 -7.963328e-007 9.901704e-001 -8.757035e-002
103047945 9.943239e-001 -4.382043e-002 -2.434531e-004 3.241582e-005 2.366126e-004 2.070048e-004 9.937181e-001 -8.764693e-002
103797930 9.942536e-001 -4.398871e-002 7.377812e-005 4.211744e-006 3.708108e-004 1.983719e-004 9.889331e-001 -8.735442e-002
104547915 9.954672e-001 -4.426019e-002 -8.891303e-007 4.293301e-005 4.674289e-004 -4.120008e-004 9.912416e-001 -8.713198e-002
105297900 9.960741e-001 -4.492336e-002 -2.644509e-005 7.963362e-005 -7.643710e-005 -1.366042e-004 9.913351e-001 -8.835581e-002
106047885 9.965168e-001 -4.527556e-002 2.950425e-005 4.228877e-006 1.203084e-004 -1.865890e-005 9.939510e-001 -9.030057e-002
106797870 9.964787e-001 -4.559346e-002 3.613430e-005 -6.368115e-005 1.678305e-004 -2.487393e-004 9.894484e-001 -8.881888e-002
107547855 9.961464e-001 -4.559753e-002 -1.853292e-005 -1.269449e-005 2.552864e-004 3.611151e-005 9.891355e-001 -8.997557e-002
108297840 9.937374e-001 -4.573537e-002 -1.478793e-004 -1.005447e-004 3.223370e-004 -4.720046e-006 9.898940e-001 -9.082240e-002
109047825 9.949358e-001 -4.609757e-002 -7.711059e-005 -1.314390e-004 2.917358e-004 1.437684e-005 9.918597e-001 -9.062100e-002
109797810 9.948744e-001 -4.751648e-002 -1.095509e-004 9.638963e-005 2.163361e-004 1.263566e-004 9.862861e-001 -9.079467e-002
110547795 9.950283e-001 -4.766021e-002 -2.652260e-005 6.583915e-005 3.013986e-004 -2.815696e-004 9.909543e-001 -9.318136e-002
111297780 9.953960e-001 -4.773312e-002 2.158826e-004 -4.016255e-005 -3.406628e-004 -1.148290e-004 9.901054e-001 -9.575460e-002
112047765 9.953927e-001 -4.835157e-002 7.929812e-005 -9.847950e-006 1.771549e-004 2.099534e-004 9.903547e-001 -9.450831e-002
112797750 9.944179e-001 -4.867438e-002 3.803706e-005 1.895104e-005 1.225606e-005 3.441686e-004 9.896304e-001 -9.577735e-002
113547735 9.950138e-001 -4.921424e-002 1.281901e-005 -8.041966e-005 1.048986e-004 3.398037e-004 9.893328e-001 -9.590274e-002
114297720 9.953807e-001 -4.871969e-002 4.165998e-005 -4.029866e-005 -4.412673e-004 9.755976e-007 9.918501e-001 -9.685723e-002
115047705 9.947321e-001 -4.950754e-002 6.394022e-005 3.485722e-005 8.157074e-005 2.622924e-004 9.909504e-001 -9.976792e-002
115797690 9.947379e-001 -4.933986e-002 4.256989e-005 9.197657e-005 8.345894e-005 -1.756181e-004 9.885774e-001 -9.786316e-002
116547675 9.946730e-001 -4.988663e-002 -7.597304e-006 1.045858e-004 -3.896948e-004 1.624548e-004 9.900417e-001 -9.845129e-002
