!Agilent Technologies,N5230C,SG49000117,A.08.50.07
!Agilent N5230C: A.08.50.07
!Date: Monday, December 11, 2023 22:59:41
!Correction: S11(Full 2 Port(1,2)) 
!S21(Full 2 Port(1,2)) 
!S12(Full 2 Port(1,2)) 
!S22(Full 2 Port(1,2)) 
!S2P File: Measurements: S11, S21, S12, S22:
# Hz S  RI   R 50
300000 9.927803e-001 3.439809e-003 1.710869e-004 4.411232e-007 1.727092e-004 4.489877e-006 9.903710e-001 4.769722e-003
1049985 9.935476e-001 2.229741e-003 8.146273e-005 -2.499313e-005 1.236020e-004 -9.624920e-005 9.823957e-001 2.753286e-003
1799970 9.924007e-001 8.585401e-003 9.244640e-005 -7.495134e-006 5.278191e-005 -3.103658e-005 9.967313e-001 -6.589376e-003
2549955 9.985659e-001 3.850622e-004 -6.426322e-005 -9.809406e-005 -1.526684e-004 -8.298842e-005 9.966932e-001 -4.746357e-003
3299940 9.987503e-001 -1.508778e-003 -5.985470e-005 -4.521022e-005 -1.554893e-004 -1.268774e-005 9.994843e-001 -6.546337e-003
4049925 9.987944e-001 -1.286418e-003 -3.133930e-005 9.605848e-006 -3.302514e-005 2.728539e-004 9.963228e-001 -3.670229e-003
4799910 9.987466e-001 -1.285241e-003 -7.387810e-005 -4.572646e-005 1.454738e-005 -1.000976e-005 9.948672e-001 -4.490936e-003
5549895 9.982061e-001 -3.527194e-003 7.178410e-005 -1.808771e-005 1.840014e-004 -5.702538e-005 9.960728e-001 -4.628520e-003
6299880 9.986253e-001 -3.450126e-003 9.478383e-005 4.909436e-005 2.169429e-005 -1.161218e-004 9.954277e-001 -4.753534e-003
7049865 9.982250e-001 -3.530415e-003 3.888872e-005 1.950268e-006 -1.516644e-004 1.747386e-005 9.965215e-001 -7.058347e-003
7799850 9.985894e-001 -3.285091e-003 2.191616e-005 6.919847e-005 -3.517773e-005 -3.583058e-005 9.954516e-001 -6.216184e-003
8549835 9.974397e-001 -3.038011e-003 -3.865238e-005 2.666148e-005 7.285646e-005 -8.812406e-005 9.947406e-001 -6.381067e-003
9299820 9.979102e-001 -3.477587e-003 5.365225e-006 8.587888e-005 -1.192714e-004 2.395432e-004 9.953994e-001 -8.648911e-003
10049805 9.980686e-001 -4.735159e-003 -4.729670e-006 7.932373e-005 -1.116108e-004 2.400958e-004 9.984264e-001 -9.430377e-003
10799790 9.986035e-001 -5.424852e-003 -4.621052e-005 -4.396528e-005 -1.351363e-004 3.450250e-005 9.972497e-001 -9.645638e-003
11549775 9.983758e-001 -4.407060e-003 8.625998e-006 3.570921e-005 -8.256800e-005 -1.330670e-004 9.959787e-001 -7.726775e-003
12299760 9.987964e-001 -4.947741e-003 3.412394e-005 -5.470158e-006 -1.529202e-004 1.972194e-004 9.960046e-001 -1.096159e-002
13049745 9.994561e-001 -5.827149e-003 -3.655951e-006 -1.019379e-005 -7.161574e-005 5.167316e-005 9.961988e-001 -1.132245e-002
13799730 9.980481e-001 -5.812767e-003 1.341906e-005 -7.687854e-005 1.903314e-006 -2.059643e-004 9.970469e-001 -1.332104e-002
14549715 9.977303e-001 -6.442674e-003 3.549901e-005 1.770870e-005 -1.506248e-004 -1.338126e-004 9.960223e-001 -1.375461e-002
15299700 9.992280e-001 -7.472533e-003 -8.032854e-005 -1.689649e-005 -6.081258e-005 1.312864e-004 9.962288e-001 -1.508429e-002
16049685 9.972884e-001 -7.046056e-003 -1.144383e-005 -1.142857e-005 2.435659e-004 8.880494e-005 9.964668e-001 -1.396058e-002
16799670 9.980524e-001 -7.761490e-003 -7.841398e-005 -4.644087e-006 -1.380027e-004 2.609366e-004 9.955592e-001 -1.611387e-002
17549655 9.982076e-001 -8.252924e-003 -1.461704e-005 1.714208e-005 -5.645894e-005 1.417589e-004 9.955331e-001 -1.686628e-002
18299640 9.981988e-001 -8.113685e-003 3.912321e-005 -8.745973e-005 -3.503556e-004 -1.249491e-004 9.958990e-001 -1.540383e-002
19049625 9.986393e-001 -8.306617e-003 6.954118e-006 -1.006404e-004 -6.818189e-005 -2.439761e-004 9.970582e-001 -1.591490e-002
19799610 9.983748e-001 -7.970152e-003 -1.359912e-005 -4.963064e-005 9.453303e-005 9.452667e-005 9.964148e-001 -1.618726e-002
20549595 9.977592e-001 -8.929902e-003 5.376557e-005 3.658495e-005 -2.017627e-005 -4.377945e-005 9.959459e-001 -1.820839e-002
21299580 9.979557e-001 -9.137784e-003 -4.014050e-005 -4.562060e-005 -1.095975e-004 3.939106e-005 9.974318e-001 -1.855523e-002
22049565 9.988238e-001 -9.369249e-003 5.043772e-005 -5.759585e-005 -1.451435e-004 1.134743e-004 9.953332e-001 -1.942734e-002
22799550 9.993148e-001 -9.939072e-003 -6.753388e-006 6.022210e-005 1.041108e-004 -1.363457e-004 9.960314e-001 -1.961633e-002
23549535 9.975519e-001 -1.046497e-002 -2.352172e-005 -6.306023e-005 -1.455308e-004 7.517888e-005 9.945745e-001 -1.954314e-002
24299520 9.982540e-001 -1.055733e-002 3.286506e-005 9.650570e-005 -2.002522e-004 1.067088e-005 9.964226e-001 -1.935761e-002
25049505 9.985530e-001 -1.092101e-002 4.262689e-005 -9.621165e-005 7.392698e-005 -7.418016e-005 9.971251e-001 -2.129191e-002
25799490 9.976264e-001 -1.071598e-002 -2.459946e-006 1.093283e-005 3.329264e-004 6.671459e-005 9.967764e-001 -2.078637e-002
26549475 9.985689e-001 -1.095104e-002 -1.381435e-004 1.226009e-005 -8.882478e-006 3.850442e-004 9.939603e-001 -2.205443e-002
27299460 9.994164e-001 -1.141422e-002 3.919772e-005 -6.588770e-005 -5.725783e-005 2.775391e-004 9.946389e-001 -2.385503e-002
28049445 9.984057e-001 -1.272399e-002 -3.638794e-005 7.556745e-007 2.428859e-005 1.422740e-005 9.945973e-001 -2.309900e-002
28799430 9.991652e-001 -1.197140e-002 -1.447083e-004 2.513171e-005 1.543187e-004 -2.846785e-004 9.938355e-001 -2.414290e-002
29549415 9.980306e-001 -1.268041e-002 9.941719e-006 -4.578145e-005 2.439285e-005 -1.430562e-005 9.957729e-001 -2.390494e-002
30299400 9.984794e-001 -1.352159e-002 9.371163e-005 1.970085e-005 2.219406e-004 4.331816e-005 9.949698e-001 -2.452028e-002
31049385 9.980540e-001 -1.357184e-002 1.539671e-005 -5.347596e-005 1.239101e-004 1.113097e-004 9.934457e-001 -2.598139e-002
31799370 9.987261e-001 -1.472270e-002 -9.102960e-005 8.216566e-005 -3.026942e-006 1.193422e-004 9.943747e-001 -2.618375e-002
32549355 9.977959e-001 -1.297073e-002 9.656564e-005 2.956183e-005 -1.337061e-004 2.277580e-004 9.949178e-001 -2.793290e-002
33299340 9.976664e-001 -1.325740e-002 -3.157994e-005 2.572986e-005 -8.778695e-005 6.116916e-005 9.948269e-001 -2.875879e-002
34049325 9.978420e-001 -1.376227e-002 -1.253486e-005 1.929402e-005 -1.153385e-005 -8.689229e-005 9.949964e-001 -2.899766e-002
34799310 9.990391e-001 -1.575407e-002 -3.425913e-005 3.058422e-005 4.519585e-005 -7.491389e-005 9.953944e-001 -2.867103e-002
35549295 9.981654e-001 -1.501565e-002 8.044734e-005 1.177276e-004 3.986831e-005 4.015002e-005 9.953250e-001 -2.940295e-002
36299280 9.982316e-001 -1.478031e-002 7.528264e-006 5.838107e-006 1.585439e-004 1.915600e-004 9.960994e-001 -3.019382e-002
37049265 9.985003e-001 -1.654469e-002 -1.656585e-007 3.763799e-005 -1.655352e-004 1.692218e-004 9.950203e-001 -3.206340e-002
37799250 9.981366e-001 -1.576617e-002 -7.237485e-005 2.109409e-005 -4.854092e-005 2.675909e-004 9.956869e-001 -3.210041e-002
38549235 9.975700e-001 -1.642390e-002 8.339008e-005 -5.856955e-005 -2.324732e-004 -1.616744e-004 9.966515e-001 -3.313475e-002
39299220 9.984000e-001 -1.794438e-002 2.204321e-005 -1.892124e-005 -9.529744e-005 -5.732071e-005 9.937631e-001 -3.351472e-002
40049205 1.000027e+000 -1.808901e-002 1.197218e-006 2.603393e-007 2.574054e-004 8.967029e-005 9.968948e-001 -3.281060e-002
40799190 9.997345e-001 -1.807720e-002 -7.176472e-005 4.150931e-005 1.189939e-004 6.698506e-005 9.943921e-001 -3.437195e-002
41549175 9.979733e-001 -1.884337e-002 -1.256489e-004 6.326788e-005 -1.776685e-004 7.421268e-005 9.955741e-001 -3.789292e-002
42299160 9.981409e-001 -1.855266e-002 -1.395079e-005 -4.912318e-005 1.265299e-005 1.753535e-004 9.953904e-001 -3.735768e-002
43049145 9.966819e-001 -1.878579e-002 8.789199e-006 4.792087e-005 -2.394719e-004 -2.498858e-005 9.958711e-001 -3.784805e-002
43799130 9.982712e-001 -1.929956e-002 -9.652368e-005 1.233212e-004 8.030803e-006 6.898685e-005 9.944838e-001 -3.731921e-002
44549115 9.990640e-001 -1.952659e-002 2.278524e-004 5.428651e-005 -3.072096e-004 -8.399359e-006 9.948906e-001 -3.527844e-002
45299100 9.980463e-001 -2.107340e-002 -5.796547e-005 4.112636e-005 1.170103e-004 -2.220976e-004 9.984334e-001 -3.643041e-002
46049085 9.975693e-001 -2.080741e-002 -3.859479e-005 1.683444e-004 -1.767624e-004 -2.352440e-004 9.917541e-001 -4.076912e-002
46799070 9.989942e-001 -2.002830e-002 -4.480784e-005 -8.491924e-005 7.851407e-005 -1.914495e-004 9.967177e-001 -4.089940e-002
47549055 9.976895e-001 -2.178671e-002 -9.031792e-006 -4.170903e-005 5.567318e-005 -2.826634e-005 9.927781e-001 -4.019121e-002
48299040 9.978196e-001 -2.184861e-002 -1.722913e-004 3.580983e-005 -1.145102e-005 2.101407e-004 9.940987e-001 -4.193165e-002
49049025 9.979635e-001 -2.139258e-002 -3.197354e-005 1.432184e-005 2.273285e-004 -6.720579e-005 9.951015e-001 -4.510247e-002
49799010 9.980835e-001 -2.239095e-002 2.336931e-005 -8.935911e-005 2.354011e-004 1.685663e-005 9.955856e-001 -4.409945e-002
50548995 9.971536e-001 -2.248574e-002 1.955369e-005 6.786269e-005 -7.632552e-006 2.394834e-005 9.964861e-001 -4.141757e-002
51298980 9.985360e-001 -2.088341e-002 -2.785687e-005 -3.649563e-005 2.299442e-004 -1.182269e-005 9.953963e-001 -4.275428e-002
52048965 9.979085e-001 -2.297183e-002 9.669362e-005 5.437709e-005 2.496060e-004 5.573989e-005 9.954779e-001 -4.715193e-002
52798950 9.984906e-001 -2.305926e-002 -1.202216e-004 1.407767e-005 4.195874e-004 2.074945e-004 9.946483e-001 -4.352480e-002
53548935 9.984239e-001 -2.319154e-002 4.573946e-005 3.386330e-005 4.499858e-004 -4.613664e-005 9.931600e-001 -4.619257e-002
54298920 9.984164e-001 -2.398826e-002 -1.212451e-004 1.986717e-006 5.002983e-004 2.885151e-004 9.938195e-001 -4.602753e-002
55048905 9.988449e-001 -2.387169e-002 1.153767e-006 1.053750e-004 -1.811696e-004 2.622400e-004 9.974234e-001 -4.972273e-002
55798890 9.978059e-001 -2.267804e-002 -7.345155e-005 -1.148976e-004 9.945238e-005 2.982369e-004 9.957808e-001 -4.720062e-002
56548875 9.976609e-001 -2.295794e-002 -4.738549e-005 1.292929e-005 9.120346e-005 4.014625e-004 9.932916e-001 -4.703265e-002
57298860 9.989343e-001 -2.506033e-002 -1.370103e-004 -1.437720e-005 4.000144e-004 2.277556e-004 9.943896e-001 -4.999463e-002
58048845 9.971660e-001 -2.438210e-002 4.193561e-005 -6.982536e-007 4.123745e-004 1.988999e-004 9.937264e-001 -5.121731e-002
58798830 9.977291e-001 -2.570651e-002 2.698255e-006 2.904714e-005 1.411224e-004 2.394895e-004 9.922735e-001 -4.776633e-002
59548815 9.975328e-001 -2.632046e-002 -9.705911e-005 2.713606e-005 -5.063236e-005 -1.214448e-005 9.928311e-001 -5.097391e-002
60298800 9.986363e-001 -2.560838e-002 2.315441e-005 4.931521e-006 -9.956370e-005 -2.446767e-004 9.906368e-001 -5.011728e-002
61048785 9.981594e-001 -2.641775e-002 -1.105771e-005 2.117030e-005 -5.792708e-005 3.733973e-004 9.925573e-001 -4.949287e-002
61798770 9.972360e-001 -2.662165e-002 -7.508478e-006 -7.633059e-005 -2.697396e-004 8.983583e-005 9.981248e-001 -5.143367e-002
62548755 9.971058e-001 -2.652934e-002 -1.827166e-006 1.416083e-004 4.883619e-005 -1.398835e-004 9.987100e-001 -5.333756e-002
63298740 9.967524e-001 -2.674795e-002 -1.957265e-004 1.312614e-004 1.227554e-004 2.535153e-004 9.978521e-001 -5.532299e-002
64048725 9.974514e-001 -2.710868e-002 -7.125662e-006 -4.603552e-006 -3.837300e-006 2.183224e-004 9.927851e-001 -5.350220e-002
64798710 9.984053e-001 -2.836332e-002 -6.215643e-006 -1.037408e-004 -3.943268e-004 -1.133688e-004 9.946069e-001 -5.602955e-002
65548695 9.969684e-001 -2.800148e-002 7.215302e-005 1.161278e-004 -2.085369e-004 -1.166980e-004 9.910020e-001 -5.630429e-002
66298680 9.975100e-001 -2.855104e-002 -1.235844e-004 3.041850e-005 -7.941687e-005 -3.861423e-005 9.950175e-001 -5.702826e-002
67048665 9.981010e-001 -2.767328e-002 -1.388022e-006 9.050952e-005 2.065375e-004 -8.736955e-005 9.947456e-001 -5.976779e-002
67798650 9.979957e-001 -2.944550e-002 -1.531534e-004 5.341371e-005 -1.060512e-004 1.495912e-005 9.971800e-001 -6.032612e-002
68548635 9.968469e-001 -2.993143e-002 -1.429283e-004 3.305581e-005 1.693662e-004 -1.129614e-005 9.945551e-001 -5.687055e-002
69298620 9.977700e-001 -2.976310e-002 3.820894e-005 4.656284e-005 9.317320e-005 -3.062751e-004 9.909665e-001 -5.729972e-002
70048605 9.974170e-001 -3.076425e-002 7.206192e-005 2.169254e-006 -5.693821e-005 1.381695e-004 9.947652e-001 -6.158186e-002
70798590 9.973781e-001 -3.045376e-002 -1.257214e-005 1.455342e-004 -2.728934e-004 -1.968941e-006 9.945445e-001 -5.986046e-002
71548575 9.983953e-001 -3.035030e-002 3.119684e-005 -1.010610e-004 1.812575e-004 -3.883801e-004 9.936771e-001 -5.903320e-002
72298560 9.976372e-001 -2.972654e-002 -2.858647e-005 -9.316055e-005 2.835476e-004 -2.214576e-005 9.951591e-001 -6.028232e-002
73048545 9.968271e-001 -3.149439e-002 1.557111e-004 1.488638e-004 3.972980e-004 -1.411136e-004 9.950208e-001 -6.155286e-002
73798530 9.990578e-001 -3.197594e-002 -3.701562e-005 -7.616478e-005 -5.771982e-005 1.552404e-005 9.923114e-001 -6.311660e-002
74548515 9.981767e-001 -3.168836e-002 -3.231868e-005 7.501387e-005 -4.264580e-005 -1.512063e-004 9.916863e-001 -6.166885e-002
75298500 9.979544e-001 -3.061317e-002 1.339098e-004 -2.069042e-004 6.765409e-005 -2.007056e-004 9.920602e-001 -6.107685e-002
76048485 9.974387e-001 -3.263022e-002 -2.890556e-004 1.734217e-004 1.571663e-004 -5.971367e-005 9.932888e-001 -6.424499e-002
76798470 9.966161e-001 -3.296854e-002 -6.845518e-005 -1.420550e-005 2.375801e-004 9.592771e-005 9.942297e-001 -6.337213e-002
77548455 9.977745e-001 -3.332169e-002 2.342601e-004 1.017054e-004 -7.756356e-005 1.852730e-004 9.909629e-001 -6.306349e-002
78298440 9.970042e-001 -3.432874e-002 1.024998e-004 1.363528e-004 -2.951404e-004 9.346109e-005 9.939529e-001 -6.543019e-002
79048425 9.954794e-001 -3.555481e-002 -3.669855e-005 5.866630e-006 -2.091422e-004 -2.453624e-005 9.918419e-001 -6.540976e-002
79798410 9.969488e-001 -3.519643e-002 2.957306e-005 1.510827e-005 -6.150556e-005 2.058734e-004 9.935707e-001 -6.734445e-002
80548395 9.964229e-001 -3.456525e-002 -1.354620e-004 -6.786670e-005 -2.900639e-004 -3.321369e-005 9.919094e-001 -6.747651e-002
81298380 9.978194e-001 -3.388172e-002 -4.449724e-005 1.053764e-004 -2.187389e-004 -2.766253e-005 9.916387e-001 -6.683143e-002
82048365 9.985539e-001 -3.576716e-002 1.633471e-004 -6.128577e-005 -3.943129e-005 3.259406e-004 9.916158e-001 -6.762640e-002
82798350 9.978697e-001 -3.700721e-002 -6.545948e-005 1.362559e-004 1.054469e-004 -1.874344e-005 9.899408e-001 -6.835648e-002
83548335 9.985043e-001 -3.572427e-002 -2.978755e-005 3.891482e-005 2.306781e-005 8.160873e-005 9.906814e-001 -7.184374e-002
84298320 9.967141e-001 -3.453165e-002 -4.863349e-005 3.523972e-006 -1.978549e-004 -7.743774e-005 9.924014e-001 -7.081003e-002
85048305 9.978363e-001 -3.515892e-002 4.655839e-005 1.751879e-004 1.093824e-005 8.849524e-006 9.907818e-001 -7.243284e-002
85798290 9.966558e-001 -3.679074e-002 -6.118039e-006 -1.469302e-004 -2.238614e-004 1.092828e-004 9.939584e-001 -7.265721e-002
86548275 9.976067e-001 -3.814789e-002 -2.662041e-005 7.588400e-005 -1.078628e-004 -2.819925e-004 9.904367e-001 -7.258223e-002
87298260 9.992122e-001 -3.791277e-002 -4.099530e-005 1.124562e-004 -1.018642e-004 -2.621288e-004 9.908964e-001 -7.456677e-002
88048245 9.973816e-001 -3.831198e-002 3.745592e-005 -1.416309e-006 1.791906e-004 1.910125e-004 9.929393e-001 -7.513367e-002
88798230 9.957510e-001 -3.660749e-002 -1.056694e-004 -3.658342e-005 -4.981988e-005 -1.432167e-004 9.937667e-001 -7.384964e-002
89548215 9.972479e-001 -3.797863e-002 2.634200e-004 -9.502951e-005 8.062096e-005 -1.072635e-004 9.903038e-001 -7.972007e-002
90298200 9.983932e-001 -3.845477e-002 -1.950459e-004 -2.066340e-005 3.642283e-004 1.493239e-004 9.909891e-001 -8.004609e-002
91048185 9.961069e-001 -3.866478e-002 -3.111166e-005 -1.464883e-004 1.379155e-004 -3.413779e-004 9.906406e-001 -7.690518e-002
91798170 9.986692e-001 -4.006495e-002 5.057891e-005 5.119624e-005 2.118284e-004 -7.987986e-005 9.900631e-001 -7.766530e-002
92548155 9.981615e-001 -3.945560e-002 -8.800592e-005 -8.302807e-005 -7.221044e-005 -4.071730e-005 9.927620e-001 -8.011468e-002
93298140 9.973593e-001 -3.989652e-002 -1.015762e-004 -5.810406e-005 4.339183e-005 -8.228549e-005 9.919944e-001 -8.165763e-002
94048125 9.986607e-001 -4.097174e-002 5.090143e-005 1.534092e-005 9.288988e-005 1.031736e-004 9.914005e-001 -8.326640e-002
94798110 9.988629e-001 -4.126266e-002 -1.224034e-004 1.841955e-004 3.557509e-004 1.893087e-004 9.915444e-001 -8.020244e-002
95548095 9.965934e-001 -3.993868e-002 -4.774939e-006 1.096298e-004 -1.216087e-004 -2.582549e-004 9.916952e-001 -8.026880e-002
96298080 9.973866e-001 -4.006962e-002 -1.118431e-004 -1.692279e-004 -4.171158e-004 3.274483e-005 9.908405e-001 -8.179744e-002
97048065 9.973861e-001 -4.204113e-002 -1.901882e-004 1.304945e-004 -1.056545e-004 2.283043e-004 9.940689e-001 -8.120417e-002
97798050 9.970664e-001 -4.342777e-002 -1.575568e-004 -4.970345e-006 8.873329e-005 1.430232e-004 9.914383e-001 -8.357033e-002
98548035 9.966641e-001 -4.179369e-002 2.875440e-005 1.304535e-004 -2.598033e-004 6.091757e-005 9.915688e-001 -8.280323e-002
99298020 9.965683e-001 -4.080899e-002 5.572512e-005 1.446659e-004 1.964437e-004 1.460429e-004 9.913362e-001 -8.467554e-002
100048005 9.970114e-001 -4.136559e-002 1.054592e-004 -1.139916e-005 -3.139863e-004 -3.035270e-004 9.898155e-001 -8.388590e-002
100797990 9.956885e-001 -4.308910e-002 -2.365042e-004 9.458635e-005 -3.525772e-004 1.048187e-004 9.924486e-001 -8.617387e-002
101547975 9.968941e-001 -4.276758e-002 -4.733951e-005 2.284791e-004 7.443409e-005 1.492515e-004 9.904624e-001 -8.134926e-002
102297960 9.953622e-001 -4.403564e-002 5.116850e-005 -3.683383e-005 -2.612041e-004 -5.471357e-005 9.913048e-001 -8.710328e-002
103047945 9.952167e-001 -4.260239e-002 -3.030763e-005 -1.580261e-004 -1.719010e-004 -4.017079e-004 9.910803e-001 -8.909927e-002
103797930 9.968807e-001 -4.247167e-002 2.999078e-005 -3.341439e-005 -1.566774e-006 -1.681958e-005 9.905571e-001 -8.794355e-002
104547915 9.954523e-001 -4.342454e-002 1.029341e-006 -1.329355e-004 -6.131275e-005 -1.269022e-004 9.914449e-001 -8.716416e-002
105297900 9.960203e-001 -4.495639e-002 3.626067e-005 1.500827e-004 1.305967e-004 2.375066e-004 9.943973e-001 -8.752166e-002
106047885 9.970619e-001 -4.522211e-002 -9.309369e-005 4.303090e-005 -2.415679e-004 -9.894945e-005 9.931891e-001 -9.100470e-002
106797870 9.981277e-001 -4.685939e-002 1.203627e-004 4.140580e-005 2.575281e-004 -4.480741e-004 9.909425e-001 -8.982887e-002
107547855 9.957904e-001 -4.645121e-002 1.554766e-004 -4.444712e-005 -1.133472e-004 -1.158346e-004 9.907238e-001 -8.637196e-002
108297840 9.956906e-001 -4.587447e-002 -1.586954e-004 -1.758753e-004 -7.014063e-005 -2.723625e-004 9.900747e-001 -9.026559e-002
109047825 9.959624e-001 -4.610325e-002 -1.633886e-004 -6.497392e-005 4.149483e-004 -2.532652e-004 9.894782e-001 -8.895383e-002
109797810 9.954490e-001 -4.674713e-002 -3.674675e-006 -4.359626e-006 6.362294e-005 2.081957e-004 9.858334e-001 -9.319917e-002
110547795 9.957506e-001 -4.759747e-002 -3.698122e-005 -9.751844e-005 2.059126e-004 2.964707e-004 9.904217e-001 -9.084219e-002
111297780 9.958500e-001 -4.849363e-002 -1.835213e-004 -1.501749e-004 -5.408145e-005 2.339951e-004 9.885808e-001 -9.478802e-002
112047765 9.957178e-001 -4.894032e-002 -5.744152e-005 5.749317e-005 -1.784492e-004 -1.099013e-004 9.890691e-001 -9.522372e-002
112797750 9.962053e-001 -4.939642e-002 1.095454e-004 1.501993e-004 1.467636e-004 -4.154349e-004 9.910460e-001 -9.551992e-002
113547735 9.956620e-001 -4.829453e-002 -2.206172e-004 -7.331303e-005 1.433812e-004 -2.332887e-004 9.884903e-001 -9.609058e-002
114297720 9.963391e-001 -4.790806e-002 -9.497641e-005 -1.000464e-004 -1.959248e-004 1.419671e-004 9.907447e-001 -9.590217e-002
115047705 9.954618e-001 -4.890648e-002 3.872368e-005 3.562195e-005 -3.318166e-004 4.990856e-004 9.913290e-001 -1.007517e-001
115797690 9.956133e-001 -4.937460e-002 1.073136e-004 -1.380497e-004 1.698005e-004 -1.480592e-004 9.869722e-001 -9.709690e-002
116547675 9.954300e-001 -4.958394e-002 3.788470e-005 1.020467e-004 1.611995e-004 -3.091716e-004 9.893504e-001 -1.014991e-001
