!Agilent Technologies,N5230C,SG49000117,A.08.50.07
!Agilent N5230C: A.08.50.07
!Date: Monday, December 11, 2023 23:01:31
!Correction: S11(Full 2 Port(1,2)) 
!S21(Full 2 Port(1,2)) 
!S12(Full 2 Port(1,2)) 
!S22(Full 2 Port(1,2)) 
!S2P File: Measurements: S11, S21, S12, S22:
# Hz S  RI   R 50
300000 9.932971e-001 4.313129e-003 1.113049e-004 -1.068463e-004 5.327789e-005 5.052488e-004 9.886472e-001 1.161746e-002
1049985 9.925796e-001 3.210815e-003 8.591708e-005 -1.348706e-004 -1.352355e-004 -5.026831e-005 9.821492e-001 2.992627e-003
1799970 9.926116e-001 8.317131e-003 -1.208400e-004 3.362631e-005 9.823338e-005 -8.136894e-005 9.971751e-001 -5.957503e-003
2549955 9.984065e-001 5.714970e-004 -3.160347e-005 -9.215689e-005 -1.198123e-004 -5.326282e-005 9.974009e-001 -4.525450e-003
3299940 9.985847e-001 -1.405042e-003 -4.773108e-005 6.556425e-006 2.342931e-005 -1.078068e-004 9.987438e-001 -5.990228e-003
4049925 9.991481e-001 -1.240338e-003 2.843391e-005 4.630084e-005 -3.167791e-005 -1.259254e-004 9.962116e-001 -3.644611e-003
4799910 9.984198e-001 -1.474348e-003 5.953998e-006 -7.913666e-005 9.638409e-005 7.695427e-006 9.953657e-001 -5.582049e-003
5549895 9.983760e-001 -2.309807e-003 5.048846e-005 -3.592826e-005 3.651326e-005 4.284495e-004 9.962099e-001 -5.014110e-003
6299880 9.983560e-001 -3.666874e-003 1.973074e-005 -2.684093e-005 4.588344e-005 -1.831882e-004 9.955442e-001 -4.053316e-003
7049865 9.980480e-001 -3.621912e-003 3.587632e-005 -3.861318e-005 6.981738e-005 1.267300e-004 9.974067e-001 -6.806343e-003
7799850 9.985667e-001 -3.269618e-003 1.201329e-004 4.759329e-006 5.777341e-005 9.055750e-005 9.959820e-001 -5.784890e-003
8549835 9.977986e-001 -3.257051e-003 1.205106e-005 -6.840870e-006 -9.064927e-005 -4.652508e-005 9.961231e-001 -5.358210e-003
9299820 9.977709e-001 -3.422151e-003 -8.563794e-006 -2.021350e-005 -6.267671e-005 -1.000919e-004 9.952533e-001 -7.822878e-003
10049805 9.985846e-001 -4.450731e-003 1.393758e-004 -6.328837e-006 1.822362e-006 -9.936763e-006 9.980673e-001 -9.149401e-003
10799790 9.995689e-001 -4.471184e-003 -2.849507e-005 -1.905612e-006 -4.995950e-005 1.025333e-004 9.962782e-001 -1.048137e-002
11549775 9.987377e-001 -4.807860e-003 5.450860e-005 8.208889e-005 5.235924e-006 6.539179e-006 9.959515e-001 -9.103551e-003
12299760 9.999647e-001 -5.296737e-003 5.786797e-005 5.592339e-005 2.280630e-004 6.054198e-005 9.956944e-001 -1.120876e-002
13049745 1.000188e+000 -6.001532e-003 -6.054172e-006 -1.149415e-004 -2.888833e-005 -1.675242e-004 9.971794e-001 -1.027336e-002
13799730 9.983462e-001 -6.379998e-003 -1.059653e-005 -2.266867e-005 -3.486234e-004 -2.546100e-004 9.961610e-001 -1.347307e-002
14549715 9.984227e-001 -7.068430e-003 -1.474424e-005 -4.044822e-005 -2.572577e-006 -1.360847e-004 9.958198e-001 -1.282282e-002
15299700 9.984952e-001 -7.735234e-003 -4.923113e-005 -3.684618e-005 4.281729e-005 -5.729663e-005 9.969858e-001 -1.556943e-002
16049685 9.977013e-001 -7.237196e-003 5.672399e-006 -1.928327e-005 3.053542e-004 4.845712e-004 9.955903e-001 -1.542720e-002
16799670 9.982001e-001 -6.611517e-003 -1.450700e-005 3.108742e-005 3.032704e-004 1.792950e-004 9.962718e-001 -1.536504e-002
17549655 9.977404e-001 -8.349895e-003 3.191188e-005 5.503668e-006 -2.449208e-005 1.083899e-005 9.957951e-001 -1.761435e-002
18299640 9.982956e-001 -7.726892e-003 -2.642164e-005 6.454258e-005 -3.281084e-004 -3.308494e-005 9.958102e-001 -1.548386e-002
19049625 9.987284e-001 -8.713312e-003 8.192281e-005 1.281101e-004 7.645315e-005 7.176034e-006 9.967586e-001 -1.796725e-002
19799610 9.984627e-001 -8.608526e-003 -1.024901e-004 -4.600677e-005 6.184170e-005 1.000580e-004 9.946726e-001 -1.669561e-002
20549595 9.979855e-001 -9.907999e-003 -1.324754e-007 -3.590205e-005 5.318844e-006 -4.043855e-005 9.976954e-001 -1.725655e-002
21299580 9.980635e-001 -9.828397e-003 3.822895e-005 -4.594035e-005 5.952103e-006 3.642989e-005 9.964260e-001 -1.899337e-002
22049565 9.986326e-001 -1.046558e-002 8.552886e-005 -1.735400e-005 1.083483e-005 2.957608e-004 9.965924e-001 -1.963254e-002
22799550 9.990771e-001 -1.090509e-002 7.504500e-006 -4.779385e-005 -7.807944e-005 1.716452e-004 9.951168e-001 -1.935422e-002
23549535 9.991719e-001 -1.075745e-002 4.310341e-006 -5.863894e-005 -1.308390e-004 -2.114020e-004 9.955284e-001 -2.008191e-002
24299520 9.985535e-001 -1.044883e-002 -1.070891e-004 6.098963e-005 -3.086311e-005 -9.251809e-005 9.951979e-001 -1.984408e-002
25049505 9.984357e-001 -1.052060e-002 -1.210332e-004 2.501376e-005 3.148780e-004 1.049987e-004 9.971545e-001 -2.188102e-002
25799490 9.984940e-001 -1.023812e-002 -2.546915e-005 8.394050e-005 -1.183544e-004 1.317715e-004 9.964240e-001 -2.218127e-002
26549475 9.983615e-001 -1.126366e-002 7.529129e-005 7.335444e-005 -2.473702e-004 1.319615e-004 9.940813e-001 -2.140919e-002
27299460 9.991218e-001 -1.261620e-002 -6.292931e-005 -4.188684e-005 -1.859618e-004 -1.624120e-004 9.951231e-001 -2.358742e-002
28049445 9.988635e-001 -1.189790e-002 -7.323866e-006 6.527754e-005 2.783610e-005 -1.052492e-004 9.956465e-001 -2.420820e-002
28799430 9.988178e-001 -1.203314e-002 -1.050860e-004 -1.341941e-004 1.186428e-004 -1.367987e-004 9.953564e-001 -2.575974e-002
29549415 9.988413e-001 -1.306736e-002 2.665308e-005 4.777419e-005 2.181646e-004 1.635319e-005 9.967293e-001 -2.618965e-002
30299400 9.989132e-001 -1.328600e-002 -7.556433e-005 3.014616e-005 8.940699e-005 6.251701e-005 9.963064e-001 -2.501787e-002
31049385 9.977680e-001 -1.357071e-002 5.560659e-005 7.882289e-006 -2.545265e-006 1.953437e-004 9.940271e-001 -2.700968e-002
31799370 9.984107e-001 -1.416022e-002 8.838489e-006 9.978325e-005 -1.939140e-004 -1.128051e-004 9.932648e-001 -2.693635e-002
32549355 9.978203e-001 -1.319415e-002 1.937025e-005 4.748945e-005 -1.330595e-004 -3.630987e-005 9.951261e-001 -2.798666e-002
33299340 9.979044e-001 -1.406835e-002 1.561192e-005 7.145751e-005 2.140303e-004 -1.818912e-004 9.950018e-001 -2.896751e-002
34049325 9.981010e-001 -1.516700e-002 -1.283488e-005 5.547861e-005 1.274280e-004 -4.419798e-005 9.949809e-001 -2.847221e-002
34799310 9.994347e-001 -1.573032e-002 1.683669e-007 -3.232116e-005 1.003898e-004 2.094628e-004 9.953249e-001 -2.920052e-002
35549295 9.988709e-001 -1.547265e-002 -1.135067e-005 1.126042e-004 -1.781759e-004 6.929562e-005 9.950934e-001 -2.900886e-002
36299280 9.979302e-001 -1.550191e-002 8.763496e-006 -2.009535e-005 6.673532e-005 -3.799763e-005 9.954404e-001 -2.989205e-002
37049265 9.982453e-001 -1.616229e-002 -8.921253e-005 -2.665002e-005 4.859355e-004 -6.126561e-005 9.967310e-001 -3.269007e-002
37799250 9.982216e-001 -1.657805e-002 1.084912e-005 3.381033e-005 1.633141e-004 1.617653e-004 9.974210e-001 -3.220476e-002
38549235 9.981307e-001 -1.664823e-002 2.230944e-005 -2.831799e-005 -1.025801e-004 2.760154e-004 9.965613e-001 -3.314584e-002
39299220 9.981343e-001 -1.716670e-002 -4.184998e-005 6.946403e-006 -1.344337e-004 2.529075e-005 9.948795e-001 -3.347123e-002
40049205 1.000522e+000 -1.667568e-002 -2.711284e-005 -1.060157e-004 -3.886117e-004 2.211926e-004 9.960854e-001 -3.408654e-002
40799190 9.995564e-001 -1.730816e-002 9.819336e-005 -2.114331e-005 1.055410e-004 2.157011e-004 9.964523e-001 -3.422388e-002
41549175 9.980675e-001 -1.859050e-002 -7.120836e-006 -2.471069e-005 1.314299e-004 1.925444e-004 9.953777e-001 -3.710835e-002
42299160 9.971066e-001 -1.778130e-002 -2.481119e-005 1.688963e-004 -2.062338e-004 -5.781969e-006 9.951836e-001 -3.491550e-002
43049145 9.978672e-001 -1.902056e-002 1.930887e-004 5.885993e-005 4.466850e-004 3.033657e-004 9.963777e-001 -3.625597e-002
43799130 9.985030e-001 -1.950434e-002 -2.068415e-006 8.982186e-005 1.727440e-004 3.628263e-004 9.930773e-001 -3.807310e-002
44549115 9.981309e-001 -1.942019e-002 -1.015660e-004 7.419383e-005 -4.354132e-006 9.522897e-005 9.954047e-001 -3.639919e-002
45299100 9.987763e-001 -1.925146e-002 -7.251249e-005 -8.371121e-005 -1.769849e-005 3.231510e-005 9.971114e-001 -3.746551e-002
46049085 9.988030e-001 -2.088525e-002 -9.664538e-005 9.042458e-005 -5.460275e-005 1.567367e-004 9.956810e-001 -3.983757e-002
46799070 9.992927e-001 -1.873640e-002 -6.058766e-005 5.612729e-006 -6.137916e-004 2.077234e-004 9.975375e-001 -4.276166e-002
47549055 9.985973e-001 -2.099278e-002 -1.078405e-004 6.121743e-005 -4.568227e-004 -9.707997e-005 9.930068e-001 -4.198320e-002
48299040 9.969253e-001 -2.181090e-002 -3.858665e-005 -1.170059e-005 -2.864609e-004 -1.891593e-005 9.928014e-001 -4.036321e-002
49049025 9.984591e-001 -2.116738e-002 1.605107e-004 -4.024455e-005 -4.127453e-004 3.975853e-006 9.982879e-001 -4.429030e-002
49799010 9.985502e-001 -2.109158e-002 -1.472519e-005 1.649261e-004 2.078626e-005 9.329148e-005 9.972560e-001 -4.369695e-002
50548995 9.977667e-001 -2.198517e-002 1.490491e-004 7.573979e-005 3.528552e-004 -2.054562e-004 9.968114e-001 -4.339832e-002
51298980 9.983857e-001 -2.177533e-002 -2.172636e-006 2.707118e-005 1.128009e-004 -1.754093e-004 9.972515e-001 -4.198693e-002
52048965 9.981202e-001 -2.269717e-002 7.852444e-005 -2.425442e-005 2.520301e-004 -3.548224e-004 9.945493e-001 -4.503774e-002
52798950 9.989488e-001 -2.327789e-002 4.034437e-005 3.873848e-005 1.526645e-004 1.058015e-004 9.943324e-001 -4.496976e-002
53548935 9.985271e-001 -2.311028e-002 -6.639939e-005 -9.631371e-005 8.995145e-006 -1.101330e-004 9.910133e-001 -4.596235e-002
54298920 9.990851e-001 -2.430536e-002 -8.343678e-005 5.215964e-005 4.883011e-004 3.262228e-004 9.959940e-001 -4.746574e-002
55048905 9.990696e-001 -2.382965e-002 -2.475329e-005 7.847842e-005 1.837265e-004 1.052365e-004 9.952208e-001 -4.871450e-002
55798890 9.976193e-001 -2.346223e-002 3.085539e-005 4.036893e-005 3.111544e-004 2.182170e-004 9.961047e-001 -4.780917e-002
56548875 9.974473e-001 -2.338762e-002 8.862813e-005 -1.416043e-005 2.996607e-004 -3.193015e-004 9.946823e-001 -4.542308e-002
57298860 9.993885e-001 -2.454417e-002 1.394318e-004 5.377226e-005 -7.865681e-005 1.364463e-004 9.928128e-001 -4.932608e-002
58048845 9.981342e-001 -2.418986e-002 -1.960218e-005 2.388125e-005 1.466723e-004 3.282009e-004 9.946560e-001 -4.837540e-002
58798830 9.975379e-001 -2.530121e-002 -1.323787e-005 -1.549095e-006 -2.975604e-004 1.333075e-004 9.936285e-001 -5.107321e-002
59548815 9.980196e-001 -2.605347e-002 4.660692e-006 7.603160e-005 -1.107399e-004 1.186424e-005 9.954893e-001 -5.009510e-002
60298800 9.991335e-001 -2.544621e-002 8.582608e-005 4.908647e-006 1.215847e-004 6.474376e-005 9.940569e-001 -4.935976e-002
61048785 9.990827e-001 -2.640422e-002 7.989168e-005 -9.983813e-006 -1.813103e-004 3.896856e-005 9.921714e-001 -5.280416e-002
61798770 9.978119e-001 -2.710763e-002 8.665306e-005 -1.763809e-004 -2.853557e-004 -1.917320e-004 9.945937e-001 -4.775895e-002
62548755 9.973794e-001 -2.625583e-002 -9.818940e-005 -4.063598e-005 -5.694350e-005 -1.809695e-004 9.976037e-001 -5.322049e-002
63298740 9.972513e-001 -2.611721e-002 1.776509e-004 6.893883e-005 -2.091424e-004 -7.808958e-005 9.974642e-001 -5.581469e-002
64048725 9.972820e-001 -2.696759e-002 1.153572e-004 -1.016226e-004 1.892875e-004 -2.051991e-004 9.935763e-001 -5.418747e-002
64798710 9.991087e-001 -2.800675e-002 -4.642974e-005 9.678637e-005 -9.099114e-004 1.258774e-004 9.943559e-001 -5.971350e-002
65548695 9.975752e-001 -2.782538e-002 -4.623546e-005 1.411469e-004 -1.079260e-004 2.147038e-004 9.918367e-001 -5.779899e-002
66298680 9.977096e-001 -2.884610e-002 6.220405e-005 5.460237e-005 -5.667023e-004 -2.106611e-005 9.929630e-001 -5.894223e-002
67048665 9.981088e-001 -2.759249e-002 -2.035821e-004 6.884912e-005 -9.720968e-005 -1.515795e-004 9.947307e-001 -5.842970e-002
67798650 9.988127e-001 -2.816898e-002 3.693244e-005 -1.158546e-004 -1.651785e-005 -9.161705e-005 9.954024e-001 -5.971630e-002
68548635 9.973674e-001 -2.955250e-002 5.928106e-005 -4.321291e-005 -4.526118e-005 -1.929514e-004 9.925326e-001 -5.687209e-002
69298620 9.976659e-001 -2.958537e-002 5.262686e-005 8.857960e-005 -1.303612e-004 -2.804073e-004 9.923007e-001 -5.762136e-002
70048605 9.975300e-001 -3.041766e-002 -5.280516e-005 3.956009e-005 -4.381608e-004 2.278709e-004 9.935032e-001 -5.826328e-002
70798590 9.986735e-001 -3.097988e-002 1.563218e-004 1.247260e-004 -4.512372e-005 -3.206777e-004 9.951747e-001 -5.939196e-002
71548575 9.993157e-001 -2.984533e-002 5.436495e-005 1.147638e-005 1.068335e-004 -2.931066e-004 9.929858e-001 -5.895178e-002
72298560 9.977260e-001 -2.996857e-002 -2.833072e-007 1.323837e-004 1.223173e-004 -3.225078e-004 9.934121e-001 -5.791632e-002
73048545 9.975295e-001 -3.127608e-002 -7.979024e-006 8.480796e-005 2.116771e-004 -1.360316e-004 9.956109e-001 -6.112837e-002
73798530 9.988831e-001 -3.210858e-002 4.160515e-005 7.867938e-005 4.454239e-004 1.922195e-004 9.928752e-001 -6.186205e-002
74548515 9.983882e-001 -3.176766e-002 -6.012979e-005 3.882621e-006 1.966567e-004 1.406883e-004 9.911669e-001 -6.220128e-002
75298500 9.970071e-001 -3.127139e-002 1.721791e-005 -7.989794e-005 3.807516e-004 -1.449296e-004 9.906129e-001 -6.402060e-002
76048485 9.972765e-001 -3.267390e-002 6.969162e-005 -1.262971e-005 7.935865e-005 2.533419e-004 9.936745e-001 -6.241306e-002
76798470 9.974464e-001 -3.175268e-002 -1.659851e-004 -9.934886e-006 1.322868e-004 1.503124e-004 9.936047e-001 -6.512800e-002
77548455 9.971810e-001 -3.357061e-002 1.175922e-004 -2.122293e-004 4.259473e-005 -1.726506e-004 9.918027e-001 -6.282766e-002
78298440 9.978870e-001 -3.518370e-002 -3.270963e-006 -1.918435e-004 6.414659e-004 1.303057e-004 9.936922e-001 -6.434266e-002
79048425 9.957277e-001 -3.505714e-002 1.027456e-004 -2.217550e-004 1.021082e-004 2.569445e-004 9.898736e-001 -6.671314e-002
79798410 9.975574e-001 -3.467114e-002 -8.986844e-006 -9.081454e-005 1.506266e-004 2.633484e-004 9.944794e-001 -6.678051e-002
80548395 9.978840e-001 -3.475589e-002 6.785411e-005 1.567317e-005 -3.185753e-004 1.994420e-004 9.927295e-001 -6.706440e-002
81298380 9.983298e-001 -3.425710e-002 3.276942e-005 1.265231e-005 -1.048253e-004 1.879341e-004 9.932600e-001 -6.740742e-002
82048365 9.984640e-001 -3.557858e-002 -1.341759e-005 -5.022443e-005 5.773314e-005 2.835575e-004 9.938451e-001 -6.658872e-002
82798350 9.989192e-001 -3.552391e-002 1.569575e-004 -5.284639e-005 -2.790385e-004 1.313166e-004 9.932214e-001 -6.645204e-002
83548335 9.980855e-001 -3.636584e-002 2.238572e-005 -6.789706e-005 -1.730162e-004 1.123844e-004 9.917897e-001 -7.103668e-002
84298320 9.969024e-001 -3.514150e-002 1.873149e-004 4.272656e-005 -1.886379e-004 -1.912176e-004 9.930412e-001 -7.023560e-002
85048305 9.985084e-001 -3.354231e-002 4.596248e-005 -1.450922e-004 -9.292468e-005 3.957991e-005 9.926989e-001 -7.305323e-002
85798290 9.982747e-001 -3.672395e-002 -2.421745e-004 1.132409e-004 1.369423e-004 -4.964116e-005 9.932936e-001 -7.349657e-002
86548275 9.982243e-001 -3.725849e-002 -4.559429e-005 -8.852680e-006 5.222268e-005 -1.689001e-005 9.910510e-001 -7.268485e-002
87298260 9.986319e-001 -3.766273e-002 -2.758702e-005 -5.805490e-005 -1.206253e-005 -2.217464e-004 9.912449e-001 -7.365092e-002
88048245 9.975424e-001 -3.872815e-002 -1.531038e-004 -1.720670e-004 -4.951950e-005 4.332920e-006 9.930841e-001 -7.367280e-002
88798230 9.966556e-001 -3.673894e-002 2.474277e-005 2.006709e-005 3.868958e-004 5.459746e-005 9.949114e-001 -7.529720e-002
89548215 9.967814e-001 -3.840088e-002 -9.145307e-005 1.709000e-004 3.915625e-004 -1.217887e-004 9.898707e-001 -7.808596e-002
90298200 9.988990e-001 -3.838201e-002 2.518161e-005 -6.038362e-006 8.391817e-005 -2.666420e-004 9.920287e-001 -7.841698e-002
91048185 9.964409e-001 -3.849514e-002 4.846778e-005 -1.529554e-004 2.624515e-004 -9.955353e-005 9.936307e-001 -7.769913e-002
91798170 9.985203e-001 -4.068416e-002 -7.855982e-005 7.417570e-005 4.422080e-004 -9.616247e-005 9.902936e-001 -7.771816e-002
92548155 9.979489e-001 -3.938208e-002 -9.604760e-005 9.693767e-005 4.091845e-004 2.747078e-005 9.928548e-001 -7.932873e-002
93298140 9.980703e-001 -3.946968e-002 -1.420560e-004 -5.397537e-005 4.550834e-004 7.241355e-005 9.927678e-001 -8.149858e-002
94048125 9.989007e-001 -4.071056e-002 3.169191e-006 -1.707546e-004 3.467260e-004 -4.121542e-004 9.916572e-001 -8.054422e-002
94798110 9.989501e-001 -4.128538e-002 7.231275e-005 -9.963980e-005 8.068292e-005 5.015406e-005 9.919062e-001 -8.042999e-002
95548095 9.983186e-001 -3.896766e-002 -7.505007e-005 2.629267e-006 3.080273e-004 -2.535018e-004 9.918945e-001 -8.065844e-002
96298080 9.988962e-001 -3.991336e-002 2.920146e-005 2.586097e-005 3.757140e-004 7.512012e-005 9.931344e-001 -8.129120e-002
97048065 9.974688e-001 -4.137672e-002 1.808436e-004 3.323814e-005 4.224111e-004 3.802295e-004 9.925097e-001 -8.207645e-002
97798050 9.986788e-001 -4.287511e-002 1.107371e-004 1.518469e-004 2.226478e-004 -1.318908e-004 9.911849e-001 -8.392283e-002
98548035 9.967846e-001 -4.294379e-002 -2.900649e-005 1.765351e-004 -2.296709e-004 -4.198041e-005 9.911968e-001 -8.471325e-002
99298020 9.955601e-001 -4.177791e-002 9.503821e-006 1.784190e-004 3.981889e-004 3.963632e-005 9.908463e-001 -8.667235e-002
100048005 9.973457e-001 -4.147978e-002 -8.385769e-005 -8.874707e-005 3.725436e-004 1.041178e-004 9.934753e-001 -8.546146e-002
100797990 9.956413e-001 -4.280143e-002 -1.617155e-004 1.164291e-005 5.185343e-006 8.849160e-005 9.923467e-001 -8.390015e-002
101547975 9.966749e-001 -4.309540e-002 3.404726e-006 -1.584183e-004 3.499503e-004 4.235128e-004 9.923450e-001 -8.175953e-002
102297960 9.959237e-001 -4.480587e-002 2.870455e-005 3.774364e-005 -2.559170e-004 2.585716e-004 9.941390e-001 -8.666091e-002
103047945 9.961766e-001 -4.189720e-002 9.228337e-005 3.470476e-006 -2.861223e-004 4.272814e-004 9.924161e-001 -9.063996e-002
103797930 9.962775e-001 -4.237668e-002 -6.168496e-005 1.594392e-004 -4.498867e-004 -5.957805e-005 9.898635e-001 -8.657146e-002
104547915 9.967731e-001 -4.465517e-002 7.156732e-005 4.218270e-005 1.918771e-004 -1.955241e-005 9.902175e-001 -8.826726e-002
105297900 9.964369e-001 -4.505493e-002 -3.830903e-006 -4.434111e-006 -1.872627e-004 3.866824e-004 9.945157e-001 -8.616005e-002
106047885 9.975396e-001 -4.448405e-002 -4.930573e-005 6.951783e-005 1.090757e-004 5.028969e-005 9.924048e-001 -8.784947e-002
106797870 9.970708e-001 -4.510320e-002 1.144852e-005 1.404599e-005 -2.426207e-004 3.202195e-004 9.916154e-001 -9.010897e-002
107547855 9.959785e-001 -4.512968e-002 -6.556913e-005 -1.851562e-005 -1.258483e-004 2.391254e-004 9.913142e-001 -8.856872e-002
108297840 9.964458e-001 -4.699766e-002 4.695267e-005 2.441869e-004 -1.265000e-004 -1.422109e-004 9.912410e-001 -9.085602e-002
109047825 9.971271e-001 -4.554960e-002 2.095821e-005 -2.911196e-005 1.756281e-004 -3.003569e-004 9.897936e-001 -9.030204e-002
109797810 9.959115e-001 -4.656228e-002 2.157517e-005 7.210300e-007 -4.287230e-004 -5.177693e-004 9.884988e-001 -9.120174e-002
110547795 9.967399e-001 -4.780456e-002 3.693533e-005 -9.695510e-005 -9.521706e-005 1.383498e-004 9.921049e-001 -9.192833e-002
111297780 9.974572e-001 -4.793494e-002 -1.337504e-004 4.451727e-005 -5.913778e-005 -1.937023e-004 9.891866e-001 -9.375156e-002
112047765 9.966042e-001 -4.715429e-002 -2.253968e-004 3.663140e-005 1.824862e-004 -2.102694e-004 9.897704e-001 -9.492828e-002
112797750 9.962179e-001 -4.844538e-002 -2.448709e-005 -3.372311e-005 1.219908e-004 7.619924e-005 9.914674e-001 -9.636890e-002
113547735 9.962049e-001 -4.884935e-002 -1.023674e-004 1.126444e-005 -1.327233e-005 -1.001793e-004 9.902043e-001 -9.552182e-002
114297720 9.963014e-001 -4.936185e-002 6.861785e-005 -2.521327e-005 2.286043e-004 1.529453e-004 9.918405e-001 -9.759208e-002
115047705 9.958593e-001 -4.961547e-002 5.713155e-005 1.402155e-004 1.092966e-004 6.064072e-005 9.909905e-001 -9.875677e-002
115797690 9.960884e-001 -5.004032e-002 4.971163e-005 -6.395233e-005 -1.122236e-004 1.364652e-004 9.874557e-001 -9.675179e-002
116547675 9.961828e-001 -5.006852e-002 5.830362e-005 4.344832e-005 -2.496359e-004 7.968698e-005 9.905231e-001 -1.008038e-001
