!Agilent Technologies,N5230C,SG49000117,A.08.50.07
!Agilent N5230C: A.08.50.07
!Date: Monday, December 11, 2023 23:03:12
!Correction: S11(Full 2 Port(1,2)) 
!S21(Full 2 Port(1,2)) 
!S12(Full 2 Port(1,2)) 
!S22(Full 2 Port(1,2)) 
!S2P File: Measurements: S11, S21, S12, S22:
# Hz S  RI   R 50
300000 9.915105e-001 6.494951e-003 -1.054322e-004 -1.389803e-004 -5.345811e-004 8.222997e-005 9.917110e-001 3.619443e-003
1049985 9.941705e-001 3.261472e-003 -6.091415e-005 5.077373e-005 4.380379e-005 3.825562e-005 9.824220e-001 4.578662e-003
1799970 9.923422e-001 9.095574e-003 3.568451e-005 -1.399602e-005 3.437159e-005 1.385453e-004 9.976510e-001 -5.697685e-003
2549955 9.987025e-001 2.220829e-004 -4.565885e-005 -4.398910e-005 -2.564669e-004 -1.277686e-004 9.977782e-001 -3.593384e-003
3299940 9.993891e-001 -1.176239e-003 3.011772e-005 1.677210e-005 -5.267730e-005 1.418540e-004 9.995797e-001 -5.332919e-003
4049925 9.995903e-001 -1.105010e-003 -5.475243e-005 -3.078623e-005 1.091196e-004 -3.390266e-005 9.969742e-001 -4.571642e-003
4799910 9.987932e-001 -3.841154e-004 -7.467392e-005 4.781033e-005 -1.375250e-004 7.678640e-005 9.972158e-001 -4.494764e-003
5549895 9.980481e-001 -2.730387e-003 -3.021896e-005 -5.733355e-005 -5.623106e-005 -2.651798e-004 9.968898e-001 -5.198619e-003
6299880 9.988130e-001 -2.848716e-003 8.607603e-005 4.623513e-005 9.254079e-005 2.142241e-004 9.963147e-001 -5.965739e-003
7049865 9.984211e-001 -3.763893e-003 -2.810611e-006 6.466801e-005 -3.384045e-004 -2.525734e-005 9.972770e-001 -6.201103e-003
7799850 9.985412e-001 -3.249004e-003 -2.029733e-005 5.919128e-006 -1.441447e-004 -1.658819e-004 9.954666e-001 -5.775557e-003
8549835 9.985096e-001 -3.202644e-003 -2.151688e-005 6.281201e-006 8.499915e-005 1.036843e-004 9.957156e-001 -7.222467e-003
9299820 9.981687e-001 -3.121899e-003 1.114030e-005 1.609205e-005 1.631372e-005 5.379869e-005 9.955662e-001 -8.069457e-003
10049805 9.987324e-001 -4.273137e-003 -4.039781e-005 -9.466377e-006 1.313216e-004 1.999026e-004 9.977831e-001 -9.748509e-003
10799790 9.994227e-001 -5.007462e-003 8.012606e-006 9.540925e-005 4.823862e-005 -2.599127e-004 9.959599e-001 -1.162681e-002
11549775 9.995484e-001 -4.859942e-003 -4.836531e-005 -1.005606e-004 1.253133e-004 -1.202053e-005 9.949077e-001 -9.065406e-003
12299760 9.989750e-001 -5.075034e-003 9.446667e-006 3.786830e-005 -1.060156e-004 -6.890651e-006 9.964963e-001 -1.074357e-002
13049745 9.996693e-001 -6.208729e-003 3.482689e-005 5.556884e-006 3.306390e-004 -3.295912e-005 9.969892e-001 -1.191401e-002
13799730 9.981663e-001 -6.765829e-003 3.283205e-005 4.773331e-005 -4.685227e-005 -8.227003e-005 9.952083e-001 -1.464652e-002
14549715 9.988613e-001 -6.451430e-003 -8.490154e-006 -1.416344e-005 1.039755e-004 -1.183208e-004 9.964964e-001 -1.369583e-002
15299700 9.984944e-001 -6.593077e-003 -5.330078e-005 3.839353e-005 4.746784e-005 2.192449e-004 9.964348e-001 -1.603008e-002
16049685 9.983162e-001 -7.119861e-003 1.174216e-005 7.200835e-005 -7.161146e-005 1.710438e-005 9.963526e-001 -1.563270e-002
16799670 9.983670e-001 -7.519627e-003 1.000481e-005 -2.518648e-005 -2.524305e-004 -2.397424e-004 9.970427e-001 -1.612168e-002
17549655 9.984080e-001 -8.317993e-003 3.138820e-005 1.183452e-005 -8.361950e-005 -1.506036e-004 9.963326e-001 -1.749125e-002
18299640 9.990313e-001 -8.275872e-003 -5.601258e-005 8.035908e-005 4.667793e-005 8.869547e-005 9.958188e-001 -1.726127e-002
19049625 9.985931e-001 -8.839558e-003 9.937642e-006 2.072992e-005 4.343110e-005 2.570380e-004 9.961385e-001 -1.857116e-002
19799610 9.987606e-001 -7.787881e-003 8.386494e-005 -3.474901e-005 -2.929398e-005 -4.025866e-005 9.957193e-001 -1.689638e-002
20549595 9.975246e-001 -9.623528e-003 3.522044e-005 7.087053e-005 -1.750008e-004 1.803114e-004 9.954196e-001 -1.763965e-002
21299580 9.980592e-001 -9.207041e-003 -7.872130e-005 -7.282348e-005 -2.262974e-004 -5.975247e-005 9.978420e-001 -1.844955e-002
22049565 9.994428e-001 -9.734145e-003 8.001473e-006 -1.616022e-005 2.250772e-004 -1.288840e-004 9.960380e-001 -1.840939e-002
22799550 9.994870e-001 -1.072406e-002 1.745926e-005 -5.818314e-005 2.392429e-004 2.569930e-004 9.956390e-001 -2.003651e-002
23549535 9.986604e-001 -1.068653e-002 -9.514662e-006 -3.839635e-005 -1.047886e-004 1.147885e-004 9.950124e-001 -1.961304e-002
24299520 9.991456e-001 -1.116460e-002 3.082237e-005 -5.463357e-005 -6.651923e-006 -8.957006e-005 9.976467e-001 -2.043659e-002
25049505 9.987077e-001 -1.112710e-002 -1.903593e-005 -8.714419e-005 -5.694454e-005 -1.006926e-004 9.962853e-001 -2.222093e-002
25799490 9.980193e-001 -1.101924e-002 -3.496916e-005 -1.027765e-004 2.471592e-004 -4.469556e-005 9.963099e-001 -2.044446e-002
26549475 9.987015e-001 -1.122888e-002 -3.203626e-005 5.362424e-005 3.223135e-005 3.254909e-005 9.942296e-001 -2.151822e-002
27299460 9.993830e-001 -1.193735e-002 -6.352284e-005 8.194435e-005 -1.716925e-004 1.970829e-004 9.957947e-001 -2.533436e-002
28049445 9.986816e-001 -1.212515e-002 -7.899187e-005 7.653961e-005 -1.778160e-004 6.906895e-005 9.962525e-001 -2.480395e-002
28799430 9.987505e-001 -1.260304e-002 1.248231e-004 2.040985e-005 4.468900e-005 -1.946264e-004 9.951701e-001 -2.583071e-002
29549415 9.989980e-001 -1.298169e-002 -4.314323e-005 4.482160e-005 3.927154e-005 -3.079266e-005 9.964567e-001 -2.513019e-002
30299400 9.984429e-001 -1.378763e-002 1.875215e-005 -4.494609e-005 1.271014e-004 1.691618e-004 9.955310e-001 -2.549483e-002
31049385 9.986755e-001 -1.381515e-002 -4.429364e-005 -8.678129e-005 5.039743e-005 -1.420061e-005 9.940175e-001 -2.624567e-002
31799370 9.987326e-001 -1.397170e-002 -1.275902e-004 2.900340e-005 1.348024e-004 8.019801e-005 9.942873e-001 -2.646203e-002
32549355 9.977985e-001 -1.357333e-002 3.495207e-005 -1.350766e-004 7.015158e-005 1.321089e-004 9.947971e-001 -2.812095e-002
33299340 9.983453e-001 -1.449589e-002 6.008384e-005 -8.362124e-005 2.024992e-004 -5.970905e-005 9.952659e-001 -2.903542e-002
34049325 9.982606e-001 -1.444678e-002 -4.326679e-005 -3.472778e-005 1.130224e-004 2.166849e-004 9.966028e-001 -2.886619e-002
34799310 9.985732e-001 -1.542793e-002 8.597320e-005 2.049482e-006 -1.169528e-004 8.236195e-005 9.959974e-001 -2.877067e-002
35549295 9.982243e-001 -1.568020e-002 1.368799e-004 9.394057e-005 -1.730703e-004 -3.469701e-004 9.957604e-001 -2.875566e-002
36299280 9.987449e-001 -1.575751e-002 8.443941e-006 -1.326743e-005 5.710807e-005 -8.717570e-005 9.959341e-001 -3.046063e-002
37049265 9.985098e-001 -1.647878e-002 -2.858339e-005 -6.667486e-006 2.669879e-004 5.571216e-005 9.964380e-001 -3.345175e-002
37799250 9.984793e-001 -1.611453e-002 1.713053e-005 1.731140e-004 1.299861e-004 3.196562e-004 9.961880e-001 -3.295290e-002
38549235 9.980539e-001 -1.677013e-002 7.542605e-005 4.464752e-006 5.492690e-005 1.638436e-005 9.969870e-001 -3.362306e-002
39299220 9.980710e-001 -1.751922e-002 3.297224e-005 1.011179e-004 -1.367158e-004 -2.001214e-008 9.940525e-001 -3.354195e-002
40049205 9.996883e-001 -1.788866e-002 1.509621e-004 -5.534815e-005 1.003715e-004 -8.458699e-005 9.962158e-001 -3.261807e-002
40799190 9.995467e-001 -1.817403e-002 -9.439149e-005 -2.778824e-005 7.633119e-005 9.383327e-005 9.948962e-001 -3.614250e-002
41549175 9.986850e-001 -1.806840e-002 1.224186e-004 -1.152315e-004 -4.020141e-004 -3.798327e-004 9.942846e-001 -3.698634e-002
42299160 9.980835e-001 -1.809780e-002 1.076272e-004 -1.484329e-004 -6.677042e-005 -2.478078e-004 9.962147e-001 -3.627037e-002
43049145 9.984374e-001 -1.826806e-002 4.433876e-005 -8.750000e-005 -1.654266e-004 -2.801929e-004 9.962196e-001 -3.769675e-002
43799130 9.990856e-001 -1.972269e-002 -4.197962e-005 8.051423e-005 1.152527e-005 -2.756365e-004 9.950591e-001 -3.753890e-002
44549115 9.981825e-001 -1.845333e-002 -1.148965e-004 -1.401002e-004 9.812473e-005 -1.088601e-004 9.974300e-001 -3.565495e-002
45299100 9.991482e-001 -1.930583e-002 -1.496959e-005 -1.365855e-004 -9.951191e-006 -4.448587e-005 9.963362e-001 -3.595160e-002
46049085 9.990142e-001 -1.952474e-002 1.147799e-004 4.312275e-005 4.139155e-004 5.103449e-005 9.950644e-001 -3.964805e-002
46799070 9.998369e-001 -1.906105e-002 -2.490356e-005 3.435955e-006 -1.529458e-004 4.299526e-005 9.976550e-001 -3.984478e-002
47549055 9.977025e-001 -2.233957e-002 2.726653e-006 -1.117576e-004 1.972097e-004 2.107228e-004 9.933580e-001 -4.297851e-002
48299040 9.982477e-001 -2.184584e-002 -9.413106e-005 1.043772e-004 2.215284e-005 1.886107e-004 9.963714e-001 -4.183097e-002
49049025 9.976796e-001 -2.144764e-002 1.736274e-004 -1.437861e-005 -4.616927e-005 -7.257752e-005 9.963648e-001 -4.400266e-002
49799010 9.975244e-001 -2.189267e-002 -6.541321e-006 -1.184250e-004 1.451503e-005 -2.583384e-004 9.972929e-001 -4.382913e-002
50548995 9.989951e-001 -2.154450e-002 -1.608146e-004 -3.126985e-005 2.831655e-005 1.451705e-004 9.973491e-001 -4.089232e-002
51298980 9.981635e-001 -2.130870e-002 5.363986e-005 2.293418e-006 -4.030145e-004 -1.467025e-004 9.985942e-001 -4.201609e-002
52048965 9.980659e-001 -2.203849e-002 -7.981458e-005 8.996795e-005 1.454891e-004 -1.572081e-004 9.956397e-001 -4.648431e-002
52798950 9.981811e-001 -2.361810e-002 -1.231593e-004 -1.853746e-005 -4.775814e-005 -4.742290e-004 9.959632e-001 -4.320766e-002
53548935 9.990280e-001 -2.325202e-002 -8.837148e-005 1.363013e-005 -2.701939e-004 -3.821662e-004 9.923119e-001 -4.700539e-002
54298920 9.988839e-001 -2.425183e-002 2.274716e-005 -7.517790e-005 -7.901705e-005 -1.691898e-004 9.956610e-001 -4.891655e-002
55048905 9.997953e-001 -2.395448e-002 -1.429887e-005 2.676935e-005 -2.259442e-004 3.913850e-006 9.971739e-001 -4.854823e-002
55798890 9.977929e-001 -2.337753e-002 -1.058984e-004 9.265906e-005 3.662469e-005 -2.030955e-005 9.971456e-001 -4.709801e-002
56548875 9.980207e-001 -2.336376e-002 -1.985737e-005 -1.504621e-005 -2.665331e-004 -1.552285e-004 9.941120e-001 -4.743160e-002
57298860 9.996997e-001 -2.415692e-002 4.604510e-005 -1.211490e-005 7.923314e-005 -1.323286e-004 9.937655e-001 -5.220113e-002
58048845 9.987264e-001 -2.424355e-002 -7.067344e-005 9.675128e-005 -1.436308e-004 -2.159890e-004 9.932746e-001 -4.939017e-002
58798830 9.976049e-001 -2.590236e-002 -5.703232e-005 -7.621964e-005 2.660158e-004 4.605343e-005 9.927533e-001 -4.847383e-002
59548815 9.985222e-001 -2.528245e-002 -7.367006e-006 -5.132853e-005 1.991911e-004 -3.795240e-004 9.930872e-001 -5.023034e-002
60298800 9.985061e-001 -2.535785e-002 2.265917e-005 7.981064e-005 -4.528153e-005 -1.556765e-004 9.944127e-001 -5.188050e-002
61048785 9.990930e-001 -2.619711e-002 3.322550e-005 1.118668e-004 3.512135e-004 -1.162976e-004 9.933406e-001 -5.085960e-002
61798770 9.979299e-001 -2.653631e-002 9.559513e-005 -1.107790e-005 4.670771e-004 1.954868e-005 9.949999e-001 -4.971706e-002
62548755 9.977201e-001 -2.649425e-002 1.735254e-005 -4.651643e-005 1.508294e-004 1.247327e-004 9.973131e-001 -5.365325e-002
63298740 9.977254e-001 -2.673277e-002 2.758037e-005 -4.267864e-005 2.408855e-004 2.664269e-004 9.959868e-001 -5.443313e-002
64048725 9.980456e-001 -2.716505e-002 6.155746e-005 -8.400040e-005 3.737839e-004 4.480672e-004 9.938377e-001 -5.437654e-002
64798710 9.992720e-001 -2.786565e-002 6.065396e-005 1.054487e-004 7.377676e-005 4.311159e-004 9.964801e-001 -5.813045e-002
65548695 9.982508e-001 -2.721843e-002 1.987862e-005 9.693559e-005 2.362028e-004 1.710840e-004 9.924986e-001 -5.601301e-002
66298680 9.979103e-001 -2.746086e-002 -1.220464e-004 1.774996e-004 1.415772e-004 1.240851e-005 9.943085e-001 -5.560517e-002
67048665 9.978518e-001 -2.866361e-002 1.833827e-005 -9.525258e-005 1.455908e-004 -3.917339e-005 9.969945e-001 -5.936940e-002
67798650 9.982867e-001 -2.912623e-002 -1.309166e-004 2.948776e-005 -3.196183e-005 -2.213042e-004 9.962727e-001 -5.846301e-002
68548635 9.976823e-001 -3.001938e-002 -2.897810e-005 4.008961e-005 -1.680246e-004 -1.461239e-004 9.923690e-001 -5.638939e-002
69298620 9.981452e-001 -3.023852e-002 3.926719e-005 -1.004985e-004 1.492420e-004 -1.622785e-004 9.945907e-001 -5.550237e-002
70048605 9.980403e-001 -3.100034e-002 9.947416e-005 3.638367e-005 2.368048e-005 3.952107e-005 9.946980e-001 -6.081760e-002
70798590 9.979801e-001 -3.137893e-002 -1.396826e-004 -1.213729e-004 -1.453544e-004 -2.317145e-004 9.959244e-001 -5.924824e-002
71548575 9.984697e-001 -3.052006e-002 7.207732e-005 -1.320035e-004 -7.248574e-004 5.185031e-006 9.949932e-001 -5.986491e-002
72298560 9.982289e-001 -3.050809e-002 -4.373663e-005 -5.649625e-005 -7.823703e-007 -4.372868e-004 9.938933e-001 -5.830875e-002
73048545 9.975641e-001 -3.131960e-002 -2.046799e-006 6.346251e-005 -2.918728e-004 -2.979109e-004 9.965798e-001 -6.011301e-002
73798530 9.983002e-001 -3.100125e-002 -1.039289e-004 9.530831e-005 -2.280228e-004 -4.748197e-004 9.929121e-001 -6.244032e-002
74548515 9.977039e-001 -3.182575e-002 -9.832065e-005 -1.282007e-004 -8.308431e-005 -3.066755e-004 9.916897e-001 -6.384198e-002
75298500 9.983192e-001 -3.218154e-002 -7.422798e-005 1.968366e-005 3.582427e-004 -2.673060e-004 9.914562e-001 -6.376361e-002
76048485 9.975083e-001 -3.311603e-002 8.026464e-005 -2.923598e-005 1.747746e-004 -3.693097e-004 9.930065e-001 -6.367250e-002
76798470 9.972755e-001 -3.244448e-002 3.400311e-005 -1.680664e-004 4.884276e-005 5.611890e-005 9.947687e-001 -6.555612e-002
77548455 9.976626e-001 -3.416977e-002 -1.051864e-004 -3.982914e-005 -2.564644e-005 2.042376e-004 9.922819e-001 -6.411511e-002
78298440 9.970815e-001 -3.494446e-002 -1.193060e-004 -2.955348e-005 1.378844e-004 7.630887e-005 9.932221e-001 -6.552163e-002
79048425 9.969568e-001 -3.538209e-002 -1.174097e-004 -4.590231e-005 -9.511744e-005 1.373554e-005 9.913473e-001 -6.653649e-002
79798410 9.971197e-001 -3.542520e-002 -1.113282e-004 6.042286e-005 2.612295e-004 -6.547712e-005 9.934933e-001 -6.677400e-002
80548395 9.986705e-001 -3.556938e-002 -7.965785e-005 -5.875168e-005 2.689291e-004 4.328450e-005 9.940022e-001 -6.729599e-002
81298380 9.983732e-001 -3.484647e-002 3.004968e-006 -5.832231e-005 3.447491e-004 2.758412e-004 9.935480e-001 -6.823164e-002
82048365 9.989421e-001 -3.527638e-002 -5.526295e-005 1.865463e-005 3.393558e-004 5.241511e-005 9.915010e-001 -6.718382e-002
82798350 9.992020e-001 -3.677097e-002 1.178077e-004 7.372346e-005 2.882387e-004 1.733565e-004 9.912063e-001 -6.831794e-002
83548335 9.999906e-001 -3.684726e-002 1.946819e-005 -1.453833e-005 -9.330067e-005 5.401663e-004 9.927167e-001 -7.187671e-002
84298320 9.985178e-001 -3.468486e-002 9.931390e-005 -2.687547e-005 -2.066079e-005 1.564855e-004 9.932472e-001 -7.111998e-002
85048305 9.981306e-001 -3.505317e-002 2.908631e-005 -2.212749e-004 -3.827226e-005 -3.379045e-005 9.931794e-001 -7.132874e-002
85798290 9.974540e-001 -3.556069e-002 -8.823175e-005 -3.390845e-006 1.274655e-004 1.610861e-004 9.946631e-001 -7.313591e-002
86548275 9.975176e-001 -3.758442e-002 -1.467378e-004 -2.333064e-004 -2.788732e-004 -3.242778e-004 9.927990e-001 -7.267880e-002
87298260 9.992030e-001 -3.990462e-002 4.365027e-005 -6.101639e-005 1.151336e-005 1.451231e-005 9.916832e-001 -7.453916e-002
88048245 9.989479e-001 -3.834120e-002 -9.396395e-005 2.988437e-005 -2.394322e-004 -1.591031e-004 9.947617e-001 -7.542851e-002
88798230 9.971133e-001 -3.723216e-002 -5.010915e-005 -1.678765e-004 1.563847e-005 3.817509e-004 9.935336e-001 -7.608786e-002
89548215 9.982067e-001 -3.696745e-002 5.609207e-005 -7.749483e-005 -2.698875e-004 -2.199175e-004 9.903120e-001 -7.942285e-002
90298200 9.990982e-001 -3.852559e-002 -1.346388e-005 -1.374102e-004 -1.815067e-004 -1.437050e-004 9.912819e-001 -7.731941e-002
91048185 9.968693e-001 -3.950063e-002 1.491676e-004 -8.514056e-005 2.353474e-004 -2.367788e-004 9.917092e-001 -7.669910e-002
91798170 9.975926e-001 -4.036191e-002 8.206402e-005 2.037118e-004 1.379840e-004 3.169416e-004 9.931780e-001 -7.703295e-002
92548155 9.974239e-001 -3.964655e-002 -1.262834e-004 1.299092e-005 -5.573314e-005 -3.317477e-004 9.938151e-001 -8.069247e-002
93298140 9.983758e-001 -3.937370e-002 -3.235505e-004 -5.950387e-005 1.198197e-004 -8.314430e-006 9.940907e-001 -7.906644e-002
94048125 9.990244e-001 -4.091195e-002 3.528044e-005 8.243681e-005 3.131233e-004 4.680496e-006 9.939121e-001 -8.218888e-002
94798110 9.988416e-001 -3.982666e-002 -1.194610e-005 7.313644e-006 2.459825e-004 5.189733e-005 9.923514e-001 -8.021247e-002
95548095 9.984927e-001 -4.014435e-002 2.306048e-004 -6.342335e-005 3.041584e-004 2.491433e-004 9.903840e-001 -8.087515e-002
96298080 9.986815e-001 -3.970974e-002 4.153992e-005 5.628547e-005 2.357322e-006 2.922661e-004 9.920944e-001 -8.146711e-002
97048065 9.989461e-001 -4.232230e-002 5.895296e-005 -2.228731e-005 1.105778e-005 -9.433567e-005 9.937789e-001 -8.299442e-002
97798050 9.983385e-001 -4.306708e-002 -2.851538e-005 1.110571e-004 -4.300472e-005 8.783358e-005 9.905902e-001 -8.420504e-002
98548035 9.976658e-001 -4.194653e-002 2.193615e-004 -1.074047e-004 -5.205730e-005 3.249241e-004 9.938776e-001 -8.626946e-002
99298020 9.973632e-001 -4.161918e-002 -9.380896e-006 -1.690267e-005 -7.252912e-005 3.537525e-004 9.920193e-001 -8.560531e-002
100048005 9.978823e-001 -4.211668e-002 -3.483912e-005 -3.340076e-005 6.541265e-006 1.428125e-004 9.924343e-001 -8.558308e-002
100797990 9.965721e-001 -4.268274e-002 -3.364572e-005 -7.010340e-005 -1.546139e-004 -1.463991e-005 9.933568e-001 -8.514807e-002
101547975 9.973114e-001 -4.221493e-002 1.470496e-004 1.596135e-004 6.372081e-005 -5.715528e-004 9.922017e-001 -8.490799e-002
102297960 9.965883e-001 -4.480388e-002 1.554482e-005 -6.133472e-005 -1.617084e-004 -2.437003e-004 9.933377e-001 -8.728199e-002
103047945 9.965372e-001 -4.236849e-002 3.352376e-005 -1.577262e-005 -4.304326e-004 -1.846383e-004 9.925810e-001 -8.895543e-002
103797930 9.970980e-001 -4.370576e-002 1.303529e-004 4.886016e-005 -3.271203e-004 -3.375342e-005 9.882513e-001 -8.673938e-002
104547915 9.966177e-001 -4.366355e-002 3.484771e-005 8.835828e-005 6.246574e-004 -2.194958e-004 9.921156e-001 -8.757704e-002
105297900 9.964503e-001 -4.506219e-002 -1.295136e-004 -3.899400e-005 3.539351e-004 -2.786143e-004 9.927226e-001 -9.029688e-002
106047885 9.987213e-001 -4.555801e-002 -8.914284e-005 -1.446678e-005 1.887187e-004 1.443930e-004 9.933867e-001 -9.093425e-002
106797870 9.983910e-001 -4.592006e-002 -7.830065e-005 8.848711e-006 -4.060064e-005 -1.642317e-004 9.916946e-001 -8.837145e-002
107547855 9.951524e-001 -4.621885e-002 1.650379e-004 -8.905757e-005 -2.755141e-004 2.635227e-004 9.916077e-001 -8.917476e-002
108297840 9.956167e-001 -4.641135e-002 7.649793e-005 1.223019e-004 -4.406106e-005 -3.712305e-004 9.893844e-001 -9.254832e-002
109047825 9.959936e-001 -4.594313e-002 5.938935e-005 -9.673836e-005 -2.779521e-005 -7.167822e-005 9.907181e-001 -8.968000e-002
109797810 9.958360e-001 -4.741806e-002 5.324799e-006 -1.742005e-004 -3.409815e-004 -4.150975e-004 9.869648e-001 -9.120698e-002
110547795 9.967254e-001 -4.661234e-002 -6.428074e-005 -7.455903e-006 -1.907103e-004 4.110963e-004 9.936585e-001 -9.297102e-002
111297780 9.964404e-001 -4.722689e-002 1.773822e-004 -9.475607e-007 2.672043e-004 -3.988725e-005 9.893305e-001 -9.608983e-002
112047765 9.966037e-001 -4.836878e-002 -7.160977e-006 -1.084982e-004 4.527444e-004 1.215350e-004 9.915270e-001 -9.612855e-002
112797750 9.973128e-001 -4.886590e-002 -5.579458e-005 -6.571566e-005 2.291600e-004 -1.702510e-004 9.894794e-001 -9.395644e-002
113547735 9.967320e-001 -4.734862e-002 4.546033e-005 7.433491e-005 -1.030184e-004 3.730017e-004 9.885036e-001 -9.552949e-002
114297720 9.973021e-001 -4.871681e-002 -1.356838e-004 1.955485e-005 -5.872812e-005 2.963325e-006 9.923556e-001 -9.783433e-002
115047705 9.960876e-001 -4.910149e-002 3.896005e-005 -1.080940e-005 -7.552133e-005 3.548671e-004 9.920359e-001 -9.777865e-002
115797690 9.956629e-001 -4.941073e-002 -4.663050e-005 -8.790141e-005 1.988048e-004 -1.051527e-004 9.892148e-001 -9.937857e-002
116547675 9.960524e-001 -4.954100e-002 9.158575e-005 -4.811971e-005 -3.362935e-004 1.496312e-004 9.895107e-001 -9.815480e-002
