!Agilent Technologies,N5230C,SG49000117,A.08.50.07
!Agilent N5230C: A.08.50.07
!Date: Monday, December 11, 2023 23:05:45
!Correction: S11(Full 2 Port(1,2)) 
!S21(Full 2 Port(1,2)) 
!S12(Full 2 Port(1,2)) 
!S22(Full 2 Port(1,2)) 
!S2P File: Measurements: S11, S21, S12, S22:
# Hz S  RI   R 50
300000 9.934322e-001 6.765668e-003 1.098993e-004 6.745251e-005 -1.049180e-004 -2.458776e-004 9.905808e-001 1.175067e-002
1049985 9.935330e-001 3.595717e-003 -5.891964e-006 -9.887712e-005 -1.220290e-005 2.655815e-004 9.820191e-001 6.288136e-003
1799970 9.928460e-001 9.419029e-003 3.060022e-005 5.311980e-005 3.127634e-005 1.188175e-004 9.957764e-001 -4.899787e-003
2549955 9.998205e-001 4.560434e-004 -7.891648e-005 -2.818438e-005 -1.074908e-004 1.326754e-004 9.980481e-001 -3.656255e-003
3299940 9.992826e-001 -8.416523e-004 7.360061e-005 -7.745653e-006 -6.767336e-005 -7.647099e-005 9.994032e-001 -5.488149e-003
4049925 9.994991e-001 -7.064983e-004 -1.740308e-005 1.497222e-005 -2.818150e-005 3.622169e-005 9.964428e-001 -3.475838e-003
4799910 9.988399e-001 -1.564258e-003 -2.349707e-005 7.106313e-005 1.179917e-004 -7.510626e-005 9.957113e-001 -4.857739e-003
5549895 9.985825e-001 -2.738133e-003 8.089261e-006 -1.586672e-005 2.821250e-005 8.491307e-005 9.959480e-001 -4.907259e-003
6299880 9.986466e-001 -3.427407e-003 -1.399264e-004 7.290054e-005 8.989384e-006 1.616032e-004 9.962476e-001 -3.368523e-003
7049865 9.989854e-001 -3.220983e-003 -2.470310e-005 3.801033e-005 2.064987e-005 6.783555e-005 9.968801e-001 -6.128025e-003
7799850 9.986917e-001 -3.040676e-003 -3.656386e-006 4.823161e-005 -3.437643e-005 -6.629466e-005 9.961787e-001 -7.566646e-003
8549835 9.985880e-001 -2.894433e-003 2.147237e-006 3.620164e-005 5.788007e-006 7.495342e-005 9.955125e-001 -5.569509e-003
9299820 9.984440e-001 -2.913439e-003 2.621000e-006 -2.864235e-005 -1.414983e-004 -8.210931e-005 9.953131e-001 -7.526693e-003
10049805 9.996264e-001 -4.377923e-003 -6.533032e-005 -5.941013e-006 -7.432069e-005 1.108932e-004 9.975191e-001 -1.015154e-002
10799790 9.992815e-001 -5.060632e-003 1.057415e-004 -8.356304e-005 4.696932e-005 -2.286340e-004 9.979808e-001 -9.644253e-003
11549775 9.995418e-001 -4.836129e-003 -4.128139e-005 -3.138056e-005 9.368375e-005 3.626374e-005 9.957294e-001 -9.695601e-003
12299760 9.990170e-001 -5.359876e-003 -1.333314e-005 3.122085e-006 7.534371e-005 -1.860618e-004 9.968572e-001 -1.100931e-002
13049745 9.999902e-001 -6.036217e-003 -2.076207e-005 2.425165e-005 7.175845e-005 -2.395919e-005 9.960846e-001 -1.295205e-002
13799730 9.983336e-001 -6.357437e-003 -3.020294e-005 4.023974e-006 -5.213006e-005 2.070269e-004 9.967816e-001 -1.326375e-002
14549715 9.991333e-001 -6.623646e-003 -3.052406e-005 -9.958908e-006 -2.285643e-004 -6.778746e-005 9.958126e-001 -1.365499e-002
15299700 9.996429e-001 -7.292583e-003 5.077954e-005 -4.556182e-005 -6.614895e-005 -3.004514e-004 9.957191e-001 -1.557521e-002
16049685 9.977488e-001 -7.077917e-003 2.818663e-005 1.110136e-005 1.650615e-004 4.664158e-005 9.964041e-001 -1.583174e-002
16799670 9.982716e-001 -7.537749e-003 4.450483e-005 3.267409e-005 -7.712087e-005 3.489681e-005 9.949014e-001 -1.614084e-002
17549655 9.989367e-001 -8.169202e-003 9.646909e-006 -4.826221e-005 1.756900e-004 1.211155e-006 9.965553e-001 -1.831798e-002
18299640 9.988807e-001 -7.956073e-003 -8.651223e-005 4.086461e-005 4.797325e-005 -1.721826e-004 9.958488e-001 -1.750550e-002
19049625 9.989694e-001 -9.155066e-003 -4.226526e-005 -3.887080e-006 2.497406e-005 1.857111e-004 9.965400e-001 -1.797458e-002
19799610 9.990299e-001 -8.094877e-003 1.124026e-004 -4.167684e-005 -3.382777e-004 4.956309e-005 9.955447e-001 -1.719804e-002
20549595 9.978530e-001 -9.865643e-003 -1.314713e-004 3.155346e-005 -1.098095e-004 -4.471126e-005 9.955340e-001 -1.742936e-002
21299580 9.984049e-001 -9.488787e-003 4.218193e-005 2.977314e-005 2.470041e-004 -2.305328e-004 9.973522e-001 -1.963568e-002
22049565 9.990552e-001 -1.022550e-002 -5.007067e-006 -2.973609e-005 3.497033e-004 1.124482e-004 9.952558e-001 -1.940454e-002
22799550 9.997878e-001 -1.045900e-002 -3.348038e-005 -1.169977e-006 -2.160806e-005 2.571609e-004 9.967415e-001 -2.025499e-002
23549535 9.989766e-001 -1.093224e-002 -4.881763e-005 1.043294e-005 -2.665737e-004 -2.467567e-004 9.957699e-001 -2.092372e-002
24299520 9.992940e-001 -1.136336e-002 3.262942e-005 -7.149638e-005 -1.685270e-004 -2.808177e-004 9.961242e-001 -2.143976e-002
25049505 9.989448e-001 -1.114719e-002 7.152120e-005 -2.566606e-006 6.993012e-005 -3.816424e-004 9.959423e-001 -2.245003e-002
25799490 9.984391e-001 -1.079463e-002 -4.061530e-005 -5.729136e-005 2.359417e-004 2.362325e-004 9.957797e-001 -2.139985e-002
26549475 9.985780e-001 -1.149658e-002 -8.054317e-005 3.438918e-005 1.212179e-005 2.074273e-004 9.929942e-001 -2.272357e-002
27299460 9.988365e-001 -1.162746e-002 -1.219445e-006 7.012119e-005 -1.278458e-004 -6.491067e-005 9.944530e-001 -2.533693e-002
28049445 9.989364e-001 -1.250621e-002 -7.070105e-005 -3.424871e-005 1.532788e-004 -1.072566e-004 9.947974e-001 -2.486270e-002
28799430 9.986315e-001 -1.203071e-002 6.962139e-006 -1.467244e-004 -1.917833e-005 2.574448e-004 9.964520e-001 -2.541635e-002
29549415 9.994147e-001 -1.256342e-002 -1.323351e-004 -2.353864e-005 -1.073488e-005 1.426430e-004 9.962915e-001 -2.467346e-002
30299400 9.983186e-001 -1.359729e-002 4.266620e-005 -9.389222e-005 -1.660891e-004 -1.372277e-004 9.955994e-001 -2.507956e-002
31049385 9.980438e-001 -1.427272e-002 4.697536e-005 -5.482060e-005 1.232973e-004 5.916632e-005 9.941944e-001 -2.611748e-002
31799370 9.987096e-001 -1.398260e-002 9.301644e-005 -2.660890e-005 1.225364e-004 2.698495e-004 9.925776e-001 -2.717770e-002
32549355 9.978830e-001 -1.284318e-002 -5.301925e-005 -2.854467e-005 -5.712051e-005 -8.919840e-006 9.946406e-001 -2.872929e-002
33299340 9.987466e-001 -1.306884e-002 6.643440e-005 6.231463e-005 3.846830e-006 -2.291265e-004 9.945695e-001 -2.899131e-002
34049325 9.980689e-001 -1.442549e-002 6.848695e-006 -8.713627e-005 2.182666e-004 -1.755788e-004 9.961361e-001 -2.921944e-002
34799310 9.990949e-001 -1.572666e-002 -1.146268e-006 2.124327e-005 8.261212e-006 1.106665e-004 9.954994e-001 -2.900421e-002
35549295 9.995385e-001 -1.566983e-002 -4.690072e-005 2.674439e-005 -1.247659e-004 2.477406e-005 9.957449e-001 -2.947183e-002
36299280 9.987279e-001 -1.640509e-002 8.322874e-005 1.569466e-005 2.069824e-005 -2.023774e-004 9.953533e-001 -3.006749e-002
37049265 9.993264e-001 -1.662755e-002 1.349382e-005 -9.462455e-005 6.177542e-006 3.252711e-005 9.959046e-001 -3.237076e-002
37799250 9.985045e-001 -1.617095e-002 -1.539416e-004 -3.067074e-006 7.332840e-005 5.809327e-005 9.967455e-001 -3.163413e-002
38549235 9.981902e-001 -1.710745e-002 5.966563e-005 4.706582e-005 -8.962425e-005 2.722294e-004 9.975977e-001 -3.317394e-002
39299220 9.991162e-001 -1.701858e-002 1.105271e-004 3.871816e-006 -1.182067e-004 1.137995e-004 9.940356e-001 -3.269695e-002
40049205 9.998713e-001 -1.849478e-002 2.510245e-005 4.299028e-005 1.307389e-004 -1.927937e-004 9.965245e-001 -3.341005e-002
40799190 9.997512e-001 -1.812866e-002 -5.210489e-005 -4.716595e-005 -2.749950e-004 -7.927312e-005 9.950159e-001 -3.566227e-002
41549175 9.978704e-001 -1.844207e-002 2.716234e-006 1.422607e-005 -2.525876e-004 -5.463837e-005 9.953001e-001 -3.867408e-002
42299160 9.976088e-001 -1.683651e-002 -6.052008e-006 6.754508e-005 -1.164533e-004 -2.750024e-004 9.955227e-001 -3.489089e-002
43049145 9.986217e-001 -1.831205e-002 -1.436548e-005 -6.335015e-005 -1.425297e-004 -1.510182e-004 9.955034e-001 -3.809013e-002
43799130 9.991595e-001 -1.925298e-002 7.893255e-005 3.347372e-005 -4.740039e-005 -7.824158e-005 9.941775e-001 -3.894495e-002
44549115 9.986817e-001 -1.875831e-002 1.287652e-004 -8.863459e-005 5.362837e-005 -9.653273e-005 9.947916e-001 -3.695959e-002
45299100 9.996940e-001 -1.890614e-002 -2.467484e-004 6.800982e-005 2.621268e-004 -4.205920e-005 9.962590e-001 -3.794115e-002
46049085 9.986663e-001 -2.139455e-002 3.633305e-005 -4.053532e-005 4.759033e-004 4.180323e-004 9.939570e-001 -4.087123e-002
46799070 1.000297e+000 -1.942245e-002 -5.360060e-005 5.499309e-006 1.733624e-004 1.930127e-004 9.977006e-001 -4.187446e-002
47549055 9.994323e-001 -2.181975e-002 4.560953e-005 1.132097e-004 1.245800e-004 -2.865460e-004 9.948339e-001 -4.056838e-002
48299040 9.985608e-001 -2.151854e-002 3.731107e-005 -8.055309e-005 -3.226232e-004 1.020935e-004 9.938647e-001 -4.173109e-002
49049025 9.975721e-001 -2.124523e-002 6.266610e-005 -1.095016e-004 -6.833834e-005 -2.990600e-005 9.985521e-001 -4.580459e-002
49799010 9.985853e-001 -2.186466e-002 -8.548061e-005 -2.063292e-005 -4.483019e-004 -6.177404e-005 9.974254e-001 -4.479897e-002
50548995 9.983876e-001 -2.254171e-002 7.138956e-005 -8.850703e-005 -7.090812e-005 -5.838498e-005 9.962381e-001 -4.300614e-002
51298980 9.986534e-001 -2.125791e-002 6.974390e-005 -3.059740e-006 1.309212e-004 -4.625390e-005 9.968159e-001 -4.187301e-002
52048965 9.995286e-001 -2.246039e-002 4.854820e-005 8.162398e-005 -1.034443e-004 -3.478909e-004 9.952202e-001 -4.727037e-002
52798950 9.998855e-001 -2.384841e-002 2.161168e-005 -4.392251e-005 5.890442e-005 -5.550335e-004 9.947508e-001 -4.412037e-002
53548935 9.999287e-001 -2.309290e-002 -6.667325e-005 3.884081e-005 -2.242715e-005 -3.270334e-004 9.940275e-001 -4.625393e-002
54298920 9.996546e-001 -2.330294e-002 -7.051503e-006 1.283919e-004 -5.774916e-005 -1.974218e-004 9.949983e-001 -4.898048e-002
55048905 9.997549e-001 -2.402114e-002 -2.315672e-005 -6.444182e-005 4.159337e-004 -2.554294e-004 9.995044e-001 -4.889765e-002
55798890 9.981429e-001 -2.275642e-002 -6.013369e-006 -1.149084e-004 2.109906e-004 1.822774e-004 9.977759e-001 -4.745898e-002
56548875 9.993502e-001 -2.265069e-002 3.740291e-005 -1.233980e-004 4.188950e-004 -2.517965e-005 9.953410e-001 -4.592270e-002
57298860 9.988090e-001 -2.505381e-002 -4.494777e-005 -6.594576e-005 1.454638e-004 -1.940073e-004 9.939248e-001 -5.091748e-002
58048845 9.978855e-001 -2.401926e-002 -8.482990e-005 -8.072361e-005 1.520403e-004 -8.433018e-005 9.946740e-001 -5.266904e-002
58798830 9.983776e-001 -2.546160e-002 -7.884517e-005 -6.782426e-005 -6.409777e-005 2.433222e-004 9.919322e-001 -4.721364e-002
59548815 9.988247e-001 -2.511251e-002 -6.883534e-006 1.221712e-004 2.725084e-004 4.795268e-004 9.934503e-001 -5.270633e-002
60298800 9.985253e-001 -2.558496e-002 -1.280346e-004 -3.588411e-005 -4.719376e-004 1.095871e-004 9.930719e-001 -5.097150e-002
61048785 9.989875e-001 -2.683524e-002 -6.590171e-005 1.694581e-005 2.228703e-004 6.425688e-004 9.921808e-001 -5.126127e-002
61798770 9.983154e-001 -2.638530e-002 -1.279952e-005 1.530915e-005 3.359972e-004 2.496748e-004 9.957876e-001 -5.139583e-002
62548755 9.972217e-001 -2.632519e-002 4.457866e-005 5.138291e-006 4.218952e-005 3.890711e-004 9.979543e-001 -5.662828e-002
63298740 9.981466e-001 -2.673648e-002 1.217990e-004 -5.629789e-005 -7.827004e-005 3.827792e-004 9.977518e-001 -5.403818e-002
64048725 9.984264e-001 -2.646310e-002 -7.287461e-005 -1.204062e-005 -1.594499e-004 3.011949e-004 9.920676e-001 -5.192329e-002
64798710 9.998624e-001 -2.844511e-002 5.401573e-005 -1.250588e-004 -2.967791e-005 -3.083645e-005 9.947835e-001 -5.832096e-002
65548695 9.983644e-001 -2.788555e-002 -3.630247e-005 -1.148456e-004 9.787334e-005 -1.604151e-004 9.917299e-001 -5.470418e-002
66298680 9.992037e-001 -2.858547e-002 1.165525e-005 6.305831e-005 -6.518433e-005 -2.947844e-004 9.944147e-001 -5.741583e-002
67048665 9.989025e-001 -2.886292e-002 -9.965462e-005 6.518525e-005 4.872712e-005 -5.876451e-005 9.939448e-001 -5.939951e-002
67798650 9.992161e-001 -2.805795e-002 1.633010e-005 5.460558e-006 -1.953512e-004 -2.779417e-004 9.939151e-001 -5.836110e-002
68548635 9.977432e-001 -2.945744e-002 -3.538095e-005 1.506121e-005 1.147280e-004 -3.129669e-004 9.929653e-001 -5.863757e-002
69298620 9.970678e-001 -3.038325e-002 7.873171e-005 9.843695e-005 -9.720718e-005 -5.688679e-004 9.934193e-001 -5.747256e-002
70048605 9.991852e-001 -3.152207e-002 7.540115e-005 5.816983e-005 -1.624000e-005 -1.570603e-004 9.944230e-001 -6.075692e-002
70798590 9.983453e-001 -3.088046e-002 -5.242895e-005 -2.679376e-005 6.335591e-004 -3.303489e-004 9.939466e-001 -6.056112e-002
71548575 9.990623e-001 -3.011332e-002 -1.185098e-004 -1.744278e-005 2.386355e-004 -1.895561e-004 9.923036e-001 -5.993035e-002
72298560 9.979334e-001 -3.133911e-002 -7.197940e-005 -9.250477e-005 3.359466e-004 8.858364e-006 9.945717e-001 -5.823641e-002
73048545 9.984367e-001 -3.137866e-002 -3.829666e-005 -3.958146e-005 1.760424e-004 -4.640787e-005 9.956506e-001 -6.149601e-002
73798530 9.990402e-001 -3.152450e-002 5.889824e-005 -8.900851e-005 7.378983e-005 1.975174e-004 9.943497e-001 -6.170790e-002
74548515 9.981943e-001 -3.173284e-002 7.909311e-005 3.359078e-005 2.691514e-004 1.015621e-004 9.904768e-001 -6.287790e-002
75298500 9.979053e-001 -3.094665e-002 3.863837e-006 -7.990420e-005 7.505188e-005 2.680780e-004 9.927932e-001 -6.327501e-002
76048485 9.974521e-001 -3.226526e-002 3.978136e-005 1.017050e-004 -2.987906e-004 3.907663e-004 9.949224e-001 -6.435609e-002
76798470 9.971000e-001 -3.191647e-002 3.901284e-005 3.804747e-005 -1.360007e-004 -2.910334e-005 9.938769e-001 -6.437534e-002
77548455 9.983355e-001 -3.342307e-002 1.754823e-005 6.542566e-005 -9.469903e-006 1.818783e-004 9.928471e-001 -6.427620e-002
78298440 9.973142e-001 -3.520893e-002 -4.867086e-005 1.143317e-004 9.469805e-005 2.092614e-004 9.953465e-001 -6.490500e-002
79048425 9.968751e-001 -3.540317e-002 -1.733770e-004 9.404278e-005 -1.235937e-004 -1.516810e-004 9.919478e-001 -6.545378e-002
79798410 9.977482e-001 -3.557131e-002 6.228149e-005 -6.620423e-006 -2.145713e-005 -4.345649e-005 9.924859e-001 -6.655444e-002
80548395 9.969807e-001 -3.574852e-002 -1.100101e-004 -1.107958e-004 -1.595272e-004 1.441877e-004 9.931306e-001 -6.659387e-002
81298380 9.987611e-001 -3.384227e-002 -1.253703e-004 5.593176e-005 -8.976215e-005 -2.994440e-004 9.938353e-001 -6.736181e-002
82048365 9.989963e-001 -3.532162e-002 7.322179e-005 -7.965358e-005 8.884478e-005 -6.174052e-005 9.930547e-001 -6.916127e-002
82798350 9.984326e-001 -3.592832e-002 -3.551449e-005 7.641054e-005 -2.288625e-004 -4.362749e-005 9.916784e-001 -6.730026e-002
83548335 9.988646e-001 -3.595064e-002 1.481059e-004 1.741089e-004 3.820440e-004 -3.576041e-005 9.922873e-001 -7.281984e-002
84298320 9.971538e-001 -3.539130e-002 4.145447e-005 6.317720e-005 1.795813e-004 -8.682300e-005 9.909029e-001 -7.286619e-002
85048305 9.977273e-001 -3.592297e-002 -6.384906e-005 -1.663450e-004 2.304498e-004 1.435712e-004 9.928883e-001 -7.160542e-002
85798290 9.978208e-001 -3.640659e-002 -9.903813e-007 7.324383e-005 -2.212289e-004 2.140339e-005 9.938748e-001 -7.276143e-002
86548275 9.984622e-001 -3.736801e-002 2.632205e-004 -8.347603e-006 1.722336e-004 2.398484e-004 9.925399e-001 -7.394716e-002
87298260 9.997113e-001 -3.780296e-002 -1.174081e-004 6.533126e-005 4.109259e-004 1.443273e-004 9.912676e-001 -7.459766e-002
88048245 9.994980e-001 -3.864897e-002 -5.403956e-005 -1.836322e-005 5.370520e-004 -6.861921e-005 9.919754e-001 -7.420933e-002
88798230 9.960634e-001 -3.785608e-002 -6.071532e-005 9.166467e-005 2.220868e-004 1.715265e-004 9.935587e-001 -7.650686e-002
89548215 9.992129e-001 -3.699500e-002 -3.279914e-005 -2.132051e-004 7.514791e-005 2.780388e-004 9.917926e-001 -7.877352e-002
90298200 1.000131e+000 -3.896480e-002 4.133238e-005 1.315312e-004 -1.719857e-004 4.536492e-005 9.927662e-001 -7.832620e-002
91048185 9.958237e-001 -3.849771e-002 -3.445411e-005 -1.626064e-004 1.222350e-004 1.953381e-004 9.931639e-001 -7.813419e-002
91798170 9.975343e-001 -4.038472e-002 -1.860563e-004 -6.277363e-005 -1.940754e-004 3.207959e-005 9.892970e-001 -7.711376e-002
92548155 9.986026e-001 -4.034684e-002 1.139662e-004 -1.170562e-004 -2.952092e-004 4.409020e-004 9.930349e-001 -8.076233e-002
93298140 9.981248e-001 -3.951196e-002 -7.524068e-005 1.821574e-004 -1.710099e-004 -5.668120e-005 9.929660e-001 -8.165497e-002
94048125 9.988320e-001 -4.040667e-002 1.233803e-005 -2.091214e-004 -7.523374e-005 -1.607255e-004 9.927212e-001 -8.179387e-002
94798110 1.000740e+000 -4.096891e-002 1.409975e-004 -3.895168e-006 2.678953e-004 -1.116331e-004 9.917710e-001 -8.088393e-002
95548095 9.973296e-001 -3.967826e-002 -1.206686e-004 7.192159e-005 2.058219e-004 -2.059986e-004 9.912257e-001 -7.922208e-002
96298080 9.989264e-001 -3.946903e-002 3.188839e-005 7.323911e-005 -3.474724e-005 6.354131e-005 9.927146e-001 -8.047854e-002
97048065 9.986095e-001 -4.185174e-002 1.400083e-004 -9.027593e-005 -3.046726e-004 -8.307748e-005 9.948074e-001 -8.522538e-002
97798050 9.987648e-001 -4.227511e-002 -3.826108e-005 -9.412345e-005 1.609049e-004 8.150731e-006 9.912983e-001 -8.370257e-002
98548035 9.979823e-001 -4.244709e-002 2.581038e-005 -1.161068e-004 2.265144e-004 4.621079e-004 9.916384e-001 -8.505225e-002
99298020 9.983246e-001 -4.171930e-002 2.905412e-006 2.969704e-005 -4.517588e-004 -1.378245e-004 9.919181e-001 -8.350378e-002
100048005 9.975907e-001 -4.240244e-002 -1.145825e-004 -4.753524e-006 -1.222512e-004 -5.384116e-004 9.923341e-001 -8.513390e-002
100797990 9.961040e-001 -4.280289e-002 1.738538e-004 -6.686358e-005 -4.536143e-004 -2.383298e-004 9.927548e-001 -8.423065e-002
101547975 9.976699e-001 -4.375011e-002 -1.129830e-005 7.359059e-005 -5.387533e-005 3.520134e-004 9.914705e-001 -8.285525e-002
102297960 9.957123e-001 -4.544720e-002 -7.304308e-005 1.795875e-004 -9.373653e-005 -3.082407e-004 9.929306e-001 -8.782014e-002
103047945 9.971474e-001 -4.348418e-002 -5.133130e-005 -1.267764e-006 -2.110812e-004 -3.315691e-004 9.915800e-001 -8.839501e-002
103797930 9.970371e-001 -4.212739e-002 -6.620397e-005 -5.058554e-005 2.490151e-004 -2.724774e-004 9.901744e-001 -8.707793e-002
104547915 9.978978e-001 -4.403856e-002 -8.434385e-005 9.114229e-005 3.466764e-004 -5.994991e-005 9.935305e-001 -8.726953e-002
105297900 9.977344e-001 -4.474477e-002 -1.263728e-004 1.850565e-004 7.192594e-004 -7.264970e-005 9.942292e-001 -8.794556e-002
106047885 9.972576e-001 -4.477241e-002 1.983702e-005 -1.159178e-004 2.231474e-005 1.086969e-005 9.921647e-001 -8.904827e-002
106797870 9.998461e-001 -4.501458e-002 -3.522558e-005 -1.424934e-004 7.677402e-005 4.261576e-004 9.899229e-001 -8.904885e-002
107547855 9.965713e-001 -4.602072e-002 -1.092887e-004 -4.393049e-005 1.117104e-005 5.485911e-004 9.902883e-001 -8.848646e-002
108297840 9.967431e-001 -4.612010e-002 1.126698e-004 1.126065e-006 1.446434e-004 3.055251e-004 9.921587e-001 -9.209476e-002
109047825 9.971364e-001 -4.492513e-002 -1.289680e-005 -1.168862e-005 9.842709e-005 1.233027e-004 9.890102e-001 -9.035353e-002
109797810 9.965449e-001 -4.635349e-002 1.075459e-005 9.538145e-005 1.197746e-004 3.046890e-004 9.888122e-001 -9.303471e-002
110547795 9.977516e-001 -4.758752e-002 -1.551566e-004 7.335789e-005 -1.617424e-004 3.212549e-004 9.919192e-001 -9.369081e-002
111297780 9.969665e-001 -4.833835e-002 5.133458e-005 -3.378216e-005 -5.337610e-004 3.703973e-004 9.918166e-001 -9.311311e-002
112047765 9.968682e-001 -4.691634e-002 2.422286e-005 -1.031481e-004 -2.948627e-004 1.277130e-004 9.911256e-001 -9.507009e-002
112797750 9.964513e-001 -4.948568e-002 -6.117321e-005 -7.331910e-006 1.198515e-005 2.687021e-004 9.913278e-001 -9.592554e-002
113547735 9.980899e-001 -4.798948e-002 -9.971585e-005 -6.122778e-005 -8.950853e-005 -2.299968e-004 9.898422e-001 -9.677250e-002
114297720 9.971262e-001 -4.883820e-002 8.082441e-005 -6.834680e-005 2.814844e-004 -5.638269e-005 9.943220e-001 -9.372658e-002
115047705 9.962416e-001 -5.020862e-002 3.943509e-005 -1.018819e-006 9.521707e-005 -2.940993e-004 9.929620e-001 -9.827221e-002
115797690 9.962599e-001 -4.960984e-002 -8.364297e-005 -1.096946e-006 -1.172591e-005 2.450278e-004 9.903425e-001 -9.567303e-002
116547675 9.960356e-001 -4.926730e-002 1.877305e-004 -1.175304e-004 5.259783e-004 2.597207e-005 9.885209e-001 -1.001873e-001
