!Agilent Technologies,N5230C,SG49000117,A.08.50.07
!Agilent N5230C: A.08.50.07
!Date: Monday, December 11, 2023 23:07:17
!Correction: S11(Full 2 Port(1,2)) 
!S21(Full 2 Port(1,2)) 
!S12(Full 2 Port(1,2)) 
!S22(Full 2 Port(1,2)) 
!S2P File: Measurements: S11, S21, S12, S22:
# Hz S  RI   R 50
300000 9.917014e-001 4.704953e-003 5.295727e-005 -1.503517e-004 1.074693e-004 -4.034464e-004 9.931133e-001 1.201641e-002
1049985 9.934627e-001 3.797797e-003 1.804261e-005 4.503715e-005 -1.122551e-004 -4.918556e-005 9.835442e-001 5.727543e-003
1799970 9.929011e-001 9.156298e-003 6.852954e-005 -3.125716e-005 2.260112e-004 -2.253791e-004 9.971905e-001 -4.431814e-003
2549955 9.990130e-001 6.080859e-004 -1.011740e-004 -1.126500e-004 -1.352041e-004 -1.099300e-004 9.983421e-001 -2.987601e-003
3299940 9.988807e-001 -1.343457e-003 -2.936733e-005 6.806893e-005 -1.614500e-005 -2.343801e-005 9.981722e-001 -5.303594e-003
4049925 9.992522e-001 -6.274155e-004 -4.967397e-006 -3.864526e-005 3.355999e-005 -8.113417e-005 9.972706e-001 -4.061356e-003
4799910 9.991086e-001 -1.475999e-003 6.378689e-005 -4.583974e-005 -1.276232e-004 1.402783e-004 9.954563e-001 -4.130291e-003
5549895 9.982119e-001 -2.662629e-003 9.857398e-005 -1.713756e-005 -2.418538e-004 4.825083e-005 9.964493e-001 -5.161825e-003
6299880 9.989449e-001 -3.321055e-003 8.945350e-005 -6.215757e-005 6.437927e-005 6.462476e-005 9.952627e-001 -3.603484e-003
7049865 9.984132e-001 -3.801248e-003 5.222916e-006 1.979085e-005 -9.715054e-005 1.577119e-005 9.963923e-001 -7.009800e-003
7799850 9.988418e-001 -2.670292e-003 -6.131821e-005 -6.371744e-006 1.037266e-005 2.866911e-005 9.956316e-001 -6.081142e-003
8549835 9.987149e-001 -2.501270e-003 -4.749734e-006 9.233472e-005 -7.440505e-006 -3.533585e-005 9.959224e-001 -6.363955e-003
9299820 9.986115e-001 -3.245591e-003 -1.715797e-005 -4.579133e-005 1.957017e-004 6.511252e-005 9.961834e-001 -8.528794e-003
10049805 9.992148e-001 -4.033410e-003 -8.676036e-006 -1.031406e-004 -2.799183e-004 8.869171e-005 9.971892e-001 -8.972942e-003
10799790 9.995353e-001 -5.121561e-003 3.311833e-005 -1.017283e-004 2.237064e-005 1.810781e-004 9.974746e-001 -9.498389e-003
11549775 9.996715e-001 -5.213453e-003 1.012521e-004 -6.631036e-005 -2.673967e-004 1.193058e-004 9.959834e-001 -9.907712e-003
12299760 9.989803e-001 -4.587815e-003 5.855674e-005 3.172147e-005 -2.149382e-005 1.975110e-005 9.945104e-001 -1.036614e-002
13049745 1.000389e+000 -5.471912e-003 -3.060319e-005 -1.065786e-005 -1.967530e-004 -8.616385e-005 9.972013e-001 -1.114283e-002
13799730 9.992517e-001 -6.272182e-003 -3.584114e-005 6.230338e-005 -1.489157e-004 2.034835e-004 9.968816e-001 -1.425066e-002
14549715 9.985585e-001 -6.491972e-003 -4.386397e-005 -6.622478e-006 -3.293922e-004 7.854636e-005 9.970145e-001 -1.317107e-002
15299700 9.985543e-001 -7.158720e-003 7.329904e-005 -1.467792e-005 -7.378154e-005 -1.968960e-004 9.976190e-001 -1.509124e-002
16049685 9.987355e-001 -7.101931e-003 -1.137921e-004 6.021789e-005 -2.773896e-005 -6.943442e-005 9.950477e-001 -1.486204e-002
16799670 9.990104e-001 -7.211660e-003 -1.085691e-005 2.927948e-005 2.126451e-004 -6.345662e-005 9.965448e-001 -1.667132e-002
17549655 9.987383e-001 -8.062451e-003 6.975458e-005 3.067229e-005 -4.025445e-004 -2.266971e-004 9.961622e-001 -1.780718e-002
18299640 9.985403e-001 -7.992759e-003 9.754694e-006 3.665670e-006 2.299551e-004 -1.396428e-004 9.961002e-001 -1.647748e-002
19049625 9.988936e-001 -8.452903e-003 -5.467858e-006 7.254779e-005 3.599336e-004 1.566453e-004 9.967935e-001 -1.938274e-002
19799610 9.984053e-001 -8.409145e-003 2.264332e-005 2.741593e-005 -2.109548e-004 9.002987e-005 9.959964e-001 -1.813556e-002
20549595 9.977799e-001 -9.630205e-003 5.785298e-005 2.205797e-005 -1.308986e-004 -1.497474e-004 9.966913e-001 -1.726346e-002
21299580 9.986269e-001 -9.536745e-003 -3.776743e-005 -2.497298e-005 -3.072170e-005 -6.979472e-005 9.975482e-001 -1.864705e-002
22049565 9.995609e-001 -1.074587e-002 2.435566e-005 -6.468284e-006 -4.215813e-004 1.705459e-005 9.951956e-001 -1.880641e-002
22799550 9.995657e-001 -1.058726e-002 9.256363e-005 2.993369e-005 2.318974e-005 9.134469e-005 9.956456e-001 -1.904651e-002
23549535 9.990003e-001 -1.032594e-002 3.875907e-005 4.537498e-005 -7.165315e-006 -4.103289e-004 9.953848e-001 -1.900384e-002
24299520 9.991465e-001 -1.092973e-002 1.474205e-005 -2.645313e-005 1.255811e-005 1.633345e-004 9.955001e-001 -2.081787e-002
25049505 9.995596e-001 -1.091598e-002 -7.478795e-005 1.044628e-006 -8.333542e-007 1.679519e-004 9.966483e-001 -2.227675e-002
25799490 9.983642e-001 -1.147572e-002 1.083126e-005 3.200664e-007 -2.466116e-005 -7.532413e-005 9.951906e-001 -2.080813e-002
26549475 9.985929e-001 -1.132527e-002 -1.984573e-005 3.776508e-005 9.332463e-005 -5.544758e-005 9.938040e-001 -2.263691e-002
27299460 9.987977e-001 -1.144893e-002 6.835628e-005 -2.131261e-005 1.022097e-004 2.127089e-005 9.956987e-001 -2.517380e-002
28049445 9.992025e-001 -1.239780e-002 4.728431e-006 1.348122e-004 -7.376335e-005 4.442057e-005 9.952784e-001 -2.455889e-002
28799430 9.990901e-001 -1.233261e-002 -9.647881e-005 1.271724e-005 -1.251445e-004 -2.147633e-004 9.957952e-001 -2.477877e-002
29549415 9.988154e-001 -1.256527e-002 -5.140575e-005 3.150730e-005 8.944370e-005 -1.536153e-004 9.954833e-001 -2.431063e-002
30299400 9.990525e-001 -1.360513e-002 -1.559441e-005 -2.381719e-005 -8.449264e-005 1.227937e-004 9.958678e-001 -2.510216e-002
31049385 9.987263e-001 -1.357405e-002 -4.622868e-005 -3.103503e-005 3.113495e-005 1.652777e-004 9.947592e-001 -2.611514e-002
31799370 9.988968e-001 -1.394280e-002 -3.214353e-005 -6.201780e-005 -1.471475e-004 9.180194e-005 9.935784e-001 -2.580159e-002
32549355 9.980633e-001 -1.349964e-002 -7.321430e-005 1.025550e-004 5.872512e-006 -1.559547e-004 9.934766e-001 -2.740983e-002
33299340 9.986934e-001 -1.399674e-002 9.262142e-005 -1.118840e-005 2.145151e-004 1.789531e-004 9.950167e-001 -2.861654e-002
34049325 9.986423e-001 -1.454549e-002 5.953122e-005 5.763095e-005 8.077272e-005 6.287524e-005 9.960709e-001 -2.871983e-002
34799310 9.999992e-001 -1.604629e-002 1.722384e-005 3.429301e-005 3.946734e-005 -2.562774e-004 9.963857e-001 -3.010559e-002
35549295 9.983934e-001 -1.525534e-002 7.570079e-005 -7.176308e-006 1.468409e-004 1.389122e-004 9.955959e-001 -2.895852e-002
36299280 9.981079e-001 -1.567184e-002 3.990353e-005 -1.328962e-005 1.176021e-004 1.836500e-005 9.960824e-001 -3.024412e-002
37049265 9.981768e-001 -1.623458e-002 -1.018309e-005 4.389191e-005 -1.827080e-004 -5.283564e-005 9.954036e-001 -3.326453e-002
37799250 9.985535e-001 -1.662285e-002 4.085636e-005 -6.308010e-005 2.247573e-005 -1.820567e-004 9.957784e-001 -3.214763e-002
38549235 9.980030e-001 -1.677931e-002 7.906139e-005 1.860292e-005 3.665229e-004 1.291066e-004 9.962742e-001 -3.277735e-002
39299220 9.986218e-001 -1.799404e-002 1.597011e-005 -1.306537e-005 1.567285e-005 1.314192e-004 9.955748e-001 -3.262699e-002
40049205 9.998744e-001 -1.857935e-002 7.058362e-005 -4.124412e-005 -1.875587e-006 -1.150766e-004 9.963592e-001 -3.287070e-002
40799190 9.994830e-001 -1.862208e-002 -6.451575e-005 6.247874e-005 1.112473e-005 1.347200e-005 9.950796e-001 -3.532328e-002
41549175 9.982467e-001 -1.853414e-002 -2.087063e-004 5.848043e-006 2.805753e-004 2.412291e-004 9.956701e-001 -3.707778e-002
42299160 9.982977e-001 -1.734510e-002 -4.545427e-005 -4.930003e-005 -3.339496e-005 7.833190e-005 9.964071e-001 -3.635758e-002
43049145 9.978747e-001 -1.848595e-002 4.399217e-005 1.200276e-004 2.088370e-004 -4.445629e-004 9.935642e-001 -3.690001e-002
43799130 9.990342e-001 -1.871448e-002 5.314123e-005 1.391835e-004 1.750331e-004 -1.952514e-004 9.936017e-001 -3.756501e-002
44549115 9.988823e-001 -1.875787e-002 -8.366126e-005 -5.539253e-006 -1.471508e-004 -9.871883e-005 9.950588e-001 -3.675531e-002
45299100 9.995086e-001 -1.913640e-002 -1.379429e-004 4.880657e-005 1.233377e-004 1.619651e-005 9.971637e-001 -3.614031e-002
46049085 9.981239e-001 -2.010027e-002 -1.421587e-005 -9.648841e-005 5.398170e-005 3.210225e-006 9.949607e-001 -4.037159e-002
46799070 9.994341e-001 -1.894992e-002 8.532772e-005 1.836010e-005 -9.463412e-005 2.137618e-005 9.986308e-001 -4.195260e-002
47549055 9.993730e-001 -2.130430e-002 1.591265e-004 1.302198e-004 -2.176847e-004 1.090756e-004 9.937943e-001 -4.162647e-002
48299040 9.978968e-001 -2.158813e-002 -8.526544e-005 1.491183e-005 4.161109e-004 1.469142e-004 9.945506e-001 -4.206082e-002
49049025 9.971445e-001 -2.165811e-002 9.751975e-005 -3.255868e-005 1.190043e-004 7.103061e-005 9.996254e-001 -4.513069e-002
49799010 9.974184e-001 -2.254878e-002 -5.481729e-007 -1.047547e-005 6.905363e-005 1.192147e-005 9.971998e-001 -4.463474e-002
50548995 9.981047e-001 -2.172275e-002 6.728738e-006 2.514988e-004 -1.569242e-004 -2.329821e-004 9.968303e-001 -4.261848e-002
51298980 9.983912e-001 -2.231257e-002 -4.027174e-005 1.459402e-004 -4.216846e-004 -9.501570e-005 9.972790e-001 -4.350502e-002
52048965 9.984752e-001 -2.211878e-002 4.232598e-005 9.594543e-005 -2.256860e-004 -1.924304e-004 9.920117e-001 -4.587284e-002
52798950 9.995798e-001 -2.422181e-002 -7.033494e-005 -1.719174e-005 -2.273302e-006 -1.329416e-004 9.944392e-001 -4.531988e-002
53548935 9.995073e-001 -2.334565e-002 3.816111e-005 -3.232027e-005 -1.571525e-004 -2.525513e-004 9.934660e-001 -4.757840e-002
54298920 9.996698e-001 -2.319255e-002 7.070789e-005 2.122091e-006 1.693476e-004 -9.764462e-005 9.949699e-001 -5.013734e-002
55048905 1.000283e+000 -2.387432e-002 7.984284e-005 2.391294e-005 3.533213e-005 -2.313809e-004 9.963492e-001 -4.861216e-002
55798890 9.975034e-001 -2.357832e-002 -5.755984e-005 1.488319e-004 3.456681e-004 -3.363775e-004 9.953405e-001 -4.751187e-002
56548875 9.982426e-001 -2.301951e-002 -1.950759e-005 -8.683452e-005 4.138420e-004 -1.699390e-004 9.957594e-001 -4.713761e-002
57298860 9.999579e-001 -2.435832e-002 3.524033e-005 -4.777113e-005 1.388284e-004 2.647667e-004 9.943592e-001 -5.021210e-002
58048845 9.995417e-001 -2.542916e-002 2.051184e-005 2.265763e-004 2.633525e-004 3.417715e-004 9.913185e-001 -5.231684e-002
58798830 9.981040e-001 -2.528949e-002 1.791979e-005 5.379989e-005 1.988168e-004 1.840343e-004 9.914449e-001 -4.795680e-002
59548815 9.989656e-001 -2.507527e-002 -5.512122e-005 2.706862e-005 -2.984456e-004 3.487567e-007 9.935991e-001 -4.845094e-002
60298800 9.988369e-001 -2.600591e-002 -3.213197e-005 1.125386e-004 3.624257e-004 -3.755063e-004 9.917113e-001 -4.860149e-002
61048785 9.987838e-001 -2.627740e-002 -1.528369e-004 -7.649195e-005 4.566372e-004 3.622293e-004 9.943975e-001 -5.161667e-002
61798770 9.980289e-001 -2.731790e-002 -6.854790e-006 -1.343779e-005 1.552655e-005 2.909612e-004 9.976442e-001 -5.218046e-002
62548755 9.979255e-001 -2.656156e-002 -4.494323e-005 -1.086952e-004 -2.768175e-005 1.159498e-004 9.985710e-001 -5.463040e-002
63298740 9.973636e-001 -2.715945e-002 1.275298e-005 -2.957038e-005 1.928123e-004 1.588152e-004 9.962402e-001 -5.448457e-002
64048725 9.983194e-001 -2.738015e-002 -6.204109e-005 -4.956151e-005 3.964986e-004 1.656978e-004 9.940119e-001 -5.510040e-002
64798710 9.995990e-001 -2.802200e-002 -6.201687e-005 2.923050e-005 -2.987766e-005 1.163819e-004 9.963760e-001 -5.749086e-002
65548695 9.981570e-001 -2.801379e-002 -8.541374e-005 3.792562e-005 -2.747202e-004 -3.577720e-004 9.927843e-001 -5.509896e-002
66298680 9.987689e-001 -2.804874e-002 -1.408528e-004 -1.387218e-004 -3.893130e-004 1.798450e-004 9.959242e-001 -5.892517e-002
67048665 9.981340e-001 -2.829737e-002 3.183743e-005 -1.160590e-004 2.663996e-004 -1.142036e-005 9.944954e-001 -5.941477e-002
67798650 9.991111e-001 -2.812236e-002 -1.159617e-004 1.511524e-005 -1.899433e-004 -3.787029e-004 9.943787e-001 -5.763964e-002
68548635 9.977391e-001 -2.910246e-002 1.402968e-005 -1.391627e-004 -2.289441e-004 -2.946335e-004 9.939861e-001 -5.667728e-002
69298620 9.979087e-001 -2.931206e-002 -8.191182e-005 -1.174341e-004 3.511345e-004 -4.235853e-004 9.926416e-001 -5.617399e-002
70048605 9.985602e-001 -3.106425e-002 -6.053549e-005 6.960442e-005 5.403467e-005 -1.392916e-004 9.919012e-001 -6.102911e-002
70798590 9.991673e-001 -3.054506e-002 -1.041810e-004 -4.263346e-005 -5.153277e-004 -1.858545e-004 9.916354e-001 -5.664265e-002
71548575 9.994360e-001 -3.069029e-002 -3.117222e-005 9.097327e-005 6.909822e-006 -2.865544e-004 9.936580e-001 -5.692825e-002
72298560 9.988877e-001 -2.948281e-002 -1.528337e-004 6.214189e-007 1.337446e-004 -2.432702e-004 9.957536e-001 -5.938467e-002
73048545 9.973176e-001 -3.076706e-002 4.424124e-005 -2.755126e-005 1.935098e-004 1.436280e-004 9.952461e-001 -5.827046e-002
73798530 9.987610e-001 -3.206105e-002 -1.707665e-005 2.075440e-005 1.376425e-004 4.832740e-004 9.924438e-001 -6.174106e-002
74548515 9.991652e-001 -3.186948e-002 8.381940e-005 4.484695e-005 -2.479242e-004 -6.686630e-005 9.914656e-001 -6.259507e-002
75298500 9.982000e-001 -3.077753e-002 5.997799e-005 6.859830e-005 -4.093330e-005 2.179285e-004 9.927630e-001 -6.280585e-002
76048485 9.971086e-001 -3.283019e-002 -1.256415e-005 -7.973906e-005 -7.518375e-005 -2.327779e-006 9.921724e-001 -6.377777e-002
76798470 9.971392e-001 -3.310858e-002 -4.063404e-005 -4.806675e-005 1.814425e-004 -2.068718e-005 9.949831e-001 -6.470165e-002
77548455 9.980894e-001 -3.341561e-002 -1.358262e-004 -3.718502e-005 -1.913536e-004 -1.177996e-004 9.924973e-001 -6.547853e-002
78298440 9.971861e-001 -3.495937e-002 8.182948e-005 -1.513128e-004 4.418507e-005 1.408984e-004 9.948573e-001 -6.515110e-002
79048425 9.964718e-001 -3.547976e-002 1.071139e-004 -8.758352e-005 -1.052095e-004 3.008047e-004 9.920418e-001 -6.630271e-002
79798410 9.976605e-001 -3.512446e-002 -8.491844e-005 7.806733e-005 1.866284e-004 1.012236e-004 9.931469e-001 -6.684284e-002
80548395 9.972619e-001 -3.561057e-002 -1.451174e-004 -7.716818e-005 3.035371e-005 1.867464e-005 9.931167e-001 -6.746431e-002
81298380 9.989018e-001 -3.620901e-002 1.436239e-004 9.069341e-006 1.324034e-004 -1.353590e-005 9.926511e-001 -6.700350e-002
82048365 9.992118e-001 -3.542485e-002 1.115209e-004 -1.814120e-004 -7.927647e-005 1.777430e-004 9.925063e-001 -6.756779e-002
82798350 9.992419e-001 -3.652296e-002 -6.338086e-005 2.418254e-004 1.628848e-004 1.536195e-005 9.917552e-001 -6.848720e-002
83548335 9.999632e-001 -3.730058e-002 -6.482567e-005 6.116160e-005 -7.541072e-005 -4.774233e-005 9.934253e-001 -7.257443e-002
84298320 9.981915e-001 -3.661809e-002 -1.292339e-004 -1.346167e-004 2.034690e-004 8.328305e-005 9.916220e-001 -7.011581e-002
85048305 9.982076e-001 -3.466781e-002 8.001363e-005 -1.267388e-004 2.552504e-004 9.388087e-005 9.932844e-001 -7.142695e-002
85798290 9.981439e-001 -3.656031e-002 -1.719631e-005 7.194694e-006 -1.147608e-004 1.772028e-004 9.931970e-001 -7.206329e-002
86548275 9.986904e-001 -3.736979e-002 -1.776476e-004 -7.589690e-005 9.277943e-005 1.479399e-004 9.911680e-001 -7.373786e-002
87298260 9.991196e-001 -3.806515e-002 1.368842e-004 -4.507802e-005 3.305743e-005 -7.968768e-005 9.912257e-001 -7.359584e-002
88048245 9.994160e-001 -3.821541e-002 -1.680930e-004 -1.749236e-005 1.981909e-004 -3.459544e-005 9.931534e-001 -7.384691e-002
88798230 9.959036e-001 -3.846423e-002 1.717920e-004 -5.021947e-005 2.167855e-005 1.662075e-004 9.928947e-001 -7.611255e-002
89548215 9.987383e-001 -3.677146e-002 -4.769886e-005 1.960586e-004 -2.054186e-004 1.183022e-004 9.912434e-001 -7.884344e-002
90298200 9.986691e-001 -3.841716e-002 -2.175757e-006 -4.151832e-005 -2.098728e-005 5.300963e-005 9.936107e-001 -7.871319e-002
91048185 9.957443e-001 -3.923277e-002 9.719467e-005 1.051679e-005 2.771649e-004 2.460732e-004 9.900410e-001 -7.749171e-002
91798170 9.975260e-001 -3.979408e-002 -2.276442e-005 -1.027042e-004 -1.569842e-004 1.478127e-004 9.912237e-001 -7.857296e-002
92548155 9.989011e-001 -3.906012e-002 -1.231153e-004 -9.295859e-005 -3.426390e-004 -1.099938e-004 9.903191e-001 -7.753219e-002
93298140 9.979982e-001 -4.110570e-002 1.777040e-005 -2.657069e-006 -1.489229e-004 7.765413e-005 9.933853e-001 -8.171844e-002
94048125 9.986963e-001 -4.086841e-002 5.235977e-005 -3.675079e-005 -2.497146e-004 1.343391e-004 9.923286e-001 -8.225029e-002
94798110 9.992204e-001 -4.125596e-002 9.556525e-005 2.705852e-005 -3.043227e-005 -1.236733e-004 9.937831e-001 -8.082785e-002
95548095 9.985927e-001 -3.991257e-002 6.316032e-005 1.979984e-004 -3.288367e-004 -2.021039e-004 9.936287e-001 -8.028757e-002
96298080 9.986209e-001 -3.945278e-002 6.673965e-005 -1.905837e-004 2.220929e-004 -1.901232e-004 9.925216e-001 -8.259796e-002
97048065 9.988949e-001 -4.204612e-002 2.506308e-004 -1.676204e-004 5.354622e-004 2.109030e-004 9.930062e-001 -8.322009e-002
97798050 9.987080e-001 -4.353400e-002 1.423972e-004 -5.699320e-005 -3.629675e-005 1.917923e-005 9.918828e-001 -8.459983e-002
98548035 9.958974e-001 -4.250060e-002 2.285056e-006 -1.695782e-005 2.075953e-004 1.029715e-004 9.918571e-001 -8.503640e-002
99298020 9.974942e-001 -4.147749e-002 6.636409e-006 1.301619e-004 2.419130e-004 -1.187448e-004 9.900738e-001 -8.461667e-002
100048005 9.963050e-001 -4.247881e-002 -2.228233e-005 -8.978691e-005 1.449231e-004 1.826528e-004 9.903943e-001 -8.632590e-002
100797990 9.966033e-001 -4.227432e-002 -7.170544e-005 -4.433349e-005 -1.563892e-005 5.781652e-004 9.920207e-001 -8.688823e-002
101547975 9.972593e-001 -4.351828e-002 -1.382635e-004 1.236657e-004 -2.454136e-004 1.872418e-004 9.913843e-001 -8.247484e-002
102297960 9.959092e-001 -4.441328e-002 -5.239706e-005 8.853331e-005 -8.127067e-005 -1.383063e-004 9.905683e-001 -8.888117e-002
103047945 9.963199e-001 -4.228381e-002 -5.158829e-005 -3.428178e-005 -1.970907e-004 7.436163e-004 9.924666e-001 -8.948893e-002
103797930 9.973233e-001 -4.347013e-002 1.636386e-004 -7.694739e-005 1.877382e-004 4.326650e-005 9.904383e-001 -8.552524e-002
104547915 9.980358e-001 -4.420682e-002 6.651721e-005 -1.116287e-004 -1.067559e-004 -2.452484e-004 9.921113e-001 -9.095015e-002
105297900 9.978374e-001 -4.513951e-002 -4.942040e-005 -1.229445e-004 -3.839048e-004 -6.640399e-005 9.915895e-001 -8.711699e-002
106047885 9.982271e-001 -4.511870e-002 1.233256e-004 8.973719e-005 2.426054e-004 -2.512537e-004 9.914365e-001 -8.727852e-002
106797870 9.982306e-001 -4.627232e-002 3.365103e-006 2.271817e-006 2.474182e-004 7.871904e-005 9.894897e-001 -9.074034e-002
107547855 9.966834e-001 -4.525395e-002 -1.624239e-004 -8.090962e-005 2.490989e-004 -4.285483e-004 9.904332e-001 -9.084886e-002
108297840 9.956160e-001 -4.639604e-002 2.268997e-005 6.573237e-006 -1.138760e-004 -2.324260e-004 9.908497e-001 -9.075710e-002
109047825 9.963995e-001 -4.544192e-002 1.616534e-004 1.696303e-005 1.925062e-004 2.946010e-004 9.878547e-001 -9.163653e-002
109797810 9.964359e-001 -4.682214e-002 3.169205e-005 -1.088273e-004 2.465795e-004 -2.092573e-004 9.856104e-001 -9.485588e-002
110547795 9.966748e-001 -4.740595e-002 1.471063e-004 -1.551981e-005 2.049712e-004 1.688619e-004 9.913375e-001 -9.311806e-002
111297780 9.976063e-001 -4.823526e-002 -1.048769e-004 1.743701e-007 2.150049e-004 -3.351261e-004 9.895338e-001 -9.359594e-002
112047765 9.971253e-001 -4.779387e-002 -1.012502e-004 9.501309e-005 5.335748e-004 8.600793e-005 9.905469e-001 -9.754513e-002
112797750 9.962037e-001 -4.938774e-002 4.885769e-005 1.659405e-005 1.147303e-004 1.108283e-004 9.914709e-001 -9.670888e-002
113547735 9.981333e-001 -4.899496e-002 6.139557e-006 6.622319e-005 1.188142e-004 -1.072540e-004 9.899875e-001 -9.816349e-002
114297720 9.965828e-001 -4.888866e-002 9.893100e-006 -5.402180e-005 3.187246e-006 -4.677962e-005 9.928011e-001 -9.547511e-002
115047705 9.960172e-001 -4.918654e-002 3.029309e-005 -8.242265e-005 -1.615116e-005 -2.072132e-005 9.923328e-001 -9.891368e-002
115797690 9.958400e-001 -4.970839e-002 -2.831977e-005 -3.550880e-005 7.257833e-005 5.305659e-004 9.886874e-001 -9.582111e-002
116547675 9.966667e-001 -4.896337e-002 -2.442716e-005 8.423421e-005 -1.334693e-004 2.973858e-005 9.910861e-001 -9.746456e-002
