!Agilent Technologies,N5230C,SG49000117,A.08.50.07
!Agilent N5230C: A.08.50.07
!Date: Monday, December 11, 2023 23:17:43
!Correction: S11(Full 2 Port(1,2)) 
!S21(Full 2 Port(1,2)) 
!S12(Full 2 Port(1,2)) 
!S22(Full 2 Port(1,2)) 
!S2P File: Measurements: S11, S21, S12, S22:
# Hz S  RI   R 50
300000 9.911833e-001 4.254730e-003 6.923176e-005 -4.092738e-005 -4.011213e-004 -1.128522e-004 9.942212e-001 2.718148e-003
1049985 9.930449e-001 2.460042e-003 -4.816984e-005 -4.034054e-005 -3.305377e-005 -2.915942e-004 9.827881e-001 3.662198e-003
1799970 9.920607e-001 8.549494e-003 -3.477189e-005 -3.514909e-005 -5.339631e-005 -1.413262e-004 9.971448e-001 -5.470728e-003
2549955 9.984622e-001 4.278646e-004 -8.052194e-005 -1.350280e-005 -7.044314e-005 -2.127489e-005 9.970965e-001 -3.216358e-003
3299940 9.987196e-001 -1.054560e-003 -5.205942e-005 7.224536e-005 -2.017403e-004 -1.492973e-004 9.978960e-001 -6.240776e-003
4049925 9.987447e-001 -7.678638e-004 1.974792e-005 2.975629e-005 -1.207522e-004 -1.704988e-005 9.961514e-001 -4.260767e-003
4799910 9.984233e-001 -2.037439e-003 -7.908764e-006 3.961057e-005 -1.104100e-004 2.222873e-004 9.957855e-001 -4.287441e-003
5549895 9.980071e-001 -2.668555e-003 1.527161e-005 1.169323e-004 6.736281e-005 -4.711941e-005 9.950060e-001 -4.963493e-003
6299880 9.982045e-001 -3.102598e-003 9.506141e-006 1.874668e-005 -2.647209e-004 2.052914e-004 9.961708e-001 -4.617960e-003
7049865 9.978983e-001 -3.684558e-003 -8.745337e-005 -4.033200e-005 -9.608662e-005 2.177552e-004 9.956166e-001 -7.089115e-003
7799850 9.981970e-001 -3.124325e-003 -6.495704e-005 2.982186e-005 4.259847e-005 -4.935300e-005 9.956594e-001 -5.742495e-003
8549835 9.978951e-001 -3.465911e-003 -4.526718e-005 3.187549e-005 -5.833270e-005 1.711668e-004 9.963481e-001 -6.383501e-003
9299820 9.980500e-001 -3.379945e-003 -3.483617e-006 5.451448e-005 -1.506163e-004 1.525790e-004 9.948191e-001 -6.918688e-003
10049805 9.980068e-001 -4.510849e-003 -1.268932e-004 1.855701e-005 1.320609e-004 6.885363e-005 9.977690e-001 -1.044174e-002
10799790 9.985716e-001 -4.965891e-003 6.388760e-005 -8.210919e-005 -9.606904e-005 6.885771e-005 9.965287e-001 -1.103723e-002
11549775 9.983016e-001 -4.656109e-003 -2.109351e-005 7.646288e-005 -1.134286e-004 -6.736702e-005 9.965626e-001 -9.356875e-003
12299760 9.986967e-001 -4.902313e-003 -7.296389e-005 7.136699e-005 -8.126767e-006 6.964782e-005 9.962837e-001 -1.107835e-002
13049745 9.992051e-001 -5.896248e-003 4.757351e-005 4.932034e-005 1.209619e-004 3.075625e-005 9.970297e-001 -1.165408e-002
13799730 9.982529e-001 -6.359897e-003 -4.831153e-005 8.965247e-006 -4.656187e-005 -3.302109e-004 9.981454e-001 -1.563194e-002
14549715 9.981024e-001 -7.102404e-003 3.879052e-005 -2.212764e-006 9.381522e-005 -3.617573e-005 9.971538e-001 -1.399992e-002
15299700 9.981837e-001 -6.863611e-003 -3.416794e-005 1.827436e-005 1.870233e-004 1.776095e-004 9.967552e-001 -1.510309e-002
16049685 9.974890e-001 -7.069075e-003 1.712562e-005 2.692462e-005 8.726143e-005 2.441492e-004 9.968802e-001 -1.389509e-002
16799670 9.979927e-001 -7.941293e-003 1.045466e-004 -2.436718e-005 -1.971010e-004 -3.216668e-005 9.986570e-001 -1.653887e-002
17549655 9.984607e-001 -8.307569e-003 8.984173e-005 1.389828e-006 -1.265971e-004 -2.752813e-004 9.976373e-001 -1.745678e-002
18299640 9.978389e-001 -8.404511e-003 9.419059e-005 5.770415e-005 3.999369e-004 -1.138528e-004 9.970902e-001 -1.735605e-002
19049625 9.985557e-001 -9.189223e-003 1.883937e-005 -7.891492e-005 2.495862e-004 1.642994e-004 9.960399e-001 -1.823856e-002
19799610 9.986588e-001 -8.907565e-003 -1.003357e-004 -5.053317e-005 5.023812e-005 1.776343e-004 9.966347e-001 -1.628966e-002
20549595 9.973279e-001 -9.638158e-003 3.174866e-005 1.260948e-005 5.722119e-005 2.098565e-004 9.967867e-001 -1.661936e-002
21299580 9.979009e-001 -9.701680e-003 5.314571e-005 8.054503e-006 -1.096591e-004 -2.355817e-004 9.992241e-001 -1.859786e-002
22049565 9.982716e-001 -1.035000e-002 6.295520e-005 4.014534e-005 -1.164634e-004 -8.342522e-005 9.953841e-001 -1.946702e-002
22799550 9.985209e-001 -1.073996e-002 -8.337366e-005 1.562006e-005 3.697435e-004 1.552716e-004 9.953000e-001 -1.882776e-002
23549535 9.987312e-001 -1.038957e-002 2.032670e-005 -3.855161e-005 -2.093569e-005 5.602802e-005 9.959095e-001 -1.935957e-002
24299520 9.981138e-001 -1.104190e-002 -7.015914e-006 -3.651492e-006 7.466393e-005 1.444646e-004 9.965203e-001 -2.158971e-002
25049505 9.982225e-001 -1.148408e-002 -2.373695e-005 8.055943e-005 -1.431610e-004 1.385769e-004 9.975589e-001 -2.170594e-002
25799490 9.978556e-001 -1.189033e-002 1.590235e-005 4.068937e-005 -1.879043e-004 3.425801e-005 9.963579e-001 -2.151689e-002
26549475 9.977933e-001 -1.159089e-002 -6.746789e-005 4.437759e-005 1.398662e-004 4.326034e-005 9.946838e-001 -2.222462e-002
27299460 9.989262e-001 -1.166550e-002 -1.302527e-005 -5.662306e-005 1.185346e-004 6.216625e-006 9.956108e-001 -2.591651e-002
28049445 9.981018e-001 -1.234736e-002 -1.129394e-005 -1.457862e-005 8.896741e-005 2.463643e-004 9.959040e-001 -2.453832e-002
28799430 9.986885e-001 -1.279733e-002 -8.057353e-006 1.168229e-004 -1.035127e-004 2.435882e-004 9.963098e-001 -2.550220e-002
29549415 9.980545e-001 -1.271939e-002 -3.787342e-005 5.114406e-005 6.886976e-005 -1.537679e-005 9.956682e-001 -2.459688e-002
30299400 9.990860e-001 -1.315782e-002 -4.461931e-005 7.730514e-005 -9.784068e-005 1.121325e-004 9.956554e-001 -2.392996e-002
31049385 9.970090e-001 -1.477239e-002 -3.450017e-005 7.603685e-005 -1.552049e-004 6.739220e-005 9.938842e-001 -2.778612e-002
31799370 9.982503e-001 -1.435515e-002 -5.702933e-005 2.425993e-005 -5.237085e-005 2.128455e-004 9.932370e-001 -2.610890e-002
32549355 9.975913e-001 -1.411225e-002 -3.175670e-005 5.393788e-005 4.160454e-005 1.038325e-004 9.947768e-001 -2.829909e-002
33299340 9.984986e-001 -1.401949e-002 -1.120393e-005 6.052774e-005 1.925450e-005 -4.841355e-005 9.948959e-001 -2.907877e-002
34049325 9.977373e-001 -1.537775e-002 -1.337835e-005 6.460781e-006 1.111191e-004 -1.393557e-004 9.964512e-001 -2.973017e-002
34799310 9.994845e-001 -1.606813e-002 3.375194e-005 -3.055821e-005 -9.143697e-005 -4.072299e-005 9.961076e-001 -3.026113e-002
35549295 9.981689e-001 -1.565733e-002 3.513027e-005 8.401986e-005 1.093739e-004 1.055774e-004 9.959906e-001 -2.980069e-002
36299280 9.981142e-001 -1.586996e-002 1.145988e-004 -7.673934e-005 9.124044e-005 2.723424e-004 9.957776e-001 -3.100089e-002
37049265 9.984182e-001 -1.712100e-002 1.750273e-005 3.072643e-005 -6.340443e-005 -5.094698e-005 9.962614e-001 -3.235203e-002
37799250 9.981050e-001 -1.646937e-002 -7.658777e-005 -2.304550e-005 -1.887460e-004 1.766623e-004 9.972084e-001 -3.286166e-002
38549235 9.976251e-001 -1.668441e-002 5.151174e-005 7.424362e-006 1.585426e-004 -1.945772e-004 9.971414e-001 -3.368252e-002
39299220 9.978174e-001 -1.744595e-002 8.416028e-007 2.406098e-005 1.398477e-004 -1.868873e-004 9.951032e-001 -3.295701e-002
40049205 9.992417e-001 -1.818156e-002 3.110970e-005 2.343870e-004 -3.157272e-004 2.683565e-004 9.978982e-001 -3.314648e-002
40799190 9.983324e-001 -1.899201e-002 4.966141e-006 -3.953991e-005 1.210710e-004 -1.992590e-004 9.951110e-001 -3.736336e-002
41549175 9.985024e-001 -1.908003e-002 -3.015901e-006 2.273940e-005 2.627093e-004 6.168156e-005 9.948814e-001 -3.756925e-002
42299160 9.978388e-001 -1.842174e-002 -1.836644e-004 5.374653e-005 3.247266e-005 -4.083506e-005 9.965034e-001 -3.410508e-002
43049145 9.981276e-001 -1.906984e-002 2.692051e-005 1.069044e-004 -2.846437e-005 5.628332e-005 9.952193e-001 -3.722614e-002
43799130 9.982761e-001 -1.924252e-002 -2.364864e-004 1.168547e-004 -2.367354e-004 -6.241747e-005 9.950676e-001 -3.825292e-002
44549115 9.982432e-001 -1.943078e-002 -5.122162e-005 -3.193042e-005 2.108133e-004 2.600270e-004 9.953930e-001 -3.675641e-002
45299100 9.975577e-001 -1.934512e-002 2.025581e-005 4.356452e-005 -1.536213e-004 7.455933e-006 9.965856e-001 -3.760692e-002
46049085 9.981901e-001 -2.172499e-002 -7.713707e-006 6.701527e-005 -5.607173e-005 6.502899e-005 9.928146e-001 -4.135012e-002
46799070 9.989685e-001 -1.978979e-002 9.598440e-005 -3.983596e-005 -1.494528e-004 -4.117825e-004 9.978774e-001 -4.158964e-002
47549055 9.985161e-001 -2.173613e-002 -1.563658e-004 -1.055477e-004 -2.495106e-005 -1.158875e-004 9.947457e-001 -4.094872e-002
48299040 9.976823e-001 -2.208439e-002 -6.127885e-005 -1.296871e-006 8.233076e-005 -1.008918e-004 9.963192e-001 -4.337548e-002
49049025 9.975109e-001 -2.261776e-002 -1.167742e-004 8.315895e-005 1.762813e-004 7.782001e-005 9.968036e-001 -4.593191e-002
49799010 9.979199e-001 -2.321711e-002 -6.362390e-005 2.374758e-005 4.653125e-004 -8.081272e-005 9.972003e-001 -4.526834e-002
50548995 9.974794e-001 -2.361716e-002 -3.461053e-005 -3.265284e-005 2.557129e-006 2.286385e-004 9.969732e-001 -4.172789e-002
51298980 9.980734e-001 -2.196035e-002 1.264478e-004 -1.223525e-004 -2.181794e-004 2.285731e-004 9.973841e-001 -4.310457e-002
52048965 9.980403e-001 -2.350577e-002 -7.934350e-005 1.202473e-004 -5.822289e-005 3.027469e-004 9.948103e-001 -4.605895e-002
52798950 9.981127e-001 -2.446460e-002 -1.421042e-005 9.317319e-005 1.637889e-004 -2.527636e-004 9.956249e-001 -4.743357e-002
53548935 9.986345e-001 -2.385776e-002 6.930523e-005 9.563902e-006 1.917293e-004 5.355916e-005 9.935101e-001 -4.672540e-002
54298920 9.982687e-001 -2.465424e-002 -8.208433e-005 -1.698758e-005 2.765360e-004 2.721871e-004 9.974341e-001 -4.877465e-002
55048905 9.994684e-001 -2.407078e-002 3.905979e-005 9.952866e-005 3.709730e-004 4.954206e-005 9.983180e-001 -5.028965e-002
55798890 9.981685e-001 -2.368271e-002 -3.672529e-005 1.055833e-004 4.902994e-004 5.024860e-004 9.953222e-001 -5.084563e-002
56548875 9.973985e-001 -2.409387e-002 -7.222627e-005 4.177306e-005 3.390414e-004 2.449270e-004 9.941381e-001 -4.821224e-002
57298860 9.983762e-001 -2.485212e-002 6.884825e-005 -1.220711e-005 1.938004e-004 7.200649e-004 9.936377e-001 -5.076729e-002
58048845 9.975598e-001 -2.555788e-002 -4.437976e-005 4.366155e-005 -3.997786e-004 -3.895003e-005 9.957014e-001 -5.039582e-002
58798830 9.974639e-001 -2.616421e-002 1.463683e-005 1.281508e-004 1.305764e-004 3.164035e-004 9.955856e-001 -5.072656e-002
59548815 9.981747e-001 -2.631963e-002 -4.077255e-005 1.141920e-004 4.177109e-005 3.851202e-004 9.940956e-001 -5.096915e-002
60298800 9.983870e-001 -2.674927e-002 -6.432998e-005 3.753629e-005 -2.151809e-005 3.222841e-004 9.917507e-001 -5.235699e-002
61048785 9.983330e-001 -2.724850e-002 1.413964e-004 1.095157e-004 -1.333414e-004 -2.857258e-005 9.947670e-001 -5.325902e-002
61798770 9.974602e-001 -2.623352e-002 -5.430153e-005 1.402529e-004 -6.036690e-005 4.424000e-004 9.947968e-001 -5.217362e-002
62548755 9.970326e-001 -2.740649e-002 7.662642e-005 3.635446e-005 4.326094e-004 3.232225e-004 9.980843e-001 -5.207679e-002
63298740 9.971067e-001 -2.761984e-002 1.555456e-005 1.738222e-004 -1.440557e-004 2.796514e-004 9.997929e-001 -5.658095e-002
64048725 9.973171e-001 -2.697466e-002 -4.435096e-005 1.492438e-004 -2.657936e-004 2.563549e-004 9.927884e-001 -5.305989e-002
64798710 9.989090e-001 -2.938065e-002 1.234392e-005 -1.768791e-005 -5.414873e-004 -3.243483e-005 9.939363e-001 -5.821140e-002
65548695 9.972942e-001 -2.894886e-002 2.878298e-005 -4.527643e-005 5.543658e-005 -1.878670e-004 9.922383e-001 -5.782384e-002
66298680 9.972282e-001 -2.877672e-002 -6.441020e-007 6.464974e-005 -2.963503e-005 1.334128e-004 9.942480e-001 -5.857915e-002
67048665 9.981421e-001 -2.960893e-002 -7.838575e-005 9.018333e-005 -1.939363e-004 -2.734660e-004 9.965320e-001 -6.011345e-002
67798650 9.977881e-001 -2.994331e-002 -7.110674e-005 -8.723792e-005 -3.499507e-004 -7.414212e-005 9.948267e-001 -5.911225e-002
68548635 9.972430e-001 -3.084152e-002 2.598845e-006 2.486845e-004 -7.212588e-005 1.887218e-004 9.923202e-001 -6.025306e-002
69298620 9.976162e-001 -3.019858e-002 -2.003809e-005 1.221837e-004 -2.141073e-004 7.086244e-005 9.900346e-001 -5.716814e-002
70048605 9.972387e-001 -3.258954e-002 4.274857e-005 1.415666e-004 2.002806e-004 -1.648347e-004 9.942381e-001 -6.064992e-002
70798590 9.971550e-001 -3.213884e-002 -2.061242e-005 2.446742e-004 4.601204e-004 -4.192596e-004 9.947909e-001 -6.133862e-002
71548575 9.979572e-001 -3.146801e-002 7.443470e-005 3.512838e-004 1.536907e-004 -2.307376e-004 9.933532e-001 -6.126024e-002
72298560 9.977793e-001 -3.137308e-002 -4.470002e-005 1.675286e-004 3.784214e-004 1.200728e-004 9.942271e-001 -6.011108e-002
73048545 9.969119e-001 -3.272406e-002 3.248113e-005 5.243304e-005 1.285527e-004 6.388170e-005 9.968505e-001 -6.224062e-002
73798530 9.986709e-001 -3.320257e-002 -1.333291e-004 1.653135e-005 -1.841401e-004 1.195227e-004 9.920970e-001 -6.280901e-002
74548515 9.979785e-001 -3.352822e-002 -2.310892e-005 3.735705e-005 -8.063654e-006 4.769732e-004 9.904015e-001 -6.230651e-002
75298500 9.965174e-001 -3.178187e-002 4.133403e-005 -1.213075e-005 -1.930301e-004 -4.379590e-005 9.911796e-001 -6.575987e-002
76048485 9.961607e-001 -3.411438e-002 9.109391e-005 3.537172e-005 -1.755542e-004 4.520854e-004 9.924982e-001 -6.470779e-002
76798470 9.962134e-001 -3.397210e-002 1.068189e-004 -6.662297e-005 -1.812074e-004 3.898661e-004 9.929168e-001 -6.703272e-002
77548455 9.972035e-001 -3.368380e-002 -3.953955e-005 -2.171668e-006 2.544240e-004 2.326926e-004 9.934059e-001 -6.582025e-002
78298440 9.971214e-001 -3.682539e-002 6.793060e-005 1.510911e-004 -1.009434e-004 4.657760e-005 9.961538e-001 -6.589841e-002
79048425 9.955804e-001 -3.586337e-002 7.493226e-005 7.460384e-005 -8.072217e-005 4.071765e-004 9.910508e-001 -6.861878e-002
79798410 9.968844e-001 -3.631607e-002 4.407852e-005 -3.220027e-005 -1.286734e-004 4.736912e-004 9.951648e-001 -6.639243e-002
80548395 9.972878e-001 -3.694503e-002 1.042214e-005 1.201035e-004 -2.643022e-004 2.757449e-004 9.949358e-001 -6.956927e-002
81298380 9.977851e-001 -3.465170e-002 3.307983e-005 4.831001e-005 -1.562386e-005 1.919444e-004 9.927740e-001 -6.833097e-002
82048365 9.987618e-001 -3.690221e-002 -2.391703e-005 1.081454e-004 -1.463053e-004 1.727376e-004 9.939711e-001 -7.022122e-002
82798350 9.990495e-001 -3.800517e-002 -1.747093e-004 7.911299e-005 -8.650432e-005 1.513750e-004 9.916719e-001 -6.894791e-002
83548335 9.986609e-001 -3.821374e-002 -1.214435e-004 5.973490e-005 1.166707e-005 -7.866579e-005 9.920091e-001 -7.329600e-002
84298320 9.972259e-001 -3.654916e-002 -4.526184e-006 2.346491e-006 -3.742646e-004 -3.959521e-006 9.908566e-001 -7.367044e-002
85048305 9.972413e-001 -3.608711e-002 -7.767836e-006 1.982366e-004 2.431826e-004 1.258172e-004 9.940537e-001 -7.350186e-002
85798290 9.972446e-001 -3.775342e-002 1.741676e-004 1.425507e-004 1.841280e-004 -4.138889e-005 9.930027e-001 -7.368924e-002
86548275 9.964713e-001 -3.896704e-002 8.480487e-005 9.935840e-005 1.024795e-004 -7.344720e-006 9.915514e-001 -7.627624e-002
87298260 9.985188e-001 -3.888792e-002 -3.504834e-005 5.393318e-005 3.217924e-004 1.825602e-004 9.908940e-001 -7.546142e-002
88048245 9.977701e-001 -3.910887e-002 -1.227824e-004 6.163244e-005 3.065219e-004 6.591299e-005 9.919013e-001 -7.739124e-002
88798230 9.955482e-001 -3.928915e-002 9.831044e-005 1.741283e-004 1.823700e-004 9.307700e-005 9.927289e-001 -7.826584e-002
89548215 9.958270e-001 -3.874289e-002 -1.085198e-004 -2.435068e-004 2.833704e-004 2.446895e-004 9.901060e-001 -8.088575e-002
90298200 9.986555e-001 -4.070372e-002 1.043085e-004 1.215261e-004 -5.648638e-005 1.515594e-004 9.913332e-001 -7.908925e-002
91048185 9.966862e-001 -3.998692e-002 3.208549e-005 2.473611e-004 1.569325e-004 5.470906e-004 9.919873e-001 -7.876985e-002
91798170 9.974362e-001 -4.045391e-002 4.238601e-005 1.663585e-004 2.031515e-004 3.751438e-004 9.887474e-001 -7.985757e-002
92548155 9.983441e-001 -4.150778e-002 -1.348472e-004 -3.548506e-005 -1.717717e-004 2.450133e-004 9.907479e-001 -8.299761e-002
93298140 9.970157e-001 -4.211343e-002 7.424549e-005 -8.946314e-005 2.660455e-004 5.473986e-004 9.933338e-001 -8.258501e-002
94048125 9.985642e-001 -4.224047e-002 2.612698e-004 1.157583e-004 -3.587794e-005 2.772366e-004 9.914011e-001 -8.378433e-002
94798110 9.992157e-001 -4.217501e-002 -2.963721e-005 -1.386305e-004 -4.831165e-004 1.454920e-004 9.926093e-001 -8.225716e-002
95548095 9.964116e-001 -4.116070e-002 -5.161146e-007 5.475697e-005 7.545316e-007 -3.427597e-005 9.914898e-001 -8.364519e-002
96298080 9.976959e-001 -4.181048e-002 1.981468e-004 -5.703931e-005 -1.673997e-004 -2.280381e-004 9.911199e-001 -8.224083e-002
97048065 9.976113e-001 -4.369724e-002 1.180278e-004 6.530636e-005 -1.595828e-004 -9.303335e-005 9.925049e-001 -8.489785e-002
97798050 9.970285e-001 -4.521767e-002 -2.077470e-004 -4.091988e-005 3.179267e-004 9.158650e-005 9.913014e-001 -8.660161e-002
98548035 9.953321e-001 -4.341319e-002 5.840654e-005 1.742456e-004 -1.311298e-004 -5.003149e-005 9.924719e-001 -8.588945e-002
99298020 9.961332e-001 -4.278958e-002 -3.327976e-005 1.711097e-004 -1.000480e-004 4.236091e-004 9.930894e-001 -8.621781e-002
100048005 9.960364e-001 -4.296397e-002 4.074353e-005 -5.003480e-006 -1.089767e-004 9.563460e-005 9.904293e-001 -8.599889e-002
100797990 9.965252e-001 -4.373948e-002 -2.335031e-005 1.724728e-005 2.830191e-005 2.736938e-004 9.930546e-001 -8.624773e-002
101547975 9.962418e-001 -4.452161e-002 8.319810e-006 1.331906e-004 -2.892585e-004 2.951005e-004 9.915136e-001 -8.525927e-002
102297960 9.969304e-001 -4.546597e-002 2.655360e-005 9.739106e-005 -2.056341e-004 3.984308e-004 9.940245e-001 -8.710594e-002
103047945 9.957181e-001 -4.493881e-002 9.917562e-005 2.111342e-005 1.610418e-004 2.628177e-004 9.917939e-001 -8.953801e-002
103797930 9.956687e-001 -4.588653e-002 2.693498e-005 1.207416e-004 -1.261871e-004 7.124360e-004 9.878684e-001 -8.800372e-002
104547915 9.966745e-001 -4.513832e-002 8.578894e-005 1.211359e-004 1.595122e-004 2.159346e-004 9.906353e-001 -8.960100e-002
105297900 9.967641e-001 -4.627039e-002 8.814314e-005 3.405637e-005 -1.563374e-004 3.304860e-004 9.927306e-001 -9.074865e-002
106047885 9.978580e-001 -4.630249e-002 -6.563209e-005 1.727840e-004 -1.895296e-006 1.803762e-004 9.915777e-001 -9.185237e-002
106797870 9.969180e-001 -4.714184e-002 1.768638e-005 1.619337e-004 7.877441e-005 2.006944e-004 9.895377e-001 -9.404160e-002
107547855 9.951800e-001 -4.661386e-002 -1.744494e-005 1.604628e-004 4.359376e-004 4.346039e-004 9.904563e-001 -9.150444e-002
108297840 9.963360e-001 -4.788129e-002 8.992257e-005 1.823152e-004 1.009995e-004 4.144460e-006 9.902539e-001 -9.068312e-002
109047825 9.965854e-001 -4.775964e-002 4.224975e-006 1.220047e-004 1.621884e-004 -9.751507e-005 9.914271e-001 -9.141286e-002
109797810 9.951056e-001 -4.812948e-002 -1.273340e-005 1.431974e-005 2.731846e-004 5.639190e-004 9.872251e-001 -9.516206e-002
110547795 9.958349e-001 -4.891688e-002 1.139915e-004 1.904329e-004 -2.080112e-005 2.383188e-004 9.927827e-001 -9.491846e-002
111297780 9.969328e-001 -4.974818e-002 -8.633143e-005 3.135604e-005 2.888246e-004 1.285387e-004 9.881020e-001 -9.543490e-002
112047765 9.965764e-001 -5.018697e-002 3.546062e-005 1.483660e-004 3.830059e-004 1.706287e-004 9.908877e-001 -9.841207e-002
112797750 9.968788e-001 -5.024158e-002 7.927464e-006 2.140374e-004 4.606418e-004 4.011266e-004 9.913092e-001 -9.656166e-002
113547735 9.972928e-001 -4.918915e-002 7.638602e-005 1.566627e-005 -1.808340e-004 5.207533e-004 9.883453e-001 -9.959188e-002
114297720 9.957381e-001 -5.055245e-002 1.770957e-004 6.889293e-005 2.985007e-004 1.677602e-004 9.912568e-001 -9.878654e-002
115047705 9.956045e-001 -5.088206e-002 2.932188e-005 1.286549e-004 -1.596475e-004 3.878276e-004 9.921408e-001 -1.021880e-001
115797690 9.957983e-001 -5.125852e-002 -3.781416e-005 2.429954e-004 -1.475689e-004 1.587868e-004 9.867336e-001 -9.922789e-002
116547675 9.954699e-001 -5.157126e-002 1.198769e-004 6.778765e-005 -1.868173e-004 8.721625e-005 9.909513e-001 -1.020267e-001
