!Agilent Technologies,N5230C,SG49000117,A.08.50.07
!Agilent N5230C: A.08.50.07
!Date: Monday, December 11, 2023 23:19:09
!Correction: S11(Full 2 Port(1,2)) 
!S21(Full 2 Port(1,2)) 
!S12(Full 2 Port(1,2)) 
!S22(Full 2 Port(1,2)) 
!S2P File: Measurements: S11, S21, S12, S22:
# Hz S  RI   R 50
300000 9.910159e-001 4.548547e-003 -8.824067e-005 -6.897705e-005 8.804144e-005 -7.540384e-005 9.938160e-001 9.335729e-003
1049985 9.938739e-001 2.743786e-003 -4.768744e-005 -2.208568e-005 4.787943e-006 2.913296e-005 9.814012e-001 5.516639e-003
1799970 9.915550e-001 8.375388e-003 -2.028574e-005 -4.526584e-005 -1.184540e-004 -3.182124e-004 9.955915e-001 -5.237838e-003
2549955 9.982930e-001 2.633359e-004 -9.950428e-005 -1.123792e-005 -1.770624e-004 -2.283681e-005 9.967511e-001 -2.794518e-003
3299940 9.988827e-001 -1.793928e-003 3.930485e-006 -4.206687e-005 -4.708791e-005 1.690594e-004 9.988172e-001 -6.253725e-003
4049925 9.987843e-001 -1.369973e-003 -1.815075e-005 2.482159e-005 6.588399e-005 -1.233305e-004 9.959356e-001 -3.923383e-003
4799910 9.986565e-001 -1.341196e-003 -8.868297e-005 -3.400334e-005 2.201700e-004 -2.644547e-004 9.959111e-001 -4.653829e-003
5549895 9.978862e-001 -3.591129e-003 -6.009083e-005 -1.067975e-004 -5.284000e-005 1.742763e-005 9.953251e-001 -4.538099e-003
6299880 9.987037e-001 -3.057290e-003 -4.610233e-005 -8.735443e-005 1.348343e-004 -1.629935e-004 9.958146e-001 -3.994451e-003
7049865 9.985948e-001 -3.851797e-003 1.654639e-005 3.688669e-005 -2.006556e-004 -3.530221e-005 9.968079e-001 -6.723658e-003
7799850 9.980426e-001 -3.538076e-003 -3.493993e-005 -4.200445e-005 2.113700e-006 -6.202986e-007 9.953229e-001 -5.688146e-003
8549835 9.976683e-001 -3.117385e-003 2.655993e-005 -1.563115e-005 1.245931e-004 1.689266e-004 9.956994e-001 -7.207493e-003
9299820 9.980447e-001 -3.683078e-003 4.405193e-005 -5.642057e-005 4.445698e-005 -5.925244e-005 9.950402e-001 -7.868798e-003
10049805 9.985394e-001 -5.070108e-003 6.347732e-005 9.388818e-006 -2.913730e-005 -6.661165e-008 9.969766e-001 -8.971309e-003
10799790 9.985697e-001 -4.458468e-003 1.485348e-005 6.555842e-006 1.696752e-004 2.699889e-005 9.976141e-001 -9.204803e-003
11549775 9.990138e-001 -4.866502e-003 -7.650733e-005 4.941238e-005 7.388306e-005 7.864650e-005 9.968557e-001 -8.740840e-003
12299760 9.990516e-001 -5.279949e-003 1.750627e-005 -1.127141e-004 -4.483593e-005 -5.726038e-005 9.942894e-001 -1.026157e-002
13049745 9.993173e-001 -5.831194e-003 -8.571962e-005 -5.088294e-005 1.350297e-004 -1.902695e-005 9.972715e-001 -1.134504e-002
13799730 9.988722e-001 -6.147007e-003 4.230430e-005 6.603147e-005 1.025750e-004 2.073945e-004 9.961770e-001 -1.331875e-002
14549715 9.984425e-001 -6.953156e-003 -1.208048e-006 -3.884713e-006 -1.459879e-004 -1.148289e-004 9.968954e-001 -1.311656e-002
15299700 9.983870e-001 -7.102423e-003 -1.536173e-005 6.855091e-005 -2.353273e-004 -1.821761e-004 9.975942e-001 -1.547984e-002
16049685 9.982610e-001 -7.377531e-003 5.690773e-005 1.227823e-005 1.664184e-005 1.043787e-004 9.965962e-001 -1.575352e-002
16799670 9.979343e-001 -7.517819e-003 -1.517033e-005 2.526589e-005 1.987704e-004 9.344734e-005 9.973016e-001 -1.669119e-002
17549655 9.984830e-001 -7.689099e-003 2.822793e-005 -5.469601e-005 -1.370262e-004 1.761640e-004 9.967314e-001 -1.709243e-002
18299640 9.982138e-001 -7.691420e-003 6.459636e-006 2.519845e-005 -2.661313e-004 -4.763194e-005 9.972089e-001 -1.640289e-002
19049625 9.985061e-001 -8.606116e-003 -2.909749e-005 5.807778e-005 -9.432756e-005 -1.511204e-004 9.956531e-001 -1.874482e-002
19799610 9.986934e-001 -7.978800e-003 -7.184624e-005 -2.809113e-005 2.088548e-004 -4.283225e-005 9.960651e-001 -1.587921e-002
20549595 9.980077e-001 -1.041033e-002 1.237523e-005 -3.794929e-005 2.406795e-005 1.140451e-004 9.967847e-001 -1.927087e-002
21299580 9.984652e-001 -9.579566e-003 5.289391e-005 -7.584061e-005 8.319693e-005 6.452503e-005 9.989080e-001 -1.844381e-002
22049565 9.992206e-001 -1.080414e-002 -1.939701e-007 -3.942884e-005 1.508731e-004 3.384536e-005 9.962451e-001 -1.975152e-002
22799550 9.988259e-001 -1.073675e-002 -8.300667e-005 -2.865727e-005 -1.778325e-004 3.550978e-004 9.960959e-001 -1.893918e-002
23549535 9.982458e-001 -1.120628e-002 4.607481e-005 -8.737597e-005 -7.128695e-005 -5.923459e-005 9.952598e-001 -1.845158e-002
24299520 9.986418e-001 -1.057446e-002 1.056937e-005 -4.038365e-005 1.974567e-004 -1.975387e-004 9.966799e-001 -2.110778e-002
25049505 9.987684e-001 -1.212221e-002 -2.289920e-005 1.394773e-005 -2.208026e-006 1.553681e-005 9.985126e-001 -2.185574e-002
25799490 9.979855e-001 -1.110367e-002 -2.362812e-005 -7.666169e-006 2.551220e-005 3.295862e-004 9.966481e-001 -2.011019e-002
26549475 9.979733e-001 -1.193110e-002 3.308654e-005 3.868011e-005 -1.191227e-004 3.272409e-004 9.947502e-001 -2.220234e-002
27299460 9.986083e-001 -1.229222e-002 -3.310420e-005 1.149270e-004 -1.490018e-004 -5.930761e-005 9.965235e-001 -2.466645e-002
28049445 9.985538e-001 -1.220198e-002 -5.660117e-005 -6.336904e-005 -1.384816e-004 -2.552052e-004 9.953648e-001 -2.496848e-002
28799430 9.986072e-001 -1.320553e-002 -4.034338e-005 6.119116e-007 4.826741e-005 -2.569774e-004 9.948239e-001 -2.578731e-002
29549415 9.991944e-001 -1.301121e-002 3.225831e-005 -1.748432e-005 -2.747760e-007 9.961915e-005 9.965119e-001 -2.520014e-002
30299400 9.984745e-001 -1.413285e-002 6.371213e-005 4.174196e-005 -2.772150e-005 8.065799e-005 9.971909e-001 -2.607941e-002
31049385 9.985571e-001 -1.440492e-002 -5.960461e-005 5.691571e-005 -1.451946e-004 3.262658e-005 9.951172e-001 -2.656915e-002
31799370 9.977320e-001 -1.444847e-002 1.130800e-004 -4.828891e-005 -1.778031e-004 -8.491397e-005 9.942175e-001 -2.645886e-002
32549355 9.982377e-001 -1.329165e-002 -8.432014e-005 5.421627e-005 7.294736e-005 -1.522101e-004 9.948847e-001 -2.810318e-002
33299340 9.982052e-001 -1.404907e-002 3.457137e-005 5.801464e-005 1.899320e-004 -1.195088e-004 9.956084e-001 -2.954716e-002
34049325 9.976550e-001 -1.514424e-002 -2.763004e-005 -2.754379e-005 9.548006e-005 8.949050e-005 9.951256e-001 -2.919252e-002
34799310 9.990218e-001 -1.650388e-002 4.895030e-005 1.613705e-005 -1.699048e-004 2.126964e-004 9.962190e-001 -2.904442e-002
35549295 9.985617e-001 -1.562975e-002 -2.515107e-005 -1.487888e-005 -6.685247e-005 -1.130723e-004 9.964682e-001 -2.964424e-002
36299280 9.978626e-001 -1.602642e-002 -2.042018e-005 7.202610e-005 9.137089e-005 -1.690361e-004 9.974074e-001 -3.012149e-002
37049265 9.975372e-001 -1.608089e-002 -6.866718e-005 1.149956e-005 1.625133e-004 3.238249e-005 9.963940e-001 -3.275350e-002
37799250 9.982803e-001 -1.681614e-002 -3.195550e-005 4.999196e-005 -3.372840e-005 2.810117e-004 9.966533e-001 -3.284182e-002
38549235 9.979023e-001 -1.741077e-002 6.279592e-005 -1.218577e-004 -2.782640e-005 1.533251e-004 9.974046e-001 -3.325899e-002
39299220 9.980565e-001 -1.776032e-002 4.791554e-005 -4.541528e-005 -1.584926e-004 1.444087e-004 9.950793e-001 -3.349291e-002
40049205 9.988705e-001 -1.788143e-002 1.072713e-004 -5.944972e-005 -7.352561e-005 5.894784e-005 9.974424e-001 -3.496050e-002
40799190 9.980721e-001 -1.846918e-002 -1.391175e-004 -4.941847e-005 1.707807e-004 -9.037532e-005 9.954955e-001 -3.604906e-002
41549175 9.985491e-001 -1.834688e-002 1.259947e-004 4.163522e-006 6.138619e-006 -2.932035e-004 9.940087e-001 -3.775154e-002
42299160 9.981843e-001 -1.829331e-002 -2.306277e-005 -7.764239e-005 1.049081e-004 -1.527467e-005 9.947768e-001 -3.541375e-002
43049145 9.975175e-001 -1.978628e-002 -1.130476e-004 1.683906e-005 -6.771213e-005 6.425730e-005 9.961279e-001 -3.682709e-002
43799130 9.979944e-001 -1.946613e-002 -2.156185e-005 -1.037465e-004 -1.829169e-004 -1.135708e-004 9.949762e-001 -3.798855e-002
44549115 9.986057e-001 -1.886888e-002 4.571184e-005 1.724696e-004 -2.579388e-004 -7.121653e-005 9.965445e-001 -3.742693e-002
45299100 9.974476e-001 -1.822953e-002 -1.536888e-004 4.936220e-005 -2.187470e-004 -2.026287e-004 9.941371e-001 -3.764053e-002
46049085 9.986318e-001 -2.151002e-002 -1.315267e-004 -1.600957e-005 2.138569e-004 -1.552173e-004 9.949951e-001 -4.034103e-002
46799070 9.989468e-001 -1.983048e-002 -1.327771e-004 2.194793e-006 2.130172e-004 1.779343e-004 9.973812e-001 -4.308518e-002
47549055 9.981013e-001 -2.133727e-002 -2.566241e-004 1.806373e-004 3.159193e-004 4.565520e-005 9.929001e-001 -4.349598e-002
48299040 9.969301e-001 -2.277105e-002 -1.239969e-004 1.067870e-004 5.355399e-004 -3.051257e-005 9.950228e-001 -4.255931e-002
49049025 9.972904e-001 -2.148290e-002 -5.445566e-005 1.336354e-005 1.668983e-004 -1.229797e-004 9.982187e-001 -4.727911e-002
49799010 9.981597e-001 -2.281350e-002 3.255634e-005 4.331557e-005 -4.421060e-005 8.047371e-005 9.964988e-001 -4.644220e-002
50548995 9.974173e-001 -2.234846e-002 -4.414916e-005 2.000967e-006 4.860756e-005 2.058756e-004 9.966972e-001 -4.352645e-002
51298980 9.981935e-001 -2.226982e-002 2.786014e-004 7.185698e-005 2.126067e-007 1.949237e-004 9.978928e-001 -4.325311e-002
52048965 9.976256e-001 -2.285790e-002 -1.005127e-004 6.964166e-006 6.890074e-005 -2.595703e-004 9.941996e-001 -4.929509e-002
52798950 9.979743e-001 -2.394784e-002 -1.136369e-004 8.320659e-005 4.202394e-004 -3.408434e-004 9.953485e-001 -4.496921e-002
53548935 9.991858e-001 -2.325393e-002 9.353404e-005 1.470377e-005 -4.079039e-004 -2.168598e-004 9.929582e-001 -4.820601e-002
54298920 9.981052e-001 -2.355750e-002 1.827014e-004 3.883324e-005 1.078782e-004 -1.595894e-004 9.944794e-001 -4.880594e-002
55048905 9.992263e-001 -2.466476e-002 -2.576955e-005 3.178957e-005 -3.512813e-006 -2.223209e-004 9.955854e-001 -5.024255e-002
55798890 9.984542e-001 -2.352488e-002 4.482709e-005 -9.539531e-006 -4.352229e-004 -2.489225e-004 9.970406e-001 -4.817175e-002
56548875 9.973239e-001 -2.471576e-002 -8.586128e-005 5.279434e-006 -5.066801e-005 -2.680000e-004 9.940314e-001 -4.617884e-002
57298860 9.987817e-001 -2.572780e-002 -8.889350e-005 2.208638e-007 6.455904e-004 -2.080081e-004 9.952817e-001 -5.067069e-002
58048845 9.986302e-001 -2.548002e-002 8.780509e-005 -4.594320e-005 2.018587e-004 2.044805e-004 9.943509e-001 -4.957686e-002
58798830 9.977245e-001 -2.680176e-002 -7.709364e-005 1.632706e-005 3.257500e-004 4.572368e-005 9.929874e-001 -5.220011e-002
59548815 9.979588e-001 -2.568947e-002 6.801206e-005 -1.280513e-004 4.837839e-004 -4.897708e-004 9.930757e-001 -5.202028e-002
60298800 9.983410e-001 -2.658540e-002 5.186238e-005 1.355963e-004 -1.375875e-005 1.865685e-004 9.937055e-001 -5.377804e-002
61048785 9.982483e-001 -2.729460e-002 3.885810e-006 2.203716e-005 1.160766e-004 1.955501e-005 9.927855e-001 -5.266307e-002
61798770 9.981843e-001 -2.723899e-002 -3.657399e-005 -4.580372e-006 4.653426e-005 4.100186e-004 9.987037e-001 -5.217952e-002
62548755 9.974059e-001 -2.758330e-002 5.907937e-005 4.737373e-005 5.780653e-005 -1.967913e-004 1.000471e+000 -5.589787e-002
63298740 9.970533e-001 -2.685572e-002 -7.119175e-005 -9.222540e-005 -2.268354e-004 -3.646068e-004 9.992477e-001 -5.677868e-002
64048725 9.973437e-001 -2.754084e-002 -4.318103e-005 1.558490e-004 -2.702141e-004 1.526822e-004 9.939823e-001 -5.641868e-002
64798710 9.983999e-001 -2.824485e-002 -1.070815e-004 4.917190e-005 -1.840341e-004 2.031025e-004 9.929423e-001 -5.834995e-002
65548695 9.973292e-001 -2.833233e-002 -2.782800e-005 -1.192117e-005 -8.822392e-005 3.043050e-004 9.919022e-001 -5.642440e-002
66298680 9.976388e-001 -2.959069e-002 1.738662e-005 1.053931e-004 -1.011328e-004 -7.326843e-005 9.938847e-001 -5.841415e-002
67048665 9.973938e-001 -2.951008e-002 2.007857e-005 1.361591e-005 -2.072905e-004 -3.614832e-004 9.955447e-001 -6.380191e-002
67798650 9.982281e-001 -2.950471e-002 1.328634e-005 1.098342e-004 -2.966201e-005 -1.891343e-004 9.947550e-001 -6.039768e-002
68548635 9.975556e-001 -2.962298e-002 -2.751543e-006 3.503079e-005 2.452723e-004 -1.939363e-004 9.931632e-001 -5.790715e-002
69298620 9.976155e-001 -3.059219e-002 -5.576151e-005 9.389873e-005 4.946051e-004 3.525023e-005 9.928715e-001 -5.684842e-002
70048605 9.982650e-001 -3.246621e-002 -3.079510e-005 -2.164040e-005 4.285193e-004 -2.786987e-004 9.913048e-001 -6.073284e-002
70798590 9.978123e-001 -3.102909e-002 4.725359e-005 7.067927e-005 2.328039e-004 2.984870e-004 9.962163e-001 -6.095295e-002
71548575 9.984294e-001 -3.126691e-002 6.394458e-005 8.687087e-005 5.702764e-005 6.072469e-004 9.933297e-001 -6.106408e-002
72298560 9.973397e-001 -3.157862e-002 -2.979095e-005 7.792796e-006 4.054276e-004 1.196157e-005 9.955191e-001 -6.000828e-002
73048545 9.964330e-001 -3.134159e-002 2.178320e-004 1.663094e-006 7.746660e-005 2.141355e-004 9.960248e-001 -6.087476e-002
73798530 9.985081e-001 -3.322993e-002 9.633086e-005 3.247478e-005 1.763194e-004 2.937055e-004 9.933711e-001 -6.297664e-002
74548515 9.974834e-001 -3.353110e-002 -1.036889e-004 1.008095e-004 8.505233e-005 1.728880e-004 9.923399e-001 -6.478667e-002
75298500 9.971716e-001 -3.275889e-002 6.159187e-005 6.928272e-005 1.516393e-004 -3.700845e-005 9.913038e-001 -6.389759e-002
76048485 9.966519e-001 -3.400580e-002 2.489780e-005 2.230384e-005 2.422985e-004 1.363625e-004 9.926635e-001 -6.423184e-002
76798470 9.960855e-001 -3.325278e-002 5.508411e-005 -5.217720e-005 2.709111e-004 2.766965e-004 9.941748e-001 -6.544018e-002
77548455 9.986094e-001 -3.384308e-002 1.024524e-004 1.515861e-004 -5.673213e-005 2.131153e-004 9.930266e-001 -6.648864e-002
78298440 9.963413e-001 -3.569439e-002 1.229942e-004 -2.060188e-004 -5.817665e-005 5.043053e-005 9.939489e-001 -6.675401e-002
79048425 9.957384e-001 -3.595605e-002 1.470117e-004 5.370945e-006 1.133182e-004 4.879061e-004 9.915878e-001 -6.917726e-002
79798410 9.967893e-001 -3.628565e-002 -4.452859e-005 3.546313e-005 3.662742e-005 1.249683e-004 9.928741e-001 -6.887612e-002
80548395 9.968354e-001 -3.591094e-002 2.611165e-004 2.233884e-004 -6.394114e-005 -8.398802e-006 9.933459e-001 -6.923407e-002
81298380 9.983637e-001 -3.559672e-002 -8.330291e-005 -1.737554e-005 -1.653213e-004 -9.897997e-005 9.935232e-001 -7.020947e-002
82048365 9.989340e-001 -3.607509e-002 1.011491e-004 7.584256e-005 -5.044054e-004 -4.912392e-005 9.909986e-001 -6.831666e-002
82798350 9.977525e-001 -3.780915e-002 1.840473e-004 -1.291611e-004 5.537055e-005 2.522944e-006 9.921587e-001 -7.017091e-002
83548335 9.985082e-001 -3.852563e-002 8.874652e-005 -1.491283e-005 -7.161695e-005 -2.218927e-005 9.928775e-001 -7.479092e-002
84298320 9.981449e-001 -3.653651e-002 2.542744e-005 -5.758528e-005 -3.114852e-004 -2.765268e-005 9.931670e-001 -7.340020e-002
85048305 9.976474e-001 -3.589467e-002 1.698638e-004 2.756093e-005 -1.516880e-004 -1.735869e-005 9.926276e-001 -7.432969e-002
85798290 9.986218e-001 -3.712563e-002 -1.249649e-004 5.196438e-005 6.941544e-005 -1.492075e-004 9.933711e-001 -7.455119e-002
86548275 9.968823e-001 -3.926943e-002 -9.419774e-005 9.290747e-005 -2.339171e-004 -4.310835e-005 9.911454e-001 -7.507373e-002
87298260 9.987057e-001 -4.004267e-002 9.759979e-005 9.604275e-005 3.911218e-005 -1.558892e-004 9.911321e-001 -7.665610e-002
88048245 9.984454e-001 -4.068203e-002 2.739345e-004 -2.051083e-004 2.220993e-004 2.748977e-005 9.914698e-001 -7.384139e-002
88798230 9.959843e-001 -3.898976e-002 1.260804e-004 1.816708e-005 3.125671e-004 -6.782523e-005 9.925102e-001 -7.737951e-002
89548215 9.968607e-001 -3.886148e-002 -1.169996e-005 2.657064e-005 -1.343642e-004 2.270584e-004 9.906414e-001 -8.220716e-002
90298200 9.981934e-001 -4.032710e-002 -2.605663e-005 2.422996e-004 -2.049857e-004 2.031754e-004 9.923013e-001 -8.057214e-002
91048185 9.956571e-001 -3.937817e-002 1.038074e-004 -4.166170e-005 1.828809e-004 2.452269e-004 9.915265e-001 -7.605638e-002
91798170 9.975972e-001 -4.293701e-002 4.682283e-005 1.590641e-004 5.569928e-005 1.608875e-004 9.904190e-001 -7.947192e-002
92548155 9.979525e-001 -4.130170e-002 1.068185e-004 6.012641e-005 1.774571e-004 1.775886e-004 9.918756e-001 -8.120140e-002
93298140 9.989572e-001 -4.122652e-002 -7.727966e-005 8.068008e-005 5.567615e-006 -1.356538e-005 9.937910e-001 -8.412857e-002
94048125 9.985314e-001 -4.278389e-002 1.378134e-004 1.465696e-005 -7.767076e-004 2.219261e-004 9.916679e-001 -8.202158e-002
94798110 9.982965e-001 -4.121026e-002 -9.096749e-005 -2.547684e-004 1.195418e-004 2.550311e-004 9.924808e-001 -8.177996e-002
95548095 9.974728e-001 -4.154297e-002 -2.648347e-005 -7.225024e-005 1.806648e-004 -1.965832e-004 9.915566e-001 -8.310043e-002
96298080 9.975895e-001 -4.123659e-002 -1.187621e-004 1.094524e-005 2.139712e-004 1.774783e-004 9.906250e-001 -8.594864e-002
97048065 9.981985e-001 -4.267538e-002 5.918041e-005 -1.269014e-004 1.572832e-004 1.640618e-004 9.929584e-001 -8.448184e-002
97798050 9.981909e-001 -4.480486e-002 -1.174855e-004 7.121648e-005 -5.469451e-004 4.413759e-004 9.883631e-001 -8.483108e-002
98548035 9.966643e-001 -4.381599e-002 2.396197e-005 -8.653635e-005 -2.136740e-005 -3.388996e-006 9.908413e-001 -8.815867e-002
99298020 9.967791e-001 -4.275067e-002 7.473594e-005 3.439374e-005 1.891201e-004 4.127197e-004 9.925484e-001 -8.635400e-002
100048005 9.969812e-001 -4.377751e-002 1.391664e-004 -5.762931e-005 -2.012988e-004 -1.138448e-004 9.932590e-001 -8.557335e-002
100797990 9.956495e-001 -4.471169e-002 -1.618620e-005 4.449807e-005 4.432516e-004 -3.696416e-004 9.922544e-001 -8.408079e-002
101547975 9.972162e-001 -4.341270e-002 -1.141290e-005 -7.925701e-006 3.402713e-004 -2.660525e-004 9.923230e-001 -8.355854e-002
102297960 9.956474e-001 -4.503889e-002 8.501833e-005 -1.191292e-004 3.380337e-004 1.335763e-004 9.918740e-001 -9.011514e-002
103047945 9.946591e-001 -4.374697e-002 1.737418e-004 2.793127e-005 -1.382012e-004 4.137685e-005 9.919233e-001 -9.145692e-002
103797930 9.967829e-001 -4.391925e-002 2.736666e-005 1.623478e-005 -2.600442e-004 -7.128388e-006 9.901946e-001 -8.870479e-002
104547915 9.969397e-001 -4.530687e-002 1.859863e-005 -2.721562e-005 2.549911e-004 -1.028830e-004 9.908144e-001 -8.993252e-002
105297900 9.965717e-001 -4.596821e-002 -1.851321e-004 2.229109e-004 2.342932e-005 -8.608185e-005 9.912823e-001 -9.074915e-002
106047885 9.957599e-001 -4.639568e-002 4.218199e-005 6.125646e-005 -1.751940e-004 1.274219e-004 9.930475e-001 -9.035613e-002
106797870 9.977673e-001 -4.723650e-002 4.440856e-005 -2.555952e-005 1.098957e-004 1.017913e-004 9.908836e-001 -9.061820e-002
107547855 9.951258e-001 -4.745296e-002 2.486123e-005 1.574558e-004 -2.547098e-004 2.034616e-004 9.909353e-001 -9.039962e-002
108297840 9.951717e-001 -4.781535e-002 -9.054799e-005 5.099558e-005 4.648711e-005 4.916455e-004 9.914905e-001 -9.294776e-002
109047825 9.958386e-001 -4.758044e-002 3.699368e-006 6.693000e-005 1.839155e-004 2.849296e-004 9.911976e-001 -9.202755e-002
109797810 9.959750e-001 -4.778333e-002 1.474236e-004 6.374848e-005 -1.713349e-005 -1.319537e-004 9.869120e-001 -9.566011e-002
110547795 9.966143e-001 -4.886121e-002 -6.682988e-005 8.844605e-005 -5.013917e-005 1.604397e-004 9.907261e-001 -9.567887e-002
111297780 9.967700e-001 -4.980074e-002 -8.720065e-005 3.833887e-005 -1.593067e-004 1.641689e-004 9.894313e-001 -9.744748e-002
112047765 9.956853e-001 -4.963374e-002 7.845666e-006 -2.239076e-005 -9.257133e-005 3.579039e-004 9.911524e-001 -9.663833e-002
112797750 9.959747e-001 -5.015269e-002 1.174895e-004 -1.226811e-004 -3.552428e-005 4.340417e-005 9.915534e-001 -9.717514e-002
113547735 9.963124e-001 -4.972342e-002 -2.892491e-005 8.248645e-005 -1.568527e-004 -2.253627e-004 9.894769e-001 -1.002724e-001
114297720 9.965777e-001 -5.152744e-002 2.137774e-005 1.160444e-004 -1.405068e-004 -1.031842e-004 9.900576e-001 -9.785504e-002
115047705 9.956318e-001 -5.149262e-002 -1.159791e-004 -5.887305e-005 1.235350e-004 -2.099013e-004 9.928824e-001 -1.026180e-001
115797690 9.953671e-001 -5.114770e-002 3.773859e-005 -1.974203e-005 5.213685e-004 -2.240775e-004 9.879491e-001 -9.819733e-002
116547675 9.952925e-001 -5.138450e-002 6.094945e-005 -4.273363e-005 -5.580608e-005 2.376723e-004 9.883526e-001 -1.012309e-001
