!Agilent Technologies,N5230C,SG49000117,A.08.50.07
!Agilent N5230C: A.08.50.07
!Date: Monday, December 11, 2023 23:20:37
!Correction: S11(Full 2 Port(1,2)) 
!S21(Full 2 Port(1,2)) 
!S12(Full 2 Port(1,2)) 
!S22(Full 2 Port(1,2)) 
!S2P File: Measurements: S11, S21, S12, S22:
# Hz S  RI   R 50
300000 9.919229e-001 3.417680e-003 4.178942e-005 -1.250597e-004 1.671765e-004 1.164666e-004 9.867069e-001 4.866413e-003
1049985 9.921544e-001 3.150999e-003 4.517812e-005 7.747243e-005 -1.889837e-004 2.619206e-004 9.799381e-001 3.958012e-003
1799970 9.920152e-001 9.263585e-003 -1.005357e-004 -8.195781e-005 -1.331413e-005 -6.117031e-005 9.969055e-001 -6.041950e-003
2549955 9.985903e-001 -1.749415e-005 -8.811479e-005 -4.638590e-005 -1.916814e-004 -9.660145e-005 9.966370e-001 -4.071468e-003
3299940 9.988201e-001 -1.578778e-003 -9.854269e-006 1.616968e-005 8.032606e-005 -1.184754e-004 9.982330e-001 -6.386493e-003
4049925 9.991831e-001 -1.441483e-003 3.254489e-005 -2.531662e-006 5.966192e-005 1.904473e-005 9.959266e-001 -5.099654e-003
4799910 9.986864e-001 -1.717496e-003 -1.135276e-004 -9.046608e-005 7.919414e-006 7.857067e-005 9.955782e-001 -3.513984e-003
5549895 9.979646e-001 -2.669140e-003 -1.755882e-005 -2.361464e-005 3.854108e-005 2.446406e-005 9.957962e-001 -4.564162e-003
6299880 9.982089e-001 -3.112676e-003 -6.497454e-005 -4.259086e-005 1.410596e-005 -1.656234e-004 9.965707e-001 -3.903214e-003
7049865 9.986312e-001 -3.529386e-003 -1.343296e-005 -3.990028e-005 4.568042e-005 -1.429350e-004 9.962308e-001 -6.802758e-003
7799850 9.983661e-001 -3.057884e-003 8.954512e-005 -3.854791e-005 6.598374e-005 -1.129281e-004 9.957646e-001 -5.857390e-003
8549835 9.982943e-001 -3.313834e-003 -1.031204e-005 8.979290e-005 7.189146e-005 3.349145e-005 9.961518e-001 -6.210641e-003
9299820 9.977146e-001 -3.204940e-003 -1.573120e-005 9.314140e-005 -3.968432e-005 2.802779e-004 9.954345e-001 -8.159650e-003
10049805 9.983823e-001 -4.368170e-003 4.017452e-005 2.951871e-005 -6.514073e-005 -7.048700e-005 9.966884e-001 -1.011627e-002
10799790 9.990224e-001 -4.717502e-003 -2.635112e-005 -6.604188e-005 2.356942e-004 1.216755e-005 9.981166e-001 -9.920537e-003
11549775 9.990422e-001 -4.620144e-003 2.827348e-005 -5.846550e-005 -2.872801e-005 -1.307589e-004 9.960302e-001 -9.448693e-003
12299760 9.989066e-001 -5.431546e-003 3.866008e-005 2.759608e-006 -1.538810e-004 -3.663022e-005 9.960621e-001 -1.138043e-002
13049745 9.995529e-001 -5.604950e-003 9.222381e-006 -5.228007e-005 -4.058614e-005 -7.095824e-005 9.974076e-001 -1.160683e-002
13799730 9.986134e-001 -6.258034e-003 -4.919235e-005 1.210761e-005 -5.468845e-005 3.278399e-004 9.957099e-001 -1.432262e-002
14549715 9.984266e-001 -6.615906e-003 -3.938764e-005 6.907641e-005 9.737185e-005 -1.131485e-005 9.965836e-001 -1.256788e-002
15299700 9.986218e-001 -7.732412e-003 -8.094217e-005 2.021965e-005 -2.896719e-004 -2.456524e-005 9.968352e-001 -1.546604e-002
16049685 9.977270e-001 -7.032203e-003 -5.193979e-006 -6.147376e-005 -1.859520e-004 -1.605817e-004 9.973952e-001 -1.532438e-002
16799670 9.983268e-001 -7.282631e-003 -4.609800e-005 1.494480e-007 3.159352e-004 -3.265489e-005 9.971099e-001 -1.588701e-002
17549655 9.980422e-001 -7.877653e-003 -7.676725e-005 -1.432186e-005 -2.022855e-005 1.053386e-004 9.980385e-001 -1.755019e-002
18299640 9.984713e-001 -7.890251e-003 3.454755e-005 -6.093714e-005 5.325371e-005 9.625136e-005 9.968503e-001 -1.556858e-002
19049625 9.994742e-001 -8.866149e-003 -7.607513e-005 -5.529248e-005 -7.106287e-005 5.970180e-005 9.967098e-001 -1.791038e-002
19799610 9.990292e-001 -7.888682e-003 -4.713748e-005 -2.034481e-005 -8.511236e-005 7.191405e-005 9.980747e-001 -1.737415e-002
20549595 9.979938e-001 -9.878964e-003 -1.064466e-004 -8.327980e-005 1.420818e-004 -2.320882e-004 9.966254e-001 -1.664878e-002
21299580 9.978217e-001 -9.435482e-003 -1.033320e-005 6.932071e-005 1.762103e-004 -3.945540e-005 9.971879e-001 -1.888340e-002
22049565 9.988003e-001 -1.064309e-002 9.963320e-005 2.249514e-005 -1.998358e-005 2.862014e-004 9.971949e-001 -1.921999e-002
22799550 9.991995e-001 -1.064112e-002 9.066657e-005 8.995667e-005 -8.399692e-005 5.545034e-005 9.937488e-001 -2.089845e-002
23549535 9.991708e-001 -9.831237e-003 -3.016369e-005 3.052513e-005 -2.664508e-005 -8.124644e-006 9.960179e-001 -1.853717e-002
24299520 9.982204e-001 -1.050265e-002 2.348467e-005 1.314096e-004 -2.416482e-004 1.196948e-004 9.971048e-001 -2.071684e-002
25049505 9.980487e-001 -1.126896e-002 -2.818198e-005 -1.659254e-005 -8.439866e-005 -2.819979e-004 9.980546e-001 -2.150495e-002
25799490 9.983063e-001 -1.136848e-002 -1.010151e-004 1.051457e-004 -2.267650e-007 -2.332079e-004 9.959943e-001 -1.980407e-002
26549475 9.979159e-001 -1.098376e-002 -9.366460e-005 2.604745e-005 1.737618e-004 -7.348994e-005 9.947185e-001 -2.244789e-002
27299460 9.989356e-001 -1.128375e-002 -5.572257e-005 2.353133e-005 9.988319e-005 -8.644167e-005 9.949767e-001 -2.498053e-002
28049445 9.989530e-001 -1.230496e-002 5.022568e-006 -6.026316e-005 -5.570311e-005 3.188913e-004 9.961145e-001 -2.497275e-002
28799430 9.985665e-001 -1.246314e-002 -4.674423e-005 9.933380e-006 -1.533647e-004 3.649701e-004 9.952868e-001 -2.460220e-002
29549415 9.985897e-001 -1.280318e-002 -2.904049e-005 -4.864080e-005 -1.822635e-004 4.370831e-005 9.959810e-001 -2.510193e-002
30299400 9.986376e-001 -1.382264e-002 -4.668589e-005 -5.500730e-005 2.803434e-004 1.687577e-004 9.957657e-001 -2.529777e-002
31049385 9.981486e-001 -1.450764e-002 -1.207257e-005 -4.377288e-006 2.469562e-004 9.099657e-005 9.954640e-001 -2.595064e-002
31799370 9.981270e-001 -1.491106e-002 -3.435387e-005 2.515177e-005 2.535058e-004 1.698605e-004 9.946109e-001 -2.601013e-002
32549355 9.976657e-001 -1.320648e-002 -1.705304e-005 9.033280e-007 -1.725663e-005 1.753470e-004 9.946803e-001 -2.849594e-002
33299340 9.985358e-001 -1.413713e-002 -7.207836e-005 -5.694890e-005 4.689128e-005 -1.136377e-004 9.953407e-001 -2.954991e-002
34049325 9.977169e-001 -1.526302e-002 -1.842969e-005 3.627050e-005 2.311857e-004 -8.936826e-005 9.963762e-001 -2.907528e-002
34799310 9.991961e-001 -1.581379e-002 8.711125e-006 5.135755e-005 1.793720e-004 -1.187434e-005 9.956322e-001 -2.952266e-002
35549295 9.986892e-001 -1.575723e-002 -1.276797e-004 -4.901536e-005 2.130990e-004 1.329394e-004 9.961490e-001 -2.831051e-002
36299280 9.981084e-001 -1.506836e-002 4.973303e-005 -3.856419e-006 3.244241e-005 1.321631e-004 9.969407e-001 -3.109350e-002
37049265 9.983698e-001 -1.581380e-002 7.157602e-005 -1.977077e-005 -1.385018e-004 5.751030e-005 9.962540e-001 -3.270449e-002
37799250 9.987530e-001 -1.609968e-002 1.268446e-005 5.163389e-006 -8.040570e-005 -2.373802e-004 9.954294e-001 -3.286571e-002
38549235 9.977415e-001 -1.722512e-002 3.569899e-005 1.457308e-005 6.189720e-005 -1.021777e-004 9.970092e-001 -3.425068e-002
39299220 9.987441e-001 -1.741259e-002 -1.703518e-005 1.206042e-005 1.444490e-004 1.502926e-005 9.946085e-001 -3.327624e-002
40049205 1.000223e+000 -1.810754e-002 1.086457e-004 2.211449e-006 4.736732e-005 1.204327e-004 9.966782e-001 -3.453372e-002
40799190 9.993921e-001 -1.778586e-002 1.848726e-004 -8.210237e-006 8.054408e-005 1.998055e-004 9.948245e-001 -3.563957e-002
41549175 9.982916e-001 -1.957275e-002 5.069838e-005 4.513964e-005 -1.908792e-004 -3.481708e-004 9.956997e-001 -3.660306e-002
42299160 9.974350e-001 -1.832444e-002 9.641814e-005 3.450357e-005 -1.120133e-004 6.831591e-005 9.976825e-001 -3.601584e-002
43049145 9.983104e-001 -1.842065e-002 -7.357851e-005 -8.467450e-005 -2.422420e-004 5.175953e-006 9.963423e-001 -3.804563e-002
43799130 9.975507e-001 -2.033063e-002 -5.159381e-005 -5.011066e-005 1.683799e-004 -8.214438e-005 9.962845e-001 -3.708156e-002
44549115 9.990487e-001 -1.954389e-002 5.651026e-005 -2.462508e-005 2.590387e-005 -2.670663e-004 9.947957e-001 -3.525141e-002
45299100 9.980559e-001 -1.965500e-002 -1.293988e-004 -3.153007e-005 5.030156e-004 -1.509590e-004 9.982954e-001 -3.910551e-002
46049085 9.984772e-001 -2.198428e-002 -3.685308e-005 3.306233e-005 1.885288e-004 -9.734301e-005 9.953040e-001 -4.172220e-002
46799070 9.989983e-001 -2.067580e-002 -3.628568e-005 2.578926e-005 1.848539e-004 -6.706396e-005 9.977227e-001 -4.177722e-002
47549055 9.985092e-001 -2.195040e-002 -1.289602e-004 -5.553206e-005 1.334987e-004 1.088261e-004 9.927669e-001 -4.243938e-002
48299040 9.979888e-001 -2.272572e-002 7.303663e-005 -8.253061e-005 3.173327e-004 2.881619e-004 9.947448e-001 -4.253288e-002
49049025 9.968126e-001 -2.262536e-002 -1.023978e-004 -1.080145e-004 -8.874782e-005 2.559110e-004 9.967899e-001 -4.438581e-002
49799010 9.976352e-001 -2.293890e-002 -2.582139e-004 2.742471e-005 1.821059e-004 -1.188865e-004 9.947743e-001 -4.526765e-002
50548995 9.983897e-001 -2.337817e-002 4.002171e-005 -1.184981e-004 -9.318252e-005 4.135932e-004 9.971688e-001 -4.148483e-002
51298980 9.975724e-001 -2.224958e-002 -5.234842e-005 2.633501e-008 -2.666347e-004 2.653748e-004 9.978383e-001 -4.302920e-002
52048965 9.992167e-001 -2.284586e-002 5.479777e-005 -9.379282e-005 -1.019235e-004 -1.344274e-004 9.947677e-001 -4.681329e-002
52798950 9.982123e-001 -2.392468e-002 -7.306300e-005 8.532676e-006 -5.074210e-004 -2.278533e-004 9.941089e-001 -4.583919e-002
53548935 9.987943e-001 -2.342195e-002 -4.096065e-005 3.425236e-005 -6.629826e-005 2.667103e-005 9.936951e-001 -4.785100e-002
54298920 9.989554e-001 -2.438928e-002 -1.196443e-004 4.421367e-005 4.355899e-005 8.246197e-005 9.937511e-001 -5.143606e-002
55048905 9.986429e-001 -2.469155e-002 -5.554550e-005 -9.054146e-005 -5.984692e-004 1.759236e-004 9.967439e-001 -4.839217e-002
55798890 9.977455e-001 -2.364678e-002 -1.188297e-004 9.341732e-005 -5.534020e-005 -1.144930e-004 9.953130e-001 -4.965986e-002
56548875 9.979085e-001 -2.290113e-002 8.597058e-005 7.291633e-005 -3.680960e-004 -8.118124e-005 9.959127e-001 -4.755379e-002
57298860 9.987587e-001 -2.520283e-002 -9.835491e-006 -8.238450e-005 6.562842e-005 4.100926e-005 9.936231e-001 -5.176481e-002
58048845 9.982733e-001 -2.533034e-002 6.468698e-005 -1.549256e-004 -2.457471e-004 -1.457596e-004 9.934753e-001 -5.029230e-002
58798830 9.980004e-001 -2.565656e-002 -4.455292e-005 9.516542e-005 8.526353e-005 -4.736388e-004 9.950112e-001 -4.906859e-002
59548815 9.984766e-001 -2.576004e-002 -1.003155e-004 -7.693229e-005 4.066805e-004 -5.487823e-005 9.934132e-001 -4.919133e-002
60298800 9.991218e-001 -2.620453e-002 -3.368790e-005 -1.378716e-004 5.256438e-005 -2.571400e-004 9.941576e-001 -5.261804e-002
61048785 9.990253e-001 -2.766153e-002 4.258822e-005 -1.113335e-005 5.537498e-006 -3.501021e-004 9.942435e-001 -5.125567e-002
61798770 9.977409e-001 -2.746207e-002 -4.894016e-005 3.622246e-005 3.070917e-004 -5.208341e-004 9.967546e-001 -5.101762e-002
62548755 9.974702e-001 -2.718237e-002 -9.188132e-005 1.334570e-004 3.678280e-004 1.581560e-006 9.986975e-001 -5.326017e-002
63298740 9.976954e-001 -2.716368e-002 -5.789831e-006 -2.205510e-006 3.477417e-004 -7.373744e-004 9.976850e-001 -5.700126e-002
64048725 9.978453e-001 -2.790412e-002 -3.841328e-005 1.024247e-004 1.956786e-004 6.865674e-005 9.919622e-001 -5.506466e-002
64798710 9.993792e-001 -2.849669e-002 1.331205e-004 1.279765e-004 -9.975508e-005 4.525211e-004 9.931324e-001 -5.897640e-002
65548695 9.982280e-001 -2.856455e-002 -1.017020e-005 -2.253087e-005 2.778602e-004 -1.119269e-004 9.908028e-001 -5.620875e-002
66298680 9.978218e-001 -2.901589e-002 1.073724e-004 1.332760e-004 4.785157e-004 -1.702721e-004 9.953341e-001 -5.925821e-002
67048665 9.977773e-001 -2.941170e-002 -3.388453e-005 6.198626e-005 3.885294e-004 -3.761644e-004 9.960257e-001 -5.893634e-002
67798650 9.979645e-001 -2.909374e-002 -3.957672e-005 -1.469906e-005 9.423732e-005 -1.600054e-005 9.944474e-001 -5.981582e-002
68548635 9.979604e-001 -2.963103e-002 2.178492e-005 -8.213229e-006 7.729186e-005 2.934601e-004 9.937438e-001 -5.956388e-002
69298620 9.972998e-001 -3.084386e-002 -7.157432e-005 1.538060e-005 -2.257778e-004 1.857547e-004 9.936659e-001 -5.937349e-002
70048605 9.975126e-001 -3.100280e-002 -6.044321e-005 -1.715839e-005 2.329217e-005 1.314147e-004 9.979087e-001 -5.903986e-002
70798590 9.970769e-001 -3.172188e-002 1.350977e-005 -8.025043e-005 -4.938008e-004 -6.944297e-005 9.941170e-001 -6.026596e-002
71548575 9.991561e-001 -3.147629e-002 4.230715e-005 3.775500e-005 -3.863107e-005 7.843816e-005 9.948829e-001 -6.151314e-002
72298560 9.978089e-001 -3.199139e-002 1.007198e-004 -7.623710e-005 -1.006277e-004 7.664561e-005 9.945928e-001 -5.860442e-002
73048545 9.969955e-001 -3.327892e-002 9.486260e-005 -3.200210e-005 -3.073378e-004 2.128287e-004 9.945177e-001 -5.996801e-002
73798530 9.983745e-001 -3.265487e-002 8.323809e-005 8.707761e-005 -2.575384e-005 -1.177583e-005 9.931110e-001 -6.370524e-002
74548515 9.983329e-001 -3.258383e-002 -1.190832e-004 6.773694e-005 -1.347040e-004 1.004281e-004 9.930649e-001 -6.378178e-002
75298500 9.968497e-001 -3.185758e-002 -1.666293e-004 -1.521558e-005 -2.507670e-004 -1.591044e-004 9.902900e-001 -6.572419e-002
76048485 9.973006e-001 -3.356279e-002 -1.062388e-004 -4.253841e-005 -2.564267e-004 4.646161e-005 9.928222e-001 -6.617473e-002
76798470 9.955674e-001 -3.240759e-002 1.097997e-004 -1.016197e-004 -2.494790e-005 -3.384223e-004 9.936211e-001 -6.459223e-002
77548455 9.964331e-001 -3.517042e-002 1.308920e-004 1.034407e-004 -1.837581e-004 -2.566856e-004 9.933736e-001 -6.545412e-002
78298440 9.973624e-001 -3.572517e-002 -1.266075e-004 -2.887728e-005 -3.641630e-005 -4.313355e-004 9.932890e-001 -6.771912e-002
79048425 9.957274e-001 -3.526139e-002 -1.695399e-004 -2.579381e-005 2.472026e-004 -1.198358e-004 9.920527e-001 -6.890205e-002
79798410 9.969280e-001 -3.653889e-002 -3.638965e-005 -1.612286e-004 -1.938659e-004 -4.068821e-004 9.928197e-001 -6.851622e-002
80548395 9.974968e-001 -3.603314e-002 5.766339e-005 8.193401e-005 2.729827e-004 -1.036398e-004 9.940598e-001 -6.907424e-002
81298380 9.985546e-001 -3.624598e-002 -1.998815e-005 4.620288e-005 1.527725e-004 -5.835890e-005 9.937094e-001 -6.978931e-002
82048365 9.990999e-001 -3.642283e-002 -9.641875e-005 -1.302789e-005 2.594655e-004 -6.989296e-005 9.941894e-001 -6.825159e-002
82798350 9.983672e-001 -3.654031e-002 1.278179e-004 1.281640e-005 -2.050835e-005 -2.304820e-004 9.928755e-001 -6.882922e-002
83548335 9.981213e-001 -3.809616e-002 2.416795e-005 8.060149e-005 2.196060e-004 1.901473e-004 9.942206e-001 -7.342203e-002
84298320 9.965265e-001 -3.486534e-002 -8.939762e-005 -1.391774e-005 2.807560e-004 -6.925451e-007 9.918068e-001 -7.222515e-002
85048305 9.965439e-001 -3.466191e-002 4.478423e-005 1.186859e-004 3.595641e-005 2.240307e-004 9.923919e-001 -7.249831e-002
85798290 9.971202e-001 -3.821332e-002 5.682503e-005 6.179290e-005 -5.208643e-006 7.268051e-005 9.935164e-001 -7.430994e-002
86548275 9.975448e-001 -4.050460e-002 -1.915047e-004 7.677394e-006 -4.626758e-005 3.905805e-006 9.917771e-001 -7.589572e-002
87298260 9.999436e-001 -3.903608e-002 1.050943e-004 -2.082092e-005 -1.191747e-004 5.748994e-004 9.922196e-001 -7.587062e-002
88048245 9.976350e-001 -3.906310e-002 -5.377791e-005 4.620002e-006 2.112835e-004 -1.780527e-004 9.944007e-001 -7.693134e-002
88798230 9.972199e-001 -3.911555e-002 1.192744e-004 1.393046e-004 2.842867e-005 1.094933e-004 9.935365e-001 -7.737626e-002
89548215 9.977416e-001 -3.852951e-002 6.135622e-007 -1.050675e-004 -1.120567e-005 9.131400e-005 9.919675e-001 -8.002654e-002
90298200 9.983394e-001 -4.001253e-002 -5.704116e-005 -8.490081e-005 -6.195351e-005 -1.923230e-005 9.902149e-001 -8.028467e-002
91048185 9.958753e-001 -4.027362e-002 4.719876e-005 -2.085932e-004 1.492798e-004 7.726057e-005 9.917565e-001 -7.938990e-002
91798170 9.974117e-001 -4.188300e-002 -1.212964e-005 -4.301105e-005 -2.943851e-004 7.862352e-005 9.913445e-001 -7.911296e-002
92548155 9.977412e-001 -4.096211e-002 -1.437255e-004 -9.730537e-005 -1.593305e-004 2.650394e-004 9.913489e-001 -8.127660e-002
93298140 9.971841e-001 -4.035519e-002 -1.234835e-005 -7.227509e-005 -2.880362e-004 3.563855e-004 9.946127e-001 -8.224773e-002
94048125 9.981071e-001 -4.086280e-002 8.179313e-005 -5.894239e-005 -5.076622e-004 3.033195e-004 9.916749e-001 -8.408632e-002
94798110 9.986202e-001 -4.078755e-002 -1.938624e-004 -1.350547e-004 -8.228535e-005 -1.727722e-005 9.927816e-001 -8.221515e-002
95548095 9.984455e-001 -4.021097e-002 -2.798673e-005 -8.919228e-005 1.114090e-004 3.635567e-004 9.906071e-001 -8.145411e-002
96298080 9.977291e-001 -4.102944e-002 1.367133e-004 2.022928e-005 -5.997545e-005 -5.797737e-005 9.912157e-001 -8.228981e-002
97048065 9.972222e-001 -4.366482e-002 -1.084362e-004 1.467894e-004 1.519216e-004 3.559636e-005 9.920983e-001 -8.469278e-002
97798050 9.978079e-001 -4.358713e-002 -1.567214e-004 -9.616419e-005 -5.823732e-004 3.590162e-004 9.923475e-001 -8.563815e-002
98548035 9.957296e-001 -4.248984e-002 -1.241427e-004 5.411941e-005 7.168336e-004 -1.811987e-004 9.911032e-001 -8.592608e-002
99298020 9.961244e-001 -4.118327e-002 1.551845e-004 -2.622432e-005 -2.768694e-004 4.474598e-004 9.922141e-001 -8.886430e-002
100048005 9.979491e-001 -4.318109e-002 -4.030879e-007 -7.454724e-005 -2.138121e-004 -1.161287e-004 9.912227e-001 -8.785503e-002
100797990 9.959396e-001 -4.327629e-002 2.409575e-005 -3.376775e-006 -2.530890e-004 -1.776551e-004 9.924194e-001 -8.794569e-002
101547975 9.970751e-001 -4.438689e-002 -3.369362e-005 1.342433e-004 6.149299e-005 3.240261e-004 9.906474e-001 -8.566573e-002
102297960 9.962869e-001 -4.472271e-002 -1.176945e-004 5.285514e-005 1.988575e-004 -1.346968e-004 9.938392e-001 -8.924704e-002
103047945 9.951502e-001 -4.436322e-002 1.372837e-004 -5.866451e-005 -2.811326e-004 -3.924166e-004 9.912770e-001 -9.292261e-002
103797930 9.961631e-001 -4.386678e-002 5.575394e-005 -3.931067e-005 -1.994233e-004 7.001710e-005 9.903672e-001 -8.815996e-002
104547915 9.968312e-001 -4.464831e-002 -8.806865e-006 3.681990e-005 -1.583759e-004 5.863091e-005 9.900043e-001 -9.119137e-002
105297900 9.965159e-001 -4.370755e-002 -9.683728e-005 3.200915e-005 -9.628380e-005 1.584025e-005 9.928253e-001 -9.074614e-002
106047885 9.973456e-001 -4.640338e-002 -2.255997e-005 1.183724e-004 -1.912322e-004 1.722150e-004 9.918104e-001 -9.158658e-002
106797870 9.977792e-001 -4.566919e-002 9.857268e-005 3.578365e-005 2.123729e-004 -7.029680e-005 9.898673e-001 -9.247954e-002
107547855 9.964647e-001 -4.745120e-002 -1.743913e-004 -1.183897e-004 -4.326468e-005 -1.545119e-004 9.896566e-001 -9.178820e-002
108297840 9.952348e-001 -4.749836e-002 -1.039871e-004 7.305545e-005 -9.025756e-005 -3.493860e-004 9.886849e-001 -9.272112e-002
109047825 9.967725e-001 -4.738637e-002 3.350811e-005 -4.985388e-005 -3.358445e-004 -1.395459e-004 9.899818e-001 -9.311718e-002
109797810 9.952445e-001 -4.790983e-002 2.211386e-005 5.014552e-005 1.067083e-004 3.932597e-004 9.856961e-001 -9.481135e-002
110547795 9.963646e-001 -4.849103e-002 -4.767852e-005 2.419993e-005 2.977789e-004 2.377693e-004 9.909993e-001 -9.606253e-002
111297780 9.960953e-001 -4.885347e-002 4.499669e-005 -1.894795e-004 1.028376e-005 1.346369e-005 9.898735e-001 -9.697385e-002
112047765 9.972357e-001 -4.986388e-002 -4.411649e-006 -6.369408e-005 2.405757e-004 -6.242358e-005 9.903460e-001 -9.731657e-002
112797750 9.957491e-001 -4.932082e-002 -2.277524e-006 -2.010407e-005 8.358029e-005 2.750491e-004 9.896490e-001 -9.975163e-002
113547735 9.959916e-001 -5.007239e-002 -1.042741e-004 9.014548e-005 2.002772e-004 2.721625e-004 9.909300e-001 -9.783877e-002
114297720 9.965154e-001 -5.085946e-002 -6.830480e-005 -2.914213e-005 -1.784571e-004 -2.809265e-004 9.924646e-001 -1.003136e-001
115047705 9.962762e-001 -5.085066e-002 8.018591e-006 2.753038e-005 1.227740e-004 -6.327616e-005 9.912039e-001 -1.017124e-001
115797690 9.954647e-001 -5.108408e-002 -3.509052e-005 8.370556e-005 -1.274420e-004 -1.923473e-004 9.899096e-001 -9.917181e-002
116547675 9.956630e-001 -5.075022e-002 -1.181639e-004 -3.960844e-005 -2.016428e-004 -2.689752e-004 9.902095e-001 -1.022453e-001
