!Agilent Technologies,N5230C,SG49000117,A.08.50.07
!Agilent N5230C: A.08.50.07
!Date: Monday, December 11, 2023 23:22:14
!Correction: S11(Full 2 Port(1,2)) 
!S21(Full 2 Port(1,2)) 
!S12(Full 2 Port(1,2)) 
!S22(Full 2 Port(1,2)) 
!S2P File: Measurements: S11, S21, S12, S22:
# Hz S  RI   R 50
300000 9.916143e-001 5.350352e-003 -6.825165e-005 1.546379e-004 -1.424403e-004 -3.149257e-004 9.930117e-001 2.381513e-003
1049985 9.925428e-001 3.276549e-003 -1.097765e-005 -6.534719e-005 -1.205458e-004 -6.073570e-005 9.809439e-001 3.306690e-003
1799970 9.918808e-001 8.717020e-003 6.095331e-005 -9.139143e-006 1.491038e-004 -3.762745e-005 9.965976e-001 -6.209472e-003
2549955 9.980280e-001 5.576120e-004 -4.499111e-005 -1.499313e-004 -2.739758e-004 -1.388383e-004 9.969124e-001 -3.909293e-003
3299940 9.990133e-001 -9.830078e-004 -9.168704e-006 2.543155e-005 -1.589017e-004 -7.669655e-005 9.979890e-001 -6.638714e-003
4049925 9.987351e-001 -1.085021e-003 -2.353560e-005 2.740611e-005 1.608255e-004 -1.699202e-004 9.963301e-001 -4.026530e-003
4799910 9.989361e-001 -1.677543e-003 1.449465e-005 -4.483602e-005 1.865131e-005 -2.850191e-005 9.965554e-001 -4.435163e-003
5549895 9.979802e-001 -2.609216e-003 -4.395345e-005 -6.793116e-005 1.049606e-004 1.552639e-005 9.956374e-001 -5.397671e-003
6299880 9.988616e-001 -3.022922e-003 -5.360030e-005 4.423761e-005 -8.024777e-005 -2.379884e-005 9.954022e-001 -4.689251e-003
7049865 9.986061e-001 -3.209166e-003 -1.289979e-005 -3.283619e-005 -1.135645e-006 -8.167597e-005 9.966092e-001 -6.725915e-003
7799850 9.983325e-001 -3.131683e-003 6.631028e-005 5.681905e-005 2.934923e-005 -3.547042e-005 9.963051e-001 -5.757670e-003
8549835 9.983651e-001 -2.382962e-003 1.272780e-005 -2.796816e-005 -1.289109e-004 -5.376038e-006 9.958231e-001 -6.654341e-003
9299820 9.977805e-001 -3.370887e-003 2.979432e-005 -2.683497e-005 6.608738e-005 2.748569e-005 9.960148e-001 -8.590816e-003
10049805 9.985570e-001 -4.094703e-003 -1.551023e-005 4.878911e-005 6.025144e-005 -4.860906e-006 9.976874e-001 -9.953507e-003
10799790 9.994283e-001 -5.276862e-003 4.323365e-005 -1.284585e-005 1.814384e-004 8.978631e-005 9.981588e-001 -9.183178e-003
11549775 9.986222e-001 -4.596621e-003 3.440307e-005 -4.122516e-005 8.177182e-005 -1.546731e-004 9.960721e-001 -9.274449e-003
12299760 9.990562e-001 -5.227908e-003 -9.663386e-006 -5.118421e-005 -8.190399e-007 -1.580285e-004 9.957978e-001 -1.107091e-002
13049745 9.998838e-001 -5.489046e-003 -2.492079e-005 -4.633718e-006 -1.860171e-005 4.255182e-005 9.972182e-001 -1.212532e-002
13799730 9.981667e-001 -6.105207e-003 -5.757577e-005 3.462488e-005 -1.045683e-004 1.349011e-004 9.984465e-001 -1.380866e-002
14549715 9.987152e-001 -6.725775e-003 8.357257e-005 -5.043820e-005 -7.074069e-006 -1.984840e-005 9.971228e-001 -1.380458e-002
15299700 9.994040e-001 -7.281759e-003 -5.271917e-005 -5.941851e-005 -1.966113e-004 2.246084e-005 9.961663e-001 -1.570611e-002
16049685 9.983071e-001 -7.180247e-003 -1.134571e-004 6.200584e-006 -3.278570e-005 -1.657263e-004 9.965284e-001 -1.479784e-002
16799670 9.985143e-001 -6.999849e-003 -4.561779e-005 -6.051617e-005 -7.517353e-005 -1.892745e-004 9.973855e-001 -1.686496e-002
17549655 9.982619e-001 -7.734106e-003 -6.161931e-006 -5.550073e-005 1.408941e-004 -2.613928e-005 9.973855e-001 -1.815792e-002
18299640 9.983888e-001 -7.965750e-003 1.038275e-005 -4.838362e-005 5.236662e-005 -2.183341e-004 9.969727e-001 -1.681297e-002
19049625 9.989563e-001 -8.026043e-003 -3.593364e-005 -1.105935e-005 1.999292e-004 1.507703e-005 9.963292e-001 -1.717516e-002
19799610 9.988281e-001 -7.623551e-003 -6.588225e-006 8.869143e-005 1.393305e-005 4.878071e-005 9.957348e-001 -1.784878e-002
20549595 9.978817e-001 -1.047088e-002 4.660629e-005 -1.221107e-005 -2.014352e-005 7.549498e-005 9.981380e-001 -1.767986e-002
21299580 9.987366e-001 -9.890882e-003 5.916426e-005 -2.884094e-005 -1.427339e-004 2.363566e-004 9.987193e-001 -1.823407e-002
22049565 9.986270e-001 -1.067529e-002 -3.476305e-005 3.152862e-005 -1.365237e-004 -9.453575e-006 9.964566e-001 -1.834789e-002
22799550 9.997329e-001 -1.073982e-002 2.314153e-005 5.428706e-005 -1.386550e-004 -1.457186e-004 9.959233e-001 -2.006713e-002
23549535 9.985287e-001 -1.003701e-002 3.763397e-005 4.022489e-005 1.866152e-004 -2.344411e-004 9.962771e-001 -1.907920e-002
24299520 9.986517e-001 -1.084648e-002 8.411991e-005 4.837281e-005 1.096049e-005 -2.558322e-004 9.967807e-001 -2.163001e-002
25049505 9.984468e-001 -1.221256e-002 -2.837310e-005 -4.167239e-005 7.289808e-005 -1.697214e-004 9.985950e-001 -2.217911e-002
25799490 9.977638e-001 -1.199436e-002 4.219363e-005 -2.304922e-005 1.276860e-004 2.193545e-006 9.968773e-001 -2.181604e-002
26549475 9.983057e-001 -1.174729e-002 8.679433e-006 -3.260481e-005 3.855351e-005 1.149528e-004 9.946023e-001 -2.306402e-002
27299460 9.993878e-001 -1.208657e-002 -3.160499e-006 6.305249e-005 -4.898597e-006 2.179688e-004 9.950200e-001 -2.602002e-002
28049445 9.990419e-001 -1.241486e-002 -4.724817e-005 -2.396043e-005 1.474756e-006 3.059356e-005 9.966474e-001 -2.517591e-002
28799430 9.986368e-001 -1.303985e-002 5.867313e-005 -3.655619e-005 -2.126223e-004 -1.481359e-005 9.954536e-001 -2.467216e-002
29549415 9.988386e-001 -1.347238e-002 2.623743e-005 2.965791e-006 1.773851e-005 -3.371619e-005 9.968895e-001 -2.515668e-002
30299400 9.983020e-001 -1.389056e-002 2.657481e-005 7.581722e-005 4.856793e-005 -1.819100e-004 9.950231e-001 -2.489663e-002
31049385 9.977061e-001 -1.421728e-002 4.777351e-005 2.365154e-004 8.433501e-005 -1.612863e-004 9.950167e-001 -2.735584e-002
31799370 9.992334e-001 -1.463571e-002 -1.972479e-005 -6.513068e-005 1.314941e-004 3.118418e-004 9.947797e-001 -2.618999e-002
32549355 9.973356e-001 -1.348999e-002 7.926044e-005 1.498317e-004 1.809433e-004 8.214187e-005 9.948835e-001 -2.821329e-002
33299340 9.982468e-001 -1.357343e-002 1.295937e-005 4.116114e-006 1.086362e-004 1.388113e-004 9.952047e-001 -3.014629e-002
34049325 9.980494e-001 -1.466806e-002 -2.898200e-005 -2.097053e-005 -2.034149e-005 2.614390e-004 9.963909e-001 -2.857120e-002
34799310 9.987439e-001 -1.536829e-002 2.328720e-005 4.509557e-005 -2.101758e-004 -3.007387e-005 9.967516e-001 -3.069868e-002
35549295 9.983166e-001 -1.510526e-002 3.312387e-005 4.924096e-005 -1.248126e-004 -1.014772e-005 9.955680e-001 -2.976168e-002
36299280 9.979632e-001 -1.568612e-002 -1.759056e-005 6.825065e-005 -2.118978e-004 -4.954176e-005 9.967445e-001 -3.091187e-002
37049265 9.980006e-001 -1.658893e-002 8.993383e-005 1.316106e-005 -1.105398e-004 -1.230707e-004 9.964151e-001 -3.374465e-002
37799250 9.982230e-001 -1.677094e-002 -1.182885e-004 -8.564367e-005 -5.449756e-005 -1.335359e-004 9.965851e-001 -3.351015e-002
38549235 9.986892e-001 -1.641589e-002 -9.909258e-005 -1.082318e-005 2.365953e-004 -1.292504e-004 9.980314e-001 -3.381110e-002
39299220 9.980909e-001 -1.715081e-002 -2.176959e-005 -8.722179e-005 2.230286e-004 2.441272e-005 9.951370e-001 -3.385030e-002
40049205 9.999313e-001 -1.912526e-002 -1.571593e-006 -1.858418e-004 -1.895778e-004 2.221325e-004 9.968234e-001 -3.428104e-002
40799190 9.995694e-001 -1.867349e-002 -1.022288e-004 3.692757e-005 -3.631031e-005 1.487303e-005 9.959115e-001 -3.491320e-002
41549175 9.973711e-001 -1.897715e-002 1.092614e-005 -4.756044e-005 -1.792530e-004 -2.128951e-005 9.949639e-001 -3.752566e-002
42299160 9.982532e-001 -1.726110e-002 -2.541372e-004 2.013094e-004 1.787741e-004 1.195850e-005 9.965128e-001 -3.749416e-002
43049145 9.980415e-001 -1.754814e-002 1.509613e-004 9.937611e-006 1.722639e-004 1.901986e-004 9.956212e-001 -3.691609e-002
43799130 9.990070e-001 -1.957629e-002 -4.737424e-005 -1.430213e-004 2.294994e-004 -2.618311e-004 9.957748e-001 -3.884525e-002
44549115 9.973419e-001 -2.031137e-002 -9.032682e-005 -9.503058e-005 2.697440e-004 7.437665e-005 9.949567e-001 -3.798995e-002
45299100 9.984681e-001 -1.954775e-002 -1.792228e-004 -9.363098e-005 2.527398e-004 1.804224e-004 9.972641e-001 -3.849474e-002
46049085 9.983745e-001 -2.034218e-002 1.431403e-004 5.125780e-005 -9.244675e-005 -2.560703e-004 9.949426e-001 -4.191797e-002
46799070 9.994096e-001 -1.942436e-002 -1.550672e-004 1.058629e-004 8.466378e-005 -2.480662e-004 9.977722e-001 -4.206192e-002
47549055 9.988346e-001 -2.253623e-002 3.143487e-005 -6.836478e-005 5.867064e-006 1.656725e-004 9.912411e-001 -4.171157e-002
48299040 9.980082e-001 -2.196198e-002 5.772565e-005 4.228262e-005 2.739807e-005 1.846290e-004 9.949966e-001 -4.290849e-002
49049025 9.978253e-001 -2.220246e-002 3.936132e-005 -1.923023e-004 -4.860199e-005 2.507766e-005 9.968489e-001 -4.453127e-002
49799010 9.979732e-001 -2.137629e-002 -7.100884e-005 -1.476897e-004 -4.622985e-004 -3.646107e-006 9.963791e-001 -4.468033e-002
50548995 9.978012e-001 -2.226113e-002 -4.197772e-005 6.387725e-005 -1.656114e-004 -5.469865e-006 9.948499e-001 -4.428190e-002
51298980 9.988835e-001 -2.136920e-002 1.112176e-004 6.415621e-006 8.007945e-005 -2.271688e-004 9.969400e-001 -4.215474e-002
52048965 9.987940e-001 -2.239777e-002 -2.895963e-005 -1.666364e-004 -2.535932e-004 1.257120e-004 9.950147e-001 -4.872248e-002
52798950 9.989426e-001 -2.439790e-002 3.196875e-005 -8.164126e-006 -1.802839e-005 1.389372e-004 9.946172e-001 -4.621010e-002
53548935 9.992869e-001 -2.316003e-002 6.221898e-005 -6.399323e-006 -6.750915e-005 1.159996e-004 9.938182e-001 -4.927191e-002
54298920 9.990841e-001 -2.447034e-002 6.449405e-006 -6.600627e-005 -4.274269e-004 -2.609786e-004 9.964144e-001 -4.883846e-002
55048905 9.993501e-001 -2.429243e-002 -1.244285e-004 1.221036e-005 8.524534e-005 1.960412e-004 9.960741e-001 -4.948681e-002
55798890 9.974084e-001 -2.372151e-002 1.676177e-006 8.423832e-005 -2.543660e-004 8.615509e-005 9.945555e-001 -4.746462e-002
56548875 9.975477e-001 -2.308107e-002 -5.571934e-005 3.327979e-005 -1.182050e-004 -1.958708e-004 9.951575e-001 -4.707577e-002
57298860 9.990521e-001 -2.478106e-002 6.401768e-005 1.091307e-004 -1.348876e-004 -3.616119e-004 9.941505e-001 -4.944559e-002
58048845 9.982004e-001 -2.485866e-002 -3.296851e-005 1.613632e-004 3.946015e-004 5.106830e-005 9.946853e-001 -5.148927e-002
58798830 9.974494e-001 -2.580638e-002 1.405216e-004 -9.738543e-005 2.775700e-004 -1.062387e-004 9.938446e-001 -5.141180e-002
59548815 9.985653e-001 -2.550002e-002 -5.373393e-005 4.063690e-005 2.385573e-004 -2.251290e-004 9.940567e-001 -4.981286e-002
60298800 9.985831e-001 -2.675102e-002 -2.686946e-005 -8.694379e-005 6.046777e-004 -2.966495e-004 9.918672e-001 -5.027486e-002
61048785 9.981070e-001 -2.722554e-002 -1.595483e-005 -7.579802e-005 -4.521775e-006 1.594927e-004 9.934665e-001 -5.284747e-002
61798770 9.979568e-001 -2.677659e-002 9.933453e-005 6.774077e-005 -2.088335e-005 -1.723171e-004 9.967223e-001 -5.306552e-002
62548755 9.972591e-001 -2.680380e-002 5.358625e-005 -2.073816e-005 1.724659e-004 3.569541e-004 1.000648e+000 -5.663355e-002
63298740 9.971788e-001 -2.814842e-002 3.037206e-006 5.711102e-006 7.745096e-005 3.478497e-004 9.990084e-001 -5.652654e-002
64048725 9.974413e-001 -2.763907e-002 6.336760e-005 1.092878e-005 -2.491622e-004 3.628912e-004 9.941458e-001 -5.484254e-002
64798710 9.988393e-001 -2.870758e-002 -1.099334e-004 1.203025e-004 -1.800495e-004 2.778877e-005 9.945850e-001 -5.768922e-002
65548695 9.980588e-001 -2.826726e-002 2.518967e-005 5.424587e-005 -4.488349e-004 -1.201028e-004 9.923103e-001 -5.723844e-002
66298680 9.980747e-001 -2.838794e-002 -7.296978e-005 5.827573e-005 2.502894e-004 -1.648924e-004 9.926551e-001 -5.760310e-002
67048665 9.989654e-001 -2.891373e-002 1.595933e-005 2.219337e-006 -1.974126e-004 -1.313210e-004 9.961473e-001 -5.758007e-002
67798650 9.986771e-001 -2.903572e-002 -3.662380e-005 8.783528e-005 -2.074955e-004 -2.528670e-004 9.945038e-001 -5.831382e-002
68548635 9.975862e-001 -3.017405e-002 6.102034e-005 -8.673058e-005 -1.922470e-004 2.295851e-004 9.930097e-001 -5.866798e-002
69298620 9.970132e-001 -3.106071e-002 -5.362115e-005 3.044055e-005 2.296196e-004 -4.432282e-004 9.928396e-001 -5.627802e-002
70048605 9.975736e-001 -3.128496e-002 3.634823e-005 8.274292e-007 -4.674786e-004 -4.496535e-005 9.938036e-001 -6.166026e-002
70798590 9.976910e-001 -3.206804e-002 5.160175e-006 7.749918e-005 6.737496e-005 5.977594e-005 9.972715e-001 -5.996650e-002
71548575 9.986073e-001 -3.109874e-002 3.824616e-005 2.744637e-005 -3.338708e-004 -5.785603e-006 9.930885e-001 -6.189908e-002
72298560 9.973637e-001 -3.213274e-002 1.637353e-004 -4.874545e-005 -2.690132e-004 -1.179846e-004 9.949301e-001 -6.062025e-002
73048545 9.979720e-001 -3.230008e-002 5.225284e-005 5.330619e-005 -2.238064e-004 -8.345855e-005 9.961812e-001 -6.181712e-002
73798530 9.976205e-001 -3.341005e-002 -1.402127e-004 1.094630e-004 2.499065e-004 -7.850768e-005 9.932498e-001 -6.383725e-002
74548515 9.983981e-001 -3.256206e-002 -1.784277e-004 1.243887e-004 -1.216628e-005 2.669330e-005 9.925254e-001 -6.221729e-002
75298500 9.974164e-001 -3.162662e-002 5.593776e-005 -6.013441e-005 4.722164e-005 -2.598746e-004 9.902347e-001 -6.426247e-002
76048485 9.976073e-001 -3.247949e-002 1.097041e-004 4.500961e-005 1.806832e-004 -1.959180e-004 9.950922e-001 -6.632350e-002
76798470 9.964371e-001 -3.311324e-002 4.603657e-005 -9.510533e-005 -2.483997e-004 1.263642e-004 9.932036e-001 -6.737691e-002
77548455 9.974980e-001 -3.505583e-002 1.448765e-004 -8.145505e-005 3.248844e-004 -9.531349e-005 9.934783e-001 -6.346910e-002
78298440 9.972417e-001 -3.617582e-002 1.118615e-004 2.338100e-006 2.900563e-004 4.290207e-005 9.915346e-001 -6.730390e-002
79048425 9.964532e-001 -3.651529e-002 -7.902057e-005 -1.288749e-005 3.191707e-004 -1.783085e-004 9.916731e-001 -6.619574e-002
79798410 9.971285e-001 -3.632621e-002 -5.234265e-005 -1.801049e-005 1.302709e-004 1.418085e-004 9.935356e-001 -6.638002e-002
80548395 9.970607e-001 -3.591115e-002 -8.147927e-005 1.525684e-005 1.128986e-004 -1.030247e-004 9.924763e-001 -6.660841e-002
81298380 9.978327e-001 -3.494935e-002 1.345191e-005 -1.022786e-004 1.836314e-004 -3.311721e-004 9.925175e-001 -7.013590e-002
82048365 9.989818e-001 -3.530959e-002 -4.547689e-005 -1.122111e-004 -2.906243e-005 5.301465e-005 9.940506e-001 -6.840827e-002
82798350 9.993757e-001 -3.664750e-002 1.324533e-004 -1.621143e-004 4.161002e-004 -3.324121e-004 9.910452e-001 -6.905863e-002
83548335 9.988585e-001 -3.686721e-002 -1.546085e-004 -1.402018e-004 -1.162393e-004 1.851827e-004 9.915492e-001 -7.361427e-002
84298320 9.987738e-001 -3.568900e-002 4.242006e-005 -1.391656e-005 4.073553e-004 -1.218680e-004 9.924374e-001 -7.163984e-002
85048305 9.975682e-001 -3.621263e-002 -4.353676e-005 1.734035e-004 2.179523e-006 -2.343883e-004 9.933944e-001 -7.345910e-002
85798290 9.974998e-001 -3.738203e-002 -1.102181e-004 1.493671e-004 1.786107e-004 -4.430979e-005 9.935153e-001 -7.439826e-002
86548275 9.979978e-001 -3.831991e-002 1.019625e-004 5.570781e-005 1.539025e-004 8.243709e-005 9.915920e-001 -7.493842e-002
87298260 9.985891e-001 -3.880317e-002 2.620443e-005 -5.045309e-005 1.928424e-004 1.628748e-004 9.920847e-001 -7.643102e-002
88048245 9.985304e-001 -3.949342e-002 3.991611e-005 -1.648763e-005 -1.859134e-004 4.039317e-005 9.923188e-001 -7.485491e-002
88798230 9.961689e-001 -3.878601e-002 1.764956e-004 5.228766e-005 -5.168593e-005 4.893620e-004 9.940464e-001 -7.818046e-002
89548215 9.976165e-001 -3.855218e-002 4.071465e-005 -1.373765e-005 1.534482e-004 4.043351e-004 9.898085e-001 -8.144631e-002
90298200 9.985229e-001 -4.023881e-002 -3.047831e-008 -2.825537e-005 -1.611215e-004 3.140810e-004 9.904478e-001 -7.994087e-002
91048185 9.958304e-001 -3.938836e-002 -1.036893e-004 1.422051e-005 2.003489e-004 2.266738e-004 9.929440e-001 -7.858498e-002
91798170 9.973786e-001 -3.998310e-002 -1.499990e-004 5.209807e-005 1.509654e-004 9.401460e-005 9.892358e-001 -7.779471e-002
92548155 9.990038e-001 -4.123532e-002 -8.279523e-005 9.438043e-005 -1.504110e-004 -6.087484e-005 9.916341e-001 -8.446682e-002
93298140 9.974898e-001 -4.009198e-002 -8.811601e-005 1.499638e-004 3.695618e-004 1.895778e-005 9.927287e-001 -8.158667e-002
94048125 9.980263e-001 -4.208070e-002 1.811254e-005 -1.540568e-004 -1.449864e-004 2.123560e-004 9.927476e-001 -8.259936e-002
94798110 9.979705e-001 -4.131403e-002 -8.510207e-005 1.228003e-004 -3.115206e-004 9.163421e-005 9.925733e-001 -8.332924e-002
95548095 9.975654e-001 -4.020694e-002 1.671198e-004 -1.738368e-004 -1.888539e-004 -4.767894e-005 9.912792e-001 -8.096303e-002
96298080 9.971988e-001 -4.036883e-002 1.036493e-004 2.821844e-005 -3.881864e-004 -3.887446e-004 9.914625e-001 -8.127449e-002
97048065 9.970221e-001 -4.276657e-002 1.126709e-004 1.035895e-004 -3.370190e-004 6.893447e-005 9.934355e-001 -8.651750e-002
97798050 9.977316e-001 -4.319448e-002 9.209555e-005 2.621403e-005 -1.793332e-004 -3.466654e-004 9.921841e-001 -8.720581e-002
98548035 9.963955e-001 -4.305696e-002 -8.066549e-005 7.796712e-005 1.617966e-004 -1.197544e-004 9.892303e-001 -8.827949e-002
99298020 9.958161e-001 -4.216681e-002 -1.097274e-004 1.006547e-004 2.155378e-004 1.984808e-004 9.917766e-001 -8.616681e-002
100048005 9.964554e-001 -4.214915e-002 3.771562e-005 -1.775265e-004 -1.785151e-004 5.961121e-005 9.907020e-001 -8.812517e-002
100797990 9.952890e-001 -4.256248e-002 1.804385e-004 -1.299754e-005 8.867514e-005 2.902007e-005 9.905438e-001 -8.715832e-002
101547975 9.970425e-001 -4.434855e-002 5.373028e-005 -1.034160e-004 2.094366e-004 -3.727461e-006 9.898584e-001 -8.408999e-002
102297960 9.962768e-001 -4.616093e-002 3.238688e-005 -9.150156e-005 -2.467912e-004 -1.307057e-004 9.935819e-001 -8.769459e-002
103047945 9.949499e-001 -4.462637e-002 2.983513e-006 3.592399e-005 3.324295e-004 1.727274e-004 9.918557e-001 -9.281234e-002
103797930 9.959009e-001 -4.443625e-002 -1.103414e-004 -1.677841e-005 9.208126e-005 -1.950158e-004 9.890060e-001 -8.922876e-002
104547915 9.958087e-001 -4.465505e-002 6.974428e-005 1.035967e-004 -3.059033e-004 -2.167473e-004 9.923267e-001 -9.312321e-002
105297900 9.963971e-001 -4.579483e-002 8.760197e-006 3.169389e-005 1.628950e-004 4.090087e-004 9.931603e-001 -9.181647e-002
106047885 9.978099e-001 -4.675025e-002 -1.192717e-004 -2.700235e-006 1.284262e-004 4.445996e-004 9.923884e-001 -9.129892e-002
106797870 9.974646e-001 -4.700734e-002 -2.252928e-005 -3.183681e-005 6.578604e-005 1.014003e-004 9.900412e-001 -9.033535e-002
107547855 9.955849e-001 -4.598430e-002 1.425161e-004 7.566606e-005 -5.621133e-004 -1.132234e-004 9.924483e-001 -9.103370e-002
108297840 9.951479e-001 -4.690967e-002 -2.787183e-005 -5.427441e-005 -7.538443e-005 1.613792e-004 9.907812e-001 -9.086482e-002
109047825 9.954000e-001 -4.658476e-002 1.138991e-004 -1.626469e-004 7.351615e-006 -1.584350e-004 9.913267e-001 -9.098881e-002
109797810 9.955733e-001 -4.734030e-002 -1.312910e-004 1.144247e-004 -8.965996e-005 1.898898e-004 9.876425e-001 -9.407640e-002
110547795 9.966578e-001 -4.781093e-002 -1.548451e-004 -1.111187e-004 -1.821927e-004 8.716426e-005 9.907461e-001 -9.612101e-002
111297780 9.971308e-001 -4.908439e-002 -1.444147e-004 -6.985230e-005 -2.778707e-004 -1.510774e-004 9.912269e-001 -9.633128e-002
112047765 9.951690e-001 -4.921672e-002 -2.593043e-005 2.941148e-005 3.205023e-005 1.075246e-004 9.910160e-001 -9.628651e-002
112797750 9.969728e-001 -5.038564e-002 -5.404934e-005 -1.932188e-005 1.889440e-004 3.120944e-004 9.918562e-001 -9.718088e-002
113547735 9.957653e-001 -4.915803e-002 -1.298773e-004 1.486514e-004 -1.673008e-004 -1.533612e-004 9.889423e-001 -9.848125e-002
114297720 9.964841e-001 -5.042889e-002 -9.140620e-005 -1.737788e-006 7.150653e-005 1.346346e-004 9.917555e-001 -9.909574e-002
115047705 9.952425e-001 -5.011364e-002 8.476937e-005 -7.112006e-005 6.118020e-005 -4.775457e-005 9.929150e-001 -1.005385e-001
115797690 9.950789e-001 -5.083716e-002 5.151115e-005 -2.243522e-005 -3.826462e-005 6.675159e-005 9.883233e-001 -9.803462e-002
116547675 9.957315e-001 -5.001978e-002 -3.139352e-005 -1.576892e-004 4.035671e-005 9.886292e-006 9.888983e-001 -1.006656e-001
