!Agilent Technologies,N5230C,SG49000117,A.08.50.07
!Agilent N5230C: A.08.50.07
!Date: Monday, December 11, 2023 23:24:05
!Correction: S11(Full 2 Port(1,2)) 
!S21(Full 2 Port(1,2)) 
!S12(Full 2 Port(1,2)) 
!S22(Full 2 Port(1,2)) 
!S2P File: Measurements: S11, S21, S12, S22:
# Hz S  RI   R 50
300000 9.922383e-001 4.829826e-003 -4.827771e-005 4.696399e-005 -4.739685e-004 3.586716e-004 9.922327e-001 6.869797e-004
1049985 9.931427e-001 2.806454e-003 5.648467e-005 8.924409e-005 -1.146939e-004 4.809335e-005 9.837950e-001 4.072113e-003
1799970 9.925950e-001 8.301698e-003 2.209759e-005 -2.870560e-005 -1.873813e-004 -1.924204e-004 9.957542e-001 -6.298606e-003
2549955 9.979663e-001 4.489059e-004 -7.508303e-005 1.993618e-005 3.405555e-005 1.623891e-004 9.970918e-001 -4.127512e-003
3299940 9.990828e-001 -1.359080e-003 -2.515977e-005 -3.508808e-005 2.230234e-004 -2.404422e-004 9.998847e-001 -6.587202e-003
4049925 9.992001e-001 -6.581116e-004 2.673650e-005 1.588828e-005 -5.529679e-005 1.135349e-004 9.957342e-001 -3.989317e-003
4799910 9.986594e-001 -1.144210e-003 -5.022194e-006 -1.561150e-005 -9.652076e-005 1.975808e-004 9.960151e-001 -4.071563e-003
5549895 9.978915e-001 -2.784051e-003 1.832122e-005 1.309458e-004 -3.569961e-005 9.992086e-005 9.954786e-001 -4.259336e-003
6299880 9.984727e-001 -3.018166e-003 8.733833e-005 1.247265e-005 6.765422e-005 1.759447e-004 9.954300e-001 -4.248431e-003
7049865 9.987605e-001 -3.469690e-003 2.838174e-005 -9.048559e-006 1.535517e-004 -4.638696e-005 9.964002e-001 -6.277746e-003
7799850 9.982504e-001 -3.368895e-003 8.881657e-005 1.703607e-005 -8.206088e-005 1.338203e-004 9.950688e-001 -5.670234e-003
8549835 9.980411e-001 -2.921399e-003 2.927481e-006 -1.320945e-005 6.147399e-005 -1.316377e-005 9.962009e-001 -6.542319e-003
9299820 9.981418e-001 -3.820179e-003 3.032397e-005 -2.875078e-005 -6.490425e-005 1.162088e-004 9.949473e-001 -7.044293e-003
10049805 9.986808e-001 -4.614665e-003 8.192884e-006 -6.378823e-005 9.404799e-005 1.038551e-004 9.967049e-001 -9.411949e-003
10799790 9.990476e-001 -5.347215e-003 8.608137e-005 6.816442e-005 -7.817514e-005 -2.319608e-004 9.965307e-001 -1.017993e-002
11549775 9.987349e-001 -4.360019e-003 -1.898841e-005 6.866837e-005 1.080839e-005 -6.250753e-005 9.961104e-001 -1.012088e-002
12299760 9.990757e-001 -5.371591e-003 -1.024834e-005 -4.647797e-005 -7.062294e-005 3.294515e-005 9.957351e-001 -1.249347e-002
13049745 9.994915e-001 -5.867140e-003 -5.285280e-005 6.073257e-005 2.920205e-005 -3.131185e-006 9.960172e-001 -1.109374e-002
13799730 9.984377e-001 -5.821017e-003 7.660900e-005 4.415866e-005 -5.645988e-005 -8.350633e-005 9.968255e-001 -1.382347e-002
14549715 9.982744e-001 -6.222756e-003 -3.341131e-005 -3.160344e-005 -1.067821e-004 -2.859566e-004 9.966038e-001 -1.368384e-002
15299700 9.991974e-001 -7.607988e-003 -2.237459e-006 9.695961e-005 1.135680e-004 -8.993699e-005 9.956545e-001 -1.449268e-002
16049685 9.981008e-001 -6.677296e-003 -2.395704e-005 1.287986e-005 2.111871e-004 1.631920e-004 9.962767e-001 -1.410022e-002
16799670 9.985051e-001 -7.512928e-003 1.153491e-004 3.221737e-007 1.887721e-004 1.723253e-004 9.964846e-001 -1.553953e-002
17549655 9.987760e-001 -8.135659e-003 9.225457e-005 2.522008e-005 -1.663349e-004 2.233678e-004 9.977603e-001 -1.757676e-002
18299640 9.979125e-001 -8.217050e-003 -4.672474e-005 9.288031e-006 -1.581392e-004 1.740053e-004 9.964943e-001 -1.635698e-002
19049625 9.992058e-001 -8.571393e-003 -1.809394e-004 -5.010571e-005 1.631778e-004 -1.568965e-004 9.968453e-001 -1.826264e-002
19799610 9.986913e-001 -8.821398e-003 -4.144454e-005 -1.052040e-005 1.384944e-004 -1.768968e-005 9.955935e-001 -1.686457e-002
20549595 9.974443e-001 -9.437574e-003 -1.155972e-004 -2.126852e-006 2.317692e-004 -2.210863e-004 9.955822e-001 -1.710876e-002
21299580 9.982111e-001 -9.731881e-003 2.285103e-005 2.646474e-005 -4.995022e-005 2.740897e-004 9.971967e-001 -1.948721e-002
22049565 9.984580e-001 -1.053361e-002 2.701412e-005 6.704017e-005 -2.242514e-004 2.222427e-004 9.957082e-001 -1.906568e-002
22799550 9.996523e-001 -1.042918e-002 -8.204113e-005 4.797472e-005 -1.242615e-004 -1.456908e-004 9.952990e-001 -1.894450e-002
23549535 9.984920e-001 -1.048151e-002 -2.926951e-005 7.372213e-005 2.808337e-005 -1.863532e-004 9.957572e-001 -1.874862e-002
24299520 9.982699e-001 -1.083350e-002 -5.966240e-005 3.269484e-005 -1.111636e-004 -2.129859e-004 9.979284e-001 -2.041856e-002
25049505 9.987395e-001 -1.064939e-002 -3.223224e-005 4.163300e-005 1.305915e-004 -2.739176e-004 9.980132e-001 -2.134420e-002
25799490 9.979416e-001 -1.095244e-002 9.195072e-005 7.728116e-005 3.694569e-004 5.873707e-005 9.957181e-001 -2.189389e-002
26549475 9.981421e-001 -1.121007e-002 1.062716e-005 9.165844e-005 4.526976e-005 2.428729e-004 9.957466e-001 -2.108256e-002
27299460 9.989160e-001 -1.173900e-002 -9.886018e-005 -2.375737e-005 -1.071268e-004 -5.147386e-006 9.958991e-001 -2.504861e-002
28049445 9.990138e-001 -1.228429e-002 -6.965105e-005 6.176019e-006 -8.580553e-005 3.852002e-005 9.949827e-001 -2.467065e-002
28799430 9.977172e-001 -1.345214e-002 -4.292527e-005 6.739150e-005 -1.169361e-004 -6.847944e-005 9.953257e-001 -2.475874e-002
29549415 9.986032e-001 -1.269835e-002 7.928972e-005 5.694244e-005 1.547942e-004 -8.495752e-005 9.969394e-001 -2.584367e-002
30299400 9.996455e-001 -1.377228e-002 -1.394234e-005 -1.092918e-005 -5.816801e-005 -2.801455e-004 9.974844e-001 -2.555049e-002
31049385 9.986185e-001 -1.387000e-002 -7.017368e-005 8.328765e-005 5.626131e-005 -1.963504e-004 9.942908e-001 -2.646239e-002
31799370 9.978318e-001 -1.408454e-002 -1.464940e-005 -5.859460e-005 1.609115e-004 7.325179e-005 9.942134e-001 -2.656067e-002
32549355 9.976429e-001 -1.383136e-002 2.314456e-005 8.003601e-005 -5.961738e-005 1.779902e-006 9.958775e-001 -2.854090e-002
33299340 9.988406e-001 -1.440069e-002 -7.016010e-005 1.021476e-004 -1.975734e-004 7.275287e-005 9.954874e-001 -2.927962e-002
34049325 9.987723e-001 -1.519784e-002 -1.804171e-005 -4.469631e-005 -1.539998e-004 -2.034810e-005 9.967082e-001 -2.907117e-002
34799310 9.997712e-001 -1.525824e-002 1.442574e-004 -4.166610e-005 -1.243552e-005 -1.188327e-004 9.962267e-001 -3.032041e-002
35549295 9.982353e-001 -1.618623e-002 -2.756579e-005 -8.039057e-006 2.137559e-004 -1.360290e-004 9.959889e-001 -2.865990e-002
36299280 9.977891e-001 -1.605003e-002 -1.056037e-004 1.899456e-005 2.000604e-004 6.752822e-005 9.955081e-001 -3.090187e-002
37049265 9.979807e-001 -1.626251e-002 5.569911e-005 -7.859760e-005 1.264699e-004 1.703137e-004 9.955520e-001 -3.324322e-002
37799250 9.988721e-001 -1.643484e-002 3.992629e-005 2.085485e-005 8.260002e-006 2.757575e-004 9.972904e-001 -3.292387e-002
38549235 9.979482e-001 -1.696655e-002 6.068240e-005 5.122793e-005 -1.484039e-004 8.293072e-005 9.976268e-001 -3.359257e-002
39299220 9.983097e-001 -1.742378e-002 -4.565116e-005 7.177210e-006 5.714267e-005 2.384779e-005 9.948594e-001 -3.371334e-002
40049205 1.000637e+000 -1.890679e-002 -1.161751e-004 -1.110019e-004 -3.051604e-004 -8.304217e-005 9.976435e-001 -3.428475e-002
40799190 9.991724e-001 -1.862378e-002 -2.639698e-005 1.028683e-004 1.013996e-004 -5.978621e-005 9.951168e-001 -3.572594e-002
41549175 9.982443e-001 -1.851569e-002 2.765763e-005 -1.493693e-004 2.916690e-004 -1.866012e-004 9.953781e-001 -3.784383e-002
42299160 9.973598e-001 -1.780167e-002 8.399814e-005 -5.753092e-005 1.585680e-004 6.966501e-005 9.975711e-001 -3.662247e-002
43049145 9.981216e-001 -1.909711e-002 -1.096866e-004 5.901564e-005 -1.535034e-006 2.251003e-005 9.970534e-001 -3.735963e-002
43799130 9.990559e-001 -1.979179e-002 1.065910e-004 -1.431806e-004 1.275763e-006 -1.627276e-004 9.937591e-001 -3.704348e-002
44549115 9.986684e-001 -1.926052e-002 -2.767704e-005 8.469334e-006 3.886769e-004 1.604143e-004 9.967574e-001 -3.683891e-002
45299100 9.980930e-001 -1.866202e-002 4.182171e-005 3.649375e-005 -1.103146e-004 4.641740e-005 9.969456e-001 -3.740201e-002
46049085 9.973251e-001 -2.106526e-002 9.328948e-005 1.127480e-004 1.406030e-004 3.204309e-005 9.973946e-001 -3.958310e-002
46799070 9.992865e-001 -2.046468e-002 -2.564364e-005 3.849896e-005 2.055954e-004 2.694022e-004 9.994320e-001 -4.224415e-002
47549055 9.988667e-001 -2.168585e-002 -6.961696e-005 2.306583e-004 3.882579e-005 1.009051e-004 9.940630e-001 -4.135244e-002
48299040 9.979299e-001 -2.342242e-002 -3.897965e-005 8.015752e-005 -2.082517e-004 6.570564e-005 9.960643e-001 -4.231083e-002
49049025 9.978677e-001 -2.238819e-002 1.448697e-004 1.044303e-004 3.209583e-004 2.067109e-005 9.985344e-001 -4.613138e-002
49799010 9.982259e-001 -2.175194e-002 -1.111976e-005 -8.922184e-005 1.051573e-004 2.620064e-004 9.969137e-001 -4.668924e-002
50548995 9.972392e-001 -2.299274e-002 -4.295283e-005 1.709285e-004 2.320782e-004 -9.071796e-005 9.955365e-001 -4.342036e-002
51298980 9.990703e-001 -2.246061e-002 9.223317e-005 -6.249663e-005 -4.281263e-005 2.035730e-004 9.978993e-001 -4.304578e-002
52048965 9.982374e-001 -2.319822e-002 5.229541e-005 -1.577380e-004 1.330503e-004 -5.317235e-005 9.953679e-001 -4.796369e-002
52798950 9.981716e-001 -2.396391e-002 -1.149384e-004 4.021883e-005 -2.318556e-004 -2.353826e-005 9.938380e-001 -4.525173e-002
53548935 9.990782e-001 -2.294125e-002 -7.361954e-005 -3.935512e-005 -3.425460e-004 -1.340681e-004 9.916942e-001 -4.840674e-002
54298920 9.985009e-001 -2.389001e-002 -3.935665e-005 8.243122e-005 2.551301e-005 2.690283e-004 9.942371e-001 -4.886267e-002
55048905 9.999131e-001 -2.438011e-002 4.119668e-005 4.507112e-005 -4.778311e-005 3.812206e-004 9.979582e-001 -4.985319e-002
55798890 9.984187e-001 -2.310277e-002 -3.581210e-005 2.390945e-005 -1.641203e-004 -1.962925e-004 9.991573e-001 -4.822008e-002
56548875 9.970523e-001 -2.420643e-002 -9.871875e-006 -3.387179e-005 -1.042727e-004 1.120236e-004 9.945278e-001 -4.935567e-002
57298860 9.991879e-001 -2.597746e-002 6.980846e-005 -5.072946e-005 1.381996e-004 1.814955e-004 9.950650e-001 -5.391398e-002
58048845 9.981693e-001 -2.596981e-002 1.121523e-004 4.766943e-005 1.305797e-004 1.884007e-004 9.937503e-001 -4.848095e-002
58798830 9.983472e-001 -2.527712e-002 2.754508e-005 -1.174071e-004 -1.471748e-004 1.128224e-004 9.938377e-001 -5.011727e-002
59548815 9.972330e-001 -2.548016e-002 -1.536261e-005 4.062943e-005 -2.409613e-004 -2.928609e-004 9.953310e-001 -5.128557e-002
60298800 9.980802e-001 -2.742474e-002 7.503107e-006 1.573944e-005 -3.624831e-004 -3.236636e-004 9.941480e-001 -5.084844e-002
61048785 9.991525e-001 -2.651682e-002 -1.431289e-004 -2.576453e-005 -5.031088e-004 -1.581778e-004 9.943852e-001 -5.238195e-002
61798770 9.979420e-001 -2.677581e-002 -4.506357e-006 -5.872419e-005 6.801521e-005 2.185173e-004 9.981666e-001 -5.475968e-002
62548755 9.968462e-001 -2.694581e-002 5.048892e-005 -1.564901e-005 1.201033e-004 1.472342e-004 1.001049e+000 -5.598959e-002
63298740 9.969115e-001 -2.752567e-002 -4.388905e-005 6.401488e-005 9.673103e-005 -3.604419e-004 9.988042e-001 -5.735346e-002
64048725 9.985282e-001 -2.765673e-002 -1.124549e-004 1.465779e-005 5.246342e-004 8.831520e-005 9.933571e-001 -5.623705e-002
64798710 9.995706e-001 -2.876604e-002 -1.445934e-005 -8.632692e-005 3.040733e-005 -3.371421e-004 9.942883e-001 -5.789397e-002
65548695 9.979337e-001 -2.857144e-002 -4.817758e-005 1.191375e-005 1.330688e-004 1.555621e-004 9.954150e-001 -5.602219e-002
66298680 9.978013e-001 -2.885101e-002 -6.167433e-005 -4.219822e-005 -6.556895e-004 3.099069e-004 9.949578e-001 -5.960295e-002
67048665 9.978572e-001 -2.866521e-002 -5.500250e-005 2.585464e-005 3.778316e-004 -8.134208e-005 9.946817e-001 -6.107696e-002
67798650 9.982911e-001 -2.922155e-002 5.023476e-005 2.748960e-005 3.498870e-005 4.068596e-004 9.950709e-001 -5.983283e-002
68548635 9.977680e-001 -2.951052e-002 7.713184e-005 -4.550368e-005 -2.097684e-004 6.737540e-005 9.950829e-001 -5.870435e-002
69298620 9.979055e-001 -3.060159e-002 3.817520e-005 6.804780e-005 -1.692250e-004 1.656697e-004 9.934822e-001 -5.823609e-002
70048605 9.977505e-001 -3.150054e-002 -1.352415e-004 -9.568191e-005 -1.195909e-004 3.123715e-004 9.960555e-001 -6.110019e-002
70798590 9.980840e-001 -3.157510e-002 -1.395296e-005 3.240967e-005 3.302246e-004 3.697178e-004 9.948667e-001 -5.928972e-002
71548575 9.983631e-001 -3.062543e-002 -7.828137e-005 -2.680945e-005 -2.801868e-004 1.506252e-004 9.931316e-001 -5.946961e-002
72298560 9.976836e-001 -3.056858e-002 -1.134149e-004 7.570563e-005 -4.104582e-005 2.947091e-004 9.946123e-001 -6.018257e-002
73048545 9.972721e-001 -3.151131e-002 1.180882e-004 3.789005e-005 -4.049086e-005 -2.165109e-005 9.963984e-001 -6.188479e-002
73798530 9.983792e-001 -3.314538e-002 -1.183498e-004 8.159471e-005 -2.143274e-004 2.109778e-004 9.934899e-001 -6.318564e-002
74548515 9.982554e-001 -3.261166e-002 -5.035175e-005 1.598715e-004 -2.528598e-004 4.996626e-005 9.919385e-001 -6.437046e-002
75298500 9.975737e-001 -3.107157e-002 5.360386e-005 3.301590e-005 -1.440695e-004 -2.065312e-004 9.934549e-001 -6.538463e-002
76048485 9.967876e-001 -3.345916e-002 -1.343306e-005 1.271484e-004 -3.459043e-005 -7.638735e-005 9.924531e-001 -6.535321e-002
76798470 9.965497e-001 -3.255121e-002 -8.574323e-005 7.705646e-005 1.431518e-004 -1.017794e-004 9.937491e-001 -6.686368e-002
77548455 9.968085e-001 -3.439301e-002 -9.359320e-005 -2.323951e-006 -2.827660e-005 -1.678572e-004 9.933129e-001 -6.737374e-002
78298440 9.965875e-001 -3.574097e-002 -4.686626e-006 -7.843150e-005 -3.549335e-004 -1.348224e-004 9.930798e-001 -6.575001e-002
79048425 9.966310e-001 -3.605789e-002 -1.141873e-004 -2.572067e-004 1.011544e-005 1.159732e-004 9.907809e-001 -6.848062e-002
79798410 9.963055e-001 -3.653438e-002 7.984798e-005 1.507457e-005 2.595671e-004 -1.110379e-004 9.934883e-001 -6.748696e-002
80548395 9.984849e-001 -3.621987e-002 -5.684807e-005 5.940705e-005 -8.201175e-005 -1.276955e-004 9.949445e-001 -6.944022e-002
81298380 9.987193e-001 -3.587073e-002 -9.871232e-005 1.372051e-005 1.823529e-005 -1.296918e-005 9.923751e-001 -6.969646e-002
82048365 9.989816e-001 -3.684893e-002 -1.661770e-004 -9.648698e-005 -2.426182e-004 -9.738448e-005 9.933649e-001 -6.900864e-002
82798350 9.974879e-001 -3.753344e-002 -7.792183e-005 -8.768520e-005 5.133476e-006 2.907112e-005 9.914780e-001 -6.846267e-002
83548335 9.987532e-001 -3.824192e-002 2.227397e-004 3.222292e-005 6.067851e-005 3.108528e-004 9.916061e-001 -7.534465e-002
84298320 9.974199e-001 -3.613359e-002 9.962691e-005 -1.161829e-004 -8.645349e-005 1.641860e-005 9.917472e-001 -7.313214e-002
85048305 9.981379e-001 -3.513826e-002 4.876054e-005 1.119607e-004 2.661615e-004 2.774566e-004 9.916316e-001 -7.343862e-002
85798290 9.973240e-001 -3.726052e-002 5.932282e-005 -3.764471e-005 3.130322e-004 1.513657e-004 9.939635e-001 -7.514293e-002
86548275 9.973684e-001 -3.931986e-002 1.612517e-004 6.515465e-005 2.862265e-004 3.823391e-004 9.928836e-001 -7.436898e-002
87298260 9.992884e-001 -3.987696e-002 -1.861509e-005 -3.914637e-006 2.295518e-004 1.840440e-004 9.923105e-001 -7.704718e-002
88048245 9.978309e-001 -3.983078e-002 3.469760e-005 5.312060e-005 -1.394522e-004 4.125981e-004 9.914483e-001 -7.676838e-002
88798230 9.972649e-001 -3.809405e-002 -1.212598e-004 -1.167371e-004 -1.186680e-004 1.156283e-004 9.945433e-001 -7.807150e-002
89548215 9.966900e-001 -3.800183e-002 -7.210966e-005 -1.853191e-005 -4.210527e-004 2.665517e-004 9.902396e-001 -7.877976e-002
90298200 9.992908e-001 -4.090312e-002 -3.351989e-005 -1.002935e-004 1.473595e-004 1.335295e-005 9.912103e-001 -7.795534e-002
91048185 9.964790e-001 -3.993250e-002 1.362038e-004 9.303322e-006 3.832418e-005 -5.694416e-005 9.927953e-001 -8.065662e-002
91798170 9.979196e-001 -4.109561e-002 2.022591e-006 -1.115713e-004 1.022128e-004 1.779405e-004 9.909687e-001 -7.874078e-002
92548155 9.969973e-001 -4.088111e-002 2.798769e-005 9.060133e-005 7.196820e-005 -1.477269e-004 9.935040e-001 -8.133259e-002
93298140 9.984267e-001 -4.036260e-002 -1.261588e-004 -9.896266e-005 1.374774e-004 1.463770e-004 9.926353e-001 -8.389723e-002
94048125 9.989810e-001 -4.178782e-002 -1.986536e-004 1.214990e-005 -2.633994e-004 1.729862e-004 9.902058e-001 -8.243522e-002
94798110 9.988723e-001 -4.184643e-002 -1.768153e-006 -2.270749e-004 -2.012199e-005 -2.801332e-005 9.900445e-001 -8.352173e-002
95548095 9.985803e-001 -4.000200e-002 5.775429e-005 -1.893993e-004 -4.358447e-004 -1.367799e-004 9.900979e-001 -7.962790e-002
96298080 9.987854e-001 -4.094339e-002 -1.902739e-004 1.642622e-004 1.962302e-004 5.064160e-005 9.923528e-001 -8.417694e-002
97048065 9.981447e-001 -4.173796e-002 3.046994e-005 -1.715210e-004 3.879211e-005 -7.599874e-005 9.945576e-001 -8.637898e-002
97798050 9.974169e-001 -4.357275e-002 -2.217331e-005 1.044242e-004 -1.600881e-004 -8.667023e-006 9.909577e-001 -8.592971e-002
98548035 9.959881e-001 -4.286618e-002 5.477513e-005 3.555725e-006 1.704656e-004 -2.820286e-004 9.920251e-001 -8.681542e-002
99298020 9.968303e-001 -4.228131e-002 9.987176e-005 -4.217966e-005 2.779874e-004 4.643781e-005 9.912320e-001 -8.621086e-002
100048005 9.966220e-001 -4.448621e-002 -6.421038e-005 7.231061e-005 1.534570e-004 1.198190e-004 9.905476e-001 -8.588220e-002
100797990 9.970727e-001 -4.308667e-002 -1.953821e-005 8.778348e-005 2.905129e-004 -7.758875e-006 9.906800e-001 -8.671203e-002
101547975 9.967096e-001 -4.435232e-002 4.553047e-005 -9.225420e-005 3.701985e-006 1.952623e-004 9.909000e-001 -8.318076e-002
102297960 9.958155e-001 -4.481934e-002 -4.144129e-005 5.708118e-005 -8.899451e-005 -2.349278e-004 9.924130e-001 -8.891376e-002
103047945 9.963135e-001 -4.373227e-002 6.774094e-006 6.929611e-005 -4.083967e-005 -3.738472e-004 9.924276e-001 -9.151746e-002
103797930 9.961265e-001 -4.405319e-002 -4.269003e-005 4.053720e-005 -5.297987e-005 3.365755e-004 9.891483e-001 -8.887584e-002
104547915 9.972965e-001 -4.492147e-002 5.205355e-005 -8.939385e-005 -1.208630e-004 1.882618e-004 9.898657e-001 -9.243414e-002
105297900 9.965635e-001 -4.572061e-002 5.789976e-005 -1.034938e-004 -2.510961e-004 -5.625733e-005 9.911726e-001 -8.978195e-002
106047885 9.972361e-001 -4.637894e-002 -2.015489e-004 1.316486e-004 -1.568179e-004 -2.009866e-004 9.930690e-001 -9.226067e-002
106797870 9.974232e-001 -4.678014e-002 7.298499e-005 -1.194722e-004 -1.828827e-004 -5.326319e-004 9.893913e-001 -9.289922e-002
107547855 9.962240e-001 -4.787607e-002 1.508037e-004 -1.311695e-004 3.166721e-004 -9.459301e-005 9.903966e-001 -9.144495e-002
108297840 9.960020e-001 -4.689585e-002 7.168787e-005 1.147916e-004 -3.198345e-004 4.084798e-004 9.907423e-001 -9.292261e-002
109047825 9.954211e-001 -4.671942e-002 -6.160103e-006 7.500700e-005 4.213552e-004 -3.193006e-004 9.896276e-001 -9.239832e-002
109797810 9.955072e-001 -4.771466e-002 2.210993e-005 1.801956e-004 4.515998e-004 -1.469506e-004 9.874685e-001 -9.485046e-002
110547795 9.963900e-001 -4.895140e-002 4.596232e-005 7.985980e-006 -1.414525e-004 1.181075e-005 9.933276e-001 -9.440447e-002
111297780 9.966453e-001 -4.951875e-002 -3.758110e-005 -4.586134e-005 -2.700343e-004 1.982369e-005 9.910568e-001 -9.664936e-002
112047765 9.961947e-001 -4.971176e-002 -2.472858e-005 1.942256e-004 2.767598e-004 -1.691276e-004 9.903694e-001 -9.712059e-002
112797750 9.956836e-001 -5.064049e-002 -6.266015e-005 1.646850e-004 3.076108e-004 3.966229e-004 9.914832e-001 -9.868039e-002
113547735 9.973086e-001 -5.005771e-002 2.970506e-005 -9.463644e-005 4.454073e-004 -1.129369e-004 9.901382e-001 -9.897293e-002
114297720 9.965947e-001 -5.023743e-002 6.031538e-005 -9.257713e-005 -3.836137e-005 5.591683e-004 9.928783e-001 -9.998967e-002
115047705 9.949062e-001 -5.099521e-002 -9.580639e-006 4.519919e-006 2.322201e-004 4.697432e-004 9.911312e-001 -1.012234e-001
115797690 9.949014e-001 -5.105082e-002 6.898665e-005 5.060535e-005 1.565935e-004 1.634059e-004 9.874414e-001 -9.955911e-002
116547675 9.966795e-001 -5.119878e-002 -2.210127e-005 -1.543651e-005 2.661244e-004 -2.639934e-004 9.887233e-001 -1.024321e-001
