!Agilent Technologies,N5230C,SG49000117,A.08.50.07
!Agilent N5230C: A.08.50.07
!Date: Monday, December 11, 2023 23:26:11
!Correction: S11(Full 2 Port(1,2)) 
!S21(Full 2 Port(1,2)) 
!S12(Full 2 Port(1,2)) 
!S22(Full 2 Port(1,2)) 
!S2P File: Measurements: S11, S21, S12, S22:
# Hz S  RI   R 50
300000 9.909984e-001 5.461052e-003 -2.065631e-004 4.598569e-005 3.747108e-005 -1.491268e-004 9.912090e-001 6.975009e-003
1049985 9.925593e-001 3.660605e-003 9.006806e-006 3.449863e-005 8.679115e-005 1.303795e-004 9.839258e-001 3.866962e-003
1799970 9.921827e-001 8.889090e-003 5.971306e-005 1.171758e-005 4.848930e-005 2.787541e-004 9.977167e-001 -5.565607e-003
2549955 9.980268e-001 5.947766e-004 -1.450487e-004 -6.398578e-005 -1.929165e-004 -1.614658e-004 9.981656e-001 -3.482347e-003
3299940 9.992422e-001 -1.528217e-003 5.442980e-006 6.222903e-005 6.472938e-005 1.275815e-004 9.979568e-001 -5.997483e-003
4049925 9.992567e-001 -1.044839e-003 -6.153050e-006 -4.402603e-005 -5.076414e-005 -4.510665e-005 9.963232e-001 -3.715938e-003
4799910 9.985234e-001 -1.691899e-003 -2.208240e-005 1.062780e-005 1.181067e-004 -2.115186e-004 9.959618e-001 -3.981042e-003
5549895 9.985760e-001 -2.805887e-003 3.107528e-005 -1.305679e-005 7.540370e-005 1.214292e-004 9.956400e-001 -5.548141e-003
6299880 9.985575e-001 -3.584679e-003 2.673652e-005 -3.009982e-005 -1.585753e-005 -5.135660e-005 9.949235e-001 -4.122625e-003
7049865 9.986894e-001 -3.355917e-003 4.672376e-005 8.189358e-005 3.741419e-005 -1.983500e-004 9.971867e-001 -7.000396e-003
7799850 9.987664e-001 -3.050755e-003 1.231197e-004 1.043415e-004 -8.599825e-005 -6.239909e-005 9.953189e-001 -7.319370e-003
8549835 9.985547e-001 -2.966951e-003 3.623162e-005 -4.329560e-005 -1.280118e-004 -4.652318e-005 9.959416e-001 -6.123779e-003
9299820 9.983729e-001 -3.685879e-003 -2.754339e-005 3.517254e-005 9.146679e-006 -5.747609e-006 9.958047e-001 -8.711017e-003
10049805 9.987048e-001 -4.377291e-003 -2.170080e-005 -6.516287e-005 -2.723647e-005 -4.535907e-005 9.969751e-001 -9.175457e-003
10799790 9.994606e-001 -4.437761e-003 3.995840e-005 9.511956e-005 -1.274035e-004 4.395895e-005 9.956134e-001 -9.740951e-003
11549775 9.995291e-001 -4.730107e-003 -2.621926e-005 4.886538e-005 8.780994e-005 -1.250650e-004 9.962325e-001 -9.217829e-003
12299760 9.996006e-001 -5.199176e-003 5.489444e-005 -7.417481e-005 -3.157921e-005 -7.676471e-005 9.964447e-001 -1.104905e-002
13049745 1.000044e+000 -6.203864e-003 3.564632e-006 4.778893e-006 8.647205e-005 2.097771e-004 9.980875e-001 -1.297154e-002
13799730 9.986405e-001 -6.553813e-003 -5.298197e-005 -9.317283e-005 -1.588547e-004 -1.603753e-004 9.955686e-001 -1.256059e-002
14549715 9.988525e-001 -6.647687e-003 1.996924e-005 5.903331e-005 1.736594e-004 -1.148947e-004 9.965904e-001 -1.400101e-002
15299700 9.992900e-001 -7.370201e-003 1.250822e-005 -8.732155e-005 -1.733112e-005 -2.287532e-004 9.972157e-001 -1.476140e-002
16049685 9.983043e-001 -6.655292e-003 -4.813928e-006 -2.045195e-005 2.817112e-004 -5.285309e-005 9.965927e-001 -1.404848e-002
16799670 9.979931e-001 -7.146409e-003 -8.173809e-005 -3.409064e-005 1.852465e-004 1.110074e-004 9.955761e-001 -1.577646e-002
17549655 9.987980e-001 -8.059926e-003 -1.024429e-004 -5.599989e-005 1.627654e-004 3.418145e-004 9.973958e-001 -1.698495e-002
18299640 9.986323e-001 -8.174120e-003 2.189051e-005 -6.367187e-006 -2.304789e-004 7.343464e-005 9.966802e-001 -1.627467e-002
19049625 9.993201e-001 -8.945476e-003 -1.520575e-005 -5.715652e-006 -5.241305e-005 -1.045333e-004 9.970468e-001 -1.942785e-002
19799610 9.986008e-001 -8.070243e-003 -1.666693e-006 2.620923e-005 1.082083e-004 -3.684507e-004 9.961016e-001 -1.642788e-002
20549595 9.981560e-001 -9.390830e-003 3.412163e-005 -3.054065e-005 3.076682e-004 -1.324493e-004 9.966137e-001 -1.782543e-002
21299580 9.980067e-001 -9.762102e-003 8.290082e-006 -5.480786e-005 1.015415e-004 -6.473805e-005 9.991900e-001 -2.031722e-002
22049565 9.992157e-001 -1.100812e-002 -2.822316e-005 1.838539e-005 1.484084e-004 -7.542217e-005 9.955439e-001 -1.945868e-002
22799550 9.994341e-001 -1.067880e-002 -1.544485e-005 5.850859e-005 9.803400e-005 3.656302e-004 9.961330e-001 -1.985366e-002
23549535 9.988735e-001 -1.075361e-002 -2.488299e-005 -1.499703e-004 -1.723551e-004 2.293360e-004 9.953207e-001 -1.882787e-002
24299520 9.987650e-001 -1.115278e-002 4.337404e-005 -4.351041e-005 -1.291558e-004 -2.066830e-004 9.963188e-001 -2.122771e-002
25049505 9.991143e-001 -1.099891e-002 5.264743e-005 -2.406472e-005 -3.498909e-004 -6.315287e-005 9.979649e-001 -2.403733e-002
25799490 9.986503e-001 -1.158083e-002 -2.683257e-005 -8.689745e-005 5.903847e-005 -1.259996e-004 9.962259e-001 -2.126477e-002
26549475 9.990161e-001 -1.167038e-002 6.568927e-005 1.142458e-004 2.712906e-004 -4.730079e-005 9.943494e-001 -2.288225e-002
27299460 9.995769e-001 -1.199840e-002 6.110319e-005 -8.322527e-006 1.620358e-004 1.209553e-004 9.959865e-001 -2.606121e-002
28049445 9.984966e-001 -1.298813e-002 -1.255774e-004 2.715324e-005 -5.929266e-005 3.647113e-004 9.961112e-001 -2.456612e-002
28799430 9.988624e-001 -1.228775e-002 -1.086796e-005 -1.124742e-004 -3.505009e-005 -1.890908e-005 9.964747e-001 -2.485045e-002
29549415 9.984789e-001 -1.318328e-002 -3.505532e-005 3.613679e-006 -8.344051e-005 -1.465283e-005 9.962982e-001 -2.502590e-002
30299400 9.988995e-001 -1.344058e-002 -2.206860e-006 -7.807928e-005 1.091440e-004 -9.765676e-005 9.962339e-001 -2.540125e-002
31049385 9.986135e-001 -1.421763e-002 7.830935e-005 1.098468e-004 2.140856e-004 -8.327829e-006 9.950202e-001 -2.716514e-002
31799370 9.987807e-001 -1.397399e-002 7.806438e-005 1.678241e-005 1.079018e-004 -8.179730e-005 9.938007e-001 -2.725361e-002
32549355 9.986645e-001 -1.360492e-002 -2.697034e-006 2.020597e-005 2.439276e-004 3.463194e-005 9.952974e-001 -2.848761e-002
33299340 9.991894e-001 -1.355733e-002 3.325931e-005 3.728480e-005 4.031664e-005 9.397129e-005 9.964404e-001 -2.991704e-002
34049325 9.978337e-001 -1.495720e-002 -3.365711e-005 -7.275992e-005 3.513100e-006 8.051447e-005 9.954030e-001 -2.916824e-002
34799310 9.998011e-001 -1.599053e-002 -1.577514e-005 4.970244e-005 -1.210991e-004 2.166312e-004 9.971883e-001 -3.079383e-002
35549295 9.991743e-001 -1.581023e-002 5.840338e-005 -6.607394e-005 -8.907065e-005 4.617951e-005 9.959188e-001 -2.938193e-002
36299280 9.982279e-001 -1.534619e-002 2.261701e-005 -6.843695e-006 -1.503698e-004 -4.418371e-005 9.959573e-001 -2.993828e-002
37049265 9.987934e-001 -1.600535e-002 1.406667e-005 6.840123e-005 -1.385425e-004 -3.434544e-004 9.969296e-001 -3.395199e-002
37799250 9.986503e-001 -1.610671e-002 3.588886e-005 -2.905420e-005 1.643645e-005 -6.072597e-005 9.969773e-001 -3.361007e-002
38549235 9.990503e-001 -1.695581e-002 -9.449005e-005 1.576143e-006 1.267088e-004 -9.744526e-005 9.969402e-001 -3.412100e-002
39299220 9.983644e-001 -1.778969e-002 -4.536541e-005 1.215508e-004 6.994420e-005 9.137008e-005 9.950668e-001 -3.338197e-002
40049205 1.001570e+000 -1.736508e-002 5.740459e-005 -2.968038e-005 2.045875e-005 6.611236e-005 9.963034e-001 -3.553559e-002
40799190 9.994519e-001 -1.834853e-002 -6.932694e-005 4.915226e-006 1.273556e-004 1.474268e-004 9.950367e-001 -3.447635e-002
41549175 9.985799e-001 -1.810415e-002 1.308717e-004 -9.115592e-006 -2.851342e-004 1.459556e-006 9.943066e-001 -3.697489e-002
42299160 9.977694e-001 -1.792891e-002 1.280695e-005 8.123331e-005 -2.198929e-004 -1.510234e-004 9.959718e-001 -3.520899e-002
43049145 9.986967e-001 -1.817743e-002 -5.261397e-005 -1.082736e-004 -1.133277e-004 1.011078e-004 9.969641e-001 -3.803068e-002
43799130 9.982647e-001 -1.951577e-002 -1.145970e-004 7.467085e-005 4.189705e-005 -1.504396e-004 9.929078e-001 -3.949434e-002
44549115 9.984977e-001 -1.981659e-002 -8.845313e-005 -9.779130e-007 1.269784e-004 -1.374899e-004 9.954736e-001 -3.715998e-002
45299100 9.989932e-001 -1.968636e-002 3.313164e-005 -6.208665e-005 1.507972e-004 2.158496e-004 9.969136e-001 -3.852451e-002
46049085 9.982224e-001 -2.150757e-002 -6.243926e-005 9.478112e-005 1.769443e-004 -9.627035e-005 9.958780e-001 -4.158595e-002
46799070 9.987219e-001 -2.139802e-002 2.438112e-005 -3.916430e-005 2.020872e-004 8.643675e-005 9.968895e-001 -4.182808e-002
47549055 9.992138e-001 -2.203254e-002 -6.688994e-005 -7.223389e-006 3.116842e-004 2.016077e-004 9.932297e-001 -4.323662e-002
48299040 9.973258e-001 -2.313629e-002 -8.901066e-005 -3.588402e-005 -2.921844e-004 2.625642e-004 9.931644e-001 -4.345875e-002
49049025 9.974002e-001 -2.150578e-002 1.192863e-004 -8.458928e-005 3.800287e-004 6.944586e-005 9.981275e-001 -4.507193e-002
49799010 9.983217e-001 -2.203915e-002 2.161950e-005 5.725933e-005 2.233668e-004 1.837058e-004 9.969546e-001 -4.581398e-002
50548995 9.980190e-001 -2.299751e-002 -6.843553e-005 -1.042721e-005 -1.595106e-004 7.809348e-005 9.954612e-001 -4.349213e-002
51298980 9.991270e-001 -2.285166e-002 4.866796e-005 1.343570e-005 -1.024353e-005 1.125336e-004 9.966335e-001 -4.395939e-002
52048965 1.000029e+000 -2.238259e-002 7.821189e-005 -4.546685e-005 -2.890037e-004 -4.388113e-005 9.940457e-001 -4.866019e-002
52798950 9.982699e-001 -2.298578e-002 1.553265e-005 -4.127172e-005 -2.699182e-004 4.707425e-004 9.965929e-001 -4.536941e-002
53548935 9.994565e-001 -2.375782e-002 -6.416767e-005 -1.087815e-005 -3.679722e-004 2.956515e-004 9.922047e-001 -4.826475e-002
54298920 9.994807e-001 -2.423611e-002 2.989097e-005 2.757981e-005 5.183453e-004 -9.041908e-005 9.963157e-001 -4.979951e-002
55048905 9.996365e-001 -2.321623e-002 -8.550749e-005 -7.554483e-006 -1.874678e-004 1.240097e-004 9.976215e-001 -4.936280e-002
55798890 9.982719e-001 -2.387370e-002 4.047686e-005 3.935699e-005 -2.024293e-004 -4.729727e-004 9.964467e-001 -4.968455e-002
56548875 9.983723e-001 -2.430457e-002 1.336288e-004 8.771005e-005 3.014421e-005 -3.096793e-004 9.931239e-001 -4.933222e-002
57298860 9.992920e-001 -2.572570e-002 -1.722206e-005 -1.328724e-005 2.623096e-004 2.110800e-004 9.958803e-001 -5.140483e-002
58048845 9.987580e-001 -2.514651e-002 -8.113001e-005 -1.356051e-004 -1.184540e-004 8.886350e-005 9.942841e-001 -5.272813e-002
58798830 9.983519e-001 -2.552809e-002 -5.378968e-005 -7.994875e-006 3.625735e-004 1.345807e-004 9.948086e-001 -5.096714e-002
59548815 9.979700e-001 -2.603722e-002 3.431935e-005 3.930877e-005 -1.939430e-004 -5.675436e-005 9.942167e-001 -5.103052e-002
60298800 9.990991e-001 -2.610508e-002 8.648750e-005 -1.643868e-004 2.537836e-004 1.864581e-004 9.958388e-001 -5.142504e-002
61048785 9.987772e-001 -2.696182e-002 1.747339e-004 4.335310e-005 -1.236670e-004 -5.757836e-006 9.943942e-001 -5.187168e-002
61798770 9.982792e-001 -2.758626e-002 8.952514e-005 -1.777187e-004 -2.557588e-004 1.952451e-004 9.969675e-001 -5.064994e-002
62548755 9.979914e-001 -2.764742e-002 5.424166e-005 -1.147213e-004 3.551110e-004 1.108993e-004 1.001001e+000 -5.667799e-002
63298740 9.973261e-001 -2.705835e-002 -3.441541e-005 -3.628723e-005 2.637544e-004 1.018803e-004 9.969647e-001 -5.652563e-002
64048725 9.981031e-001 -2.822474e-002 -4.861356e-005 -3.738319e-005 -4.072731e-004 2.065070e-004 9.939494e-001 -5.732861e-002
64798710 9.988456e-001 -2.925567e-002 -4.224007e-007 -3.265884e-006 3.536959e-005 -1.033349e-004 9.930640e-001 -5.750814e-002
65548695 9.984142e-001 -2.894021e-002 1.054584e-005 -4.514570e-005 2.194712e-004 5.174380e-004 9.908650e-001 -5.728120e-002
66298680 9.975792e-001 -2.906746e-002 8.880052e-005 -1.942317e-005 3.987470e-007 -2.641702e-005 9.947771e-001 -5.764407e-002
67048665 9.977726e-001 -2.899791e-002 3.145116e-005 -7.034354e-005 1.840506e-004 -1.656403e-004 9.976414e-001 -6.113419e-002
67798650 9.976850e-001 -2.822809e-002 4.211568e-005 2.957107e-005 1.990091e-004 2.794941e-004 9.965252e-001 -5.952961e-002
68548635 9.978483e-001 -3.034344e-002 9.987845e-005 -1.318560e-004 3.397435e-004 -5.871881e-004 9.937748e-001 -5.882248e-002
69298620 9.968417e-001 -3.156382e-002 9.928097e-005 1.345447e-004 1.556143e-004 1.295383e-004 9.932110e-001 -5.745872e-002
70048605 9.984946e-001 -3.177107e-002 -6.130460e-005 -4.683118e-005 5.626746e-006 2.672116e-004 9.960635e-001 -6.180314e-002
70798590 9.984345e-001 -3.130689e-002 3.983140e-005 7.878333e-005 1.166290e-004 -9.321768e-005 9.959733e-001 -6.056616e-002
71548575 9.990627e-001 -3.113075e-002 2.736863e-005 -2.543121e-006 1.211061e-004 5.792389e-004 9.935892e-001 -6.225543e-002
72298560 9.986134e-001 -3.114227e-002 1.405561e-004 -2.816932e-006 1.511188e-004 8.917604e-005 9.956891e-001 -6.139494e-002
73048545 9.968343e-001 -3.239277e-002 -8.664232e-005 -2.866215e-005 1.218890e-004 2.612713e-004 9.965294e-001 -6.354991e-002
73798530 9.995068e-001 -3.277510e-002 -2.070414e-004 3.113828e-005 -4.570507e-005 1.036210e-004 9.935728e-001 -6.374260e-002
74548515 9.982065e-001 -3.291203e-002 -1.598633e-005 1.611583e-004 2.713861e-004 3.319778e-004 9.923100e-001 -6.299270e-002
75298500 9.971786e-001 -3.263923e-002 1.503009e-005 1.572276e-005 -3.105179e-004 5.733325e-005 9.907123e-001 -6.522670e-002
76048485 9.966304e-001 -3.269362e-002 -1.710152e-005 5.241230e-005 -4.263170e-004 2.345269e-004 9.922825e-001 -6.800803e-002
76798470 9.979372e-001 -3.284366e-002 -6.054784e-005 -1.036203e-004 2.111116e-004 4.507008e-004 9.935030e-001 -6.678480e-002
77548455 9.975318e-001 -3.426108e-002 5.124900e-005 -1.213353e-004 8.440253e-005 2.455371e-004 9.928215e-001 -6.500241e-002
78298440 9.973270e-001 -3.542732e-002 -1.370546e-004 -4.467721e-005 1.590913e-004 1.273362e-004 9.941938e-001 -6.742144e-002
79048425 9.968432e-001 -3.609192e-002 1.757270e-004 -2.253422e-004 -1.848633e-004 -6.071159e-005 9.907831e-001 -6.887342e-002
79798410 9.970365e-001 -3.652114e-002 -7.904445e-005 -1.368976e-004 1.115649e-004 2.467211e-004 9.931670e-001 -6.750827e-002
80548395 9.977162e-001 -3.644582e-002 1.760654e-005 -2.490482e-007 1.169944e-004 -2.525626e-005 9.934368e-001 -6.862728e-002
81298380 9.986885e-001 -3.643232e-002 5.412583e-005 2.730805e-004 -8.926879e-005 3.308838e-005 9.955385e-001 -6.924152e-002
82048365 9.992571e-001 -3.710090e-002 -6.917019e-005 6.173209e-005 1.272148e-004 -1.850522e-004 9.936853e-001 -6.872661e-002
82798350 9.984319e-001 -3.669073e-002 1.382651e-004 2.117880e-005 1.978425e-004 -1.737695e-004 9.914176e-001 -6.969424e-002
83548335 9.984527e-001 -3.781341e-002 2.694794e-005 -6.145194e-005 1.517377e-004 -6.341043e-005 9.926056e-001 -7.445798e-002
84298320 9.988775e-001 -3.586054e-002 1.159397e-004 -8.926039e-005 1.458727e-004 1.676295e-004 9.908369e-001 -7.394342e-002
85048305 9.979765e-001 -3.622741e-002 1.039738e-004 -1.021610e-004 -4.256837e-005 -7.654617e-005 9.919353e-001 -7.399650e-002
85798290 9.982036e-001 -3.657738e-002 9.177799e-005 -6.549356e-005 1.112241e-005 -5.629803e-005 9.914252e-001 -7.636598e-002
86548275 9.977548e-001 -3.871437e-002 1.140547e-004 -2.190315e-004 7.429490e-005 1.410819e-004 9.920993e-001 -7.647805e-002
87298260 9.999179e-001 -3.940674e-002 -3.797856e-005 2.598068e-004 1.045169e-004 -1.082277e-004 9.903529e-001 -7.697424e-002
88048245 9.984511e-001 -3.945121e-002 -1.705732e-005 -1.666426e-004 1.578938e-004 6.385892e-005 9.932176e-001 -7.953741e-002
88798230 9.968719e-001 -3.951351e-002 1.227444e-004 -1.879445e-005 -8.542948e-005 1.307366e-004 9.929284e-001 -7.821018e-002
89548215 9.971172e-001 -3.903624e-002 7.984554e-005 3.271054e-005 -2.335405e-004 -1.482303e-004 9.912549e-001 -7.972820e-002
90298200 9.991583e-001 -4.066949e-002 -1.102860e-004 1.477169e-005 2.725445e-004 4.666366e-005 9.925556e-001 -8.271720e-002
91048185 9.970391e-001 -4.101056e-002 -3.470104e-006 -1.448310e-004 -3.108238e-004 1.108316e-005 9.920412e-001 -8.075966e-002
91798170 9.980515e-001 -4.155951e-002 2.416208e-004 1.476479e-005 -1.574833e-004 5.412098e-005 9.873892e-001 -7.861854e-002
92548155 9.981872e-001 -4.163974e-002 2.234545e-004 -5.586271e-005 2.224954e-005 -1.371317e-004 9.936221e-001 -8.174912e-002
93298140 9.974948e-001 -4.071641e-002 -1.050981e-004 -7.366093e-005 -6.549435e-004 2.144187e-004 9.920040e-001 -8.318827e-002
94048125 9.991417e-001 -4.178138e-002 -8.975000e-005 1.787724e-005 8.180418e-005 -4.811558e-005 9.923536e-001 -8.101039e-002
94798110 9.983556e-001 -4.177155e-002 -1.274080e-004 3.400841e-005 -3.998234e-004 -1.055427e-005 9.917700e-001 -8.331028e-002
95548095 9.977549e-001 -4.061203e-002 1.868201e-004 -1.003144e-004 2.897806e-007 -5.153331e-004 9.911754e-001 -8.194917e-002
96298080 9.995954e-001 -4.150848e-002 -9.353490e-005 -2.218261e-004 1.000378e-004 -2.179246e-004 9.905086e-001 -8.536696e-002
97048065 9.976612e-001 -4.277558e-002 -7.290272e-006 1.569839e-005 -2.440565e-004 -3.334246e-004 9.921913e-001 -8.529153e-002
97798050 9.975858e-001 -4.394213e-002 3.364348e-005 -1.763335e-004 -4.061966e-005 2.138649e-004 9.931289e-001 -8.531476e-002
98548035 9.967158e-001 -4.279708e-002 -3.340306e-005 7.253747e-006 -1.856647e-004 4.362712e-005 9.922855e-001 -8.558843e-002
99298020 9.963384e-001 -4.216148e-002 1.720866e-004 -7.724847e-005 -3.513292e-004 6.373398e-007 9.930120e-001 -9.009538e-002
100048005 9.972036e-001 -4.332559e-002 1.200776e-004 -9.840790e-006 -9.260270e-005 2.669510e-004 9.920725e-001 -9.058128e-002
100797990 9.970335e-001 -4.367927e-002 8.558196e-005 8.859270e-005 -3.010566e-004 -2.753810e-005 9.906170e-001 -8.950008e-002
101547975 9.970095e-001 -4.282673e-002 8.581160e-005 -4.601372e-005 3.748214e-004 -8.175964e-005 9.915717e-001 -8.611169e-002
102297960 9.970147e-001 -4.473067e-002 1.072068e-005 1.048990e-004 1.958105e-004 -1.871400e-005 9.936082e-001 -8.836150e-002
103047945 9.960695e-001 -4.468519e-002 1.820353e-004 -8.311866e-005 -1.292985e-004 -1.450210e-004 9.925588e-001 -9.220896e-002
103797930 9.977303e-001 -4.428919e-002 -3.098356e-005 3.600674e-005 -2.483615e-004 4.298582e-005 9.895093e-001 -9.032302e-002
104547915 9.970251e-001 -4.427809e-002 -3.642676e-005 9.190507e-005 2.540420e-004 -3.726091e-004 9.895084e-001 -9.230831e-002
105297900 9.965179e-001 -4.623854e-002 7.146231e-005 5.901500e-005 1.374033e-004 -2.371355e-004 9.938598e-001 -9.201763e-002
106047885 9.970583e-001 -4.704851e-002 -2.685619e-005 -2.596960e-005 -3.471514e-004 1.249816e-004 9.910653e-001 -9.283847e-002
106797870 9.981581e-001 -4.602433e-002 -5.228759e-005 -5.012245e-005 2.316178e-004 3.039595e-004 9.910271e-001 -9.168983e-002
107547855 9.968352e-001 -4.786857e-002 -3.058916e-006 1.200671e-004 1.507619e-004 -3.106071e-004 9.915968e-001 -9.208868e-002
108297840 9.951949e-001 -4.663545e-002 -4.987867e-005 2.692929e-006 -1.239488e-004 -6.759808e-006 9.898444e-001 -9.227449e-002
109047825 9.961041e-001 -4.686635e-002 6.519489e-005 6.945837e-005 1.230639e-004 2.498502e-004 9.915454e-001 -9.302920e-002
109797810 9.956996e-001 -4.819325e-002 -9.771757e-005 -1.497229e-004 3.934693e-005 2.524221e-004 9.849125e-001 -9.454834e-002
110547795 9.963096e-001 -4.934834e-002 2.337159e-006 1.738490e-004 4.833900e-005 -6.863973e-005 9.903001e-001 -9.407572e-002
111297780 9.964777e-001 -4.955310e-002 9.546038e-005 -9.501760e-005 3.556068e-004 -1.239470e-004 9.898589e-001 -9.889059e-002
112047765 9.967408e-001 -4.904581e-002 -2.945590e-005 -4.100790e-005 4.754121e-004 2.514890e-004 9.889638e-001 -9.877934e-002
112797750 9.968555e-001 -4.912988e-002 -8.606653e-005 1.029363e-004 -5.104959e-005 2.759706e-004 9.914699e-001 -9.787191e-002
113547735 9.975783e-001 -4.875255e-002 -2.762524e-005 -2.367701e-005 -1.210572e-004 4.017785e-004 9.897861e-001 -1.006582e-001
114297720 9.959817e-001 -5.010651e-002 6.358824e-007 -5.395751e-006 2.743961e-005 -3.418764e-005 9.911547e-001 -1.004266e-001
115047705 9.960585e-001 -5.147140e-002 -6.283573e-005 6.873205e-005 -1.550583e-004 5.293354e-005 9.897964e-001 -1.009892e-001
115797690 9.955845e-001 -5.158329e-002 1.388771e-004 1.669309e-005 2.939367e-005 6.495501e-005 9.897703e-001 -9.974223e-002
116547675 9.969174e-001 -5.127298e-002 4.724496e-005 2.528873e-004 1.550649e-004 8.494847e-005 9.916660e-001 -1.014633e-001
