!Agilent Technologies,N5230C,SG49000117,A.08.50.07
!Agilent N5230C: A.08.50.07
!Date: Monday, December 11, 2023 23:27:49
!Correction: S11(Full 2 Port(1,2)) 
!S21(Full 2 Port(1,2)) 
!S12(Full 2 Port(1,2)) 
!S22(Full 2 Port(1,2)) 
!S2P File: Measurements: S11, S21, S12, S22:
# Hz S  RI   R 50
300000 9.900065e-001 1.731943e-003 5.260226e-005 -5.189051e-005 -3.681642e-004 5.712827e-005 9.944614e-001 3.855226e-003
1049985 9.929432e-001 3.264691e-003 -8.947140e-005 6.133099e-005 -3.189464e-005 -1.112559e-004 9.810134e-001 5.744044e-003
1799970 9.924057e-001 8.856385e-003 2.655923e-005 -4.521225e-006 -5.180910e-005 -5.865478e-005 9.965895e-001 -5.207997e-003
2549955 9.987653e-001 -1.689332e-004 -8.011989e-005 -6.720142e-005 -1.421359e-004 -6.647228e-005 9.973831e-001 -3.880959e-003
3299940 9.992323e-001 -1.169420e-003 3.130739e-005 6.740839e-005 -7.868893e-005 -4.777115e-005 9.989045e-001 -5.182470e-003
4049925 9.995124e-001 -1.151222e-003 2.910504e-007 -4.127219e-005 6.021688e-005 -1.796656e-004 9.961241e-001 -3.738395e-003
4799910 9.985849e-001 -1.360602e-003 -2.641464e-005 5.762143e-005 -1.148499e-004 6.620155e-005 9.959884e-001 -3.617963e-003
5549895 9.981930e-001 -3.026652e-003 4.600992e-005 1.017249e-004 8.281624e-005 -5.683933e-005 9.966153e-001 -4.750982e-003
6299880 9.986169e-001 -2.956634e-003 -4.240259e-005 6.942266e-005 -3.704170e-005 3.129380e-005 9.958270e-001 -4.859525e-003
7049865 9.985219e-001 -2.927494e-003 -3.010602e-005 -3.648086e-005 -9.814344e-006 6.989865e-005 9.972592e-001 -6.835663e-003
7799850 9.988224e-001 -3.081270e-003 8.821195e-005 5.941999e-005 1.945698e-005 -1.095024e-004 9.960870e-001 -5.729054e-003
8549835 9.982923e-001 -2.617751e-003 -4.854459e-006 -7.231578e-005 2.236376e-005 -4.972375e-006 9.960408e-001 -7.130178e-003
9299820 9.982628e-001 -3.721444e-003 -1.988764e-005 -2.250963e-005 3.030041e-005 1.445106e-005 9.964295e-001 -6.706553e-003
10049805 9.987952e-001 -4.073616e-003 -8.783177e-005 -2.908413e-005 -1.089208e-004 1.773451e-004 9.982458e-001 -9.676060e-003
10799790 9.991452e-001 -4.986695e-003 1.310596e-004 -3.425266e-005 -1.230074e-004 1.808206e-004 9.971154e-001 -1.123920e-002
11549775 9.994149e-001 -4.928240e-003 -6.004250e-005 6.580268e-006 1.850367e-004 -2.082312e-004 9.973457e-001 -9.197932e-003
12299760 9.993137e-001 -5.080119e-003 3.511359e-005 3.219352e-007 1.019706e-004 1.856293e-004 9.959564e-001 -1.098622e-002
13049745 9.997445e-001 -5.587681e-003 3.240589e-005 -1.454958e-006 1.269705e-005 -5.578256e-005 9.970110e-001 -1.117526e-002
13799730 9.985617e-001 -5.739094e-003 -1.910070e-005 9.857955e-006 2.167369e-004 -6.186813e-006 9.964559e-001 -1.302955e-002
14549715 9.989864e-001 -6.698006e-003 -1.502041e-006 -4.839542e-005 1.702193e-004 1.574823e-005 9.973284e-001 -1.412687e-002
15299700 9.989690e-001 -7.600495e-003 1.637640e-005 2.894425e-005 3.222446e-004 -1.022225e-004 9.958768e-001 -1.601367e-002
16049685 9.981278e-001 -7.234344e-003 -1.523435e-005 -4.477566e-005 2.195427e-004 -1.315040e-004 9.972491e-001 -1.529312e-002
16799670 9.987118e-001 -7.372268e-003 3.267252e-005 -1.680120e-005 1.475347e-004 2.798561e-004 9.969856e-001 -1.609103e-002
17549655 9.992433e-001 -7.804022e-003 1.426053e-005 -8.278427e-005 3.016093e-005 3.919872e-004 9.972728e-001 -1.743786e-002
18299640 9.981514e-001 -8.030383e-003 9.243361e-005 -4.429037e-005 -1.806568e-004 2.985220e-004 9.979321e-001 -1.733086e-002
19049625 9.991508e-001 -8.232198e-003 3.662146e-005 -1.236441e-005 -2.464049e-005 2.987340e-004 9.956637e-001 -1.812286e-002
19799610 9.991387e-001 -8.903111e-003 -1.003906e-004 -9.526939e-006 -1.047099e-004 -5.518225e-005 9.962165e-001 -1.803632e-002
20549595 9.981357e-001 -9.563853e-003 -4.401573e-005 8.463993e-006 -1.429837e-004 -1.465838e-004 9.952907e-001 -1.756852e-002
21299580 9.991097e-001 -8.893101e-003 9.417781e-006 -5.185475e-005 -1.732393e-004 -6.274114e-005 9.971899e-001 -1.801100e-002
22049565 9.993702e-001 -1.036277e-002 2.828531e-005 1.715753e-005 1.194694e-004 -2.108982e-005 9.942743e-001 -2.004029e-002
22799550 9.994283e-001 -1.023202e-002 2.070554e-005 5.970477e-005 -3.087228e-005 8.476048e-005 9.970639e-001 -2.013171e-002
23549535 9.989150e-001 -1.104154e-002 8.948549e-006 5.853574e-005 2.036717e-004 -3.382303e-005 9.957052e-001 -2.085013e-002
24299520 9.985298e-001 -1.126797e-002 -4.467629e-005 1.611568e-005 2.386182e-004 -3.519205e-004 9.966472e-001 -2.142530e-002
25049505 9.988633e-001 -1.155016e-002 -2.121752e-005 4.135737e-005 2.935650e-004 1.441623e-004 9.980520e-001 -2.291883e-002
25799490 9.977335e-001 -1.131438e-002 -9.766913e-005 1.155214e-004 -1.439174e-004 2.005404e-004 9.975443e-001 -2.106164e-002
26549475 9.988890e-001 -1.150516e-002 3.493433e-005 -4.945232e-005 9.435460e-005 2.258345e-004 9.953852e-001 -2.288940e-002
27299460 9.990755e-001 -1.216461e-002 -2.776562e-006 3.783787e-005 -3.826913e-005 -1.108548e-005 9.947267e-001 -2.551495e-002
28049445 9.996542e-001 -1.190955e-002 -4.248912e-005 -4.178882e-005 -1.482206e-004 -1.241637e-004 9.954674e-001 -2.544675e-002
28799430 9.993986e-001 -1.273155e-002 9.091377e-005 -4.535879e-005 9.838116e-005 -1.317589e-004 9.959184e-001 -2.597483e-002
29549415 9.996177e-001 -1.266206e-002 -1.534580e-005 4.184347e-005 1.876213e-004 -1.421234e-004 9.971885e-001 -2.585926e-002
30299400 9.998964e-001 -1.389049e-002 4.940637e-006 -1.098424e-004 3.300757e-004 9.603319e-006 9.959837e-001 -2.568841e-002
31049385 9.990598e-001 -1.439663e-002 8.428636e-006 2.226892e-005 8.984072e-005 2.887400e-005 9.953394e-001 -2.688159e-002
31799370 9.984618e-001 -1.424067e-002 -2.149350e-005 3.912419e-005 -1.385339e-004 1.541052e-004 9.944870e-001 -2.651762e-002
32549355 9.983820e-001 -1.436577e-002 8.702686e-005 -6.743860e-005 -4.503024e-005 7.394816e-005 9.947631e-001 -2.934028e-002
33299340 9.985926e-001 -1.340684e-002 1.051208e-004 -1.156008e-005 -1.181701e-004 -1.881261e-005 9.948144e-001 -2.999354e-002
34049325 9.986039e-001 -1.494864e-002 1.125640e-004 3.576004e-005 -7.109831e-005 2.079648e-004 9.956824e-001 -2.960176e-002
34799310 9.993185e-001 -1.620794e-002 7.943543e-005 -9.277793e-005 1.730636e-005 1.026711e-004 9.958722e-001 -3.043564e-002
35549295 9.990257e-001 -1.526405e-002 5.117674e-005 -6.283484e-005 -1.810801e-004 9.065168e-005 9.963028e-001 -2.942980e-002
36299280 9.987754e-001 -1.590096e-002 -4.414264e-005 3.103520e-005 -1.682246e-004 -2.302122e-004 9.970585e-001 -3.078729e-002
37049265 9.988936e-001 -1.728689e-002 -1.353528e-004 -4.347143e-005 1.131823e-004 -2.006451e-005 9.963061e-001 -3.443280e-002
37799250 9.987329e-001 -1.723162e-002 4.062042e-005 -6.531601e-007 -4.916062e-005 -1.683139e-004 9.966452e-001 -3.367350e-002
38549235 9.981822e-001 -1.731434e-002 -4.207312e-005 -7.465053e-005 1.099775e-004 -4.536807e-005 9.965521e-001 -3.538390e-002
39299220 9.983010e-001 -1.781547e-002 -6.276761e-005 5.187223e-005 2.233996e-004 3.730796e-005 9.952841e-001 -3.344797e-002
40049205 9.995112e-001 -1.770324e-002 -9.825201e-005 1.272951e-005 -7.394906e-005 -1.152836e-004 9.971620e-001 -3.516021e-002
40799190 9.993524e-001 -1.975845e-002 -6.272122e-005 2.371434e-005 2.381749e-005 2.470781e-004 9.951044e-001 -3.537993e-002
41549175 9.995228e-001 -1.849062e-002 7.662211e-007 4.678328e-005 -1.413924e-004 -4.607549e-005 9.964535e-001 -3.708414e-002
42299160 9.988597e-001 -1.902813e-002 -3.320825e-005 -1.678562e-004 -6.895645e-005 2.017223e-005 9.960068e-001 -3.737969e-002
43049145 9.994785e-001 -1.772869e-002 -1.794749e-005 -5.661347e-005 1.588535e-004 -1.396131e-005 9.948657e-001 -3.804793e-002
43799130 1.000234e+000 -1.983268e-002 -8.610015e-005 -3.421215e-007 1.311269e-004 -3.360323e-004 9.944444e-001 -3.854836e-002
44549115 9.991082e-001 -2.069502e-002 3.472548e-005 -1.019690e-004 -4.922713e-005 -3.371771e-004 9.960833e-001 -3.898878e-002
45299100 9.984476e-001 -1.879005e-002 8.425549e-005 1.348175e-004 2.355149e-004 4.438680e-005 9.986281e-001 -3.773678e-002
46049085 9.985276e-001 -2.014832e-002 3.322626e-005 8.016237e-005 1.173833e-004 -1.252388e-004 9.926983e-001 -4.222785e-002
46799070 9.991933e-001 -1.935131e-002 6.126554e-005 6.244449e-005 -1.326106e-004 -9.271198e-005 9.992309e-001 -4.264272e-002
47549055 9.987170e-001 -2.265087e-002 -1.411325e-004 -3.177011e-005 2.241114e-005 1.713877e-004 9.939590e-001 -4.260010e-002
48299040 9.982578e-001 -2.164098e-002 -5.446061e-005 -3.260721e-006 -9.594992e-006 -2.876174e-005 9.936398e-001 -4.406633e-002
49049025 9.976195e-001 -2.208567e-002 3.733770e-005 5.916570e-005 1.783939e-004 -1.485138e-004 9.977300e-001 -4.642246e-002
49799010 9.987608e-001 -2.312112e-002 8.586489e-005 -1.234659e-005 1.116956e-004 1.834677e-004 9.942864e-001 -4.507166e-002
50548995 9.990516e-001 -2.239953e-002 -1.071013e-004 -7.719051e-005 -1.935865e-004 -2.219012e-004 9.971859e-001 -4.539415e-002
51298980 9.990778e-001 -2.292084e-002 -2.235686e-004 3.440846e-005 -3.444298e-005 3.789165e-004 9.977741e-001 -4.392670e-002
52048965 9.985000e-001 -2.336697e-002 4.760683e-005 3.698106e-005 1.006331e-004 3.155686e-004 9.943569e-001 -5.022549e-002
52798950 9.990344e-001 -2.449915e-002 5.829455e-005 1.036967e-004 -3.708588e-005 5.672922e-004 9.959171e-001 -4.582066e-002
53548935 9.990350e-001 -2.381394e-002 5.889386e-005 -5.944137e-005 -2.268020e-004 2.404340e-004 9.929937e-001 -4.789660e-002
54298920 9.996976e-001 -2.492774e-002 -3.932103e-006 3.143673e-005 6.460692e-005 3.802913e-004 9.974397e-001 -5.221732e-002
55048905 9.991651e-001 -2.454389e-002 -1.907016e-004 3.187403e-005 -8.216948e-005 1.196386e-004 9.974909e-001 -5.070641e-002
55798890 9.984211e-001 -2.393359e-002 1.211197e-004 -7.247215e-005 -3.215495e-004 -4.016851e-004 9.942741e-001 -5.091080e-002
56548875 9.985625e-001 -2.404446e-002 -8.293991e-005 -6.501441e-005 1.994757e-004 -2.213681e-004 9.940996e-001 -5.006745e-002
57298860 9.990819e-001 -2.544192e-002 1.077258e-005 6.211255e-005 -4.851498e-004 1.228725e-004 9.925593e-001 -5.174016e-002
58048845 9.984255e-001 -2.591471e-002 -1.006911e-006 4.080873e-005 -1.029338e-004 -2.917246e-004 9.944236e-001 -5.216659e-002
58798830 9.978250e-001 -2.548578e-002 -1.446065e-004 8.534447e-005 -2.531776e-004 -1.962656e-004 9.954581e-001 -5.126522e-002
59548815 9.977069e-001 -2.640694e-002 -7.035692e-005 1.264860e-004 -5.464905e-005 -1.005022e-004 9.935012e-001 -5.219712e-002
60298800 9.990299e-001 -2.660834e-002 1.027488e-004 -3.808441e-005 -1.749617e-004 -4.678621e-005 9.942537e-001 -5.147086e-002
61048785 9.984763e-001 -2.710439e-002 7.968984e-005 -8.989517e-005 -1.833485e-006 -1.867297e-004 9.940223e-001 -5.485632e-002
61798770 9.996842e-001 -2.777416e-002 -7.121013e-005 7.490706e-005 -2.615553e-004 -1.333328e-004 9.938831e-001 -5.307407e-002
62548755 9.974618e-001 -2.690012e-002 2.578241e-004 -7.492174e-008 5.195546e-005 -2.633320e-004 1.000436e+000 -5.731481e-002
63298740 9.982089e-001 -2.752547e-002 -1.284384e-004 -7.690932e-005 5.556759e-004 -2.445847e-004 9.975521e-001 -5.685021e-002
64048725 9.977350e-001 -2.818858e-002 -8.659266e-005 -3.730342e-005 1.700159e-004 -8.672374e-005 9.961004e-001 -5.549924e-002
64798710 9.993442e-001 -2.840620e-002 -2.785964e-005 -1.217206e-004 5.454724e-005 -1.475481e-005 9.940678e-001 -5.784907e-002
65548695 9.979929e-001 -2.778671e-002 2.616128e-005 -8.903434e-005 1.460449e-004 -2.528513e-004 9.921194e-001 -5.857531e-002
66298680 9.972767e-001 -2.855432e-002 5.116009e-006 -8.342655e-005 2.706747e-004 -2.018552e-004 9.949052e-001 -5.704483e-002
67048665 9.978685e-001 -2.923817e-002 5.293492e-005 2.223902e-006 -1.480606e-004 2.422695e-004 9.955704e-001 -6.115903e-002
67798650 9.984962e-001 -2.903863e-002 -1.163565e-004 5.261243e-005 -4.719810e-005 5.738352e-005 9.955748e-001 -6.212376e-002
68548635 9.983951e-001 -3.082535e-002 -1.371079e-004 -6.110578e-005 4.474247e-004 -1.210879e-004 9.929118e-001 -6.039703e-002
69298620 9.977227e-001 -3.073402e-002 -1.021693e-004 1.669984e-004 9.555763e-005 4.791419e-005 9.941681e-001 -5.958377e-002
70048605 9.984323e-001 -3.178801e-002 1.443026e-004 -1.120162e-005 3.278946e-004 -1.023437e-004 9.954429e-001 -6.203677e-002
70798590 9.976680e-001 -3.207664e-002 1.105631e-006 9.288626e-005 -1.961244e-004 2.338245e-004 9.936637e-001 -6.036739e-002
71548575 9.993147e-001 -3.160921e-002 -9.613472e-005 -1.719334e-005 -5.747423e-005 -1.723673e-004 9.942608e-001 -6.240217e-002
72298560 9.986442e-001 -3.086368e-002 -6.501357e-005 -4.300960e-005 8.824969e-005 1.388040e-004 9.939960e-001 -5.921038e-002
73048545 9.974333e-001 -3.269947e-002 -9.579657e-005 9.593720e-005 -1.034099e-004 2.424824e-004 9.960817e-001 -6.283377e-002
73798530 9.987983e-001 -3.348138e-002 -1.735014e-004 7.370286e-005 -7.369301e-005 7.670663e-005 9.932225e-001 -6.432372e-002
74548515 9.977584e-001 -3.404287e-002 4.884000e-005 -8.614182e-005 -5.070414e-005 -2.201554e-004 9.923989e-001 -6.396969e-002
75298500 9.977018e-001 -3.123403e-002 -2.590721e-005 8.381295e-005 -3.255200e-004 -6.774980e-005 9.908913e-001 -6.595925e-002
76048485 9.963787e-001 -3.299602e-002 5.744702e-005 9.924624e-005 4.395342e-004 1.156573e-004 9.923610e-001 -6.634171e-002
76798470 9.963858e-001 -3.362851e-002 3.456284e-005 -1.456667e-004 -3.650906e-004 7.605816e-005 9.924964e-001 -6.694029e-002
77548455 9.978057e-001 -3.479296e-002 1.142512e-004 -7.332395e-005 9.936860e-005 3.284568e-004 9.929104e-001 -6.709286e-002
78298440 9.970115e-001 -3.678890e-002 -2.006875e-004 1.952254e-005 -1.476626e-004 -2.337919e-005 9.944388e-001 -6.968906e-002
79048425 9.969683e-001 -3.640627e-002 6.709036e-005 9.009330e-005 -1.617522e-004 1.389112e-004 9.890146e-001 -6.731394e-002
79798410 9.979320e-001 -3.717172e-002 -1.230613e-004 3.841379e-006 2.582034e-005 7.455343e-005 9.911076e-001 -6.918608e-002
80548395 9.981363e-001 -3.597256e-002 -9.999757e-005 2.003262e-004 7.220283e-005 -2.778294e-004 9.932251e-001 -6.872930e-002
81298380 9.988039e-001 -3.589893e-002 -9.140884e-005 4.440465e-005 -1.422489e-004 8.970703e-005 9.927074e-001 -7.094781e-002
82048365 9.987963e-001 -3.620899e-002 9.872606e-006 7.020203e-006 6.992024e-006 -5.515127e-005 9.928269e-001 -6.977186e-002
82798350 9.992387e-001 -3.632590e-002 1.258034e-004 5.086389e-005 1.387579e-004 -2.628580e-004 9.916438e-001 -7.077945e-002
83548335 9.985595e-001 -3.707859e-002 5.092614e-005 -5.694332e-005 2.934858e-005 -3.084410e-004 9.924051e-001 -7.336463e-002
84298320 9.976906e-001 -3.658278e-002 -4.627973e-005 1.059356e-004 -1.957360e-004 6.859835e-005 9.907486e-001 -7.409514e-002
85048305 9.976703e-001 -3.626267e-002 8.816536e-005 2.398802e-005 3.091211e-004 3.598327e-004 9.939635e-001 -7.360763e-002
85798290 9.971502e-001 -3.805598e-002 -2.289253e-005 1.207341e-004 1.386019e-004 -2.363083e-004 9.936472e-001 -7.341973e-002
86548275 9.971673e-001 -3.765409e-002 1.973664e-004 -1.147455e-004 2.532164e-004 4.967073e-005 9.909633e-001 -7.572363e-002
87298260 9.998965e-001 -3.863818e-002 -6.267206e-005 -1.449585e-005 1.929855e-005 8.295407e-005 9.903690e-001 -7.746577e-002
88048245 9.986525e-001 -4.093133e-002 4.008163e-005 7.117081e-005 -7.889199e-005 -1.032470e-004 9.923608e-001 -7.814689e-002
88798230 9.961289e-001 -3.938853e-002 8.556990e-005 -1.701530e-004 -2.608656e-004 2.496701e-004 9.935368e-001 -7.709671e-002
89548215 9.984258e-001 -3.927136e-002 -5.715083e-005 6.535884e-005 6.447102e-005 2.254253e-004 9.904784e-001 -8.212571e-002
90298200 9.985170e-001 -4.059001e-002 -2.196432e-005 4.633543e-006 1.618050e-004 -6.580084e-005 9.920212e-001 -8.089128e-002
91048185 9.961305e-001 -4.054920e-002 2.399539e-005 -1.159934e-004 2.521969e-005 -8.494009e-007 9.919372e-001 -8.011732e-002
91798170 9.974287e-001 -4.180378e-002 -2.065100e-005 -1.740828e-005 -1.745463e-004 9.259012e-006 9.888903e-001 -7.904375e-002
92548155 9.972063e-001 -4.141826e-002 6.455810e-005 -1.245607e-004 3.555976e-004 4.746671e-004 9.917692e-001 -8.459627e-002
93298140 9.988099e-001 -4.197336e-002 1.225993e-004 -5.317825e-006 -2.108049e-004 6.233751e-006 9.941971e-001 -8.421310e-002
94048125 9.985489e-001 -4.259869e-002 5.087620e-005 1.309514e-004 -2.015206e-004 -1.861196e-004 9.911503e-001 -8.518593e-002
94798110 9.994284e-001 -4.161061e-002 -1.902206e-004 7.305924e-005 -2.430676e-004 -8.626594e-005 9.913735e-001 -8.436879e-002
95548095 9.969746e-001 -4.217877e-002 6.551764e-005 1.099373e-004 -2.971642e-004 -1.721591e-004 9.894372e-001 -8.384932e-002
96298080 9.975091e-001 -4.137389e-002 5.591991e-005 3.617855e-005 -3.049909e-004 -3.511441e-004 9.928804e-001 -8.366261e-002
97048065 9.979509e-001 -4.217570e-002 -1.230159e-004 -2.375791e-006 2.598664e-004 3.104550e-004 9.933731e-001 -8.627776e-002
97798050 9.971656e-001 -4.449285e-002 2.122340e-004 -8.544341e-005 -2.989640e-004 -6.473763e-004 9.892477e-001 -8.649164e-002
98548035 9.978585e-001 -4.477384e-002 -1.600004e-004 7.598791e-005 -4.274944e-004 1.223764e-004 9.915249e-001 -8.763210e-002
99298020 9.966185e-001 -4.394073e-002 3.656673e-005 -4.307200e-005 -2.336910e-004 -2.682050e-004 9.898404e-001 -8.947568e-002
100048005 9.960775e-001 -4.336829e-002 -5.773397e-005 -5.700943e-005 -4.516853e-004 3.502669e-006 9.902215e-001 -8.702506e-002
100797990 9.955662e-001 -4.394164e-002 6.797068e-005 4.442209e-005 1.562664e-004 -2.779413e-005 9.923493e-001 -8.675209e-002
101547975 9.982154e-001 -4.388064e-002 7.000918e-005 3.217488e-005 -5.284705e-005 -1.730607e-004 9.918680e-001 -8.545948e-002
102297960 9.963460e-001 -4.644589e-002 1.438380e-005 -1.535238e-005 3.944705e-004 1.579976e-004 9.897899e-001 -8.833288e-002
103047945 9.977273e-001 -4.565495e-002 5.474870e-005 1.250565e-004 2.509838e-004 -1.556229e-004 9.904056e-001 -9.061740e-002
103797930 9.964560e-001 -4.429543e-002 2.006553e-004 -2.959591e-005 -1.028409e-004 -1.341019e-004 9.891853e-001 -9.093828e-002
104547915 9.969078e-001 -4.546516e-002 -3.135260e-005 1.553451e-004 -5.868956e-004 1.828968e-004 9.911612e-001 -9.462513e-002
105297900 9.963030e-001 -4.667123e-002 1.060068e-004 9.580865e-005 4.820121e-004 -3.386629e-005 9.931619e-001 -9.398617e-002
106047885 9.981918e-001 -4.666753e-002 -1.115180e-005 -1.414928e-005 4.102323e-004 -3.393949e-005 9.922201e-001 -9.300905e-002
106797870 9.983004e-001 -4.779123e-002 -3.183728e-005 1.316568e-004 -1.196979e-004 3.466821e-004 9.917468e-001 -9.478112e-002
107547855 9.964569e-001 -4.685530e-002 -1.601141e-005 5.058345e-005 -4.958066e-005 -2.266574e-004 9.911873e-001 -9.192961e-002
108297840 9.960557e-001 -4.805372e-002 4.444802e-005 9.833124e-006 1.679704e-004 -2.086665e-004 9.920839e-001 -9.210394e-002
109047825 9.960571e-001 -4.726360e-002 4.535112e-005 1.724175e-005 -8.188901e-005 -2.268861e-004 9.887330e-001 -9.252544e-002
109797810 9.957530e-001 -4.895825e-002 6.503467e-005 -1.356210e-005 -3.557075e-006 1.724191e-005 9.857841e-001 -9.488369e-002
110547795 9.971153e-001 -4.957400e-002 1.195354e-004 -8.510740e-005 -4.578455e-004 1.754837e-004 9.911236e-001 -9.584725e-002
111297780 9.970909e-001 -4.979181e-002 1.032668e-004 6.463431e-005 -5.536706e-004 2.427638e-004 9.885454e-001 -9.821178e-002
112047765 9.968335e-001 -4.993898e-002 -5.056733e-005 6.935564e-005 -1.994453e-004 6.867940e-005 9.915602e-001 -9.853805e-002
112797750 9.973273e-001 -5.111051e-002 -9.764621e-005 4.598541e-005 -1.012185e-004 3.473874e-004 9.902439e-001 -9.942476e-002
113547735 9.966406e-001 -4.978542e-002 4.017164e-005 1.245428e-004 -1.709536e-005 -1.505164e-004 9.890489e-001 -9.972436e-002
114297720 9.969277e-001 -5.107633e-002 -1.166841e-004 1.012306e-005 1.089585e-004 2.962319e-004 9.907707e-001 -1.002889e-001
115047705 9.958942e-001 -5.160870e-002 -2.237619e-005 8.278822e-005 -4.270653e-004 -1.300264e-004 9.922399e-001 -1.033262e-001
115797690 9.945447e-001 -5.103749e-002 -2.451339e-005 8.222429e-005 -1.752622e-004 -4.374316e-004 9.881943e-001 -9.948264e-002
116547675 9.955531e-001 -5.217465e-002 -1.047378e-004 -2.927454e-006 9.521440e-005 5.166815e-005 9.889778e-001 -1.044454e-001
