!Agilent Technologies,N5230C,SG49000117,A.08.50.07
!Agilent N5230C: A.08.50.07
!Date: Monday, December 11, 2023 23:29:42
!Correction: S11(Full 2 Port(1,2)) 
!S21(Full 2 Port(1,2)) 
!S12(Full 2 Port(1,2)) 
!S22(Full 2 Port(1,2)) 
!S2P File: Measurements: S11, S21, S12, S22:
# Hz S  RI   R 50
300000 9.898244e-001 5.026880e-003 -1.855604e-004 -1.705373e-004 1.019038e-004 -2.224634e-004 9.905754e-001 8.298073e-003
1049985 9.941280e-001 3.685804e-003 -1.448183e-004 -2.215453e-005 -6.151625e-005 4.755134e-005 9.826900e-001 3.887720e-003
1799970 9.922956e-001 9.029742e-003 7.490507e-005 -4.471410e-005 1.181830e-004 8.156793e-005 9.950658e-001 -4.688922e-003
2549955 9.989004e-001 1.734328e-004 -3.180573e-005 -9.400547e-005 -1.311542e-004 -1.133102e-004 9.981668e-001 -3.226297e-003
3299940 9.993261e-001 -1.329908e-003 -1.699603e-005 -6.629073e-005 1.087664e-004 1.265069e-005 9.990824e-001 -5.731285e-003
4049925 9.994958e-001 -4.965939e-004 1.045676e-005 -4.998939e-006 -9.937290e-005 1.557174e-004 9.967846e-001 -4.597037e-003
4799910 9.986124e-001 -1.424387e-003 9.697348e-006 1.332980e-005 1.557031e-004 -9.177461e-005 9.959910e-001 -3.721677e-003
5549895 9.982075e-001 -2.650833e-003 -9.976993e-005 2.214256e-005 -7.851268e-005 2.871242e-004 9.960831e-001 -5.841982e-003
6299880 9.987645e-001 -2.943922e-003 -7.868953e-005 -6.284731e-005 -1.794118e-005 3.571002e-005 9.959969e-001 -5.120754e-003
7049865 9.988409e-001 -3.654899e-003 -1.759283e-005 -2.363075e-005 3.331126e-006 -2.022871e-004 9.966111e-001 -6.191257e-003
7799850 9.989799e-001 -3.420195e-003 -3.650874e-005 1.421998e-005 -6.733077e-006 -6.758013e-005 9.965594e-001 -6.712729e-003
8549835 9.983754e-001 -2.909745e-003 -1.008874e-005 2.474098e-007 3.897159e-005 1.514142e-004 9.963892e-001 -7.136596e-003
9299820 9.983919e-001 -3.397410e-003 7.563399e-005 -1.362806e-006 1.381038e-004 -4.918012e-005 9.958147e-001 -7.903086e-003
10049805 9.988938e-001 -4.413198e-003 -5.420432e-005 7.213688e-005 -1.407947e-004 -1.331227e-004 9.975750e-001 -9.340825e-003
10799790 9.996011e-001 -5.036633e-003 4.462939e-005 2.109489e-005 8.244073e-005 5.094532e-005 9.964800e-001 -1.054262e-002
11549775 9.986714e-001 -4.937626e-003 -7.500897e-005 3.281754e-005 1.605789e-004 -1.811235e-004 9.962699e-001 -9.035999e-003
12299760 9.995443e-001 -5.427394e-003 -4.062546e-005 -3.308083e-005 -1.509939e-004 -2.180641e-004 9.962544e-001 -1.199169e-002
13049745 9.999109e-001 -5.670328e-003 1.850692e-006 -2.036670e-005 4.577542e-005 1.345116e-004 9.969825e-001 -1.182455e-002
13799730 9.988061e-001 -6.997634e-003 -1.140861e-005 6.394259e-005 -9.818782e-005 1.146240e-005 9.969112e-001 -1.372117e-002
14549715 9.986882e-001 -6.942717e-003 6.369773e-005 -2.149937e-005 -2.077395e-004 6.938603e-005 9.968032e-001 -1.354201e-002
15299700 9.991654e-001 -7.404563e-003 -9.398509e-006 -2.996172e-005 -1.100963e-004 1.470769e-005 9.971667e-001 -1.592857e-002
16049685 9.984908e-001 -7.042643e-003 -3.938126e-005 -9.155022e-005 -1.147300e-004 1.807872e-005 9.979002e-001 -1.514616e-002
16799670 9.983410e-001 -7.549834e-003 -1.759402e-005 -1.361239e-005 -1.356136e-004 -1.229658e-004 9.977668e-001 -1.526340e-002
17549655 9.989154e-001 -8.335543e-003 -6.814552e-006 -1.871448e-006 -2.042816e-004 -7.114714e-005 9.970133e-001 -1.834427e-002
18299640 9.987482e-001 -7.888318e-003 8.029817e-005 4.845098e-005 2.036099e-004 -2.962436e-004 9.955165e-001 -1.656208e-002
19049625 9.990043e-001 -8.468313e-003 4.751073e-005 6.656916e-005 3.643421e-005 -6.111241e-005 9.974861e-001 -1.954535e-002
19799610 9.984750e-001 -9.069179e-003 3.479687e-005 4.763131e-005 2.582578e-005 -1.494730e-004 9.965829e-001 -1.790470e-002
20549595 9.984572e-001 -1.011494e-002 1.084435e-004 2.649100e-006 8.698097e-006 -1.047260e-004 9.972596e-001 -1.722241e-002
21299580 9.988676e-001 -9.263451e-003 2.276675e-005 4.456263e-006 8.767904e-005 -1.225071e-004 9.987188e-001 -1.826522e-002
22049565 9.992372e-001 -1.022970e-002 5.596591e-005 -6.195852e-005 1.165174e-005 2.923036e-004 9.962017e-001 -1.960843e-002
22799550 9.995413e-001 -1.016345e-002 5.039178e-005 1.113423e-005 6.343408e-005 9.090181e-005 9.961836e-001 -2.006267e-002
23549535 9.984661e-001 -1.093564e-002 -6.108208e-005 -7.431312e-005 -5.949724e-005 2.481467e-004 9.957584e-001 -1.978912e-002
24299520 9.991416e-001 -1.137169e-002 1.459690e-004 -6.134444e-006 -1.632035e-004 -1.695501e-004 9.975827e-001 -2.201104e-002
25049505 9.990993e-001 -1.155552e-002 4.860464e-006 -3.046296e-005 -1.958851e-004 -3.752148e-004 9.975521e-001 -2.196286e-002
25799490 9.990542e-001 -1.148750e-002 -1.243188e-004 3.915024e-005 8.588941e-005 1.690549e-005 9.968179e-001 -2.217430e-002
26549475 9.983406e-001 -1.216213e-002 2.014943e-006 -4.403957e-005 1.411768e-004 -2.332904e-004 9.945039e-001 -2.308864e-002
27299460 9.990327e-001 -1.272349e-002 1.383299e-004 2.859495e-005 1.607994e-004 -3.656933e-004 9.967528e-001 -2.636776e-002
28049445 9.993738e-001 -1.267954e-002 2.117138e-005 3.146890e-006 2.242161e-004 -1.435900e-005 9.965337e-001 -2.482583e-002
28799430 9.990916e-001 -1.246647e-002 -7.353289e-005 2.528696e-005 -1.749076e-004 1.210614e-004 9.959403e-001 -2.579957e-002
29549415 9.991857e-001 -1.304362e-002 3.590851e-005 1.892417e-005 -3.258916e-004 2.191256e-004 9.952599e-001 -2.526177e-002
30299400 9.986974e-001 -1.455361e-002 -7.384959e-005 -5.241528e-005 -8.412356e-005 2.348734e-004 9.958301e-001 -2.576978e-002
31049385 9.987286e-001 -1.492371e-002 -2.808966e-005 -4.936432e-005 -4.006805e-006 1.670783e-004 9.936703e-001 -2.661155e-002
31799370 9.991130e-001 -1.464655e-002 -4.891539e-006 -1.240002e-005 -2.016437e-004 -1.418642e-004 9.947979e-001 -2.641557e-002
32549355 9.984103e-001 -1.422662e-002 -5.360934e-005 1.212404e-004 -1.708375e-004 -1.503583e-004 9.952990e-001 -2.935727e-002
33299340 9.991122e-001 -1.448663e-002 -2.365133e-005 -5.366009e-005 -1.207739e-004 -7.914433e-005 9.954684e-001 -2.928211e-002
34049325 9.987166e-001 -1.639091e-002 -3.652766e-005 -6.947324e-005 2.790447e-004 -1.441335e-004 9.957922e-001 -3.052963e-002
34799310 9.997412e-001 -1.615453e-002 2.036849e-005 -8.922752e-006 8.567743e-005 1.348160e-004 9.967929e-001 -3.001813e-002
35549295 9.986258e-001 -1.615355e-002 1.048378e-005 -9.213745e-006 -5.928701e-005 2.449302e-004 9.959314e-001 -2.994839e-002
36299280 9.981344e-001 -1.607168e-002 4.287202e-005 3.334935e-005 -1.060965e-004 9.078543e-005 9.965159e-001 -3.150983e-002
37049265 9.989963e-001 -1.615629e-002 3.855404e-005 9.240549e-006 -1.779825e-004 -3.288060e-005 9.957071e-001 -3.317965e-002
37799250 9.988088e-001 -1.626226e-002 -8.169655e-005 1.164517e-005 -8.024127e-005 1.580137e-004 9.961620e-001 -3.298537e-002
38549235 9.988381e-001 -1.681485e-002 -9.179290e-006 4.288427e-005 -3.298840e-007 -9.273446e-005 9.975740e-001 -3.389913e-002
39299220 9.991913e-001 -1.783226e-002 4.252532e-005 -1.525223e-005 -1.097207e-004 -1.874716e-004 9.937522e-001 -3.418904e-002
40049205 1.001859e+000 -1.769121e-002 -1.855166e-004 -9.246115e-006 -8.395808e-006 -3.501137e-004 9.960040e-001 -3.442568e-002
40799190 9.990080e-001 -1.862022e-002 -9.084860e-005 1.553398e-004 5.570196e-006 1.487610e-004 9.949355e-001 -3.677675e-002
41549175 9.998624e-001 -2.042666e-002 -5.574977e-005 -2.793008e-005 -8.737293e-005 1.100506e-004 9.944912e-001 -3.706709e-002
42299160 9.985905e-001 -1.866747e-002 2.014016e-005 9.767502e-005 -2.882924e-004 -4.717002e-005 9.959677e-001 -3.656232e-002
43049145 9.994821e-001 -1.924380e-002 1.601714e-004 5.865825e-005 -2.239633e-005 4.002164e-005 9.958894e-001 -3.915248e-002
43799130 9.987425e-001 -1.933651e-002 -3.776777e-005 -5.149798e-006 -4.629349e-005 -1.161195e-004 9.938307e-001 -3.916165e-002
44549115 9.983252e-001 -2.084717e-002 -9.677011e-006 6.128357e-005 2.095662e-004 -2.113812e-004 9.964440e-001 -3.854011e-002
45299100 9.977818e-001 -2.028768e-002 3.072765e-005 8.199656e-005 -4.517481e-005 -2.640213e-005 9.967330e-001 -3.880474e-002
46049085 9.990531e-001 -2.194217e-002 -4.657574e-005 5.640278e-005 5.536818e-005 2.967564e-004 9.958875e-001 -4.165387e-002
46799070 9.998926e-001 -2.038316e-002 6.344881e-005 1.481441e-005 -2.167221e-004 -1.493418e-004 9.976379e-001 -4.327607e-002
47549055 9.992289e-001 -2.195193e-002 -9.999156e-006 5.905302e-005 9.712499e-005 -1.934000e-004 9.940479e-001 -4.235714e-002
48299040 9.974800e-001 -2.281471e-002 2.432911e-005 2.007722e-004 -1.555229e-004 8.411982e-005 9.940955e-001 -4.370099e-002
49049025 9.981968e-001 -2.258385e-002 2.847794e-005 1.159449e-004 3.240566e-004 4.156841e-004 9.974184e-001 -4.835273e-002
49799010 9.972265e-001 -2.201263e-002 4.191351e-005 -7.608212e-005 2.764287e-004 1.471403e-004 9.962228e-001 -4.709398e-002
50548995 9.990372e-001 -2.325504e-002 -1.249587e-005 -8.269337e-005 4.555143e-004 1.850066e-004 9.950452e-001 -4.346814e-002
51298980 9.985943e-001 -2.249942e-002 -9.042925e-005 9.001888e-005 -2.046187e-004 -1.506110e-004 9.990101e-001 -4.384455e-002
52048965 9.989319e-001 -2.334327e-002 3.128201e-006 -1.927061e-004 1.837209e-004 4.974483e-005 9.960173e-001 -4.775930e-002
52798950 9.993737e-001 -2.489631e-002 3.135595e-005 2.200321e-004 2.248928e-005 3.713499e-004 9.957242e-001 -4.560489e-002
53548935 9.992266e-001 -2.451438e-002 -1.854605e-004 -6.150239e-006 2.115611e-004 1.716994e-004 9.929262e-001 -4.711586e-002
54298920 9.984077e-001 -2.526550e-002 4.143683e-005 -8.023487e-005 -5.945731e-005 4.348379e-005 9.969583e-001 -4.912721e-002
55048905 9.992487e-001 -2.504184e-002 4.834808e-005 4.629302e-005 3.787953e-004 3.179210e-004 9.959517e-001 -4.920221e-002
55798890 9.980749e-001 -2.374358e-002 -8.440426e-007 -1.760439e-005 3.024786e-004 2.186775e-004 9.967844e-001 -4.911002e-002
56548875 9.986056e-001 -2.421755e-002 1.898263e-005 5.750469e-005 -3.512892e-004 3.613863e-004 9.950950e-001 -5.001318e-002
57298860 9.995496e-001 -2.624730e-002 -4.641117e-005 -8.473376e-006 -3.294818e-004 -2.949139e-006 9.944273e-001 -5.160270e-002
58048845 9.992595e-001 -2.544157e-002 1.127268e-004 -9.096583e-005 8.540367e-005 1.082487e-004 9.937147e-001 -5.028939e-002
58798830 9.976546e-001 -2.658548e-002 8.650705e-005 -4.323328e-005 -2.064565e-004 3.940115e-004 9.948343e-001 -5.137933e-002
59548815 9.984645e-001 -2.631084e-002 -4.749118e-006 2.020040e-005 -3.634411e-004 3.319042e-004 9.930323e-001 -5.092538e-002
60298800 9.994717e-001 -2.708135e-002 6.002220e-005 -1.203609e-004 -3.672729e-004 -2.222795e-004 9.932191e-001 -5.490483e-002
61048785 9.985921e-001 -2.777414e-002 -7.672680e-005 -7.248153e-005 -1.412696e-004 9.641192e-005 9.932400e-001 -5.184198e-002
61798770 9.979581e-001 -2.731910e-002 3.719778e-005 -7.989714e-005 1.014067e-004 3.267883e-004 9.965377e-001 -5.452229e-002
62548755 9.977089e-001 -2.823039e-002 -3.955280e-005 7.324019e-005 -9.333916e-005 -7.816842e-005 1.000374e+000 -5.670285e-002
63298740 9.980494e-001 -2.708588e-002 -8.405737e-006 -1.175539e-004 -2.522873e-004 -4.133383e-004 9.970868e-001 -5.717333e-002
64048725 9.986104e-001 -2.848006e-002 -4.168159e-005 -7.812218e-005 -3.185012e-004 -3.259123e-004 9.925331e-001 -5.598307e-002
64798710 9.987186e-001 -2.932002e-002 -7.099527e-005 -1.452082e-004 2.517680e-004 -3.526916e-004 9.952554e-001 -5.919576e-002
65548695 9.972275e-001 -2.785512e-002 -4.253557e-005 1.169940e-004 -2.973783e-004 1.159238e-004 9.925593e-001 -5.935604e-002
66298680 9.978804e-001 -2.865988e-002 -1.357011e-004 -8.037687e-005 -3.976930e-004 -4.134562e-004 9.931876e-001 -6.102378e-002
67048665 9.978937e-001 -2.993551e-002 -1.358430e-005 -5.583133e-005 2.002758e-004 -9.234731e-005 9.941837e-001 -6.267828e-002
67798650 9.984605e-001 -3.014797e-002 -6.859323e-005 3.769642e-005 1.847788e-004 -7.358006e-005 9.959645e-001 -6.055123e-002
68548635 9.984159e-001 -3.113931e-002 -1.448493e-005 4.555954e-005 2.512059e-004 -2.728174e-004 9.927956e-001 -5.883500e-002
69298620 9.986826e-001 -3.067313e-002 8.749393e-005 8.252623e-005 2.206104e-004 2.107799e-004 9.937140e-001 -5.915144e-002
70048605 9.981160e-001 -3.316490e-002 -1.464391e-004 7.746683e-005 6.320010e-005 -3.269740e-004 9.953085e-001 -6.249095e-002
70798590 9.983550e-001 -3.319794e-002 9.774780e-005 1.602119e-005 4.247295e-004 3.269611e-004 9.942679e-001 -6.149598e-002
71548575 9.989102e-001 -3.161061e-002 3.929681e-005 -5.416640e-005 1.787202e-004 -1.474849e-004 9.955760e-001 -6.220269e-002
72298560 9.988894e-001 -3.279711e-002 -4.006845e-005 1.448354e-004 2.746312e-004 -4.658031e-005 9.936675e-001 -6.073403e-002
73048545 9.985167e-001 -3.237528e-002 4.596680e-005 1.435754e-005 1.707177e-004 -2.798400e-005 9.964796e-001 -6.348759e-002
73798530 1.000098e+000 -3.270673e-002 -6.856881e-005 -4.098243e-006 5.262464e-004 -2.477285e-004 9.929772e-001 -6.337819e-002
74548515 9.980553e-001 -3.347442e-002 -1.145283e-004 -9.139364e-005 4.526742e-004 -8.264342e-005 9.918908e-001 -6.691904e-002
75298500 9.979019e-001 -3.331886e-002 3.465256e-005 7.657970e-005 1.363507e-004 6.031227e-005 9.918037e-001 -6.545807e-002
76048485 9.976697e-001 -3.354197e-002 1.135961e-004 -1.444565e-005 -8.349107e-005 1.378162e-005 9.934352e-001 -6.747609e-002
76798470 9.968178e-001 -3.394668e-002 -1.247333e-004 5.019817e-005 3.322729e-004 -1.313156e-004 9.948527e-001 -6.893854e-002
77548455 9.967642e-001 -3.490932e-002 3.188745e-004 -3.790314e-006 -8.504488e-005 3.021446e-005 9.936600e-001 -6.690522e-002
78298440 9.972320e-001 -3.624184e-002 2.082266e-004 5.811430e-005 -8.902033e-005 1.373651e-005 9.938524e-001 -6.899371e-002
79048425 9.968588e-001 -3.613526e-002 3.370456e-005 -2.553485e-005 1.863099e-004 -6.907572e-005 9.910051e-001 -6.912040e-002
79798410 9.974771e-001 -3.611102e-002 1.005166e-004 3.981339e-005 5.546182e-004 -1.419656e-004 9.938269e-001 -6.972071e-002
80548395 9.974394e-001 -3.644705e-002 1.416271e-004 9.477037e-005 3.189365e-004 -3.998016e-005 9.963004e-001 -7.043497e-002
81298380 9.987406e-001 -3.664979e-002 5.585541e-005 2.216555e-005 -3.022483e-006 -7.808587e-005 9.939736e-001 -6.966358e-002
82048365 9.998606e-001 -3.635672e-002 -9.309897e-005 -3.696839e-005 1.023354e-004 2.433158e-004 9.934606e-001 -7.008080e-002
82798350 9.995332e-001 -3.767760e-002 2.790270e-005 -4.729420e-005 6.747458e-005 3.395644e-004 9.920554e-001 -7.188801e-002
83548335 9.983816e-001 -3.927279e-002 -6.421447e-005 -1.083002e-004 -4.087657e-004 3.641108e-004 9.909938e-001 -7.543255e-002
84298320 9.976182e-001 -3.726382e-002 -7.929213e-005 7.121263e-005 -1.571200e-004 1.803299e-004 9.912387e-001 -7.452435e-002
85048305 9.986508e-001 -3.732667e-002 -6.492810e-006 1.342149e-004 1.487569e-005 1.270087e-004 9.925075e-001 -7.535830e-002
85798290 9.978149e-001 -3.916828e-002 2.715148e-004 3.980986e-005 2.331587e-004 2.478928e-004 9.934626e-001 -7.703017e-002
86548275 9.969198e-001 -3.919866e-002 -2.606533e-005 -1.063087e-005 4.847295e-005 2.579188e-004 9.912269e-001 -7.586093e-002
87298260 9.993114e-001 -4.005024e-002 -2.446134e-004 1.469864e-005 3.266925e-005 5.182136e-005 9.911672e-001 -7.906246e-002
88048245 9.986342e-001 -4.059952e-002 4.302416e-005 -3.400020e-005 6.652328e-005 -5.451089e-004 9.934944e-001 -7.747585e-002
88798230 9.963486e-001 -4.094577e-002 7.801122e-005 -1.446289e-004 -2.984058e-004 2.030178e-004 9.919748e-001 -7.720007e-002
89548215 9.984466e-001 -3.996165e-002 8.858377e-006 -3.474229e-005 -1.524966e-004 -2.395628e-004 9.890397e-001 -8.096354e-002
90298200 9.987787e-001 -4.019815e-002 1.075653e-005 1.736136e-004 -2.012710e-006 -1.351549e-004 9.921440e-001 -8.003081e-002
91048185 9.961228e-001 -4.181856e-002 3.516673e-005 3.606888e-005 -1.370646e-004 -8.886632e-006 9.916216e-001 -7.910018e-002
91798170 9.977537e-001 -4.241735e-002 -9.769056e-005 8.598033e-005 3.322989e-004 1.879838e-004 9.895648e-001 -8.087149e-002
92548155 9.974095e-001 -4.179045e-002 4.258201e-005 1.482428e-006 -5.845799e-005 -6.474123e-005 9.921846e-001 -8.276909e-002
93298140 9.987530e-001 -4.233178e-002 -7.085191e-005 -6.580514e-005 -1.181555e-005 -5.068689e-004 9.924752e-001 -8.568831e-002
94048125 9.991269e-001 -4.271790e-002 -5.763376e-005 2.605418e-005 3.454435e-004 -1.509144e-004 9.919250e-001 -8.480500e-002
94798110 9.990760e-001 -4.290543e-002 7.410556e-005 1.219020e-005 3.106268e-004 -2.387516e-004 9.913960e-001 -8.266032e-002
95548095 9.979797e-001 -4.276442e-002 7.047150e-005 -1.205168e-004 -1.352488e-004 -3.327268e-004 9.905515e-001 -8.373433e-002
96298080 9.988760e-001 -4.191978e-002 -4.850284e-005 4.355791e-006 6.921537e-005 1.903208e-004 9.913340e-001 -8.516792e-002
97048065 9.977998e-001 -4.413029e-002 1.142390e-004 -1.411967e-004 2.118870e-004 7.652809e-005 9.921229e-001 -8.553879e-002
97798050 9.978372e-001 -4.357829e-002 -2.491387e-005 -4.427453e-005 -4.468653e-005 -2.943832e-004 9.913557e-001 -8.729956e-002
98548035 9.963238e-001 -4.430100e-002 -3.352486e-005 9.173292e-005 -1.730043e-004 -1.969233e-004 9.925650e-001 -8.867072e-002
99298020 9.971688e-001 -4.404906e-002 1.407544e-004 -1.582713e-004 2.681698e-004 3.415336e-006 9.880703e-001 -8.757952e-002
100048005 9.975886e-001 -4.394102e-002 -1.038708e-004 -1.627651e-004 -3.633309e-005 2.707031e-004 9.910865e-001 -8.927973e-002
100797990 9.960315e-001 -4.504355e-002 -9.473592e-005 1.398994e-004 1.395521e-004 -5.292730e-004 9.921008e-001 -8.791827e-002
101547975 9.967285e-001 -4.444463e-002 8.952982e-005 3.748130e-005 4.144143e-004 -1.343750e-004 9.906987e-001 -8.579785e-002
102297960 9.956577e-001 -4.519216e-002 -6.632824e-005 -9.142355e-005 -4.392913e-005 1.528364e-005 9.933622e-001 -8.904287e-002
103047945 9.966399e-001 -4.649709e-002 1.202564e-004 -1.550433e-004 -1.691845e-005 -3.592584e-005 9.913715e-001 -9.241844e-002
103797930 9.973216e-001 -4.600012e-002 3.818121e-005 -1.506500e-004 2.693686e-005 1.241981e-004 9.880003e-001 -9.067671e-002
104547915 9.967180e-001 -4.670075e-002 5.024190e-005 -6.951912e-005 1.309568e-004 6.913504e-005 9.920198e-001 -9.243833e-002
105297900 9.964421e-001 -4.591826e-002 4.017384e-005 -9.230531e-005 2.672395e-005 -8.775971e-005 9.936950e-001 -9.401408e-002
106047885 9.983934e-001 -4.724536e-002 8.795218e-005 -1.199271e-004 -1.838359e-004 1.168986e-004 9.907776e-001 -9.357005e-002
106797870 9.988883e-001 -4.847676e-002 -6.470186e-005 2.975617e-005 2.315542e-004 -2.027502e-004 9.925210e-001 -9.341048e-002
107547855 9.970314e-001 -4.939753e-002 1.637142e-004 2.741747e-005 2.691245e-005 3.072249e-004 9.908529e-001 -9.210867e-002
108297840 9.948756e-001 -4.837265e-002 1.264670e-005 -4.054674e-005 -3.666604e-004 5.068836e-004 9.918947e-001 -9.374361e-002
109047825 9.961049e-001 -4.907445e-002 3.101620e-005 3.459277e-005 -8.364586e-005 8.127419e-005 9.881471e-001 -9.525387e-002
109797810 9.959243e-001 -4.876227e-002 1.627453e-005 -1.122513e-004 -3.308489e-004 -2.464063e-004 9.880056e-001 -9.841603e-002
110547795 9.964964e-001 -4.979177e-002 1.681641e-004 3.995648e-005 -4.642036e-005 -2.528956e-004 9.911227e-001 -9.714042e-002
111297780 9.975006e-001 -4.996486e-002 1.099003e-005 -4.650132e-005 3.609243e-004 1.064333e-004 9.871269e-001 -9.758911e-002
112047765 9.965411e-001 -5.099142e-002 -5.160569e-005 8.319033e-006 -5.713012e-005 -1.852306e-004 9.917180e-001 -9.756429e-002
112797750 9.961203e-001 -5.110227e-002 -1.365426e-004 -3.530675e-006 6.825096e-005 1.597284e-004 9.903715e-001 -1.006683e-001
113547735 9.973996e-001 -5.090476e-002 -1.361008e-005 -1.356814e-005 9.557592e-006 2.776251e-005 9.888980e-001 -9.931871e-002
114297720 9.967786e-001 -5.113938e-002 1.150951e-004 -1.117345e-004 1.887236e-004 -2.640217e-005 9.905517e-001 -9.997538e-002
115047705 9.963189e-001 -5.127002e-002 -1.386515e-004 8.698492e-005 -2.037772e-004 4.805344e-005 9.911339e-001 -1.031790e-001
115797690 9.957321e-001 -5.092775e-002 1.027199e-004 -1.222348e-005 -2.227913e-004 -6.230071e-005 9.887934e-001 -9.997169e-002
116547675 9.960709e-001 -5.174628e-002 -2.483923e-005 6.431954e-005 2.274827e-004 1.338853e-004 9.899253e-001 -1.036271e-001
